! TOUCHSTONE file generated by CST MICROWAVE STUDIO
! Date and time: Wed Oct  8 06:52:07 2025
! Project name: Teste_Macro_Metasurface_Nanopilar.cst
! Parameters = {H=600; L_x=80; L_y=150; Lambda=1064; Max_L=200; Min_L=70; PathPara=1; Phi=0; Step_L=10; Theta=0; p=520; phaseX=180; phaseY=0}
! Header version: 2018
! Port assignment regex: !\s*Touchstone port\s*([0-9]+)\s*=\s*(CST MWS port|CST DS port)\s*([0-9]+|Zmin|Zmax)\s*\(\"(.*)\"\)(\s*mode\s*([0-9]+))?.*
! Touchstone port assignment:
! Touchstone port 1 = CST MWS port Zmax ("") mode 1
! Touchstone port 2 = CST MWS port Zmax ("") mode 2
! Touchstone port 3 = CST MWS port Zmin ("") mode 1
! Touchstone port 4 = CST MWS port Zmin ("") mode 2
! S-Parameters are not renormalized. Each port impedance will be approximated by the real part at minimum frequency. The values are described via the [Reference] keyword.
! Default impedance is overridden by [Reference]
[Version] 2.0
# GHz S RI R 376.73
[Number of Ports] 4
[Reference]
376.73 376.73 376.73 376.73 
[Number of Frequencies] 1001
[Network Data]
281700                 0.0717781       -0.141753     -0.000131253    -0.000444513         0.726059       -0.654924      0.000374714    -0.000228063
                    -5.40716e-05    -0.000369136        0.0686248       -0.109945      0.000230884    -0.000109262        -0.807067        0.574997
                        0.725948       -0.655291     -3.52592e-05    -0.000209535        -0.152113       0.0598201      3.41271e-05     6.08295e-05
                     0.000329231     2.63091e-05        -0.807022        0.574927      0.000282673     0.000388633        -0.126597       0.0291877
281700.1               0.0717693       -0.141757     -0.000131256    -0.000444515         0.726037       -0.654949      0.000374697    -0.000228065
                    -5.40907e-05    -0.000369145         0.068619       -0.109948      0.000230877    -0.000109257        -0.807051        0.575019
                        0.725925       -0.655316     -3.52627e-05    -0.000209537        -0.152111       0.0598211      3.41614e-05       6.084e-05
                     0.000329239     2.62858e-05        -0.807006        0.574949      0.000282695     0.000388619        -0.126596       0.0291881
281700.2               0.0717605       -0.141761     -0.000131259    -0.000444516         0.726014       -0.654973      0.000374679    -0.000228068
                    -5.41097e-05    -0.000369154        0.0686133       -0.109951      0.000230869    -0.000109253        -0.807036        0.575041
                        0.725903       -0.655341     -3.52663e-05    -0.000209539         -0.15211       0.0598222      3.41957e-05     6.08504e-05
                     0.000329246     2.62625e-05        -0.806991        0.574971      0.000282717     0.000388605        -0.126595       0.0291886
281700.3               0.0717517       -0.141764     -0.000131262    -0.000444518         0.725992       -0.654998      0.000374662     -0.00022807
                    -5.41288e-05    -0.000369163        0.0686076       -0.109954      0.000230861    -0.000109248         -0.80702        0.575063
                        0.725881       -0.655365     -3.52698e-05     -0.00020954        -0.152109       0.0598232        3.423e-05     6.08608e-05
                     0.000329254     2.62393e-05        -0.806975        0.574993      0.000282739     0.000388591        -0.126594       0.0291891
281700.4               0.0717429       -0.141768     -0.000131266    -0.000444519          0.72597       -0.655023      0.000374644    -0.000228072
                    -5.41479e-05    -0.000369172        0.0686018       -0.109957      0.000230853    -0.000109244        -0.807005        0.575085
                        0.725859        -0.65539     -3.52734e-05    -0.000209542        -0.152108       0.0598242      3.42643e-05     6.08713e-05
                     0.000329262      2.6216e-05         -0.80696        0.575014      0.000282761     0.000388576        -0.126594       0.0291896
281700.5               0.0717341       -0.141772     -0.000131269    -0.000444521         0.725948       -0.655048      0.000374627    -0.000228074
                    -5.41669e-05    -0.000369181        0.0685961       -0.109959      0.000230845    -0.000109239        -0.806989        0.575106
                        0.725836       -0.655415     -3.52769e-05    -0.000209544        -0.152107       0.0598253      3.42986e-05     6.08817e-05
                     0.000329269     2.61927e-05        -0.806944        0.575036      0.000282783     0.000388562        -0.126593       0.0291901
281700.6               0.0717253       -0.141776     -0.000131272    -0.000444522         0.725925       -0.655073      0.000374609    -0.000228077
                     -5.4186e-05     -0.00036919        0.0685904       -0.109962      0.000230837    -0.000109234        -0.806974        0.575128
                        0.725814        -0.65544     -3.52804e-05    -0.000209545        -0.152106       0.0598263      3.43328e-05     6.08922e-05
                     0.000329277     2.61695e-05        -0.806929        0.575058      0.000282805     0.000388548        -0.126592       0.0291906
281700.7               0.0717165        -0.14178     -0.000131275    -0.000444524         0.725903       -0.655098      0.000374592    -0.000228079
                    -5.42051e-05    -0.000369199        0.0685846       -0.109965      0.000230829     -0.00010923        -0.806958         0.57515
                        0.725792       -0.655465      -3.5284e-05    -0.000209547        -0.152104       0.0598274      3.43671e-05     6.09026e-05
                     0.000329284     2.61462e-05        -0.806913         0.57508      0.000282827     0.000388534        -0.126591       0.0291911
281700.8               0.0717077       -0.141783     -0.000131279    -0.000444525         0.725881       -0.655122      0.000374574    -0.000228081
                    -5.42242e-05    -0.000369208        0.0685789       -0.109968      0.000230822    -0.000109225        -0.806943        0.575172
                        0.725769        -0.65549     -3.52875e-05    -0.000209549        -0.152103       0.0598284      3.44014e-05      6.0913e-05
                     0.000329292     2.61229e-05        -0.806898        0.575102      0.000282849      0.00038852        -0.126591       0.0291916
281700.9               0.0716989       -0.141787     -0.000131282    -0.000444527         0.725859       -0.655147      0.000374557    -0.000228084
                    -5.42432e-05    -0.000369217        0.0685731       -0.109971      0.000230814    -0.000109221        -0.806927        0.575194
                        0.725747       -0.655514      -3.5291e-05    -0.000209551        -0.152102       0.0598294      3.44356e-05     6.09235e-05
                       0.0003293     2.60996e-05        -0.806882        0.575124      0.000282871     0.000388506         -0.12659       0.0291921
281701                 0.0716901       -0.141791     -0.000131285    -0.000444529         0.725836       -0.655172      0.000374539    -0.000228086
                    -5.42623e-05    -0.000369226        0.0685674       -0.109974      0.000230806    -0.000109216        -0.806911        0.575216
                        0.725725       -0.655539     -3.52946e-05    -0.000209552        -0.152101       0.0598305      3.44699e-05     6.09339e-05
                     0.000329307     2.60763e-05        -0.806867        0.575146      0.000282893     0.000388491        -0.126589       0.0291925
281701.1               0.0716813       -0.141795     -0.000131288     -0.00044453         0.725814       -0.655197      0.000374522    -0.000228088
                    -5.42814e-05    -0.000369235        0.0685617       -0.109977      0.000230798    -0.000109212        -0.806896        0.575238
                        0.725703       -0.655564     -3.52981e-05    -0.000209554          -0.1521       0.0598315      3.45042e-05     6.09443e-05
                     0.000329315     2.60531e-05        -0.806851        0.575168      0.000282915     0.000388477        -0.126588        0.029193
281701.2               0.0716725       -0.141799     -0.000131292    -0.000444532         0.725792       -0.655222      0.000374504    -0.000228091
                    -5.43004e-05    -0.000369244        0.0685559       -0.109979       0.00023079    -0.000109207         -0.80688         0.57526
                         0.72568       -0.655589     -3.53016e-05    -0.000209556        -0.152099       0.0598326      3.45384e-05     6.09548e-05
                     0.000329322     2.60298e-05        -0.806836         0.57519      0.000282937     0.000388463        -0.126588       0.0291935
281701.3               0.0716637       -0.141802     -0.000131295    -0.000444533          0.72577       -0.655246      0.000374487    -0.000228093
                    -5.43195e-05    -0.000369253        0.0685502       -0.109982      0.000230782    -0.000109202        -0.806865        0.575281
                        0.725658       -0.655614     -3.53051e-05    -0.000209557        -0.152097       0.0598336      3.45727e-05     6.09652e-05
                      0.00032933     2.60065e-05         -0.80682        0.575211      0.000282959     0.000388449        -0.126587        0.029194
281701.4               0.0716549       -0.141806     -0.000131298    -0.000444535         0.725747       -0.655271      0.000374469    -0.000228095
                    -5.43386e-05    -0.000369262        0.0685445       -0.109985      0.000230774    -0.000109198        -0.806849        0.575303
                        0.725636       -0.655639     -3.53087e-05    -0.000209559        -0.152096       0.0598346      3.46069e-05     6.09756e-05
                     0.000329337     2.59832e-05        -0.806805        0.575233      0.000282981     0.000388435        -0.126586       0.0291945
281701.5               0.0716461        -0.14181     -0.000131301    -0.000444536         0.725725       -0.655296      0.000374452    -0.000228098
                    -5.43577e-05    -0.000369271        0.0685387       -0.109988      0.000230766    -0.000109193        -0.806834        0.575325
                        0.725614       -0.655663     -3.53122e-05    -0.000209561        -0.152095       0.0598357      3.46412e-05      6.0986e-05
                     0.000329345     2.59599e-05        -0.806789        0.575255      0.000283003      0.00038842        -0.126585        0.029195
281701.6               0.0716373       -0.141814     -0.000131304    -0.000444538         0.725703       -0.655321      0.000374434      -0.0002281
                    -5.43768e-05     -0.00036928         0.068533       -0.109991      0.000230758    -0.000109189        -0.806818        0.575347
                        0.725591       -0.655688     -3.53157e-05    -0.000209563        -0.152094       0.0598367      3.46754e-05     6.09965e-05
                     0.000329353     2.59366e-05        -0.806774        0.575277      0.000283025     0.000388406        -0.126585       0.0291955
281701.7               0.0716285       -0.141817     -0.000131308    -0.000444539         0.725681       -0.655346      0.000374417    -0.000228102
                    -5.43958e-05    -0.000369289        0.0685272       -0.109994      0.000230751    -0.000109184        -0.806803        0.575369
                        0.725569       -0.655713     -3.53192e-05    -0.000209564        -0.152093       0.0598378      3.47097e-05     6.10069e-05
                      0.00032936     2.59133e-05        -0.806758        0.575299      0.000283047     0.000388392        -0.126584        0.029196
281701.8               0.0716196       -0.141821     -0.000131311    -0.000444541         0.725658       -0.655371      0.000374399    -0.000228104
                    -5.44149e-05    -0.000369298        0.0685215       -0.109997      0.000230743     -0.00010918        -0.806787        0.575391
                        0.725547       -0.655738     -3.53227e-05    -0.000209566        -0.152092       0.0598388      3.47439e-05     6.10173e-05
                     0.000329368     2.58901e-05        -0.806743        0.575321      0.000283069     0.000388378        -0.126583       0.0291965
281701.9               0.0716108       -0.141825     -0.000131314    -0.000444542         0.725636       -0.655395      0.000374382    -0.000228107
                     -5.4434e-05    -0.000369307        0.0685158       -0.109999      0.000230735    -0.000109175        -0.806772        0.575413
                        0.725525       -0.655763     -3.53262e-05    -0.000209568         -0.15209       0.0598398      3.47781e-05     6.10277e-05
                     0.000329375     2.58668e-05        -0.806727        0.575343      0.000283091     0.000388364        -0.126582        0.029197
281702                  0.071602       -0.141829     -0.000131317    -0.000444544         0.725614        -0.65542      0.000374364    -0.000228109
                    -5.44531e-05    -0.000369316          0.06851       -0.110002      0.000230727     -0.00010917        -0.806756        0.575435
                        0.725502       -0.655787     -3.53297e-05    -0.000209569        -0.152089       0.0598409      3.48124e-05     6.10382e-05
                     0.000329383     2.58435e-05        -0.806712        0.575365      0.000283113      0.00038835        -0.126581       0.0291974
281702.1               0.0715932       -0.141833     -0.000131321    -0.000444545         0.725592       -0.655445      0.000374347    -0.000228111
                    -5.44722e-05    -0.000369325        0.0685043       -0.110005      0.000230719    -0.000109166        -0.806741        0.575456
                         0.72548       -0.655812     -3.53332e-05    -0.000209571        -0.152088       0.0598419      3.48466e-05     6.10486e-05
                      0.00032939     2.58202e-05        -0.806696        0.575387      0.000283135     0.000388335        -0.126581       0.0291979
281702.2               0.0715844       -0.141836     -0.000131324    -0.000444547         0.725569        -0.65547      0.000374329    -0.000228114
                    -5.44913e-05    -0.000369334        0.0684985       -0.110008      0.000230711    -0.000109161        -0.806725        0.575478
                        0.725458       -0.655837     -3.53367e-05    -0.000209573        -0.152087        0.059843      3.48808e-05      6.1059e-05
                     0.000329398     2.57969e-05        -0.806681        0.575408      0.000283157     0.000388321         -0.12658       0.0291984
281702.3               0.0715756        -0.14184     -0.000131327    -0.000444548         0.725547       -0.655495      0.000374312    -0.000228116
                    -5.45103e-05    -0.000369343        0.0684928       -0.110011      0.000230703    -0.000109157         -0.80671          0.5755
                        0.725435       -0.655862     -3.53402e-05    -0.000209575        -0.152086        0.059844       3.4915e-05     6.10694e-05
                     0.000329405     2.57736e-05        -0.806665         0.57543      0.000283179     0.000388307        -0.126579       0.0291989
281702.4               0.0715668       -0.141844      -0.00013133     -0.00044455         0.725525       -0.655519      0.000374294    -0.000228118
                    -5.45294e-05    -0.000369351        0.0684871       -0.110014      0.000230695    -0.000109152        -0.806694        0.575522
                        0.725413       -0.655887     -3.53437e-05    -0.000209576        -0.152085        0.059845      3.49492e-05     6.10798e-05
                     0.000329413     2.57503e-05         -0.80665        0.575452      0.000283201     0.000388293        -0.126578       0.0291994
281702.5                0.071558       -0.141848     -0.000131334    -0.000444551         0.725503       -0.655544      0.000374277    -0.000228121
                    -5.45485e-05     -0.00036936        0.0684813       -0.110016      0.000230687    -0.000109148        -0.806679        0.575544
                        0.725391       -0.655912     -3.53472e-05    -0.000209578        -0.152083       0.0598461      3.49834e-05     6.10902e-05
                      0.00032942      2.5727e-05        -0.806634        0.575474      0.000283223     0.000388279        -0.126578       0.0291999
281702.6               0.0715492       -0.141851     -0.000131337    -0.000444552          0.72548       -0.655569      0.000374259    -0.000228123
                    -5.45676e-05    -0.000369369        0.0684756       -0.110019       0.00023068    -0.000109143        -0.806663        0.575566
                        0.725369       -0.655936     -3.53506e-05     -0.00020958        -0.152082       0.0598471      3.50176e-05     6.11007e-05
                     0.000329428     2.57037e-05        -0.806619        0.575496      0.000283245     0.000388264        -0.126577       0.0292004
281702.7               0.0715404       -0.141855      -0.00013134    -0.000444554         0.725458       -0.655594      0.000374242    -0.000228125
                    -5.45867e-05    -0.000369378        0.0684698       -0.110022      0.000230672    -0.000109139        -0.806648        0.575588
                        0.725346       -0.655961     -3.53541e-05    -0.000209581        -0.152081       0.0598482      3.50518e-05     6.11111e-05
                     0.000329436     2.56804e-05        -0.806603        0.575518      0.000283267      0.00038825        -0.126576       0.0292009
281702.8               0.0715316       -0.141859     -0.000131343    -0.000444555         0.725436       -0.655619      0.000374225    -0.000228128
                    -5.46058e-05    -0.000369387        0.0684641       -0.110025      0.000230664    -0.000109134        -0.806632         0.57561
                        0.725324       -0.655986     -3.53576e-05    -0.000209583         -0.15208       0.0598492       3.5086e-05     6.11215e-05
                     0.000329443     2.56571e-05        -0.806588         0.57554      0.000283289     0.000388236        -0.126575       0.0292014
281702.9               0.0715228       -0.141863     -0.000131347    -0.000444557         0.725414       -0.655644      0.000374207     -0.00022813
                    -5.46249e-05    -0.000369396        0.0684584       -0.110028      0.000230656     -0.00010913        -0.806617        0.575631
                        0.725302       -0.656011     -3.53611e-05    -0.000209585        -0.152079       0.0598502      3.51202e-05     6.11319e-05
                     0.000329451     2.56338e-05        -0.806572        0.575562      0.000283311     0.000388222        -0.126575       0.0292019
281703                  0.071514       -0.141867      -0.00013135    -0.000444558         0.725391       -0.655668       0.00037419    -0.000228133
                     -5.4644e-05    -0.000369405        0.0684526       -0.110031      0.000230648    -0.000109125        -0.806601        0.575653
                        0.725279       -0.656036     -3.53645e-05    -0.000209587        -0.152078       0.0598513      3.51544e-05     6.11423e-05
                     0.000329458     2.56105e-05        -0.806557        0.575583      0.000283333     0.000388208        -0.126574       0.0292023
281703.1               0.0715052        -0.14187     -0.000131353     -0.00044456         0.725369       -0.655693      0.000374172    -0.000228135
                    -5.46631e-05    -0.000369414        0.0684469       -0.110034       0.00023064    -0.000109121        -0.806585        0.575675
                        0.725257        -0.65606      -3.5368e-05    -0.000209588        -0.152076       0.0598523      3.51886e-05     6.11527e-05
