! TOUCHSTONE file generated by CST MICROWAVE STUDIO
! Date and time: Wed Oct  8 07:04:07 2025
! Project name: Teste_Macro_Metasurface_Nanopilar.cst
! Parameters = {H=600; L_x=180; L_y=170; Lambda=1064; Max_L=200; Min_L=70; PathPara=1; Phi=0; Step_L=10; Theta=0; p=520; phaseX=180; phaseY=0}
! Header version: 2018
! Port assignment regex: !\s*Touchstone port\s*([0-9]+)\s*=\s*(CST MWS port|CST DS port)\s*([0-9]+|Zmin|Zmax)\s*\(\"(.*)\"\)(\s*mode\s*([0-9]+))?.*
! Touchstone port assignment:
! Touchstone port 1 = CST MWS port Zmax ("") mode 1
! Touchstone port 2 = CST MWS port Zmax ("") mode 2
! Touchstone port 3 = CST MWS port Zmin ("") mode 1
! Touchstone port 4 = CST MWS port Zmin ("") mode 2
! S-Parameters are not renormalized. Each port impedance will be approximated by the real part at minimum frequency. The values are described via the [Reference] keyword.
! Default impedance is overridden by [Reference]
[Version] 2.0
# GHz S RI R 376.73
[Number of Ports] 4
[Reference]
376.73 376.73 376.73 376.73 
[Number of Frequencies] 1001
[Network Data]
281700                0.00552936      -0.0418961      0.000284919    -8.07319e-05         -0.99357       -0.043556      3.23717e-05     0.000276077
                     0.000300262    -8.67183e-05       -0.0267056      -0.0997981     -6.57182e-05     0.000199343        -0.989345       0.0520986
                       -0.993562      -0.0435421     -5.93386e-05     0.000232159      -0.00495932      -0.0413736     -0.000359508    -0.000173901
                     5.02486e-05     0.000234646        -0.989169       0.0521108     -0.000339531     -0.00015927        0.0124535       -0.101956
281700.1              0.00552956      -0.0419022       0.00028491    -8.07565e-05        -0.993571      -0.0435259      3.23806e-05     0.000276092
                     0.000300255     -8.6738e-05        -0.026708      -0.0998039     -6.57039e-05      0.00019936        -0.989342        0.052128
                       -0.993563       -0.043512     -5.93324e-05     0.000232171      -0.00496147      -0.0413795     -0.000359509    -0.000173908
                     5.02548e-05     0.000234655        -0.989167       0.0521403     -0.000339536    -0.000159274        0.0124492       -0.101963
281700.2              0.00552975      -0.0419084      0.000284902    -8.07811e-05        -0.993572      -0.0434959      3.23894e-05     0.000276107
                     0.000300249    -8.67578e-05       -0.0267104      -0.0998096     -6.56896e-05     0.000199377         -0.98934       0.0521575
                       -0.993564       -0.043482     -5.93262e-05     0.000232184      -0.00496361      -0.0413854      -0.00035951    -0.000173915
                      5.0261e-05     0.000234663        -0.989165       0.0521698      -0.00033954    -0.000159279         0.012445        -0.10197
281700.3              0.00552994      -0.0419146      0.000284893    -8.08056e-05        -0.993573      -0.0434658      3.23982e-05     0.000276121
                     0.000300242    -8.67775e-05       -0.0267128      -0.0998154     -6.56753e-05     0.000199394        -0.989338        0.052187
                       -0.993565       -0.043452     -5.93199e-05     0.000232196      -0.00496576      -0.0413913     -0.000359511    -0.000173922
                     5.02672e-05     0.000234672        -0.989163       0.0521993     -0.000339545    -0.000159284        0.0124407       -0.101977
281700.4              0.00553013      -0.0419207      0.000284885    -8.08302e-05        -0.993574      -0.0434358       3.2407e-05     0.000276136
                     0.000300236    -8.67972e-05       -0.0267152      -0.0998212      -6.5661e-05     0.000199411        -0.989336       0.0522165
                       -0.993566      -0.0434219     -5.93137e-05     0.000232209      -0.00496791      -0.0413972     -0.000359513    -0.000173929
                     5.02734e-05      0.00023468         -0.98916       0.0522288     -0.000339549    -0.000159289        0.0124364       -0.101984
281700.5              0.00553032      -0.0419269      0.000284877    -8.08547e-05        -0.993575      -0.0434058      3.24159e-05     0.000276151
                      0.00030023    -8.68169e-05       -0.0267176       -0.099827     -6.56467e-05     0.000199428        -0.989334        0.052246
                       -0.993567      -0.0433919     -5.93075e-05     0.000232221      -0.00497006      -0.0414031     -0.000359514    -0.000173936
                     5.02796e-05     0.000234689        -0.989158       0.0522583     -0.000339554    -0.000159293        0.0124321       -0.101991
281700.6               0.0055305      -0.0419331      0.000284868    -8.08793e-05        -0.993577      -0.0433757      3.24247e-05     0.000276165
                     0.000300223    -8.68366e-05         -0.02672      -0.0998327     -6.56323e-05     0.000199445        -0.989331       0.0522755
                       -0.993568      -0.0433619     -5.93013e-05     0.000232234       -0.0049722       -0.041409     -0.000359515    -0.000173943
                     5.02857e-05     0.000234698        -0.989156       0.0522878     -0.000339558    -0.000159298        0.0124278       -0.101997
281700.7              0.00553069      -0.0419392       0.00028486    -8.09038e-05        -0.993578      -0.0433457      3.24335e-05      0.00027618
                     0.000300217    -8.68563e-05       -0.0267224      -0.0998385      -6.5618e-05     0.000199462        -0.989329        0.052305
                       -0.993569      -0.0433318     -5.92951e-05     0.000232247      -0.00497435      -0.0414149     -0.000359516     -0.00017395
                     5.02919e-05     0.000234706        -0.989154       0.0523173     -0.000339562    -0.000159303        0.0124235       -0.102004
281700.8              0.00553088      -0.0419454      0.000284851    -8.09284e-05        -0.993579      -0.0433157      3.24424e-05     0.000276195
                      0.00030021     -8.6876e-05       -0.0267248      -0.0998443     -6.56037e-05     0.000199479        -0.989327       0.0523345
                        -0.99357      -0.0433018     -5.92889e-05     0.000232259       -0.0049765      -0.0414208     -0.000359518    -0.000173957
                     5.02981e-05     0.000234715        -0.989152       0.0523468     -0.000339567    -0.000159308        0.0124192       -0.102011
281700.9              0.00553107      -0.0419516      0.000284843     -8.0953e-05         -0.99358      -0.0432856      3.24512e-05     0.000276209
                     0.000300204    -8.68957e-05       -0.0267272      -0.0998501     -6.55894e-05     0.000199496        -0.989325        0.052364
                       -0.993571      -0.0432718     -5.92826e-05     0.000232272      -0.00497865      -0.0414267     -0.000359519    -0.000173964
                     5.03043e-05     0.000234724        -0.989149       0.0523763     -0.000339571    -0.000159312        0.0124149       -0.102018
281701                0.00553126      -0.0419577      0.000284835    -8.09775e-05        -0.993581      -0.0432556      3.24601e-05     0.000276224
                     0.000300197    -8.69154e-05       -0.0267296      -0.0998559      -6.5575e-05     0.000199513        -0.989323       0.0523935
                       -0.993572      -0.0432417     -5.92764e-05     0.000232284       -0.0049808      -0.0414326      -0.00035952     -0.00017397
                     5.03105e-05     0.000234732        -0.989147       0.0524058     -0.000339576    -0.000159317        0.0124106       -0.102025
281701.1              0.00553145      -0.0419639      0.000284826    -8.10021e-05        -0.993582      -0.0432256      3.24689e-05     0.000276239
                     0.000300191    -8.69351e-05        -0.026732      -0.0998616     -6.55607e-05      0.00019953         -0.98932        0.052423
                       -0.993573      -0.0432117     -5.92702e-05     0.000232297      -0.00498295      -0.0414385     -0.000359521    -0.000173977
                     5.03167e-05     0.000234741        -0.989145       0.0524353      -0.00033958    -0.000159322        0.0124063       -0.102031
281701.2              0.00553163      -0.0419701      0.000284818    -8.10266e-05        -0.993583      -0.0431955      3.24777e-05     0.000276253
                     0.000300184    -8.69548e-05       -0.0267344      -0.0998674     -6.55464e-05     0.000199547        -0.989318       0.0524525
                       -0.993574      -0.0431816      -5.9264e-05      0.00023231       -0.0049851      -0.0414444     -0.000359523    -0.000173984
                     5.03229e-05      0.00023475        -0.989143       0.0524648     -0.000339584    -0.000159327         0.012402       -0.102038
281701.3              0.00553182      -0.0419762      0.000284809    -8.10512e-05        -0.993584      -0.0431655      3.24866e-05     0.000276268
                     0.000300178    -8.69745e-05       -0.0267368      -0.0998732     -6.55321e-05     0.000199564        -0.989316        0.052482
                       -0.993576      -0.0431516     -5.92577e-05     0.000232322      -0.00498725      -0.0414503     -0.000359524    -0.000173991
                     5.03291e-05     0.000234758        -0.989141       0.0524943     -0.000339589    -0.000159331        0.0123977       -0.102045
281701.4              0.00553201      -0.0419824      0.000284801    -8.10757e-05        -0.993585      -0.0431355      3.24954e-05     0.000276283
                     0.000300172    -8.69942e-05       -0.0267392       -0.099879     -6.55177e-05      0.00019958        -0.989314       0.0525114
                       -0.993577      -0.0431216     -5.92515e-05     0.000232335       -0.0049894      -0.0414562     -0.000359525    -0.000173998
                     5.03353e-05     0.000234767        -0.989139       0.0525238     -0.000339593    -0.000159336        0.0123934       -0.102052
281701.5              0.00553219      -0.0419886      0.000284792    -8.11003e-05        -0.993586      -0.0431054      3.25043e-05     0.000276298
                     0.000300165    -8.70139e-05       -0.0267416      -0.0998847     -6.55034e-05     0.000199597        -0.989312       0.0525409
                       -0.993578      -0.0430915     -5.92453e-05     0.000232348      -0.00499155      -0.0414621     -0.000359526    -0.000174005
                     5.03415e-05     0.000234776        -0.989136       0.0525533     -0.000339598    -0.000159341        0.0123891       -0.102059
281701.6              0.00553238      -0.0419947      0.000284784    -8.11249e-05        -0.993587      -0.0430754      3.25131e-05     0.000276312
                     0.000300159    -8.70335e-05        -0.026744      -0.0998905      -6.5489e-05     0.000199614        -0.989309       0.0525704
                       -0.993579      -0.0430615      -5.9239e-05      0.00023236       -0.0049937       -0.041468     -0.000359528    -0.000174012
                     5.03477e-05     0.000234784        -0.989134       0.0525828     -0.000339602    -0.000159346        0.0123848       -0.102066
281701.7              0.00553256      -0.0420009      0.000284776    -8.11494e-05        -0.993588      -0.0430454       3.2522e-05     0.000276327
                     0.000300152    -8.70532e-05       -0.0267465      -0.0998963     -6.54747e-05     0.000199631        -0.989307       0.0525999
                        -0.99358      -0.0430315     -5.92328e-05     0.000232373      -0.00499585      -0.0414739     -0.000359529    -0.000174019
                     5.03539e-05     0.000234793        -0.989132       0.0526123     -0.000339607     -0.00015935        0.0123805       -0.102072
281701.8              0.00553275      -0.0420071      0.000284767     -8.1174e-05        -0.993589      -0.0430153      3.25308e-05     0.000276342
                     0.000300146    -8.70729e-05       -0.0267489      -0.0999021     -6.54604e-05     0.000199648        -0.989305       0.0526294
                       -0.993581      -0.0430014     -5.92266e-05     0.000232385      -0.00499801      -0.0414798      -0.00035953    -0.000174026
                     5.03601e-05     0.000234801         -0.98913       0.0526418     -0.000339611    -0.000159355        0.0123762       -0.102079
281701.9              0.00553293      -0.0420132      0.000284759    -8.11985e-05         -0.99359      -0.0429853      3.25397e-05     0.000276356
                     0.000300139    -8.70926e-05       -0.0267513      -0.0999078      -6.5446e-05     0.000199665        -0.989303       0.0526589
                       -0.993582      -0.0429714     -5.92203e-05     0.000232398      -0.00500016      -0.0414857     -0.000359532    -0.000174033
                     5.03663e-05      0.00023481        -0.989128       0.0526713     -0.000339615     -0.00015936        0.0123719       -0.102086
281702                0.00553312      -0.0420194       0.00028475    -8.12231e-05        -0.993591      -0.0429552      3.25485e-05     0.000276371
                     0.000300133    -8.71123e-05       -0.0267537      -0.0999136     -6.54317e-05     0.000199682        -0.989301       0.0526884
                       -0.993583      -0.0429413     -5.92141e-05     0.000232411      -0.00500231      -0.0414916     -0.000359533     -0.00017404
                     5.03725e-05     0.000234819        -0.989125       0.0527007      -0.00033962    -0.000159365        0.0123676       -0.102093
281702.1               0.0055333      -0.0420256      0.000284742    -8.12476e-05        -0.993592      -0.0429252      3.25574e-05     0.000276386
                     0.000300126    -8.71319e-05       -0.0267561      -0.0999194     -6.54173e-05     0.000199699        -0.989298       0.0527179
                       -0.993584      -0.0429113     -5.92078e-05     0.000232423      -0.00500447      -0.0414975     -0.000359534    -0.000174047
                     5.03787e-05     0.000234827        -0.989123       0.0527302     -0.000339624    -0.000159369        0.0123633         -0.1021
281702.2              0.00553348      -0.0420317      0.000284733    -8.12722e-05        -0.993593      -0.0428952      3.25663e-05       0.0002764
                      0.00030012    -8.71516e-05       -0.0267585      -0.0999252      -6.5403e-05     0.000199716        -0.989296       0.0527474
                       -0.993585      -0.0428813     -5.92016e-05     0.000232436      -0.00500662      -0.0415034     -0.000359535    -0.000174054
                     5.03849e-05     0.000234836        -0.989121       0.0527597     -0.000339629    -0.000159374         0.012359       -0.102107
281702.3              0.00553367      -0.0420379      0.000284725    -8.12967e-05        -0.993594      -0.0428651      3.25751e-05     0.000276415
                     0.000300114    -8.71713e-05       -0.0267609      -0.0999309     -6.53886e-05     0.000199733        -0.989294       0.0527769
                       -0.993586      -0.0428512     -5.91953e-05     0.000232449      -0.00500877      -0.0415093     -0.000359537    -0.000174061
                     5.03911e-05     0.000234845        -0.989119       0.0527892     -0.000339633    -0.000159379        0.0123546       -0.102113
281702.4              0.00553385      -0.0420441      0.000284717    -8.13213e-05        -0.993595      -0.0428351       3.2584e-05      0.00027643
                     0.000300107     -8.7191e-05       -0.0267633      -0.0999367     -6.53743e-05      0.00019975        -0.989292       0.0528064
                       -0.993587      -0.0428212     -5.91891e-05     0.000232461      -0.00501093      -0.0415152     -0.000359538    -0.000174067
                     5.03973e-05     0.000234853        -0.989117       0.0528187     -0.000339638    -0.000159383        0.0123503        -0.10212
281702.5              0.00553403      -0.0420502      0.000284708    -8.13458e-05        -0.993596      -0.0428051      3.25929e-05     0.000276444
                     0.000300101    -8.72106e-05       -0.0267657      -0.0999425     -6.53599e-05     0.000199767         -0.98929       0.0528359
                       -0.993588      -0.0427912     -5.91828e-05     0.000232474      -0.00501308       -0.041521     -0.000359539    -0.000174074
                     5.04035e-05     0.000234862        -0.989114       0.0528482     -0.000339642    -0.000159388         0.012346       -0.102127
281702.6              0.00553422      -0.0420564        0.0002847    -8.13704e-05        -0.993597       -0.042775      3.26017e-05     0.000276459
                     0.000300094    -8.72303e-05       -0.0267681      -0.0999483     -6.53456e-05     0.000199784        -0.989287       0.0528653
                       -0.993589      -0.0427611     -5.91766e-05     0.000232487      -0.00501524      -0.0415269      -0.00035954    -0.000174081
                     5.04097e-05      0.00023487        -0.989112       0.0528777     -0.000339646    -0.000159393        0.0123417       -0.102134
281702.7               0.0055344      -0.0420626      0.000284691    -8.13949e-05        -0.993598       -0.042745      3.26106e-05     0.000276474
                     0.000300088      -8.725e-05       -0.0267706       -0.099954     -6.53312e-05     0.000199801        -0.989285       0.0528948
                        -0.99359      -0.0427311     -5.91703e-05     0.000232499      -0.00501739      -0.0415328     -0.000359542    -0.000174088
                     5.04159e-05     0.000234879         -0.98911       0.0529072     -0.000339651    -0.000159398        0.0123374       -0.102141
281702.8              0.00553458      -0.0420687      0.000284683    -8.14195e-05        -0.993599       -0.042715      3.26195e-05     0.000276489
                     0.000300081    -8.72696e-05        -0.026773      -0.0999598     -6.53169e-05     0.000199818        -0.989283       0.0529243
                       -0.993591       -0.042701     -5.91641e-05     0.000232512      -0.00501955      -0.0415387     -0.000359543    -0.000174095
                     5.04221e-05     0.000234888        -0.989108       0.0529367     -0.000339655    -0.000159402        0.0123331       -0.102147
281702.9              0.00553476      -0.0420749      0.000284674     -8.1444e-05          -0.9936      -0.0426849      3.26283e-05     0.000276503
                     0.000300075    -8.72893e-05       -0.0267754      -0.0999656     -6.53025e-05     0.000199835        -0.989281       0.0529538
                       -0.993592       -0.042671     -5.91578e-05     0.000232525      -0.00502171      -0.0415446     -0.000359544    -0.000174102
                     5.04283e-05     0.000234896        -0.989105       0.0529662      -0.00033966    -0.000159407        0.0123288       -0.102154
281703                0.00553494      -0.0420811      0.000284666    -8.14686e-05        -0.993601      -0.0426549      3.26372e-05     0.000276518
                     0.000300068    -8.73089e-05       -0.0267778      -0.0999714     -6.52881e-05     0.000199852        -0.989279       0.0529833
                       -0.993593       -0.042641     -5.91516e-05     0.000232537      -0.00502386      -0.0415505     -0.000359545    -0.000174109
                     5.04345e-05     0.000234905        -0.989103       0.0529957     -0.000339664    -0.000159412        0.0123245       -0.102161
281703.1              0.00553512      -0.0420872      0.000284657    -8.14931e-05        -0.993602      -0.0426249      3.26461e-05     0.000276533
                     0.000300062    -8.73286e-05       -0.0267802      -0.0999771     -6.52738e-05     0.000199869        -0.989276       0.0530128
                       -0.993594      -0.0426109     -5.91453e-05      0.00023255      -0.00502602      -0.0415564     -0.000359547    -0.000174116
