! TOUCHSTONE file generated by CST MICROWAVE STUDIO
! Date and time: Wed Oct  8 06:51:52 2025
! Project name: Teste_Macro_Metasurface_Nanopilar.cst
! Parameters = {H=600; L_x=80; L_y=95; Lambda=1064; Max_L=200; Min_L=70; PathPara=1; Phi=0; Step_L=10; Theta=0; p=520; phaseX=180; phaseY=0}
! Header version: 2018
! Port assignment regex: !\s*Touchstone port\s*([0-9]+)\s*=\s*(CST MWS port|CST DS port)\s*([0-9]+|Zmin|Zmax)\s*\(\"(.*)\"\)(\s*mode\s*([0-9]+))?.*
! Touchstone port assignment:
! Touchstone port 1 = CST MWS port Zmax ("") mode 1
! Touchstone port 2 = CST MWS port Zmax ("") mode 2
! Touchstone port 3 = CST MWS port Zmin ("") mode 1
! Touchstone port 4 = CST MWS port Zmin ("") mode 2
! S-Parameters are not renormalized. Each port impedance will be approximated by the real part at minimum frequency. The values are described via the [Reference] keyword.
! Default impedance is overridden by [Reference]
[Version] 2.0
# GHz S RI R 376.73
[Number of Ports] 4
[Reference]
376.73 376.73 376.73 376.73 
[Number of Frequencies] 1001
[Network Data]
281700                 0.0893595      -0.0720744      8.17917e-05    -0.000378214         -0.87869        0.461395     -5.01525e-05     0.000288333
                    -0.000237723    -0.000404715         0.117453      0.00737107      0.000128202     0.000152602        -0.950958        0.284321
                       -0.878813        0.461766      2.49165e-05      0.00017215        -0.110402       0.0329405     -0.000208938    -0.000423353
                     7.40657e-05     0.000193665        -0.951235        0.284324     -0.000176298    -0.000272583       -0.0943094       0.0707489
281700.1               0.0893548      -0.0720786      8.17802e-05    -0.000378228        -0.878678        0.461418     -5.01407e-05     0.000288329
                    -0.000237728    -0.000404708         0.117451      0.00736544      0.000128211     0.000152585         -0.95095        0.284346
                       -0.878801         0.46179      2.49259e-05     0.000172154        -0.110401       0.0329403     -0.000208959     -0.00042335
                      7.4069e-05     0.000193664        -0.951227        0.284349      -0.00017631    -0.000272572        -0.094307       0.0707481
281700.2               0.0893502      -0.0720828      8.17686e-05    -0.000378242        -0.878665        0.461442      -5.0129e-05     0.000288325
                    -0.000237734      -0.0004047         0.117449      0.00735981      0.000128221     0.000152567        -0.950943        0.284372
                       -0.878789        0.461813      2.49353e-05     0.000172159          -0.1104         0.03294     -0.000208981    -0.000423348
                     7.40722e-05     0.000193664         -0.95122        0.284375     -0.000176323    -0.000272562       -0.0943046       0.0707472
281700.3               0.0893456       -0.072087       8.1757e-05    -0.000378256        -0.878653        0.461466     -5.01173e-05     0.000288321
                     -0.00023774    -0.000404693         0.117447      0.00735418      0.000128231      0.00015255        -0.950936        0.284397
                       -0.878776        0.461837      2.49447e-05     0.000172163        -0.110399       0.0329398     -0.000209002    -0.000423345
                     7.40755e-05     0.000193664        -0.951213          0.2844     -0.000176335    -0.000272552       -0.0943022       0.0707464
281700.4                0.089341      -0.0720912      8.17454e-05    -0.000378271        -0.878641        0.461489     -5.01056e-05     0.000288317
                    -0.000237746    -0.000404686         0.117445      0.00734855       0.00012824     0.000152532        -0.950929        0.284422
                       -0.878764        0.461861      2.49541e-05     0.000172167        -0.110399       0.0329395     -0.000209023    -0.000423343
                     7.40787e-05     0.000193663        -0.951205        0.284425     -0.000176347    -0.000272542       -0.0942997       0.0707455
281700.5               0.0893364      -0.0720954      8.17339e-05    -0.000378285        -0.878628        0.461513     -5.00938e-05     0.000288314
                    -0.000237752    -0.000404678         0.117442      0.00734291       0.00012825     0.000152515        -0.950921        0.284448
                       -0.878752        0.461884      2.49635e-05     0.000172172        -0.110398       0.0329393     -0.000209044    -0.000423341
                      7.4082e-05     0.000193663        -0.951198        0.284451      -0.00017636    -0.000272532       -0.0942973       0.0707446
281700.6               0.0893318      -0.0720996      8.17223e-05    -0.000378299        -0.878616        0.461537     -5.00821e-05      0.00028831
                    -0.000237758    -0.000404671          0.11744      0.00733728      0.000128259     0.000152497        -0.950914        0.284473
                       -0.878739        0.461908      2.49729e-05     0.000172176        -0.110397        0.032939     -0.000209066    -0.000423338
                     7.40852e-05     0.000193662        -0.951191        0.284476     -0.000176372    -0.000272522       -0.0942949       0.0707438
281700.7               0.0893271      -0.0721038      8.17107e-05    -0.000378313        -0.878604        0.461561     -5.00704e-05     0.000288306
                    -0.000237764    -0.000404664         0.117438      0.00733165      0.000128269      0.00015248        -0.950907        0.284499
                       -0.878727        0.461932      2.49823e-05     0.000172181        -0.110396       0.0329387     -0.000209087    -0.000423336
                     7.40885e-05     0.000193662        -0.951184        0.284502     -0.000176385    -0.000272512       -0.0942925       0.0707429
281700.8               0.0893225       -0.072108      8.16991e-05    -0.000378328        -0.878591        0.461584     -5.00586e-05     0.000288302
                    -0.000237769    -0.000404656         0.117436      0.00732602      0.000128279     0.000152462        -0.950899        0.284524
                       -0.878715        0.461956      2.49918e-05     0.000172185        -0.110395       0.0329385     -0.000209108    -0.000423333
                     7.40918e-05     0.000193661        -0.951176        0.284527     -0.000176397    -0.000272502         -0.09429       0.0707421
281700.9               0.0893179      -0.0721123      8.16876e-05    -0.000378342        -0.878579        0.461608     -5.00469e-05     0.000288298
                    -0.000237775    -0.000404649         0.117434      0.00732039      0.000128288     0.000152445        -0.950892        0.284549
                       -0.878702        0.461979      2.50012e-05     0.000172189        -0.110394       0.0329382     -0.000209129    -0.000423331
                      7.4095e-05     0.000193661        -0.951169        0.284552      -0.00017641    -0.000272492       -0.0942876       0.0707412
281701                 0.0893133      -0.0721165       8.1676e-05    -0.000378356        -0.878566        0.461632     -5.00352e-05     0.000288294
                    -0.000237781    -0.000404642         0.117432      0.00731476      0.000128298     0.000152427        -0.950885        0.284575
                        -0.87869        0.462003      2.50106e-05     0.000172194        -0.110393        0.032938     -0.000209151    -0.000423328
                     7.40983e-05     0.000193661        -0.951162        0.284578     -0.000176422    -0.000272482       -0.0942852       0.0707404
281701.1               0.0893087      -0.0721207      8.16644e-05     -0.00037837        -0.878554        0.461655     -5.00234e-05     0.000288291
                    -0.000237787    -0.000404634          0.11743      0.00730913      0.000128308      0.00015241        -0.950877          0.2846
                       -0.878678        0.462027        2.502e-05     0.000172198        -0.110392       0.0329377     -0.000209172    -0.000423326
                     7.41015e-05      0.00019366        -0.951154        0.284603     -0.000176435    -0.000272472       -0.0942828       0.0707395
281701.2                0.089304      -0.0721249      8.16528e-05    -0.000378385        -0.878542        0.461679     -5.00117e-05     0.000288287
                    -0.000237793    -0.000404627         0.117428       0.0073035      0.000128317     0.000152392         -0.95087        0.284625
                       -0.878665         0.46205      2.50294e-05     0.000172202        -0.110391       0.0329375     -0.000209193    -0.000423324
                     7.41048e-05      0.00019366        -0.951147        0.284629     -0.000176447    -0.000272461       -0.0942803       0.0707387
281701.3               0.0892994      -0.0721291      8.16412e-05    -0.000378399        -0.878529        0.461703           -5e-05     0.000288283
                    -0.000237799     -0.00040462         0.117426      0.00729787      0.000128327     0.000152375        -0.950863        0.284651
                       -0.878653        0.462074      2.50388e-05     0.000172207         -0.11039       0.0329372     -0.000209215    -0.000423321
                      7.4108e-05     0.000193659         -0.95114        0.284654      -0.00017646    -0.000272451       -0.0942779       0.0707378
281701.4               0.0892948      -0.0721333      8.16297e-05    -0.000378413        -0.878517        0.461726     -4.99883e-05     0.000288279
                    -0.000237805    -0.000404613         0.117424      0.00729224      0.000128337     0.000152357        -0.950856        0.284676
                       -0.878641        0.462098      2.50483e-05     0.000172211        -0.110389       0.0329369     -0.000209236    -0.000423319
                     7.41113e-05     0.000193659        -0.951132        0.284679     -0.000176472    -0.000272441       -0.0942755        0.070737
281701.5               0.0892902      -0.0721375      8.16181e-05    -0.000378427        -0.878505         0.46175     -4.99765e-05     0.000288275
                     -0.00023781    -0.000404605         0.117421      0.00728661      0.000128346      0.00015234        -0.950848        0.284701
                       -0.878629        0.462122      2.50577e-05     0.000172215        -0.110388       0.0329367     -0.000209257    -0.000423316
                     7.41146e-05     0.000193659        -0.951125        0.284705     -0.000176485    -0.000272431       -0.0942731       0.0707361
281701.6               0.0892856      -0.0721417      8.16065e-05    -0.000378442        -0.878492        0.461774     -4.99648e-05     0.000288271
                    -0.000237816    -0.000404598         0.117419      0.00728098      0.000128356     0.000152322        -0.950841        0.284727
                       -0.878616        0.462145      2.50671e-05      0.00017222        -0.110388       0.0329364     -0.000209278    -0.000423314
                     7.41178e-05     0.000193658        -0.951118         0.28473     -0.000176497    -0.000272421       -0.0942706       0.0707353
281701.7               0.0892809      -0.0721459      8.15949e-05    -0.000378456         -0.87848        0.461798     -4.99531e-05     0.000288267
                    -0.000237822    -0.000404591         0.117417      0.00727535      0.000128366     0.000152305        -0.950834        0.284752
                       -0.878604        0.462169      2.50765e-05     0.000172224        -0.110387       0.0329362       -0.0002093    -0.000423312
                     7.41211e-05     0.000193658         -0.95111        0.284755      -0.00017651    -0.000272411       -0.0942682       0.0707344
281701.8               0.0892763      -0.0721501      8.15833e-05     -0.00037847        -0.878467        0.461821     -4.99413e-05     0.000288264
                    -0.000237828    -0.000404583         0.117415      0.00726972      0.000128375     0.000152287        -0.950826        0.284778
                       -0.878592        0.462193      2.50859e-05     0.000172229        -0.110386       0.0329359     -0.000209321    -0.000423309
                     7.41244e-05     0.000193657        -0.951103        0.284781     -0.000176522    -0.000272401       -0.0942658       0.0707336
281701.9               0.0892717      -0.0721543      8.15717e-05    -0.000378484        -0.878455        0.461845     -4.99296e-05      0.00028826
                    -0.000237834    -0.000404576         0.117413      0.00726409      0.000128385      0.00015227        -0.950819        0.284803
                       -0.878579        0.462216      2.50954e-05     0.000172233        -0.110385       0.0329356     -0.000209342    -0.000423307
                     7.41276e-05     0.000193657        -0.951096        0.284806     -0.000176534    -0.000272391       -0.0942634       0.0707327
281702                 0.0892671      -0.0721585      8.15601e-05    -0.000378499        -0.878443        0.461869     -4.99179e-05     0.000288256
                     -0.00023784    -0.000404569         0.117411      0.00725846      0.000128395     0.000152252        -0.950812        0.284828
                       -0.878567         0.46224      2.51048e-05     0.000172237        -0.110384       0.0329354     -0.000209364    -0.000423305
                     7.41309e-05     0.000193657        -0.951088        0.284832     -0.000176547    -0.000272381       -0.0942609       0.0707318
281702.1               0.0892624      -0.0721627      8.15485e-05    -0.000378513         -0.87843        0.461892     -4.99061e-05     0.000288252
                    -0.000237846    -0.000404561         0.117409      0.00725283      0.000128404     0.000152235        -0.950804        0.284854
                       -0.878555        0.462264      2.51142e-05     0.000172242        -0.110383       0.0329351     -0.000209385    -0.000423302
                     7.41341e-05     0.000193656        -0.951081        0.284857     -0.000176559    -0.000272371       -0.0942585        0.070731
281702.2               0.0892578      -0.0721669      8.15369e-05    -0.000378527        -0.878418        0.461916     -4.98944e-05     0.000288248
                    -0.000237852    -0.000404554         0.117407       0.0072472      0.000128414     0.000152217        -0.950797        0.284879
                       -0.878542        0.462288      2.51236e-05     0.000172246        -0.110382       0.0329349     -0.000209406      -0.0004233
                     7.41374e-05     0.000193656        -0.951074        0.284882     -0.000176572     -0.00027236       -0.0942561       0.0707301
281702.3               0.0892532      -0.0721711      8.15253e-05    -0.000378542        -0.878406         0.46194     -4.98827e-05     0.000288244
                    -0.000237857    -0.000404547         0.117405      0.00724157      0.000128424       0.0001522         -0.95079        0.284904
                        -0.87853        0.462311      2.51331e-05      0.00017225        -0.110381       0.0329346     -0.000209427    -0.000423298
                     7.41407e-05     0.000193655        -0.951067        0.284908     -0.000176584     -0.00027235       -0.0942537       0.0707293
281702.4               0.0892486      -0.0721753      8.15137e-05    -0.000378556        -0.878393        0.461964     -4.98709e-05      0.00028824
                    -0.000237863    -0.000404539         0.117402      0.00723594      0.000128433     0.000152182        -0.950782         0.28493
                       -0.878518        0.462335      2.51425e-05     0.000172255         -0.11038       0.0329344     -0.000209449    -0.000423296
                     7.41439e-05     0.000193655        -0.951059        0.284933     -0.000176597     -0.00027234       -0.0942512       0.0707284
281702.5                0.089244      -0.0721796      8.15021e-05     -0.00037857        -0.878381        0.461987     -4.98592e-05     0.000288236
                    -0.000237869    -0.000404532           0.1174      0.00723031      0.000128443     0.000152165        -0.950775        0.284955
                       -0.878505        0.462359      2.51519e-05     0.000172259        -0.110379       0.0329341      -0.00020947    -0.000423293
                     7.41472e-05     0.000193655        -0.951052        0.284959     -0.000176609     -0.00027233       -0.0942488       0.0707276
281702.6               0.0892393      -0.0721838      8.14905e-05    -0.000378584        -0.878368        0.462011     -4.98475e-05     0.000288233
                    -0.000237875    -0.000404525         0.117398      0.00722468      0.000128453     0.000152147        -0.950768         0.28498
                       -0.878493        0.462382      2.51614e-05     0.000172263        -0.110378       0.0329338     -0.000209491    -0.000423291
                     7.41505e-05     0.000193654        -0.951045        0.284984     -0.000176622     -0.00027232       -0.0942464       0.0707267
281702.7               0.0892347       -0.072188      8.14789e-05    -0.000378599        -0.878356        0.462035     -4.98357e-05     0.000288229
                    -0.000237881    -0.000404518         0.117396      0.00721905      0.000128462      0.00015213         -0.95076        0.285006
                       -0.878481        0.462406      2.51708e-05     0.000172268        -0.110377       0.0329336     -0.000209513    -0.000423289
                     7.41538e-05     0.000193654        -0.951037        0.285009     -0.000176634     -0.00027231        -0.094244       0.0707259
281702.8               0.0892301      -0.0721922      8.14673e-05    -0.000378613        -0.878344        0.462058      -4.9824e-05     0.000288225
                    -0.000237887     -0.00040451         0.117394      0.00721342      0.000128472     0.000152112        -0.950753        0.285031
                       -0.878468         0.46243      2.51802e-05     0.000172272        -0.110376       0.0329333     -0.000209534    -0.000423287
                      7.4157e-05     0.000193653         -0.95103        0.285035     -0.000176647      -0.0002723       -0.0942415        0.070725
281702.9               0.0892255      -0.0721964      8.14557e-05    -0.000378627        -0.878331        0.462082     -4.98123e-05     0.000288221
                    -0.000237893    -0.000404503         0.117392      0.00720779      0.000128482     0.000152095        -0.950746        0.285057
                       -0.878456        0.462453      2.51896e-05     0.000172276        -0.110376       0.0329331     -0.000209555    -0.000423284
                     7.41603e-05     0.000193653        -0.951023         0.28506     -0.000176659     -0.00027229       -0.0942391       0.0707242
281703                 0.0892208      -0.0722006      8.14441e-05    -0.000378641        -0.878319        0.462106     -4.98005e-05     0.000288217
                    -0.000237898    -0.000404496          0.11739      0.00720217      0.000128491     0.000152077        -0.950739        0.285082
                       -0.878443        0.462477      2.51991e-05     0.000172281        -0.110375       0.0329328     -0.000209576    -0.000423282
                     7.41636e-05     0.000193653        -0.951015        0.285085     -0.000176672     -0.00027228       -0.0942367       0.0707233
281703.1               0.0892162      -0.0722048      8.14324e-05    -0.000378656        -0.878307        0.462129     -4.97888e-05     0.000288213
                    -0.000237904    -0.000404488         0.117388      0.00719654      0.000128501      0.00015206        -0.950731        0.285107
                       -0.878431        0.462501      2.52085e-05     0.000172285        -0.110374       0.0329325     -0.000209598     -0.00042328
