! TOUCHSTONE file generated by CST MICROWAVE STUDIO
! Date and time: Wed Oct  8 06:56:39 2025
! Project name: Teste_Macro_Metasurface_Nanopilar.cst
! Parameters = {H=600; L_x=120; L_y=100; Lambda=1064; Max_L=200; Min_L=70; PathPara=1; Phi=0; Step_L=10; Theta=0; p=520; phaseX=180; phaseY=0}
! Header version: 2018
! Port assignment regex: !\s*Touchstone port\s*([0-9]+)\s*=\s*(CST MWS port|CST DS port)\s*([0-9]+|Zmin|Zmax)\s*\(\"(.*)\"\)(\s*mode\s*([0-9]+))?.*
! Touchstone port assignment:
! Touchstone port 1 = CST MWS port Zmax ("") mode 1
! Touchstone port 2 = CST MWS port Zmax ("") mode 2
! Touchstone port 3 = CST MWS port Zmin ("") mode 1
! Touchstone port 4 = CST MWS port Zmin ("") mode 2
! S-Parameters are not renormalized. Each port impedance will be approximated by the real part at minimum frequency. The values are described via the [Reference] keyword.
! Default impedance is overridden by [Reference]
[Version] 2.0
# GHz S RI R 376.73
[Number of Ports] 4
[Reference]
376.73 376.73 376.73 376.73 
[Number of Frequencies] 1001
[Network Data]
281700                  -0.16179        -0.16147     -0.000548747     0.000394321        -0.285824        0.926926      0.000912875    -0.000615223
                    -0.000469267     0.000304857        -0.147373        0.193977       0.00103155     -0.00014099         0.712398        0.645705
                       -0.286311        0.927002       0.00109356    -0.000208337        -0.225038       0.0427745     -0.000546045     0.000423783
                     0.000969054    -0.000379773         0.711604        0.646247     -0.000286661     6.30471e-05         -0.18198        0.164536
281700.1               -0.161796       -0.161464     -0.000548739     0.000394332        -0.285797        0.926935      0.000912876     -0.00061524
                    -0.000469252     0.000304861        -0.147363        0.193979       0.00103154    -0.000141023         0.712421        0.645682
                       -0.286284        0.927011       0.00109355     -0.00020837        -0.225036       0.0427791     -0.000546033     0.000423809
                     0.000969045    -0.000379805         0.711626        0.646224     -0.000286655     6.30567e-05        -0.181972        0.164538
281700.2               -0.161802       -0.161458     -0.000548731     0.000394344         -0.28577        0.926943      0.000912877    -0.000615258
                    -0.000469236     0.000304865        -0.147353        0.193981       0.00103154    -0.000141056         0.712443        0.645659
                       -0.286257        0.927019       0.00109355    -0.000208403        -0.225035       0.0427838     -0.000546021     0.000423834
                     0.000969037    -0.000379838         0.711648        0.646201     -0.000286649     6.30664e-05        -0.181964        0.164541
281700.3               -0.161807       -0.161451     -0.000548722     0.000394355        -0.285743        0.926951      0.000912877    -0.000615276
                    -0.000469221     0.000304869        -0.147343        0.193984       0.00103153    -0.000141089         0.712465        0.645636
                       -0.286231        0.927027       0.00109355    -0.000208435        -0.225034       0.0427885     -0.000546009     0.000423859
                     0.000969028     -0.00037987         0.711671        0.646178     -0.000286642      6.3076e-05        -0.181956        0.164543
281700.4               -0.161813       -0.161445     -0.000548714     0.000394367        -0.285717         0.92696      0.000912878    -0.000615293
                    -0.000469205     0.000304873        -0.147334        0.193986       0.00103153    -0.000141123         0.712488        0.645613
                       -0.286204        0.927036       0.00109354    -0.000208468        -0.225032       0.0427931     -0.000545997     0.000423884
                      0.00096902    -0.000379903         0.711693        0.646155     -0.000286636     6.30857e-05        -0.181948        0.164545
281700.5               -0.161818       -0.161439     -0.000548705     0.000394378         -0.28569        0.926968      0.000912879    -0.000615311
                     -0.00046919     0.000304877        -0.147324        0.193988       0.00103153    -0.000141156          0.71251         0.64559
                       -0.286177        0.927044       0.00109354      -0.0002085        -0.225031       0.0427978     -0.000545985     0.000423909
                     0.000969012    -0.000379936         0.711716        0.646132      -0.00028663     6.30953e-05         -0.18194        0.164548
281700.6               -0.161824       -0.161433     -0.000548697      0.00039439        -0.285663        0.926976       0.00091288    -0.000615328
                    -0.000469175     0.000304881        -0.147314         0.19399       0.00103152    -0.000141189         0.712533        0.645567
                       -0.286151        0.927052       0.00109354    -0.000208533         -0.22503       0.0428025     -0.000545973     0.000423935
                     0.000969003    -0.000379968         0.711738        0.646109     -0.000286623      6.3105e-05        -0.181933         0.16455
281700.7                -0.16183       -0.161427     -0.000548689     0.000394402        -0.285637        0.926985      0.000912881    -0.000615346
                    -0.000469159     0.000304885        -0.147304        0.193992       0.00103152    -0.000141222         0.712555        0.645544
                       -0.286124        0.927061       0.00109354    -0.000208565        -0.225028       0.0428071     -0.000545961      0.00042396
                     0.000968995    -0.000380001          0.71176        0.646085     -0.000286617     6.31146e-05        -0.181925        0.164552
281700.8               -0.161835        -0.16142      -0.00054868     0.000394413         -0.28561        0.926993      0.000912882    -0.000615363
                    -0.000469144     0.000304889        -0.147294        0.193995       0.00103151    -0.000141256         0.712578         0.64552
                       -0.286097        0.927069       0.00109353    -0.000208598        -0.225027       0.0428118     -0.000545949     0.000423985
                     0.000968986    -0.000380033         0.711783        0.646062     -0.000286611     6.31243e-05        -0.181917        0.164555
281700.9               -0.161841       -0.161414     -0.000548672     0.000394425        -0.285583        0.927001      0.000912883    -0.000615381
                    -0.000469129     0.000304893        -0.147284        0.193997       0.00103151    -0.000141289           0.7126        0.645497
                        -0.28607        0.927077       0.00109353    -0.000208631        -0.225026       0.0428165     -0.000545937      0.00042401
                     0.000968978    -0.000380066         0.711805        0.646039     -0.000286604     6.31339e-05        -0.181909        0.164557
281701                 -0.161846       -0.161408     -0.000548664     0.000394436        -0.285556        0.927009      0.000912884    -0.000615398
                    -0.000469113     0.000304897        -0.147274        0.193999        0.0010315    -0.000141322         0.712623        0.645474
                       -0.286044        0.927086       0.00109353    -0.000208663        -0.225024       0.0428211     -0.000545925     0.000424035
                      0.00096897    -0.000380098         0.711827        0.646016     -0.000286598     6.31436e-05        -0.181901        0.164559
281701.1               -0.161852       -0.161402     -0.000548655     0.000394448         -0.28553        0.927018      0.000912885    -0.000615416
                    -0.000469098     0.000304901        -0.147264        0.194001        0.0010315    -0.000141355         0.712645        0.645451
                       -0.286017        0.927094       0.00109353    -0.000208696        -0.225023       0.0428258     -0.000545913      0.00042406
                     0.000968961    -0.000380131          0.71185        0.645993     -0.000286592     6.31532e-05        -0.181894        0.164562
281701.2               -0.161857       -0.161396     -0.000548647     0.000394459        -0.285503        0.927026      0.000912886    -0.000615433
                    -0.000469082     0.000304905        -0.147254        0.194004       0.00103149    -0.000141389         0.712667        0.645428
                        -0.28599        0.927102       0.00109352    -0.000208728        -0.225022       0.0428305     -0.000545901     0.000424086
                     0.000968953    -0.000380163         0.711872         0.64597     -0.000286585     6.31629e-05        -0.181886        0.164564
281701.3               -0.161863       -0.161389     -0.000548638     0.000394471        -0.285476        0.927034      0.000912887     -0.00061545
                    -0.000469067     0.000304909        -0.147244        0.194006       0.00103149    -0.000141422          0.71269        0.645405
                       -0.285964        0.927111       0.00109352    -0.000208761         -0.22502       0.0428352     -0.000545889     0.000424111
                     0.000968944    -0.000380196         0.711895        0.645947     -0.000286579     6.31725e-05        -0.181878        0.164567
281701.4               -0.161869       -0.161383      -0.00054863     0.000394483         -0.28545        0.927043      0.000912887    -0.000615468
                    -0.000469052     0.000304913        -0.147234        0.194008       0.00103148    -0.000141455         0.712712        0.645382
                       -0.285937        0.927119       0.00109352    -0.000208793        -0.225019       0.0428398     -0.000545877     0.000424136
                     0.000968936    -0.000380228         0.711917        0.645924     -0.000286573     6.31822e-05         -0.18187        0.164569
281701.5               -0.161874       -0.161377     -0.000548622     0.000394494        -0.285423        0.927051      0.000912888    -0.000615485
                    -0.000469036     0.000304917        -0.147225         0.19401       0.00103148    -0.000141489         0.712735        0.645359
                        -0.28591        0.927127       0.00109351    -0.000208826        -0.225018       0.0428445     -0.000545865     0.000424161
                     0.000968928    -0.000380261         0.711939        0.645901     -0.000286566     6.31919e-05        -0.181862        0.164571
281701.6                -0.16188       -0.161371     -0.000548613     0.000394506        -0.285396        0.927059      0.000912889    -0.000615503
                    -0.000469021     0.000304921        -0.147215        0.194012       0.00103148    -0.000141522         0.712757        0.645335
                       -0.285883        0.927136       0.00109351    -0.000208858        -0.225016       0.0428492     -0.000545853     0.000424186
                     0.000968919    -0.000380293         0.711962        0.645877      -0.00028656     6.32015e-05        -0.181854        0.164574
281701.7               -0.161885       -0.161365     -0.000548605     0.000394517         -0.28537        0.927068       0.00091289     -0.00061552
                    -0.000469006     0.000304925        -0.147205        0.194015       0.00103147    -0.000141555          0.71278        0.645312
                       -0.285857        0.927144       0.00109351    -0.000208891        -0.225015       0.0428538     -0.000545841     0.000424212
                     0.000968911    -0.000380326         0.711984        0.645854     -0.000286554     6.32112e-05        -0.181847        0.164576
281701.8               -0.161891       -0.161358     -0.000548597     0.000394529        -0.285343        0.927076      0.000912891    -0.000615538
                     -0.00046899     0.000304929        -0.147195        0.194017       0.00103147    -0.000141588         0.712802        0.645289
                        -0.28583        0.927152       0.00109351    -0.000208923        -0.225013       0.0428585     -0.000545829     0.000424237
                     0.000968902    -0.000380358         0.712006        0.645831     -0.000286547     6.32208e-05        -0.181839        0.164578
281701.9               -0.161896       -0.161352     -0.000548589      0.00039454        -0.285316        0.927084      0.000912892    -0.000615555
                    -0.000468975     0.000304933        -0.147185        0.194019       0.00103146    -0.000141622         0.712824        0.645266
                       -0.285803        0.927161        0.0010935    -0.000208956        -0.225012       0.0428632     -0.000545817     0.000424262
                     0.000968894    -0.000380391         0.712029        0.645808     -0.000286541     6.32305e-05        -0.181831        0.164581
281702                 -0.161902       -0.161346      -0.00054858     0.000394552        -0.285289        0.927092      0.000912893    -0.000615573
                    -0.000468959     0.000304937        -0.147175        0.194021       0.00103146    -0.000141655         0.712847        0.645243
                       -0.285777        0.927169        0.0010935    -0.000208988        -0.225011       0.0428678     -0.000545805     0.000424287
                     0.000968886    -0.000380423         0.712051        0.645785     -0.000286535     6.32401e-05        -0.181823        0.164583
281702.1               -0.161908        -0.16134     -0.000548572     0.000394563        -0.285263        0.927101      0.000912894     -0.00061559
                    -0.000468944     0.000304941        -0.147165        0.194024       0.00103145    -0.000141688         0.712869         0.64522
                        -0.28575        0.927177        0.0010935    -0.000209021        -0.225009       0.0428725     -0.000545793     0.000424312
                     0.000968877    -0.000380456         0.712073        0.645762     -0.000286528     6.32498e-05        -0.181815        0.164585
281702.2               -0.161913       -0.161334     -0.000548564     0.000394575        -0.285236        0.927109      0.000912895    -0.000615608
                    -0.000468929     0.000304945        -0.147155        0.194026       0.00103145    -0.000141721         0.712892        0.645197
                       -0.285723        0.927186       0.00109349    -0.000209053        -0.225008       0.0428772     -0.000545781     0.000424337
                     0.000968869    -0.000380489         0.712096        0.645739     -0.000286522     6.32594e-05        -0.181808        0.164588
281702.3               -0.161919       -0.161327     -0.000548555     0.000394587        -0.285209        0.927117      0.000912896    -0.000615625
                    -0.000468913     0.000304949        -0.147145        0.194028       0.00103144    -0.000141755         0.712914        0.645173
                       -0.285697        0.927194       0.00109349    -0.000209086        -0.225007       0.0428818     -0.000545769     0.000424363
                      0.00096886    -0.000380521         0.712118        0.645716     -0.000286516     6.32691e-05          -0.1818         0.16459
281702.4               -0.161924       -0.161321     -0.000548547     0.000394598        -0.285183        0.927126      0.000912897    -0.000615643
                    -0.000468898     0.000304953        -0.147135         0.19403       0.00103144    -0.000141788         0.712936         0.64515
                        -0.28567        0.927202       0.00109349    -0.000209118        -0.225005       0.0428865     -0.000545757     0.000424388
                     0.000968852    -0.000380554         0.712141        0.645692     -0.000286509     6.32787e-05        -0.181792        0.164592
281702.5                -0.16193       -0.161315     -0.000548539      0.00039461        -0.285156        0.927134      0.000912898     -0.00061566
                    -0.000468883     0.000304957        -0.147125        0.194032       0.00103143    -0.000141821         0.712959        0.645127
                       -0.285643        0.927211       0.00109349    -0.000209151        -0.225004       0.0428912     -0.000545745     0.000424413
                     0.000968843    -0.000380586         0.712163        0.645669     -0.000286503     6.32884e-05        -0.181784        0.164595
281702.6               -0.161935       -0.161309      -0.00054853     0.000394621        -0.285129        0.927142      0.000912898    -0.000615678
                    -0.000468867     0.000304961        -0.147116        0.194035       0.00103143    -0.000141854         0.712981        0.645104
                       -0.285616        0.927219       0.00109348    -0.000209183        -0.225003       0.0428958     -0.000545733     0.000424438
                     0.000968835    -0.000380619         0.712185        0.645646     -0.000286497      6.3298e-05        -0.181776        0.164597
281702.7               -0.161941       -0.161303     -0.000548522     0.000394633        -0.285102        0.927151      0.000912899    -0.000615695
                    -0.000468852     0.000304965        -0.147106        0.194037       0.00103142    -0.000141888         0.713004        0.645081
                        -0.28559        0.927227       0.00109348    -0.000209216        -0.225001       0.0429005     -0.000545721     0.000424463
                     0.000968827    -0.000380651         0.712208        0.645623     -0.000286491     6.33077e-05        -0.181768        0.164599
281702.8               -0.161947       -0.161296     -0.000548514     0.000394644        -0.285076        0.927159        0.0009129    -0.000615713
                    -0.000468836     0.000304969        -0.147096        0.194039       0.00103142    -0.000141921         0.713026        0.645058
                       -0.285563        0.927236       0.00109348    -0.000209248           -0.225       0.0429052     -0.000545709     0.000424488
                     0.000968818    -0.000380684          0.71223          0.6456     -0.000286484     6.33173e-05        -0.181761        0.164602
281702.9               -0.161952        -0.16129     -0.000548506     0.000394656        -0.285049        0.927167      0.000912901     -0.00061573
                    -0.000468821     0.000304973        -0.147086        0.194041       0.00103142    -0.000141954         0.713049        0.645034
                       -0.285536        0.927244       0.00109348    -0.000209281        -0.224999       0.0429099     -0.000545697     0.000424514
                      0.00096881    -0.000380716         0.712252        0.645577     -0.000286478     6.33269e-05        -0.181753        0.164604
281703                 -0.161958       -0.161284     -0.000548497     0.000394668        -0.285022        0.927175      0.000912902    -0.000615748
                    -0.000468806     0.000304977        -0.147076        0.194044       0.00103141    -0.000141987         0.713071        0.645011
                        -0.28551        0.927252       0.00109347    -0.000209313        -0.224997       0.0429145     -0.000545685     0.000424539
                     0.000968801    -0.000380749         0.712275        0.645554     -0.000286472     6.33366e-05        -0.181745        0.164606
281703.1               -0.161963       -0.161278     -0.000548489     0.000394679        -0.284996        0.927184      0.000912903    -0.000615765
                     -0.00046879     0.000304981        -0.147066        0.194046       0.00103141    -0.000142021         0.713093        0.644988
                       -0.285483        0.927261       0.00109347    -0.000209346        -0.224996       0.0429192     -0.000545673     0.000424564
