! TOUCHSTONE file generated by CST MICROWAVE STUDIO
! Date and time: Wed Oct  8 07:00:57 2025
! Project name: Teste_Macro_Metasurface_Nanopilar.cst
! Parameters = {H=600; L_x=155; L_y=125; Lambda=1064; Max_L=200; Min_L=70; PathPara=1; Phi=0; Step_L=10; Theta=0; p=520; phaseX=180; phaseY=0}
! Header version: 2018
! Port assignment regex: !\s*Touchstone port\s*([0-9]+)\s*=\s*(CST MWS port|CST DS port)\s*([0-9]+|Zmin|Zmax)\s*\(\"(.*)\"\)(\s*mode\s*([0-9]+))?.*
! Touchstone port assignment:
! Touchstone port 1 = CST MWS port Zmax ("") mode 1
! Touchstone port 2 = CST MWS port Zmax ("") mode 2
! Touchstone port 3 = CST MWS port Zmin ("") mode 1
! Touchstone port 4 = CST MWS port Zmin ("") mode 2
! S-Parameters are not renormalized. Each port impedance will be approximated by the real part at minimum frequency. The values are described via the [Reference] keyword.
! Default impedance is overridden by [Reference]
[Version] 2.0
# GHz S RI R 376.73
[Number of Ports] 4
[Reference]
376.73 376.73 376.73 376.73 
[Number of Frequencies] 1001
[Network Data]
281700                 -0.239328      -0.0349294      0.000403648     0.000311664        -0.163066       -0.951102     -0.000362881    -0.000594612
                     9.27434e-05     0.000358803        -0.124555       -0.272177      0.000505708     1.12269e-05        -0.884099       -0.327744
                       -0.163239       -0.950907      0.000772535    -3.92936e-05        -0.214517        0.112398     -0.000852855    -0.000228905
                    -0.000156456    -0.000324921        -0.883973       -0.326951     -0.000740215    -0.000144523         0.256585       -0.138045
281700.1               -0.239327      -0.0349212       0.00040368     0.000311648        -0.163095       -0.951098     -0.000362923    -0.000594591
                     9.27476e-05     0.000358789        -0.124561       -0.272188      0.000505728     1.11903e-05        -0.884109       -0.327705
                       -0.163268       -0.950902      0.000772576    -3.93218e-05        -0.214512        0.112403     -0.000852911    -0.000228849
                    -0.000156444    -0.000324898        -0.883982       -0.326912     -0.000740241    -0.000144471         0.256585       -0.138073
281700.2               -0.239326       -0.034913      0.000403712     0.000311633        -0.163124       -0.951093     -0.000362965     -0.00059457
                     9.27518e-05     0.000358774        -0.124566         -0.2722      0.000505747     1.11536e-05        -0.884118       -0.327665
                       -0.163297       -0.950898      0.000772617      -3.935e-05        -0.214507        0.112408     -0.000852967    -0.000228792
                    -0.000156433    -0.000324876        -0.883992       -0.326872     -0.000740266    -0.000144419         0.256585       -0.138101
281700.3               -0.239325      -0.0349048      0.000403744     0.000311617        -0.163153       -0.951089     -0.000363007     -0.00059455
                     9.27559e-05     0.000358759        -0.124572       -0.272212      0.000505767      1.1117e-05        -0.884128       -0.327626
                       -0.163326       -0.950893      0.000772659    -3.93781e-05        -0.214502        0.112413     -0.000853023    -0.000228736
                    -0.000156422    -0.000324854        -0.884001       -0.326833     -0.000740292    -0.000144367         0.256585       -0.138129
281700.4               -0.239324      -0.0348966      0.000403775     0.000311601        -0.163182       -0.951085     -0.000363049    -0.000594529
                     9.27601e-05     0.000358745        -0.124578       -0.272224      0.000505787     1.10803e-05        -0.884137       -0.327587
                       -0.163355       -0.950889        0.0007727    -3.94063e-05        -0.214496        0.112417     -0.000853078     -0.00022868
                     -0.00015641    -0.000324831        -0.884011       -0.326794     -0.000740317    -0.000144314         0.256585       -0.138157
281700.5               -0.239323      -0.0348884      0.000403807     0.000311586        -0.163211        -0.95108     -0.000363091    -0.000594508
                     9.27643e-05      0.00035873        -0.124584       -0.272235      0.000505807     1.10437e-05        -0.884147       -0.327548
                       -0.163384       -0.950885      0.000772741    -3.94345e-05        -0.214491        0.112422     -0.000853134    -0.000228624
                    -0.000156399    -0.000324809         -0.88402       -0.326755     -0.000740343    -0.000144262         0.256585       -0.138186
281700.6               -0.239322      -0.0348802      0.000403839      0.00031157         -0.16324       -0.951076     -0.000363133    -0.000594487
                     9.27685e-05     0.000358716         -0.12459       -0.272247      0.000505827      1.1007e-05        -0.884157       -0.327508
                       -0.163413        -0.95088      0.000772782    -3.94627e-05        -0.214486        0.112427      -0.00085319    -0.000228568
                    -0.000156387    -0.000324787         -0.88403       -0.326715     -0.000740368     -0.00014421         0.256585       -0.138214
281700.7               -0.239321       -0.034872      0.000403871     0.000311554        -0.163269       -0.951072     -0.000363175    -0.000594466
                     9.27727e-05     0.000358701        -0.124596       -0.272259      0.000505847     1.09704e-05        -0.884166       -0.327469
                       -0.163441       -0.950876      0.000772823    -3.94909e-05        -0.214481        0.112432     -0.000853245    -0.000228511
                    -0.000156376    -0.000324765        -0.884039       -0.326676     -0.000740393    -0.000144158         0.256585       -0.138242
281700.8                -0.23932      -0.0348637      0.000403903     0.000311539        -0.163298       -0.951067     -0.000363217    -0.000594446
                     9.27768e-05     0.000358686        -0.124602       -0.272271      0.000505867     1.09337e-05        -0.884176        -0.32743
                        -0.16347       -0.950872      0.000772864    -3.95191e-05        -0.214476        0.112437     -0.000853301    -0.000228455
                    -0.000156365    -0.000324742        -0.884049       -0.326637     -0.000740419    -0.000144106         0.256584        -0.13827
281700.9               -0.239318      -0.0348555      0.000403934     0.000311523        -0.163327       -0.951063     -0.000363259    -0.000594425
                      9.2781e-05     0.000358672        -0.124608       -0.272282      0.000505887     1.08971e-05        -0.884185        -0.32739
                       -0.163499       -0.950867      0.000772906    -3.95472e-05        -0.214471        0.112442     -0.000853357    -0.000228399
                    -0.000156353     -0.00032472        -0.884058       -0.326597     -0.000740444    -0.000144053         0.256584       -0.138299
281701                 -0.239317      -0.0348473      0.000403966     0.000311508        -0.163356       -0.951058     -0.000363301    -0.000594404
                     9.27852e-05     0.000358657        -0.124614       -0.272294      0.000505907     1.08604e-05        -0.884195       -0.327351
                       -0.163528       -0.950863      0.000772947    -3.95754e-05        -0.214466        0.112446     -0.000853413    -0.000228343
                    -0.000156342    -0.000324698        -0.884068       -0.326558      -0.00074047    -0.000144001         0.256584       -0.138327
281701.1               -0.239316      -0.0348391      0.000403998     0.000311492        -0.163385       -0.951054     -0.000363343    -0.000594383
                     9.27894e-05     0.000358643         -0.12462       -0.272306      0.000505927     1.08237e-05        -0.884205       -0.327312
                       -0.163557       -0.950858      0.000772988    -3.96037e-05         -0.21446        0.112451     -0.000853468    -0.000228287
                    -0.000156331    -0.000324675        -0.884078       -0.326519     -0.000740495    -0.000143949         0.256584       -0.138355
281701.2               -0.239315      -0.0348309       0.00040403     0.000311476        -0.163414        -0.95105     -0.000363385    -0.000594362
                     9.27937e-05     0.000358628        -0.124626       -0.272317      0.000505946      1.0787e-05        -0.884214       -0.327273
                       -0.163586       -0.950854      0.000773029    -3.96319e-05        -0.214455        0.112456     -0.000853524     -0.00022823
                    -0.000156319    -0.000324653        -0.884087       -0.326479     -0.000740521    -0.000143897         0.256584       -0.138383
281701.3               -0.239314      -0.0348227      0.000404062     0.000311461        -0.163443       -0.951045     -0.000363427    -0.000594341
                     9.27979e-05     0.000358614        -0.124632       -0.272329      0.000505966     1.07504e-05        -0.884224       -0.327233
                       -0.163615        -0.95085       0.00077307    -3.96601e-05         -0.21445        0.112461      -0.00085358    -0.000228174
                    -0.000156308    -0.000324631        -0.884097        -0.32644     -0.000740546    -0.000143844         0.256584       -0.138412
281701.4               -0.239313      -0.0348145      0.000404093     0.000311445        -0.163472       -0.951041     -0.000363469    -0.000594321
                     9.28021e-05     0.000358599        -0.124637       -0.272341      0.000505986     1.07137e-05        -0.884233       -0.327194
                       -0.163644       -0.950845      0.000773111    -3.96883e-05        -0.214445        0.112466     -0.000853635    -0.000228118
                    -0.000156296    -0.000324609        -0.884106       -0.326401     -0.000740572    -0.000143792         0.256584        -0.13844
281701.5               -0.239312      -0.0348063      0.000404125     0.000311429        -0.163501       -0.951037     -0.000363511      -0.0005943
                     9.28063e-05     0.000358585        -0.124643       -0.272353      0.000506006      1.0677e-05        -0.884243       -0.327155
                       -0.163673       -0.950841      0.000773152    -3.97165e-05         -0.21444        0.112471     -0.000853691    -0.000228062
                    -0.000156285    -0.000324586        -0.884116       -0.326361     -0.000740597     -0.00014374         0.256584       -0.138468
281701.6               -0.239311      -0.0347981      0.000404157     0.000311414         -0.16353       -0.951032     -0.000363552    -0.000594279
                     9.28105e-05      0.00035857        -0.124649       -0.272364      0.000506026     1.06403e-05        -0.884252       -0.327116
                       -0.163702       -0.950837      0.000773194    -3.97447e-05        -0.214435        0.112475     -0.000853747    -0.000228005
                    -0.000156274    -0.000324564        -0.884125       -0.326322     -0.000740622    -0.000143688         0.256583       -0.138496
281701.7               -0.239309      -0.0347899      0.000404189     0.000311398        -0.163559       -0.951028     -0.000363594    -0.000594258
                     9.28148e-05     0.000358555        -0.124655       -0.272376      0.000506046     1.06036e-05        -0.884262       -0.327076
                       -0.163731       -0.950832      0.000773235     -3.9773e-05         -0.21443         0.11248     -0.000853802    -0.000227949
                    -0.000156262    -0.000324542        -0.884135       -0.326283     -0.000740648    -0.000143635         0.256583       -0.138525
281701.8               -0.239308      -0.0347817       0.00040422     0.000311383        -0.163588       -0.951024     -0.000363636    -0.000594237
                      9.2819e-05     0.000358541        -0.124661       -0.272388      0.000506066     1.05669e-05        -0.884272       -0.327037
                        -0.16376       -0.950828      0.000773276    -3.98012e-05        -0.214424        0.112485     -0.000853858    -0.000227893
                    -0.000156251     -0.00032452        -0.884144       -0.326243     -0.000740673    -0.000143583         0.256583       -0.138553
281701.9               -0.239307      -0.0347735      0.000404252     0.000311367        -0.163617       -0.951019     -0.000363678    -0.000594216
                     9.28232e-05     0.000358526        -0.124667         -0.2724      0.000506086     1.05303e-05        -0.884281       -0.326998
                       -0.163789       -0.950823      0.000773317    -3.98294e-05        -0.214419         0.11249     -0.000853914    -0.000227836
                     -0.00015624    -0.000324497        -0.884154       -0.326204     -0.000740699    -0.000143531         0.256583       -0.138581
281702                 -0.239306      -0.0347653      0.000404284     0.000311351        -0.163646       -0.951015      -0.00036372    -0.000594195
                     9.28275e-05     0.000358512        -0.124673       -0.272411      0.000506106     1.04936e-05        -0.884291       -0.326958
                       -0.163818       -0.950819      0.000773358    -3.98577e-05        -0.214414        0.112495     -0.000853969     -0.00022778
                    -0.000156228    -0.000324475        -0.884163       -0.326165     -0.000740724    -0.000143478         0.256583       -0.138609
281702.1               -0.239305      -0.0347571      0.000404316     0.000311336        -0.163675        -0.95101     -0.000363762    -0.000594174
                     9.28317e-05     0.000358497        -0.124679       -0.272423      0.000506125     1.04569e-05          -0.8843       -0.326919
                       -0.163847       -0.950815      0.000773399    -3.98859e-05        -0.214409        0.112499     -0.000854025    -0.000227724
                    -0.000156217    -0.000324453        -0.884173       -0.326125     -0.000740749    -0.000143426         0.256583       -0.138638
281702.2               -0.239304      -0.0347489      0.000404348      0.00031132        -0.163704       -0.951006     -0.000363804    -0.000594153
                      9.2836e-05     0.000358483        -0.124685       -0.272435      0.000506145     1.04202e-05         -0.88431        -0.32688
                       -0.163876        -0.95081       0.00077344    -3.99141e-05        -0.214404        0.112504     -0.000854081    -0.000227667
                    -0.000156206    -0.000324431        -0.884182       -0.326086     -0.000740775    -0.000143374         0.256583       -0.138666
281702.3               -0.239303      -0.0347407      0.000404379     0.000311304        -0.163733       -0.951002     -0.000363846    -0.000594132
                     9.28402e-05     0.000358468        -0.124691       -0.272446      0.000506165     1.03834e-05        -0.884319       -0.326841
                       -0.163905       -0.950806      0.000773481    -3.99424e-05        -0.214399        0.112509     -0.000854136    -0.000227611
                    -0.000156194    -0.000324408        -0.884192       -0.326047       -0.0007408    -0.000143322         0.256583       -0.138694
281702.4               -0.239302      -0.0347325      0.000404411     0.000311289        -0.163762       -0.950997     -0.000363888    -0.000594111
                     9.28445e-05     0.000358454        -0.124697       -0.272458      0.000506185     1.03467e-05        -0.884329       -0.326801
                       -0.163934       -0.950801      0.000773522    -3.99707e-05        -0.214394        0.112514     -0.000854192    -0.000227555
                    -0.000156183    -0.000324386        -0.884201       -0.326008     -0.000740826    -0.000143269         0.256582       -0.138722
281702.5                 -0.2393      -0.0347243      0.000404443     0.000311273         -0.16379       -0.950993      -0.00036393     -0.00059409
                     9.28488e-05     0.000358439        -0.124703        -0.27247      0.000506205       1.031e-05        -0.884339       -0.326762
                       -0.163963       -0.950797      0.000773564    -3.99989e-05        -0.214388        0.112519     -0.000854248    -0.000227498
                    -0.000156172    -0.000324364        -0.884211       -0.325968     -0.000740851    -0.000143217         0.256582       -0.138751
281702.6               -0.239299      -0.0347161      0.000404475     0.000311258        -0.163819       -0.950989     -0.000363972    -0.000594069
                      9.2853e-05     0.000358425        -0.124709       -0.272482      0.000506225     1.02733e-05        -0.884348       -0.326723
                       -0.163992       -0.950793      0.000773605    -4.00272e-05        -0.214383        0.112524     -0.000854303    -0.000227442
                     -0.00015616    -0.000324342         -0.88422       -0.325929     -0.000740876    -0.000143165         0.256582       -0.138779
281702.7               -0.239298      -0.0347079      0.000404506     0.000311242        -0.163848       -0.950984     -0.000364013    -0.000594048
                     9.28573e-05      0.00035841        -0.124715       -0.272493      0.000506245     1.02366e-05        -0.884358       -0.326683
                        -0.16402       -0.950788      0.000773646    -4.00554e-05        -0.214378        0.112528     -0.000854359    -0.000227386
                    -0.000156149    -0.000324319         -0.88423        -0.32589     -0.000740902    -0.000143112         0.256582       -0.138807
281702.8               -0.239297      -0.0346997      0.000404538     0.000311226        -0.163877        -0.95098     -0.000364055    -0.000594027
                     9.28616e-05     0.000358396         -0.12472       -0.272505      0.000506265     1.01999e-05        -0.884367       -0.326644
                       -0.164049       -0.950784      0.000773687    -4.00837e-05        -0.214373        0.112533     -0.000854414    -0.000227329
                    -0.000156138    -0.000324297        -0.884239        -0.32585     -0.000740927     -0.00014306         0.256582       -0.138835
281702.9               -0.239296      -0.0346915       0.00040457     0.000311211        -0.163906       -0.950975     -0.000364097    -0.000594006
                     9.28658e-05     0.000358381        -0.124726       -0.272517      0.000506284     1.01631e-05        -0.884377       -0.326605
                       -0.164078       -0.950779      0.000773728     -4.0112e-05        -0.214368        0.112538      -0.00085447    -0.000227273
                    -0.000156126    -0.000324275        -0.884249       -0.325811     -0.000740953    -0.000143008         0.256582       -0.138864
281703                 -0.239295      -0.0346833      0.000404602     0.000311195        -0.163935       -0.950971     -0.000364139    -0.000593985
                     9.28701e-05     0.000358367        -0.124732       -0.272529      0.000506304     1.01264e-05        -0.884386       -0.326565
                       -0.164107       -0.950775      0.000773769    -4.01403e-05        -0.214363        0.112543     -0.000854526    -0.000227216
                    -0.000156115    -0.000324253        -0.884258       -0.325772     -0.000740978    -0.000142955         0.256582       -0.138892
281703.1               -0.239294      -0.0346751      0.000404633     0.000311179        -0.163964       -0.950967     -0.000364181    -0.000593964
                     9.28744e-05     0.000358352        -0.124738        -0.27254      0.000506324     1.00897e-05        -0.884396       -0.326526
                       -0.164136       -0.950771       0.00077381    -4.01685e-05        -0.214358        0.112548     -0.000854581     -0.00022716
