! TOUCHSTONE file generated by CST MICROWAVE STUDIO
! Date and time: Wed Oct  8 06:59:24 2025
! Project name: Teste_Macro_Metasurface_Nanopilar.cst
! Parameters = {H=600; L_x=140; L_y=180; Lambda=1064; Max_L=200; Min_L=70; PathPara=1; Phi=0; Step_L=10; Theta=0; p=520; phaseX=180; phaseY=0}
! Header version: 2018
! Port assignment regex: !\s*Touchstone port\s*([0-9]+)\s*=\s*(CST MWS port|CST DS port)\s*([0-9]+|Zmin|Zmax)\s*\(\"(.*)\"\)(\s*mode\s*([0-9]+))?.*
! Touchstone port assignment:
! Touchstone port 1 = CST MWS port Zmax ("") mode 1
! Touchstone port 2 = CST MWS port Zmax ("") mode 2
! Touchstone port 3 = CST MWS port Zmin ("") mode 1
! Touchstone port 4 = CST MWS port Zmin ("") mode 2
! S-Parameters are not renormalized. Each port impedance will be approximated by the real part at minimum frequency. The values are described via the [Reference] keyword.
! Default impedance is overridden by [Reference]
[Version] 2.0
# GHz S RI R 376.73
[Number of Ports] 4
[Reference]
376.73 376.73 376.73 376.73 
[Number of Frequencies] 1001
[Network Data]
281700                -0.0169749       0.0830992     -0.000503396    -0.000547327        -0.950383       -0.283603     -6.23118e-05     9.86015e-05
                    -0.000211784    -0.000502258        -0.363239        0.317799      8.58413e-05    -0.000481425        -0.439736       -0.736029
                       -0.950426       -0.283376     -0.000112764    -0.000291216       -0.0360421       0.0759918      0.000534041      0.00018525
                     3.54486e-05     2.61722e-05        -0.439557       -0.735965      0.000528618     0.000122807        -0.458502        0.135174
281700.1              -0.0169709        0.083093     -0.000503395    -0.000547278        -0.950392       -0.283575     -6.22895e-05     9.86911e-05
                    -0.000213262    -0.000499962        -0.363217        0.317802      8.58209e-05    -0.000481416         -0.43977       -0.736017
                       -0.950436       -0.283348     -0.000112796    -0.000291188       -0.0360376       0.0759867      0.000534062     0.000185338
                       3.543e-05     2.61721e-05        -0.439592       -0.735954      0.000528622     0.000122768        -0.458482        0.135194
281700.2              -0.0169668       0.0830869     -0.000503394     -0.00054723        -0.950401       -0.283547     -6.22669e-05     9.87817e-05
                    -0.000214839     -0.00049768        -0.363196        0.317805      8.58005e-05    -0.000481408        -0.439803       -0.736006
                       -0.950445        -0.28332     -0.000112828     -0.00029116       -0.0360332       0.0759817      0.000534083     0.000185427
                     3.54113e-05      2.6172e-05        -0.439626       -0.735944      0.000528626      0.00012273        -0.458462        0.135213
281700.3              -0.0169627       0.0830807     -0.000503393    -0.000547181         -0.95041       -0.283518     -6.22442e-05     9.88731e-05
                    -0.000216519    -0.000495419        -0.363174        0.317808      8.57801e-05    -0.000481399        -0.439837       -0.735994
                       -0.950454       -0.283292      -0.00011286    -0.000291132       -0.0360287       0.0759767      0.000534104     0.000185517
                     3.53924e-05     2.61719e-05        -0.439661       -0.735934       0.00052863     0.000122691        -0.458442        0.135232
281700.4              -0.0169587       0.0830746     -0.000503392    -0.000547131        -0.950419        -0.28349     -6.22212e-05     9.89653e-05
                    -0.000218301    -0.000493184        -0.363153        0.317811      8.57597e-05    -0.000481391        -0.439871       -0.735983
                       -0.950463       -0.283264     -0.000112892    -0.000291104       -0.0360242       0.0759717      0.000534126     0.000185608
                     3.53732e-05     2.61718e-05        -0.439696       -0.735923      0.000528634     0.000122653        -0.458422        0.135252
281700.5              -0.0169546       0.0830684     -0.000503391    -0.000547081        -0.950428       -0.283461     -6.21981e-05     9.90584e-05
                    -0.000220186    -0.000490982        -0.363131        0.317814      8.57393e-05    -0.000481383        -0.439904       -0.735971
                       -0.950472       -0.283236     -0.000112925    -0.000291075       -0.0360198       0.0759666      0.000534148     0.000185699
                     3.53539e-05     2.61718e-05         -0.43973       -0.735913      0.000528638     0.000122614        -0.458401        0.135271
281700.6              -0.0169505       0.0830623     -0.000503389     -0.00054703        -0.950437       -0.283433     -6.21747e-05     9.91525e-05
                    -0.000222176    -0.000488817         -0.36311        0.317817      8.57189e-05    -0.000481374        -0.439938        -0.73596
                       -0.950481       -0.283208     -0.000112958    -0.000291046       -0.0360153       0.0759616      0.000534169     0.000185791
                     3.53344e-05     2.61718e-05        -0.439765       -0.735902      0.000528641     0.000122575        -0.458381         0.13529
281700.7              -0.0169465       0.0830562     -0.000503387    -0.000546979        -0.950446       -0.283405      -6.2151e-05     9.92474e-05
                    -0.000224269    -0.000486697        -0.363088         0.31782      8.56985e-05    -0.000481366        -0.439972       -0.735948
                       -0.950491        -0.28318     -0.000112992    -0.000291016       -0.0360108       0.0759566      0.000534192     0.000185885
                     3.53147e-05     2.61719e-05          -0.4398       -0.735892      0.000528645     0.000122537        -0.458361         0.13531
281700.8              -0.0169424         0.08305     -0.000503385    -0.000546928        -0.950455       -0.283376     -6.21272e-05     9.93433e-05
                    -0.000226465    -0.000484628        -0.363066        0.317823      8.56781e-05    -0.000481358        -0.440005       -0.735937
                         -0.9505       -0.283152     -0.000113026    -0.000290986       -0.0360064       0.0759515      0.000534214     0.000185979
                     3.52948e-05      2.6172e-05        -0.439834       -0.735881      0.000528649     0.000122498        -0.458341        0.135329
281700.9              -0.0169383       0.0830439     -0.000503383    -0.000546876        -0.950464       -0.283348     -6.21031e-05     9.94401e-05
                    -0.000228763    -0.000482616        -0.363045        0.317827      8.56577e-05    -0.000481349        -0.440039       -0.735925
                       -0.950509       -0.283124      -0.00011306    -0.000290956       -0.0360019       0.0759465      0.000534237     0.000186074
                     3.52747e-05     2.61722e-05        -0.439869       -0.735871      0.000528653      0.00012246        -0.458321        0.135348
281701                -0.0169342       0.0830378     -0.000503381    -0.000546823        -0.950473        -0.28332     -6.20787e-05     9.95379e-05
                    -0.000231161    -0.000480668        -0.363023         0.31783      8.56373e-05    -0.000481341        -0.440072       -0.735914
                       -0.950518       -0.283096     -0.000113095    -0.000290926       -0.0359974       0.0759415      0.000534259      0.00018617
                     3.52544e-05     2.61724e-05        -0.439904        -0.73586      0.000528657     0.000122421        -0.458301        0.135368
281701.1              -0.0169302       0.0830316     -0.000503378     -0.00054677        -0.950483       -0.283291     -6.20541e-05     9.96367e-05
                    -0.000233658    -0.000478791        -0.363002        0.317833      8.56169e-05    -0.000481333        -0.440106       -0.735902
                       -0.950527       -0.283068      -0.00011313    -0.000290895        -0.035993       0.0759365      0.000534283     0.000186267
                     3.52338e-05     2.61726e-05        -0.439939        -0.73585      0.000528661     0.000122383         -0.45828        0.135387
281701.2              -0.0169261       0.0830255     -0.000503376    -0.000546716        -0.950492       -0.283263     -6.20293e-05     9.97364e-05
                    -0.000236251    -0.000476991         -0.36298        0.317836      8.55965e-05    -0.000481324         -0.44014       -0.735891
                       -0.950536        -0.28304     -0.000113165    -0.000290864       -0.0359885       0.0759314      0.000534306     0.000186365
                     3.52131e-05     2.61729e-05        -0.439973       -0.735839      0.000528665     0.000122344         -0.45826        0.135406
281701.3               -0.016922       0.0830194     -0.000503373    -0.000546662        -0.950501       -0.283234     -6.20042e-05     9.98372e-05
                    -0.000238937    -0.000475274        -0.362959        0.317839      8.55761e-05    -0.000481316        -0.440173       -0.735879
                       -0.950545       -0.283012     -0.000113201    -0.000290832       -0.0359841       0.0759264       0.00053433     0.000186464
                     3.51921e-05     2.61732e-05        -0.440008       -0.735829      0.000528669     0.000122306         -0.45824        0.135426
281701.4              -0.0169179       0.0830133     -0.000503369    -0.000546607         -0.95051       -0.283206     -6.19789e-05      9.9939e-05
                    -0.000241712    -0.000473647        -0.362937        0.317842      8.55556e-05    -0.000481308        -0.440207       -0.735868
                       -0.950555       -0.282984     -0.000113237      -0.0002908       -0.0359796       0.0759214      0.000534353     0.000186564
                      3.5171e-05     2.61736e-05        -0.440043       -0.735818      0.000528673     0.000122267         -0.45822        0.135445
281701.5              -0.0169138       0.0830072     -0.000503366    -0.000546552        -0.950519       -0.283178     -6.19533e-05     0.000100042
                    -0.000244571    -0.000472117        -0.362916        0.317845      8.55352e-05    -0.000481299         -0.44024       -0.735856
                       -0.950564       -0.282955     -0.000113274    -0.000290768       -0.0359751       0.0759163      0.000534378     0.000186665
                     3.51496e-05     2.61741e-05        -0.440077       -0.735808      0.000528676     0.000122228          -0.4582        0.135464
281701.6              -0.0169098        0.083001     -0.000503362    -0.000546496        -0.950528       -0.283149     -6.19274e-05     0.000100146
                    -0.000247511    -0.000470688        -0.362894        0.317848      8.55148e-05    -0.000481291        -0.440274       -0.735845
                       -0.950573       -0.282927     -0.000113311    -0.000290735       -0.0359707       0.0759113      0.000534402     0.000186767
                     3.51279e-05     2.61746e-05        -0.440112       -0.735797       0.00052868      0.00012219         -0.45818        0.135484
281701.7              -0.0169057       0.0829949     -0.000503358     -0.00054644        -0.950537       -0.283121     -6.19013e-05     0.000100251
                    -0.000250525    -0.000469367        -0.362872        0.317851      8.54944e-05    -0.000481283        -0.440307       -0.735833
                       -0.950582       -0.282899     -0.000113348    -0.000290702       -0.0359662       0.0759063      0.000534427      0.00018687
                     3.51061e-05     2.61751e-05        -0.440147       -0.735787      0.000528684     0.000122151        -0.458159        0.135503
281701.8              -0.0169016       0.0829888     -0.000503354    -0.000546382        -0.950546       -0.283093     -6.18749e-05     0.000100357
                    -0.000253608    -0.000468159        -0.362851        0.317855      8.54739e-05    -0.000481274         -0.44034       -0.735822
                       -0.950591       -0.282871     -0.000113386    -0.000290668       -0.0359618       0.0759013      0.000534452     0.000186975
                      3.5084e-05     2.61757e-05        -0.440181       -0.735776      0.000528688     0.000122113        -0.458139        0.135522
281701.9              -0.0168975       0.0829827      -0.00050335    -0.000546325        -0.950555       -0.283064     -6.18482e-05     0.000100464
                    -0.000256754    -0.000467068        -0.362829        0.317858      8.54535e-05    -0.000481266        -0.440374        -0.73581
                         -0.9506       -0.282843     -0.000113425    -0.000290634       -0.0359573       0.0758962      0.000534477      0.00018708
                     3.50617e-05     2.61764e-05        -0.440216       -0.735766      0.000528692     0.000122074        -0.458119        0.135542
281702                -0.0168934       0.0829766     -0.000503345    -0.000546266        -0.950564       -0.283036     -6.18213e-05     0.000100572
                    -0.000259957    -0.000466099        -0.362808        0.317861      8.54331e-05    -0.000481258        -0.440407       -0.735799
                       -0.950609       -0.282815     -0.000113464      -0.0002906       -0.0359528       0.0758912      0.000534503     0.000187187
                     3.50391e-05     2.61771e-05        -0.440251       -0.735755      0.000528696     0.000122036        -0.458099        0.135561
281702.1              -0.0168894       0.0829705      -0.00050334    -0.000546207        -0.950573       -0.283007      -6.1794e-05     0.000100682
                    -0.000263208    -0.000465257        -0.362786        0.317864      8.54126e-05    -0.000481249        -0.440441       -0.735787
                       -0.950619       -0.282787     -0.000113503    -0.000290565       -0.0359484       0.0758862      0.000534528     0.000187294
                     3.50163e-05     2.61779e-05        -0.440285       -0.735745        0.0005287     0.000121997        -0.458079         0.13558
281702.2              -0.0168853       0.0829644     -0.000503335    -0.000546148        -0.950582       -0.282979     -6.17665e-05     0.000100793
                    -0.000266501    -0.000464543        -0.362765        0.317867      8.53922e-05    -0.000481241        -0.440474       -0.735776
                       -0.950628       -0.282759     -0.000113543     -0.00029053       -0.0359439       0.0758811      0.000534555     0.000187403
                     3.49932e-05     2.61787e-05         -0.44032       -0.735734      0.000528704     0.000121959        -0.458059        0.135599
281702.3              -0.0168812       0.0829583     -0.000503329    -0.000546088        -0.950591       -0.282951     -6.17387e-05     0.000100904
                    -0.000269828    -0.000463962        -0.362743         0.31787      8.53718e-05    -0.000481233        -0.440507       -0.735764
                       -0.950637       -0.282731     -0.000113583    -0.000290494       -0.0359395       0.0758761      0.000534581     0.000187513
                     3.49699e-05     2.61796e-05        -0.440355       -0.735724      0.000528708      0.00012192        -0.458038        0.135619
281702.4              -0.0168771       0.0829522     -0.000503323    -0.000546027          -0.9506       -0.282922     -6.17105e-05     0.000101018
                    -0.000273181    -0.000463514        -0.362722        0.317873      8.53513e-05    -0.000481224         -0.44054       -0.735753
                       -0.950646       -0.282703     -0.000113624    -0.000290458        -0.035935       0.0758711      0.000534608     0.000187624
                     3.49463e-05     2.61806e-05        -0.440389       -0.735713      0.000528712     0.000121882        -0.458018        0.135638
281702.5               -0.016873       0.0829461     -0.000503317    -0.000545965        -0.950609       -0.282894     -6.16821e-05     0.000101132
                    -0.000276552    -0.000463202          -0.3627        0.317876      8.53309e-05    -0.000481216        -0.440574       -0.735741
                       -0.950655       -0.282675     -0.000113665    -0.000290422       -0.0359306        0.075866      0.000534635     0.000187737
                     3.49224e-05     2.61816e-05        -0.440424       -0.735703      0.000528716     0.000121843        -0.457998        0.135657
281702.6              -0.0168689         0.08294     -0.000503311    -0.000545903        -0.950618       -0.282866     -6.16534e-05     0.000101247
                    -0.000279932    -0.000463026        -0.362679        0.317879      8.53104e-05    -0.000481208        -0.440607        -0.73573
                       -0.950664       -0.282647     -0.000113707    -0.000290385       -0.0359261        0.075861      0.000534662     0.000187851
                     3.48983e-05     2.61827e-05        -0.440459       -0.735692       0.00052872     0.000121805        -0.457978        0.135677
281702.7              -0.0168649       0.0829339     -0.000503304     -0.00054584        -0.950628       -0.282837     -6.16243e-05     0.000101364
                    -0.000283315    -0.000462987        -0.362657        0.317882        8.529e-05    -0.000481199         -0.44064       -0.735718
                       -0.950673       -0.282619      -0.00011375    -0.000290347       -0.0359216        0.075856       0.00053469     0.000187966
                     3.48739e-05     2.61839e-05        -0.440493       -0.735682      0.000528724     0.000121766        -0.457958        0.135696
281702.8              -0.0168608       0.0829278     -0.000503297    -0.000545776        -0.950637       -0.282809     -6.15949e-05     0.000101483
                    -0.000286691    -0.000463084        -0.362635        0.317885      8.52695e-05    -0.000481191        -0.440673       -0.735707
                       -0.950682       -0.282591     -0.000113793    -0.000290309       -0.0359172       0.0758509      0.000534718     0.000188082
                     3.48492e-05     2.61852e-05        -0.440528       -0.735671      0.000528728     0.000121728        -0.457938        0.135715
281702.9              -0.0168567       0.0829217      -0.00050329    -0.000545712        -0.950646        -0.28278     -6.15652e-05     0.000101602
                    -0.000290053    -0.000463316        -0.362614        0.317889       8.5249e-05    -0.000481183        -0.440706       -0.735695
                       -0.950692       -0.282563     -0.000113836    -0.000290271       -0.0359127       0.0758459      0.000534746       0.0001882
                     3.48243e-05     2.61865e-05        -0.440563       -0.735661      0.000528732     0.000121689        -0.457917        0.135735
281703                -0.0168526       0.0829156     -0.000503282    -0.000545647        -0.950655       -0.282752     -6.15352e-05     0.000101723
                    -0.000293392     -0.00046368        -0.362592        0.317892      8.52286e-05    -0.000481174         -0.44074       -0.735684
                       -0.950701       -0.282535     -0.000113881    -0.000290232       -0.0359083       0.0758409      0.000534775     0.000188319
                      3.4799e-05     2.61879e-05        -0.440597        -0.73565      0.000528736     0.000121651        -0.457897        0.135754
281703.1              -0.0168485       0.0829096     -0.000503274    -0.000545581        -0.950664       -0.282724     -6.15048e-05     0.000101845
                    -0.000296701    -0.000464176        -0.362571        0.317895      8.52081e-05    -0.000481166        -0.440773       -0.735672
                        -0.95071       -0.282507     -0.000113925    -0.000290192       -0.0359038       0.0758359      0.000534804     0.000188439
