! TOUCHSTONE file generated by CST MICROWAVE STUDIO
! Date and time: Wed Oct  8 06:53:21 2025
! Project name: Teste_Macro_Metasurface_Nanopilar.cst
! Parameters = {H=600; L_x=90; L_y=160; Lambda=1064; Max_L=200; Min_L=70; PathPara=1; Phi=0; Step_L=10; Theta=0; p=520; phaseX=180; phaseY=0}
! Header version: 2018
! Port assignment regex: !\s*Touchstone port\s*([0-9]+)\s*=\s*(CST MWS port|CST DS port)\s*([0-9]+|Zmin|Zmax)\s*\(\"(.*)\"\)(\s*mode\s*([0-9]+))?.*
! Touchstone port assignment:
! Touchstone port 1 = CST MWS port Zmax ("") mode 1
! Touchstone port 2 = CST MWS port Zmax ("") mode 2
! Touchstone port 3 = CST MWS port Zmin ("") mode 1
! Touchstone port 4 = CST MWS port Zmin ("") mode 2
! S-Parameters are not renormalized. Each port impedance will be approximated by the real part at minimum frequency. The values are described via the [Reference] keyword.
! Default impedance is overridden by [Reference]
[Version] 2.0
# GHz S RI R 376.73
[Number of Ports] 4
[Reference]
376.73 376.73 376.73 376.73 
[Number of Frequencies] 1001
[Network Data]
281700                 -0.202201      -0.0687762     -3.86469e-05     3.53742e-06        -0.234032       -0.942503     -9.08679e-05    -0.000603986
                     -0.00021281    -0.000104321        -0.109609       -0.174045      0.000218685    -0.000608131        -0.361723          0.9062
                       -0.234375       -0.942443      2.58239e-05    -0.000408258        -0.147386        0.154893      0.000189855     8.74785e-05
                     0.000244552    -0.000498315        -0.361998        0.906603      0.000215722     0.000168407         -0.19945       0.0512751
281700.1                 -0.2022      -0.0687689     -3.86526e-05     3.51356e-06        -0.234062       -0.942496      -9.0899e-05    -0.000603986
                    -0.000212811    -0.000104313        -0.109615        -0.17404      0.000218663    -0.000608121        -0.361698        0.906211
                       -0.234404       -0.942437      2.57765e-05    -0.000408305        -0.147378        0.154895      0.000189856     8.74572e-05
                     0.000244509    -0.000498328        -0.361973        0.906613       0.00021572     0.000168387        -0.199449       0.0512789
281700.2               -0.202199      -0.0687615     -3.86583e-05     3.48971e-06        -0.234091        -0.94249     -9.09301e-05    -0.000603986
                    -0.000212811    -0.000104305        -0.109621       -0.174035      0.000218641    -0.000608111        -0.361672        0.906221
                       -0.234434        -0.94243      2.57291e-05    -0.000408353        -0.147371        0.154897      0.000189858     8.74359e-05
                     0.000244466     -0.00049834        -0.361947        0.906624      0.000215719     0.000168367        -0.199447       0.0512826
281700.3               -0.202198      -0.0687542      -3.8664e-05     3.46586e-06        -0.234121       -0.942483     -9.09612e-05    -0.000603986
                    -0.000212812    -0.000104297        -0.109627       -0.174031       0.00021862      -0.0006081        -0.361646        0.906231
                       -0.234464       -0.942424      2.56817e-05      -0.0004084        -0.147364        0.154899      0.000189859     8.74145e-05
                     0.000244423    -0.000498353        -0.361921        0.906634      0.000215717     0.000168347        -0.199445       0.0512864
281700.4               -0.202196      -0.0687469     -3.86697e-05       3.442e-06        -0.234151       -0.942477     -9.09922e-05    -0.000603987
                    -0.000212813     -0.00010429        -0.109633       -0.174026      0.000218598     -0.00060809         -0.36162        0.906242
                       -0.234493       -0.942417      2.56343e-05    -0.000408447        -0.147356        0.154901       0.00018986     8.73932e-05
                     0.000244381    -0.000498366        -0.361895        0.906645      0.000215716     0.000168327        -0.199444       0.0512901
281700.5               -0.202195      -0.0687395     -3.86755e-05     3.41815e-06         -0.23418        -0.94247     -9.10233e-05    -0.000603987
                    -0.000212814    -0.000104282        -0.109639       -0.174022      0.000218576     -0.00060808        -0.361595        0.906252
                       -0.234523       -0.942411       2.5587e-05    -0.000408495        -0.147349        0.154903      0.000189861     8.73719e-05
                     0.000244338    -0.000498378         -0.36187        0.906655      0.000215714     0.000168307        -0.199442       0.0512939
281700.6               -0.202194      -0.0687322     -3.86812e-05     3.39429e-06         -0.23421       -0.942463     -9.10544e-05    -0.000603987
                    -0.000212815    -0.000104274        -0.109645       -0.174017      0.000218555     -0.00060807        -0.361569        0.906263
                       -0.234552       -0.942404      2.55396e-05    -0.000408542        -0.147342        0.154905      0.000189862     8.73505e-05
                     0.000244295    -0.000498391        -0.361844        0.906666      0.000215712     0.000168286         -0.19944       0.0512976
281700.7               -0.202193      -0.0687249     -3.86869e-05     3.37044e-06        -0.234239       -0.942457     -9.10855e-05    -0.000603987
                    -0.000212816    -0.000104266        -0.109651       -0.174012      0.000218533     -0.00060806        -0.361543        0.906273
                       -0.234582       -0.942398      2.54922e-05    -0.000408589        -0.147334        0.154907      0.000189864     8.73292e-05
                     0.000244252    -0.000498404        -0.361818        0.906676      0.000215711     0.000168266        -0.199439       0.0513014
281700.8               -0.202191      -0.0687175     -3.86926e-05     3.34658e-06        -0.234269        -0.94245     -9.11166e-05    -0.000603987
                    -0.000212817    -0.000104258        -0.109657       -0.174008      0.000218511     -0.00060805        -0.361518        0.906283
                       -0.234611       -0.942391      2.54448e-05    -0.000408637        -0.147327        0.154909      0.000189865     8.73078e-05
                     0.000244209    -0.000498416        -0.361793        0.906686      0.000215709     0.000168246        -0.199437       0.0513052
281700.9                -0.20219      -0.0687102     -3.86983e-05     3.32272e-06        -0.234298       -0.942444     -9.11477e-05    -0.000603987
                    -0.000212817     -0.00010425        -0.109663       -0.174003      0.000218489     -0.00060804        -0.361492        0.906294
                       -0.234641       -0.942384      2.53974e-05    -0.000408684         -0.14732        0.154911      0.000189866     8.72865e-05
                     0.000244166    -0.000498429        -0.361767        0.906697      0.000215707     0.000168226        -0.199435       0.0513089
281701                 -0.202189      -0.0687028      -3.8704e-05     3.29887e-06        -0.234328       -0.942437     -9.11788e-05    -0.000603988
                    -0.000212818    -0.000104242        -0.109669       -0.173998      0.000218468    -0.000608029        -0.361466        0.906304
                       -0.234671       -0.942378        2.535e-05    -0.000408732        -0.147312        0.154913      0.000189867     8.72651e-05
                     0.000244123    -0.000498442        -0.361741        0.906707      0.000215706     0.000168206        -0.199434       0.0513127
281701.1               -0.202188      -0.0686955     -3.87097e-05     3.27501e-06        -0.234358       -0.942431     -9.12098e-05    -0.000603988
                    -0.000212819    -0.000104234        -0.109676       -0.173994      0.000218446    -0.000608019        -0.361441        0.906315
                         -0.2347       -0.942371      2.53026e-05    -0.000408779        -0.147305        0.154915      0.000189868     8.72438e-05
                      0.00024408    -0.000498454        -0.361715        0.906718      0.000215704     0.000168185        -0.199432       0.0513164
281701.2               -0.202186      -0.0686882     -3.87154e-05     3.25115e-06        -0.234387       -0.942424     -9.12409e-05    -0.000603988
                     -0.00021282    -0.000104226        -0.109682       -0.173989      0.000218424    -0.000608009        -0.361415        0.906325
                        -0.23473       -0.942365      2.52553e-05    -0.000408826        -0.147298        0.154917       0.00018987     8.72224e-05
                     0.000244038    -0.000498467         -0.36169        0.906728      0.000215702     0.000168165         -0.19943       0.0513202
281701.3               -0.202185      -0.0686808      -3.8721e-05     3.22729e-06        -0.234417       -0.942418      -9.1272e-05    -0.000603988
                    -0.000212821    -0.000104218        -0.109688       -0.173985      0.000218402    -0.000607999        -0.361389        0.906335
                       -0.234759       -0.942358      2.52079e-05    -0.000408874         -0.14729        0.154919      0.000189871     8.72011e-05
                     0.000243995     -0.00049848        -0.361664        0.906739      0.000215701     0.000168145        -0.199429       0.0513239
281701.4               -0.202184      -0.0686735     -3.87267e-05     3.20343e-06        -0.234446       -0.942411     -9.13031e-05    -0.000603988
                    -0.000212822     -0.00010421        -0.109694        -0.17398      0.000218381    -0.000607989        -0.361364        0.906346
                       -0.234789       -0.942352      2.51605e-05    -0.000408921        -0.147283        0.154921      0.000189872     8.71797e-05
                     0.000243952    -0.000498492        -0.361638        0.906749      0.000215699     0.000168125        -0.199427       0.0513277
281701.5               -0.202183      -0.0686662     -3.87324e-05     3.17957e-06        -0.234476       -0.942405     -9.13342e-05    -0.000603988
                    -0.000212823    -0.000104202          -0.1097       -0.173975      0.000218359    -0.000607979        -0.361338        0.906356
                       -0.234819       -0.942345      2.51131e-05    -0.000408969        -0.147276        0.154923      0.000189873     8.71584e-05
                     0.000243909    -0.000498505        -0.361613         0.90676      0.000215697     0.000168105        -0.199425       0.0513315
281701.6               -0.202181      -0.0686588     -3.87381e-05     3.15571e-06        -0.234505       -0.942398     -9.13653e-05    -0.000603989
                    -0.000212823    -0.000104194        -0.109706       -0.173971      0.000218337    -0.000607969        -0.361312        0.906366
                       -0.234848       -0.942339      2.50657e-05    -0.000409016        -0.147268        0.154925      0.000189874      8.7137e-05
                     0.000243866    -0.000498518        -0.361587         0.90677      0.000215696     0.000168084        -0.199424       0.0513352
281701.7                -0.20218      -0.0686515     -3.87438e-05     3.13185e-06        -0.234535       -0.942392     -9.13964e-05    -0.000603989
                    -0.000212824    -0.000104186        -0.109712       -0.173966      0.000218315    -0.000607959        -0.361286        0.906377
                       -0.234878       -0.942332      2.50183e-05    -0.000409064        -0.147261        0.154927      0.000189876     8.71156e-05
                     0.000243823    -0.000498531        -0.361561         0.90678      0.000215694     0.000168064        -0.199422        0.051339
281701.8               -0.202179      -0.0686442     -3.87495e-05     3.10799e-06        -0.234565       -0.942385     -9.14275e-05    -0.000603989
                    -0.000212825    -0.000104178        -0.109718       -0.173961      0.000218294    -0.000607948        -0.361261        0.906387
                       -0.234907       -0.942326       2.4971e-05    -0.000409111        -0.147254        0.154929      0.000189877     8.70943e-05
                      0.00024378    -0.000498543        -0.361536        0.906791      0.000215692     0.000168044         -0.19942       0.0513427
281701.9               -0.202178      -0.0686368     -3.87551e-05     3.08413e-06        -0.234594       -0.942378     -9.14586e-05    -0.000603989
                    -0.000212826     -0.00010417        -0.109724       -0.173957      0.000218272    -0.000607938        -0.361235        0.906398
                       -0.234937       -0.942319      2.49236e-05    -0.000409159        -0.147246        0.154931      0.000189878     8.70729e-05
                     0.000243738    -0.000498556         -0.36151        0.906801      0.000215691     0.000168024        -0.199419       0.0513465
281702                 -0.202176      -0.0686295     -3.87608e-05     3.06027e-06        -0.234624       -0.942372     -9.14897e-05    -0.000603989
                    -0.000212827    -0.000104162         -0.10973       -0.173952       0.00021825    -0.000607928        -0.361209        0.906408
                       -0.234966       -0.942313      2.48762e-05    -0.000409206        -0.147239        0.154933      0.000189879     8.70516e-05
                     0.000243695    -0.000498569        -0.361484        0.906812      0.000215689     0.000168004        -0.199417       0.0513502
281702.1               -0.202175      -0.0686222     -3.87665e-05     3.03641e-06        -0.234653       -0.942365     -9.15208e-05    -0.000603989
                    -0.000212828    -0.000104154        -0.109736       -0.173947      0.000218228    -0.000607918        -0.361184        0.906418
                       -0.234996       -0.942306      2.48288e-05    -0.000409254        -0.147232        0.154935       0.00018988     8.70302e-05
                     0.000243652    -0.000498581        -0.361458        0.906822      0.000215687     0.000167983        -0.199415        0.051354
281702.2               -0.202174      -0.0686148     -3.87721e-05     3.01255e-06        -0.234683       -0.942359     -9.15519e-05     -0.00060399
                    -0.000212829    -0.000104146        -0.109743       -0.173943      0.000218207    -0.000607908        -0.361158        0.906429
                       -0.235025       -0.942299      2.47815e-05    -0.000409302        -0.147224        0.154937      0.000189881     8.70088e-05
                     0.000243609    -0.000498594        -0.361433        0.906833      0.000215686     0.000167963        -0.199413       0.0513577
281702.3               -0.202172      -0.0686075     -3.87778e-05     2.98868e-06        -0.234712       -0.942352      -9.1583e-05     -0.00060399
                    -0.000212829    -0.000104139        -0.109749       -0.173938      0.000218185    -0.000607898        -0.361132        0.906439
                       -0.235055       -0.942293      2.47341e-05    -0.000409349        -0.147217        0.154939      0.000189883     8.69874e-05
                     0.000243566    -0.000498607        -0.361407        0.906843      0.000215684     0.000167943        -0.199412       0.0513615
281702.4               -0.202171      -0.0686002     -3.87835e-05     2.96482e-06        -0.234742       -0.942346     -9.16141e-05     -0.00060399
                     -0.00021283    -0.000104131        -0.109755       -0.173934      0.000218163    -0.000607888        -0.361106        0.906449
                       -0.235085       -0.942286      2.46867e-05    -0.000409397         -0.14721        0.154941      0.000189884     8.69661e-05
                     0.000243523    -0.000498619        -0.361381        0.906853      0.000215682     0.000167923         -0.19941       0.0513653
281702.5                -0.20217      -0.0685928     -3.87891e-05     2.94096e-06        -0.234772       -0.942339     -9.16452e-05     -0.00060399
                    -0.000212831    -0.000104123        -0.109761       -0.173929      0.000218142    -0.000607878        -0.361081         0.90646
                       -0.235114        -0.94228      2.46393e-05    -0.000409444        -0.147202        0.154943      0.000189885     8.69447e-05
                     0.000243481    -0.000498632        -0.361356        0.906864       0.00021568     0.000167903        -0.199408        0.051369
281702.6               -0.202169      -0.0685855     -3.87948e-05     2.91709e-06        -0.234801       -0.942333     -9.16764e-05     -0.00060399
                    -0.000212832    -0.000104115        -0.109767       -0.173924       0.00021812    -0.000607868        -0.361055         0.90647
                       -0.235144       -0.942273       2.4592e-05    -0.000409492        -0.147195        0.154945      0.000189886     8.69233e-05
                     0.000243438    -0.000498645         -0.36133        0.906874      0.000215679     0.000167882        -0.199407       0.0513728
281702.7               -0.202167      -0.0685782     -3.88004e-05     2.89323e-06        -0.234831       -0.942326     -9.17075e-05     -0.00060399
                    -0.000212833    -0.000104107        -0.109773        -0.17392      0.000218098    -0.000607858        -0.361029        0.906481
                       -0.235173       -0.942267      2.45446e-05     -0.00040954        -0.147188        0.154947      0.000189887     8.69019e-05
                     0.000243395    -0.000498657        -0.361304        0.906885      0.000215677     0.000167862        -0.199405       0.0513765
281702.8               -0.202166      -0.0685708     -3.88061e-05     2.86936e-06         -0.23486        -0.94232     -9.17386e-05    -0.000603991
                    -0.000212834    -0.000104099        -0.109779       -0.173915      0.000218076    -0.000607847        -0.361004        0.906491
                       -0.235203        -0.94226      2.44972e-05    -0.000409587         -0.14718        0.154949      0.000189888     8.68806e-05
                     0.000243352     -0.00049867        -0.361278        0.906895      0.000215675     0.000167842        -0.199403       0.0513803
281702.9               -0.202165      -0.0685635     -3.88117e-05      2.8455e-06         -0.23489       -0.942313     -9.17697e-05    -0.000603991
                    -0.000212834    -0.000104091        -0.109785        -0.17391      0.000218055    -0.000607837        -0.360978        0.906501
                       -0.235232       -0.942254      2.44498e-05    -0.000409635        -0.147173        0.154951       0.00018989     8.68592e-05
                     0.000243309    -0.000498683        -0.361253        0.906906      0.000215674     0.000167822        -0.199402        0.051384
281703                 -0.202164      -0.0685562     -3.88174e-05     2.82163e-06        -0.234919       -0.942306     -9.18008e-05    -0.000603991
                    -0.000212835    -0.000104083        -0.109791       -0.173906      0.000218033    -0.000607827        -0.360952        0.906512
                       -0.235262       -0.942247      2.44025e-05    -0.000409683        -0.147166        0.154953      0.000189891     8.68378e-05
                     0.000243266    -0.000498695        -0.361227        0.906916      0.000215672     0.000167802          -0.1994       0.0513878
281703.1               -0.202162      -0.0685488      -3.8823e-05     2.79777e-06        -0.234949         -0.9423     -9.18319e-05    -0.000603991
                    -0.000212836    -0.000104075        -0.109797       -0.173901      0.000218011    -0.000607817        -0.360927        0.906522
                       -0.235292        -0.94224      2.43551e-05     -0.00040973        -0.147158        0.154955      0.000189892     8.68164e-05
