! TOUCHSTONE file generated by CST MICROWAVE STUDIO
! Date and time: Wed Oct  8 06:59:44 2025
! Project name: Teste_Macro_Metasurface_Nanopilar.cst
! Parameters = {H=600; L_x=145; L_y=120; Lambda=1064; Max_L=200; Min_L=70; PathPara=1; Phi=0; Step_L=10; Theta=0; p=520; phaseX=180; phaseY=0}
! Header version: 2018
! Port assignment regex: !\s*Touchstone port\s*([0-9]+)\s*=\s*(CST MWS port|CST DS port)\s*([0-9]+|Zmin|Zmax)\s*\(\"(.*)\"\)(\s*mode\s*([0-9]+))?.*
! Touchstone port assignment:
! Touchstone port 1 = CST MWS port Zmax ("") mode 1
! Touchstone port 2 = CST MWS port Zmax ("") mode 2
! Touchstone port 3 = CST MWS port Zmin ("") mode 1
! Touchstone port 4 = CST MWS port Zmin ("") mode 2
! S-Parameters are not renormalized. Each port impedance will be approximated by the real part at minimum frequency. The values are described via the [Reference] keyword.
! Default impedance is overridden by [Reference]
[Version] 2.0
# GHz S RI R 376.73
[Number of Ports] 4
[Reference]
376.73 376.73 376.73 376.73 
[Number of Frequencies] 1001
[Network Data]
281700                 -0.175056       -0.155763      -0.00122901     1.66494e-05         0.356379       -0.896287      0.000665994     0.000556157
                     -0.00124126    -0.000190333        -0.174419     -0.00246358      0.000660767    -0.000157313        -0.502435       -0.841218
                        0.356089       -0.896333      0.000683926    -3.38476e-05        -0.235197     -0.00517546      -0.00134213     0.000152542
                      0.00110106     0.000661102        -0.502352       -0.841347      -0.00146418     0.000179297        -0.081811        0.153278
281700.1               -0.175063       -0.155756      -0.00122901     1.66715e-05         0.356351       -0.896298      0.000666025     0.000556136
                     -0.00124127    -0.000190302        -0.174414     -0.00245934      0.000660769     -0.00015734        -0.502462       -0.841203
                         0.35606       -0.896344      0.000683937    -3.38786e-05        -0.235198     -0.00516968      -0.00134213     0.000152623
                        0.001101     0.000661133        -0.502379       -0.841333      -0.00146417     0.000179358        -0.081803        0.153277
281700.2                -0.17507        -0.15575      -0.00122901     1.66935e-05         0.356322        -0.89631      0.000666055     0.000556115
                     -0.00124128    -0.000190271        -0.174409      -0.0024551      0.000660772    -0.000157367        -0.502488       -0.841188
                        0.356032       -0.896355      0.000683948    -3.39095e-05        -0.235199      -0.0051639      -0.00134213     0.000152703
                      0.00110095     0.000661165        -0.502405       -0.841318      -0.00146416     0.000179418       -0.0817949        0.153275
281700.3               -0.175077       -0.155744        -0.001229     1.67156e-05         0.356293       -0.896321      0.000666085     0.000556094
                     -0.00124129    -0.000190239        -0.174404     -0.00245085      0.000660775    -0.000157393        -0.502515       -0.841173
                        0.356003       -0.896367      0.000683959    -3.39405e-05          -0.2352     -0.00515813      -0.00134213     0.000152784
                      0.00110089     0.000661196        -0.502432       -0.841303      -0.00146415     0.000179479       -0.0817869        0.153274
281700.4               -0.175083       -0.155738        -0.001229     1.67377e-05         0.356264       -0.896332      0.000666116     0.000556072
                     -0.00124131    -0.000190208        -0.174399     -0.00244661      0.000660777     -0.00015742        -0.502541       -0.841159
                        0.355974       -0.896378       0.00068397    -3.39714e-05        -0.235201     -0.00515235      -0.00134213     0.000152865
                      0.00110083     0.000661227        -0.502458       -0.841288      -0.00146414     0.000179539       -0.0817789        0.153273
281700.5                -0.17509       -0.155731        -0.001229     1.67597e-05         0.356235       -0.896343      0.000666146     0.000556051
                     -0.00124132    -0.000190177        -0.174395     -0.00244237       0.00066078    -0.000157447        -0.502567       -0.841144
                        0.355945       -0.896389       0.00068398    -3.40024e-05        -0.235202     -0.00514657      -0.00134213     0.000152945
                      0.00110078     0.000661258        -0.502484       -0.841274      -0.00146413       0.0001796       -0.0817708        0.153271
281700.6               -0.175097       -0.155725      -0.00122899     1.67818e-05         0.356206       -0.896355      0.000666176      0.00055603
                     -0.00124133    -0.000190145         -0.17439     -0.00243813      0.000660782    -0.000157474        -0.502594       -0.841129
                        0.355916         -0.8964      0.000683991    -3.40333e-05        -0.235203     -0.00514079      -0.00134213     0.000153026
                      0.00110072     0.000661289        -0.502511       -0.841259      -0.00146412      0.00017966       -0.0817628         0.15327
281700.7               -0.175104       -0.155719      -0.00122899     1.68039e-05         0.356178       -0.896366      0.000666207     0.000556009
                     -0.00124134    -0.000190114        -0.174385     -0.00243389      0.000660785      -0.0001575         -0.50262       -0.841114
                        0.355887       -0.896411      0.000684002    -3.40643e-05        -0.235204     -0.00513501      -0.00134213     0.000153106
                      0.00110067      0.00066132        -0.502537       -0.841244      -0.00146411     0.000179721       -0.0817548        0.153269
281700.8                -0.17511       -0.155713      -0.00122899     1.68259e-05         0.356149       -0.896377      0.000666237     0.000555988
                     -0.00124135    -0.000190082         -0.17438     -0.00242965      0.000660788    -0.000157527        -0.502647         -0.8411
                        0.355859       -0.896423      0.000684013    -3.40952e-05        -0.235205     -0.00512923      -0.00134213     0.000153187
                      0.00110061     0.000661351        -0.502564       -0.841229       -0.0014641     0.000179781       -0.0817467        0.153268
281700.9               -0.175117       -0.155706      -0.00122899      1.6848e-05          0.35612       -0.896388      0.000666267     0.000555967
                     -0.00124136    -0.000190051        -0.174375     -0.00242541       0.00066079    -0.000157554        -0.502673       -0.841085
                         0.35583       -0.896434      0.000684024    -3.41262e-05        -0.235206     -0.00512345      -0.00134213     0.000153267
                      0.00110055     0.000661381         -0.50259       -0.841215      -0.00146409     0.000179842       -0.0817387        0.153266
281701                 -0.175124         -0.1557      -0.00122898     1.68701e-05         0.356091         -0.8964      0.000666298     0.000555946
                     -0.00124137    -0.000190019         -0.17437     -0.00242117      0.000660793    -0.000157581          -0.5027        -0.84107
                        0.355801       -0.896445      0.000684035    -3.41571e-05        -0.235207     -0.00511767      -0.00134213     0.000153348
                       0.0011005     0.000661412        -0.502616         -0.8412      -0.00146408     0.000179902       -0.0817306        0.153265
281701.1               -0.175131       -0.155694      -0.00122898     1.68921e-05         0.356062       -0.896411      0.000666328     0.000555924
                     -0.00124138    -0.000189988        -0.174366     -0.00241693      0.000660795    -0.000157608        -0.502726       -0.841055
                        0.355772       -0.896456      0.000684045    -3.41881e-05        -0.235208      -0.0051119      -0.00134213     0.000153429
                      0.00110044     0.000661443        -0.502643       -0.841185      -0.00146407     0.000179963       -0.0817226        0.153264
281701.2               -0.175138       -0.155688      -0.00122898     1.69142e-05         0.356033       -0.896422      0.000666358     0.000555903
                     -0.00124139    -0.000189957        -0.174361     -0.00241269      0.000660798    -0.000157634        -0.502752        -0.84104
                        0.355743       -0.896467      0.000684056     -3.4219e-05        -0.235209     -0.00510612      -0.00134213     0.000153509
                      0.00110039     0.000661473        -0.502669        -0.84117      -0.00146406     0.000180023       -0.0817146        0.153262
281701.3               -0.175144       -0.155681      -0.00122897     1.69363e-05         0.356005       -0.896433      0.000666389     0.000555882
                     -0.00124141    -0.000189925        -0.174356     -0.00240845      0.000660801    -0.000157661        -0.502779       -0.841026
                        0.355714       -0.896479      0.000684067      -3.425e-05         -0.23521     -0.00510034      -0.00134213      0.00015359
                      0.00110033     0.000661504        -0.502696       -0.841155      -0.00146405     0.000180084       -0.0817065        0.153261
281701.4               -0.175151       -0.155675      -0.00122897     1.69583e-05         0.355976       -0.896445      0.000666419     0.000555861
                     -0.00124142    -0.000189894        -0.174351     -0.00240421      0.000660803    -0.000157688        -0.502805       -0.841011
                        0.355686        -0.89649      0.000684078    -3.42809e-05        -0.235211     -0.00509456      -0.00134213      0.00015367
                      0.00110027     0.000661534        -0.502722       -0.841141      -0.00146404     0.000180144       -0.0816985         0.15326
281701.5               -0.175158       -0.155669      -0.00122897     1.69804e-05         0.355947       -0.896456      0.000666449      0.00055584
                     -0.00124143    -0.000189862        -0.174346     -0.00239997      0.000660806    -0.000157715        -0.502832       -0.840996
                        0.355657       -0.896501      0.000684089    -3.43119e-05        -0.235212     -0.00508878      -0.00134212     0.000153751
                      0.00110022     0.000661565        -0.502748       -0.841126      -0.00146403     0.000180205       -0.0816905        0.153258
281701.6               -0.175165       -0.155663      -0.00122897     1.70024e-05         0.355918       -0.896467       0.00066648     0.000555819
                     -0.00124144    -0.000189831        -0.174342     -0.00239573      0.000660808    -0.000157741        -0.502858       -0.840981
                        0.355628       -0.896512      0.000684099    -3.43428e-05        -0.235213       -0.005083      -0.00134212     0.000153831
                      0.00110016     0.000661595        -0.502775       -0.841111      -0.00146402     0.000180265       -0.0816824        0.153257
281701.7               -0.175171       -0.155656      -0.00122896     1.70245e-05         0.355889       -0.896478       0.00066651     0.000555797
                     -0.00124145    -0.000189799        -0.174337     -0.00239149      0.000660811    -0.000157768        -0.502884       -0.840966
                        0.355599       -0.896523       0.00068411    -3.43738e-05        -0.235214     -0.00507722      -0.00134212     0.000153912
                      0.00110011     0.000661625        -0.502801       -0.841096      -0.00146401     0.000180326       -0.0816744        0.153256
281701.8               -0.175178        -0.15565      -0.00122896     1.70466e-05          0.35586        -0.89649       0.00066654     0.000555776
                     -0.00124146    -0.000189768        -0.174332     -0.00238726      0.000660814    -0.000157795        -0.502911       -0.840952
                         0.35557       -0.896535      0.000684121    -3.44048e-05        -0.235215     -0.00507144      -0.00134212     0.000153993
                      0.00110005     0.000661655        -0.502828       -0.841082        -0.001464     0.000180386       -0.0816664        0.153254
281701.9               -0.175185       -0.155644      -0.00122896     1.70686e-05         0.355832       -0.896501       0.00066657     0.000555755
                     -0.00124147    -0.000189736        -0.174327     -0.00238302      0.000660816    -0.000157822        -0.502937       -0.840937
                        0.355541       -0.896546      0.000684132    -3.44357e-05        -0.235216     -0.00506566      -0.00134212     0.000154073
                      0.00109999     0.000661686        -0.502854       -0.841067      -0.00146399     0.000180447       -0.0816583        0.153253
281702                 -0.175192       -0.155638      -0.00122895     1.70907e-05         0.355803       -0.896512      0.000666601     0.000555734
                     -0.00124148    -0.000189704        -0.174322     -0.00237878      0.000660819    -0.000157849        -0.502964       -0.840922
                        0.355512       -0.896557      0.000684143    -3.44667e-05        -0.235217     -0.00505988      -0.00134212     0.000154154
                      0.00109994     0.000661716         -0.50288       -0.841052      -0.00146398     0.000180507       -0.0816503        0.153252
281702.1               -0.175198       -0.155631      -0.00122895     1.71127e-05         0.355774       -0.896523      0.000666631     0.000555713
                      -0.0012415    -0.000189673        -0.174317     -0.00237455      0.000660821    -0.000157875         -0.50299       -0.840907
                        0.355484       -0.896568      0.000684153    -3.44976e-05        -0.235218      -0.0050541      -0.00134212     0.000154234
                      0.00109988     0.000661746        -0.502907       -0.841037      -0.00146397     0.000180568       -0.0816423         0.15325
281702.2               -0.175205       -0.155625      -0.00122895     1.71348e-05         0.355745       -0.896535      0.000666661     0.000555692
                     -0.00124151    -0.000189641        -0.174313     -0.00237031      0.000660824    -0.000157902        -0.503016       -0.840892
                        0.355455       -0.896579      0.000684164    -3.45286e-05        -0.235219     -0.00504832      -0.00134212     0.000154315
                      0.00109983     0.000661776        -0.502933       -0.841022      -0.00146396     0.000180628       -0.0816342        0.153249
281702.3               -0.175212       -0.155619      -0.00122894     1.71568e-05         0.355716       -0.896546      0.000666692      0.00055567
                     -0.00124152     -0.00018961        -0.174308     -0.00236607      0.000660826    -0.000157929        -0.503043       -0.840878
                        0.355426       -0.896591      0.000684175    -3.45596e-05         -0.23522     -0.00504254      -0.00134212     0.000154396
                      0.00109977     0.000661805         -0.50296       -0.841008      -0.00146395     0.000180688       -0.0816262        0.153248
281702.4               -0.175219       -0.155612      -0.00122894     1.71789e-05         0.355687       -0.896557      0.000666722     0.000555649
                     -0.00124153    -0.000189578        -0.174303     -0.00236184      0.000660829    -0.000157956        -0.503069       -0.840863
                        0.355397       -0.896602      0.000684186    -3.45905e-05        -0.235221     -0.00503676      -0.00134212     0.000154476
                      0.00109971     0.000661835        -0.502986       -0.840993      -0.00146394     0.000180749       -0.0816182        0.153247
281702.5               -0.175225       -0.155606      -0.00122894     1.72009e-05         0.355659       -0.896568      0.000666752     0.000555628
                     -0.00124154    -0.000189547        -0.174298      -0.0023576      0.000660832    -0.000157983        -0.503096       -0.840848
                        0.355368       -0.896613      0.000684197    -3.46215e-05        -0.235222     -0.00503098      -0.00134212     0.000154557
                      0.00109966     0.000661865        -0.503013       -0.840978      -0.00146393     0.000180809       -0.0816101        0.153245
281702.6               -0.175232         -0.1556      -0.00122894      1.7223e-05          0.35563        -0.89658      0.000666783     0.000555607
                     -0.00124155    -0.000189515        -0.174293     -0.00235337      0.000660834    -0.000158009        -0.503122       -0.840833
                        0.355339       -0.896624      0.000684207    -3.46524e-05        -0.235223      -0.0050252      -0.00134212     0.000154637
                       0.0010996     0.000661895        -0.503039       -0.840963      -0.00146392      0.00018087       -0.0816021        0.153244
281702.7               -0.175239       -0.155594      -0.00122893      1.7245e-05         0.355601       -0.896591      0.000666813     0.000555586
                     -0.00124156    -0.000189483        -0.174288     -0.00234913      0.000660837    -0.000158036        -0.503148       -0.840818
                        0.355311       -0.896635      0.000684218    -3.46834e-05        -0.235224     -0.00501942      -0.00134212     0.000154718
                      0.00109955     0.000661924        -0.503065       -0.840949      -0.00146391      0.00018093       -0.0815941        0.153243
281702.8               -0.175246       -0.155587      -0.00122893     1.72671e-05         0.355572       -0.896602      0.000666843     0.000555564
                     -0.00124157    -0.000189452        -0.174284      -0.0023449      0.000660839    -0.000158063        -0.503175       -0.840804
                        0.355282       -0.896647      0.000684229    -3.47144e-05        -0.235225     -0.00501364      -0.00134212     0.000154799
                      0.00109949     0.000661954        -0.503092       -0.840934       -0.0014639     0.000180991        -0.081586        0.153241
281702.9               -0.175252       -0.155581      -0.00122893     1.72891e-05         0.355543       -0.896613      0.000666874     0.000555543
                     -0.00124159     -0.00018942        -0.174279     -0.00234067      0.000660842     -0.00015809        -0.503201       -0.840789
                        0.355253       -0.896658       0.00068424    -3.47453e-05        -0.235226     -0.00500786      -0.00134212     0.000154879
                      0.00109944     0.000661983        -0.503118       -0.840919      -0.00146389     0.000181051        -0.081578         0.15324
281703                 -0.175259       -0.155575      -0.00122892     1.73112e-05         0.355514       -0.896625      0.000666904     0.000555522
                      -0.0012416    -0.000189389        -0.174274     -0.00233643      0.000660844    -0.000158117        -0.503228       -0.840774
                        0.355224       -0.896669      0.000684251    -3.47763e-05        -0.235227     -0.00500208      -0.00134211      0.00015496
                      0.00109938     0.000662013        -0.503145       -0.840904      -0.00146388     0.000181111         -0.08157        0.153239
281703.1               -0.175266       -0.155569      -0.00122892     1.73332e-05         0.355486       -0.896636      0.000666934     0.000555501
                     -0.00124161    -0.000189357        -0.174269      -0.0023322      0.000660847    -0.000158143        -0.503254       -0.840759
                        0.355195        -0.89668      0.000684261    -3.48073e-05        -0.235228      -0.0049963      -0.00134211      0.00015504
