! TOUCHSTONE file generated by CST MICROWAVE STUDIO
! Date and time: Wed Oct  8 07:03:46 2025
! Project name: Teste_Macro_Metasurface_Nanopilar.cst
! Parameters = {H=600; L_x=180; L_y=90; Lambda=1064; Max_L=200; Min_L=70; PathPara=1; Phi=0; Step_L=10; Theta=0; p=520; phaseX=180; phaseY=0}
! Header version: 2018
! Port assignment regex: !\s*Touchstone port\s*([0-9]+)\s*=\s*(CST MWS port|CST DS port)\s*([0-9]+|Zmin|Zmax)\s*\(\"(.*)\"\)(\s*mode\s*([0-9]+))?.*
! Touchstone port assignment:
! Touchstone port 1 = CST MWS port Zmax ("") mode 1
! Touchstone port 2 = CST MWS port Zmax ("") mode 2
! Touchstone port 3 = CST MWS port Zmin ("") mode 1
! Touchstone port 4 = CST MWS port Zmin ("") mode 2
! S-Parameters are not renormalized. Each port impedance will be approximated by the real part at minimum frequency. The values are described via the [Reference] keyword.
! Default impedance is overridden by [Reference]
[Version] 2.0
# GHz S RI R 376.73
[Number of Ports] 4
[Reference]
376.73 376.73 376.73 376.73 
[Number of Frequencies] 1001
[Network Data]
281700                 -0.166293       -0.140937      8.91306e-05     0.000198979          -0.1255        0.964427      0.000223295    -0.000118515
                     3.14268e-05     0.000221895       -0.0980539        -0.19863     -0.000295287     0.000189611        -0.829971       -0.498625
                       -0.125488        0.964313     -0.000331531     7.47129e-05         -0.19685       0.0938367      0.000212488     0.000153226
                     0.000187448    -3.13879e-05        -0.830156       -0.498464      0.000211805     9.61598e-05         0.215665      -0.0124716
281700.1               -0.166296        -0.14093      8.91245e-05     0.000198969        -0.125472        0.964431        0.0002233    -0.000118532
                     3.14337e-05     0.000221887       -0.0980537       -0.198636     -0.000295283     0.000189625        -0.829988       -0.498594
                        -0.12546        0.964317     -0.000331539     7.47267e-05        -0.196847       0.0938407      0.000212493     0.000153206
                     0.000187449     -3.1386e-05        -0.830173       -0.498433      0.000211809     9.61422e-05         0.215669      -0.0124905
281700.2                 -0.1663       -0.140924      8.91185e-05      0.00019896        -0.125444        0.964435      0.000223304    -0.000118548
                     3.14406e-05     0.000221878       -0.0980535       -0.198642     -0.000295279     0.000189639        -0.830005       -0.498564
                       -0.125432        0.964321     -0.000331546     7.47405e-05        -0.196843       0.0938446      0.000212497     0.000153185
                      0.00018745     -3.1384e-05         -0.83019       -0.498403      0.000211814     9.61245e-05         0.215673      -0.0125094
281700.3               -0.166304       -0.140917      8.91125e-05     0.000198951        -0.125416        0.964439      0.000223309    -0.000118565
                     3.14475e-05     0.000221869       -0.0980532       -0.198647     -0.000295275     0.000189653        -0.830022       -0.498533
                       -0.125404        0.964325     -0.000331554     7.47543e-05        -0.196839       0.0938485      0.000212502     0.000153165
                     0.000187451    -3.13821e-05        -0.830207       -0.498372      0.000211818     9.61069e-05         0.215677      -0.0125283
281700.4               -0.166307        -0.14091      8.91065e-05     0.000198942        -0.125387        0.964443      0.000223313    -0.000118582
                     3.14544e-05     0.000221861        -0.098053       -0.198653     -0.000295271     0.000189667        -0.830039       -0.498502
                       -0.125376        0.964329     -0.000331562      7.4768e-05        -0.196835       0.0938525      0.000212507     0.000153145
                     0.000187452    -3.13801e-05        -0.830224       -0.498341      0.000211823     9.60892e-05         0.215681      -0.0125471
281700.5               -0.166311       -0.140903      8.91005e-05     0.000198933        -0.125359        0.964447      0.000223318    -0.000118599
                     3.14612e-05     0.000221852       -0.0980528       -0.198659     -0.000295267      0.00018968        -0.830056       -0.498471
                       -0.125348        0.964333      -0.00033157     7.47818e-05        -0.196832       0.0938564      0.000212511     0.000153124
                     0.000187453    -3.13782e-05        -0.830241        -0.49831      0.000211827     9.60716e-05         0.215685       -0.012566
281700.6               -0.166314       -0.140896      8.90945e-05     0.000198924        -0.125331        0.964451      0.000223322    -0.000118615
                     3.14681e-05     0.000221843       -0.0980525       -0.198665     -0.000295263     0.000189694        -0.830073       -0.498441
                        -0.12532        0.964337     -0.000331577     7.47956e-05        -0.196828       0.0938603      0.000212516     0.000153104
                     0.000187454    -3.13762e-05        -0.830258        -0.49828      0.000211831      9.6054e-05         0.215689      -0.0125849
281700.7               -0.166318       -0.140889      8.90884e-05     0.000198915        -0.125303        0.964455      0.000223327    -0.000118632
                      3.1475e-05     0.000221835       -0.0980523        -0.19867     -0.000295258     0.000189708         -0.83009        -0.49841
                       -0.125292        0.964341     -0.000331585     7.48094e-05        -0.196824       0.0938643       0.00021252     0.000153084
                     0.000187455    -3.13743e-05        -0.830275       -0.498249      0.000211836     9.60363e-05         0.215693      -0.0126038
281700.8               -0.166322       -0.140883      8.90824e-05     0.000198906        -0.125275        0.964459      0.000223331    -0.000118649
                     3.14819e-05     0.000221826       -0.0980521       -0.198676     -0.000295254     0.000189722        -0.830107       -0.498379
                       -0.125263        0.964345     -0.000331593     7.48232e-05        -0.196821       0.0938682      0.000212525     0.000153063
                     0.000187456    -3.13723e-05        -0.830292       -0.498218       0.00021184     9.60187e-05         0.215697      -0.0126227
281700.9               -0.166325       -0.140876      8.90764e-05     0.000198897        -0.125247        0.964463      0.000223336    -0.000118666
                     3.14888e-05     0.000221817       -0.0980518       -0.198682      -0.00029525     0.000189736        -0.830124       -0.498349
                       -0.125235        0.964349       -0.0003316     7.48369e-05        -0.196817       0.0938721       0.00021253     0.000153043
                     0.000187457    -3.13704e-05        -0.830309       -0.498188      0.000211844     9.60011e-05         0.215701      -0.0126416
281701                 -0.166329       -0.140869      8.90704e-05     0.000198888        -0.125219        0.964467       0.00022334    -0.000118682
                     3.14957e-05     0.000221809       -0.0980516       -0.198688     -0.000295246      0.00018975        -0.830141       -0.498318
                       -0.125207        0.964353     -0.000331608     7.48507e-05        -0.196813       0.0938761      0.000212534     0.000153023
                     0.000187458    -3.13684e-05        -0.830326       -0.498157      0.000211849     9.59834e-05         0.215705      -0.0126604
281701.1               -0.166333       -0.140862      8.90643e-05     0.000198879        -0.125191        0.964471      0.000223345    -0.000118699
                     3.15026e-05       0.0002218       -0.0980514       -0.198693     -0.000295242     0.000189764        -0.830158       -0.498287
                       -0.125179        0.964357     -0.000331616     7.48645e-05        -0.196809         0.09388      0.000212539     0.000153002
                     0.000187459    -3.13664e-05        -0.830343       -0.498126      0.000211853     9.59658e-05         0.215709      -0.0126793
281701.2               -0.166336       -0.140855      8.90583e-05      0.00019887        -0.125163        0.964475      0.000223349    -0.000118716
                     3.15094e-05     0.000221791       -0.0980511       -0.198699     -0.000295238     0.000189777        -0.830175       -0.498256
                       -0.125151        0.964361     -0.000331623     7.48783e-05        -0.196806        0.093884      0.000212543     0.000152982
                      0.00018746    -3.13645e-05         -0.83036       -0.498095      0.000211857     9.59481e-05         0.215713      -0.0126982
281701.3                -0.16634       -0.140849      8.90523e-05      0.00019886        -0.125135        0.964479      0.000223354    -0.000118732
                     3.15163e-05     0.000221783       -0.0980509       -0.198705     -0.000295234     0.000189791        -0.830192       -0.498226
                       -0.125123        0.964365     -0.000331631     7.48921e-05        -0.196802       0.0938879      0.000212548     0.000152961
                     0.000187461    -3.13625e-05        -0.830377       -0.498065      0.000211862     9.59305e-05         0.215717      -0.0127171
281701.4               -0.166343       -0.140842      8.90462e-05     0.000198851        -0.125106        0.964483      0.000223358    -0.000118749
                     3.15232e-05     0.000221774       -0.0980507        -0.19871      -0.00029523     0.000189805        -0.830209       -0.498195
                       -0.125095        0.964369     -0.000331639     7.49059e-05        -0.196798       0.0938918      0.000212553     0.000152941
                     0.000187462    -3.13606e-05        -0.830394       -0.498034      0.000211866     9.59129e-05         0.215721       -0.012736
281701.5               -0.166347       -0.140835      8.90402e-05     0.000198842        -0.125078        0.964487      0.000223363    -0.000118766
                     3.15301e-05     0.000221765       -0.0980504       -0.198716     -0.000295226     0.000189819        -0.830226       -0.498164
                       -0.125067        0.964373     -0.000331646     7.49197e-05        -0.196795       0.0938958      0.000212557     0.000152921
                     0.000187463    -3.13586e-05        -0.830411       -0.498003       0.00021187     9.58952e-05         0.215725      -0.0127549
281701.6               -0.166351       -0.140828      8.90342e-05     0.000198833         -0.12505        0.964491      0.000223367    -0.000118783
                      3.1537e-05     0.000221757       -0.0980502       -0.198722     -0.000295222     0.000189833        -0.830243       -0.498134
                       -0.125039        0.964377     -0.000331654     7.49335e-05        -0.196791       0.0938997      0.000212562       0.0001529
                     0.000187464    -3.13566e-05        -0.830428       -0.497972      0.000211875     9.58776e-05          0.21573      -0.0127738
281701.7               -0.166354       -0.140821      8.90281e-05     0.000198824        -0.125022        0.964495      0.000223372    -0.000118799
                     3.15439e-05     0.000221748         -0.09805       -0.198728     -0.000295218     0.000189847         -0.83026       -0.498103
                        -0.12501        0.964381     -0.000331662     7.49473e-05        -0.196787       0.0939036      0.000212566      0.00015288
                     0.000187465    -3.13547e-05        -0.830445       -0.497942      0.000211879       9.586e-05         0.215734      -0.0127927
281701.8               -0.166358       -0.140815      8.90221e-05     0.000198815        -0.124994        0.964499      0.000223376    -0.000118816
                     3.15508e-05     0.000221739       -0.0980497       -0.198733     -0.000295214     0.000189861        -0.830277       -0.498072
                       -0.124982        0.964385     -0.000331669     7.49611e-05        -0.196783       0.0939076      0.000212571      0.00015286
                     0.000187466    -3.13527e-05        -0.830462       -0.497911      0.000211884     9.58423e-05         0.215738      -0.0128116
281701.9               -0.166362       -0.140808       8.9016e-05     0.000198806        -0.124966        0.964503      0.000223381    -0.000118833
                     3.15576e-05     0.000221731       -0.0980495       -0.198739      -0.00029521     0.000189875        -0.830294       -0.498041
                       -0.124954        0.964389     -0.000331677     7.49749e-05         -0.19678       0.0939115      0.000212576     0.000152839
                     0.000187467    -3.13507e-05        -0.830479        -0.49788      0.000211888     9.58247e-05         0.215742      -0.0128304
281702                 -0.166365       -0.140801        8.901e-05     0.000198797        -0.124938        0.964507      0.000223385     -0.00011885
                     3.15645e-05     0.000221722       -0.0980493       -0.198745     -0.000295205     0.000189888        -0.830311       -0.498011
                       -0.124926        0.964393     -0.000331685     7.49887e-05        -0.196776       0.0939154       0.00021258     0.000152819
                     0.000187468    -3.13488e-05        -0.830496        -0.49785      0.000211892      9.5807e-05         0.215746      -0.0128493
281702.1               -0.166369       -0.140794      8.90039e-05     0.000198788         -0.12491        0.964511       0.00022339    -0.000118866
                     3.15714e-05     0.000221713       -0.0980491       -0.198751     -0.000295201     0.000189902        -0.830328        -0.49798
                       -0.124898        0.964397     -0.000331693     7.50025e-05        -0.196772       0.0939194      0.000212585     0.000152799
                     0.000187469    -3.13468e-05        -0.830513       -0.497819      0.000211897     9.57894e-05          0.21575      -0.0128682
281702.2               -0.166372       -0.140787      8.89979e-05     0.000198779        -0.124882        0.964515      0.000223394    -0.000118883
                     3.15783e-05     0.000221705       -0.0980488       -0.198756     -0.000295197     0.000189916        -0.830345       -0.497949
                        -0.12487        0.964401       -0.0003317     7.50164e-05        -0.196769       0.0939233      0.000212589     0.000152778
                      0.00018747    -3.13448e-05         -0.83053       -0.497788      0.000211901     9.57718e-05         0.215754      -0.0128871
281702.3               -0.166376        -0.14078      8.89918e-05      0.00019877        -0.124854        0.964519      0.000223399      -0.0001189
                     3.15852e-05     0.000221696       -0.0980486       -0.198762     -0.000295193      0.00018993        -0.830362       -0.497919
                       -0.124842        0.964405     -0.000331708     7.50302e-05        -0.196765       0.0939272      0.000212594     0.000152758
                     0.000187471    -3.13429e-05        -0.830547       -0.497757      0.000211905     9.57541e-05         0.215758       -0.012906
281702.4                -0.16638       -0.140774      8.89858e-05     0.000198761        -0.124825        0.964523      0.000223403    -0.000118917
                     3.15921e-05     0.000221687       -0.0980484       -0.198768     -0.000295189     0.000189944        -0.830379       -0.497888
                       -0.124814        0.964409     -0.000331716      7.5044e-05        -0.196761       0.0939312      0.000212598     0.000152737
                     0.000187471    -3.13409e-05        -0.830564       -0.497727       0.00021191     9.57365e-05         0.215762      -0.0129249
281702.5               -0.166383       -0.140767      8.89797e-05     0.000198752        -0.124797        0.964527      0.000223408    -0.000118933
                      3.1599e-05     0.000221679       -0.0980482       -0.198773     -0.000295185     0.000189958        -0.830396       -0.497857
                       -0.124786        0.964413     -0.000331723     7.50578e-05        -0.196757       0.0939351      0.000212603     0.000152717
                     0.000187472    -3.13389e-05        -0.830581       -0.497696      0.000211914     9.57188e-05         0.215766      -0.0129438
281702.6               -0.166387        -0.14076      8.89737e-05     0.000198743        -0.124769        0.964531      0.000223413     -0.00011895
                     3.16059e-05      0.00022167       -0.0980479       -0.198779     -0.000295181     0.000189972        -0.830413       -0.497826
                       -0.124757        0.964417     -0.000331731     7.50716e-05        -0.196754        0.093939      0.000212608     0.000152697
                     0.000187473    -3.13369e-05        -0.830598       -0.497665      0.000211918     9.57012e-05          0.21577      -0.0129627
281702.7                -0.16639       -0.140753      8.89676e-05     0.000198734        -0.124741        0.964535      0.000223417    -0.000118967
                     3.16127e-05     0.000221661       -0.0980477       -0.198785     -0.000295177     0.000189985        -0.830429       -0.497796
                       -0.124729        0.964421     -0.000331739     7.50855e-05         -0.19675        0.093943      0.000212612     0.000152676
                     0.000187474     -3.1335e-05        -0.830615       -0.497634      0.000211923     9.56835e-05         0.215774      -0.0129816
281702.8               -0.166394       -0.140746      8.89615e-05     0.000198725        -0.124713        0.964539      0.000223422    -0.000118984
                     3.16196e-05     0.000221653       -0.0980475       -0.198791     -0.000295173     0.000189999        -0.830446       -0.497765
                       -0.124701        0.964425     -0.000331747     7.50993e-05        -0.196746       0.0939469      0.000212617     0.000152656
                     0.000187475     -3.1333e-05        -0.830632       -0.497604      0.000211927     9.56659e-05         0.215778      -0.0130005
281702.9               -0.166398        -0.14074      8.89555e-05     0.000198715        -0.124685        0.964543      0.000223426       -0.000119
                     3.16265e-05     0.000221644       -0.0980473       -0.198796     -0.000295169     0.000190013        -0.830463       -0.497734
                       -0.124673        0.964429     -0.000331754     7.51131e-05        -0.196743       0.0939508      0.000212621     0.000152636
                     0.000187476     -3.1331e-05        -0.830649       -0.497573      0.000211931     9.56483e-05         0.215782      -0.0130194
281703                 -0.166401       -0.140733      8.89494e-05     0.000198706        -0.124657        0.964547      0.000223431    -0.000119017
                     3.16334e-05     0.000221636        -0.098047       -0.198802     -0.000295165     0.000190027         -0.83048       -0.497704
                       -0.124645        0.964433     -0.000331762      7.5127e-05        -0.196739       0.0939548      0.000212626     0.000152615
                     0.000187477     -3.1329e-05        -0.830665       -0.497542      0.000211936     9.56306e-05         0.215786      -0.0130383
281703.1               -0.166405       -0.140726      8.89433e-05     0.000198697        -0.124629        0.964551      0.000223435    -0.000119034
                     3.16403e-05     0.000221627       -0.0980468       -0.198808     -0.000295161     0.000190041        -0.830497       -0.497673
                       -0.124617        0.964437      -0.00033177     7.51408e-05        -0.196735       0.0939587       0.00021263     0.000152595
