! TOUCHSTONE file generated by CST MICROWAVE STUDIO
! Date and time: Wed Oct  8 07:01:27 2025
! Project name: Teste_Macro_Metasurface_Nanopilar.cst
! Parameters = {H=600; L_x=160; L_y=100; Lambda=1064; Max_L=200; Min_L=70; PathPara=1; Phi=0; Step_L=10; Theta=0; p=520; phaseX=180; phaseY=0}
! Header version: 2018
! Port assignment regex: !\s*Touchstone port\s*([0-9]+)\s*=\s*(CST MWS port|CST DS port)\s*([0-9]+|Zmin|Zmax)\s*\(\"(.*)\"\)(\s*mode\s*([0-9]+))?.*
! Touchstone port assignment:
! Touchstone port 1 = CST MWS port Zmax ("") mode 1
! Touchstone port 2 = CST MWS port Zmax ("") mode 2
! Touchstone port 3 = CST MWS port Zmin ("") mode 1
! Touchstone port 4 = CST MWS port Zmin ("") mode 2
! S-Parameters are not renormalized. Each port impedance will be approximated by the real part at minimum frequency. The values are described via the [Reference] keyword.
! Default impedance is overridden by [Reference]
[Version] 2.0
# GHz S RI R 376.73
[Number of Ports] 4
[Reference]
376.73 376.73 376.73 376.73 
[Number of Frequencies] 1001
[Network Data]
281700                 -0.193004        0.045791     -0.000113337     0.000354656         0.538558        0.810677     -0.000770612    -0.000140903
                    -8.92631e-05     0.000205623        -0.150851      -0.0278206      0.000189505    -0.000779555        -0.563148       -0.804917
                        0.538848        0.810188      0.000292796    -0.000782781        -0.118485        0.159178      -3.9981e-07    -0.000117065
                    -0.000806086    -0.000106108        -0.564319       -0.804933      4.49026e-05    -3.43249e-05        -0.026858        0.149328
281700.1               -0.192998       0.0457963     -0.000113325      0.00035465         0.538585         0.81066     -0.000770609    -0.000140873
                    -8.92603e-05     0.000205613        -0.150846      -0.0278178      0.000189488    -0.000779555        -0.563174         -0.8049
                        0.538875        0.810172      0.000292774    -0.000782788        -0.118477        0.159178     -4.07685e-07    -0.000117072
                    -0.000806086    -0.000106073        -0.564345       -0.804915      4.49048e-05    -3.43373e-05       -0.0268495        0.149324
281700.2               -0.192992       0.0458017     -0.000113313     0.000354645         0.538612        0.810643     -0.000770606    -0.000140843
                    -8.92575e-05     0.000205603        -0.150841       -0.027815      0.000189471    -0.000779556          -0.5632       -0.804883
                        0.538902        0.810155      0.000292752    -0.000782796        -0.118469        0.159179      -4.1556e-07    -0.000117079
                    -0.000806085    -0.000106038        -0.564371       -0.804898       4.4907e-05    -3.43496e-05        -0.026841         0.14932
281700.3               -0.192986       0.0458071     -0.000113301     0.000354639         0.538639        0.810627     -0.000770602    -0.000140814
                    -8.92547e-05     0.000205593        -0.150837      -0.0278122      0.000189454    -0.000779557        -0.563226       -0.804865
                        0.538928        0.810138      0.000292731    -0.000782803        -0.118461        0.159179     -4.23435e-07    -0.000117087
                    -0.000806085    -0.000106003        -0.564397       -0.804881      4.49092e-05    -3.43619e-05       -0.0268325        0.149316
281700.4                -0.19298       0.0458124     -0.000113289     0.000354633         0.538665         0.81061     -0.000770599    -0.000140784
                    -8.92519e-05     0.000205583        -0.150832      -0.0278095      0.000189436    -0.000779558        -0.563252       -0.804848
                        0.538955        0.810121      0.000292709    -0.000782811        -0.118454        0.159179      -4.3131e-07    -0.000117094
                    -0.000806084    -0.000105968        -0.564423       -0.804864      4.49114e-05    -3.43742e-05       -0.0268241        0.149312
281700.5               -0.192974       0.0458178     -0.000113277     0.000354628         0.538692        0.810593     -0.000770596    -0.000140754
                    -8.92491e-05     0.000205573        -0.150827      -0.0278067      0.000189419    -0.000779559        -0.563278       -0.804831
                        0.538982        0.810104      0.000292688    -0.000782818        -0.118446        0.159179     -4.39185e-07    -0.000117101
                    -0.000806084    -0.000105933        -0.564449       -0.804847      4.49136e-05    -3.43865e-05       -0.0268156        0.149309
281700.6               -0.192968       0.0458231     -0.000113265     0.000354622         0.538719        0.810576     -0.000770593    -0.000140724
                    -8.92463e-05     0.000205563        -0.150822      -0.0278039      0.000189402    -0.000779559        -0.563304       -0.804814
                        0.539009        0.810088      0.000292666    -0.000782825        -0.118438        0.159179      -4.4706e-07    -0.000117108
                    -0.000806084    -0.000105898        -0.564475       -0.804829      4.49157e-05    -3.43988e-05       -0.0268071        0.149305
281700.7               -0.192963       0.0458285     -0.000113252     0.000354616         0.538746         0.81056      -0.00077059    -0.000140695
                    -8.92435e-05     0.000205553        -0.150817      -0.0278011      0.000189385     -0.00077956         -0.56333       -0.804797
                        0.539036        0.810071      0.000292644    -0.000782833        -0.118431        0.159179     -4.54935e-07    -0.000117116
                    -0.000806083    -0.000105863        -0.564501       -0.804812      4.49179e-05    -3.44111e-05       -0.0267986        0.149301
281700.8               -0.192957       0.0458338      -0.00011324      0.00035461         0.538773        0.810543     -0.000770587    -0.000140665
                    -8.92407e-05     0.000205543        -0.150813      -0.0277983      0.000189368    -0.000779561        -0.563356        -0.80478
                        0.539063        0.810054      0.000292623     -0.00078284        -0.118423        0.159179      -4.6281e-07    -0.000117123
                    -0.000806083    -0.000105828        -0.564527       -0.804795      4.49201e-05    -3.44234e-05       -0.0267901        0.149297
281700.9               -0.192951       0.0458392     -0.000113228     0.000354605           0.5388        0.810526     -0.000770584    -0.000140635
                    -8.92379e-05     0.000205534        -0.150808      -0.0277955      0.000189351    -0.000779562        -0.563382       -0.804763
                         0.53909        0.810037      0.000292601    -0.000782848        -0.118415        0.159179     -4.70686e-07     -0.00011713
                    -0.000806082    -0.000105793        -0.564553       -0.804778      4.49223e-05    -3.44357e-05       -0.0267816        0.149293
281701                 -0.192945       0.0458445     -0.000113216     0.000354599         0.538827        0.810509     -0.000770581    -0.000140606
                    -8.92351e-05     0.000205524        -0.150803      -0.0277927      0.000189334    -0.000779563        -0.563408       -0.804745
                        0.539116         0.81002      0.000292579    -0.000782855        -0.118408        0.159179     -4.78561e-07    -0.000117138
                    -0.000806082    -0.000105758        -0.564579       -0.804761      4.49245e-05     -3.4448e-05       -0.0267731        0.149289
281701.1               -0.192939       0.0458499     -0.000113204     0.000354593         0.538854        0.810493     -0.000770578    -0.000140576
                    -8.92324e-05     0.000205514        -0.150798        -0.02779      0.000189317    -0.000779563        -0.563433       -0.804728
                        0.539143        0.810004      0.000292558    -0.000782863          -0.1184         0.15918     -4.86436e-07    -0.000117145
                    -0.000806082    -0.000105723        -0.564604       -0.804743      4.49267e-05    -3.44604e-05       -0.0267646        0.149285
281701.2               -0.192933       0.0458552     -0.000113192     0.000354587          0.53888        0.810476     -0.000770575    -0.000140546
                    -8.92296e-05     0.000205504        -0.150793      -0.0277872        0.0001893    -0.000779564        -0.563459       -0.804711
                         0.53917        0.809987      0.000292536     -0.00078287        -0.118392         0.15918     -4.94311e-07    -0.000117152
                    -0.000806081    -0.000105688         -0.56463       -0.804726      4.49288e-05    -3.44727e-05       -0.0267561        0.149281
281701.3               -0.192927       0.0458606      -0.00011318     0.000354582         0.538907        0.810459     -0.000770572    -0.000140517
                    -8.92268e-05     0.000205494        -0.150788      -0.0277844      0.000189282    -0.000779565        -0.563485       -0.804694
                        0.539197         0.80997      0.000292515    -0.000782878        -0.118385         0.15918     -5.02186e-07    -0.000117159
                    -0.000806081    -0.000105653        -0.564656       -0.804709       4.4931e-05     -3.4485e-05       -0.0267476        0.149277
281701.4               -0.192922       0.0458659     -0.000113168     0.000354576         0.538934        0.810442     -0.000770569    -0.000140487
                     -8.9224e-05     0.000205484        -0.150784      -0.0277816      0.000189265    -0.000779566        -0.563511       -0.804677
                        0.539224        0.809953      0.000292493    -0.000782885        -0.118377         0.15918     -5.10062e-07    -0.000117167
                     -0.00080608    -0.000105618        -0.564682       -0.804692      4.49332e-05    -3.44973e-05       -0.0267392        0.149273
281701.5               -0.192916       0.0458712     -0.000113156      0.00035457         0.538961        0.810426     -0.000770566    -0.000140457
                    -8.92213e-05     0.000205474        -0.150779      -0.0277788      0.000189248    -0.000779567        -0.563537        -0.80466
                        0.539251        0.809936      0.000292471    -0.000782892        -0.118369         0.15918     -5.17937e-07    -0.000117174
                     -0.00080608    -0.000105583        -0.564708       -0.804675      4.49354e-05    -3.45096e-05       -0.0267307         0.14927
281701.6                -0.19291       0.0458766     -0.000113143     0.000354565         0.538988        0.810409     -0.000770563    -0.000140428
                    -8.92185e-05     0.000205464        -0.150774      -0.0277761      0.000189231    -0.000779567        -0.563563       -0.804643
                        0.539277        0.809919       0.00029245      -0.0007829        -0.118361         0.15918     -5.25812e-07    -0.000117181
                     -0.00080608    -0.000105548        -0.564734       -0.804658      4.49376e-05    -3.45219e-05       -0.0267222        0.149266
281701.7               -0.192904       0.0458819     -0.000113131     0.000354559         0.539015        0.810392      -0.00077056    -0.000140398
                    -8.92157e-05     0.000205454        -0.150769      -0.0277733      0.000189214    -0.000779568        -0.563589       -0.804625
                        0.539304        0.809903      0.000292428    -0.000782907        -0.118354         0.15918     -5.33688e-07    -0.000117188
                    -0.000806079    -0.000105513         -0.56476        -0.80464      4.49398e-05    -3.45342e-05       -0.0267137        0.149262
281701.8               -0.192898       0.0458873     -0.000113119     0.000354553         0.539042        0.810375     -0.000770557    -0.000140368
                     -8.9213e-05     0.000205444        -0.150764      -0.0277705      0.000189197    -0.000779569        -0.563615       -0.804608
                        0.539331        0.809886      0.000292406    -0.000782915        -0.118346         0.15918     -5.41563e-07    -0.000117196
                    -0.000806079    -0.000105478        -0.564786       -0.804623      4.49419e-05    -3.45466e-05       -0.0267052        0.149258
281701.9               -0.192892       0.0458926     -0.000113107     0.000354547         0.539069        0.810359     -0.000770553    -0.000140339
                    -8.92102e-05     0.000205434         -0.15076      -0.0277677       0.00018918     -0.00077957        -0.563641       -0.804591
                        0.539358        0.809869      0.000292385    -0.000782922        -0.118338         0.15918     -5.49439e-07    -0.000117203
                    -0.000806078    -0.000105443        -0.564812       -0.804606      4.49441e-05    -3.45589e-05       -0.0266967        0.149254
281702                 -0.192886        0.045898     -0.000113095     0.000354542         0.539095        0.810342      -0.00077055    -0.000140309
                    -8.92074e-05     0.000205424        -0.150755      -0.0277649      0.000189163    -0.000779571        -0.563667       -0.804574
                        0.539385        0.809852      0.000292363     -0.00078293        -0.118331        0.159181     -5.57314e-07     -0.00011721
                    -0.000806078    -0.000105408        -0.564838       -0.804589      4.49463e-05    -3.45712e-05       -0.0266882         0.14925
281702.1                -0.19288       0.0459033     -0.000113083     0.000354536         0.539122        0.810325     -0.000770547    -0.000140279
                    -8.92047e-05     0.000205414         -0.15075      -0.0277622      0.000189146    -0.000779572        -0.563693       -0.804557
                        0.539412        0.809835      0.000292342    -0.000782937        -0.118323        0.159181     -5.65189e-07    -0.000117218
                    -0.000806077    -0.000105373        -0.564864       -0.804572      4.49485e-05    -3.45835e-05       -0.0266797        0.149246
281702.2               -0.192875       0.0459087     -0.000113071      0.00035453         0.539149        0.810308     -0.000770544     -0.00014025
                    -8.92019e-05     0.000205404        -0.150745      -0.0277594      0.000189129    -0.000779572        -0.563718        -0.80454
                        0.539439        0.809818       0.00029232    -0.000782945        -0.118315        0.159181     -5.73065e-07    -0.000117225
                    -0.000806077    -0.000105338         -0.56489       -0.804554      4.49507e-05    -3.45958e-05       -0.0266713        0.149242
281702.3               -0.192869        0.045914     -0.000113059     0.000354524         0.539176        0.810291     -0.000770541     -0.00014022
                    -8.91992e-05     0.000205394         -0.15074      -0.0277566      0.000189111    -0.000779573        -0.563744       -0.804523
                        0.539465        0.809802      0.000292298    -0.000782952        -0.118308        0.159181      -5.8094e-07    -0.000117232
                    -0.000806076    -0.000105303        -0.564915       -0.804537      4.49529e-05    -3.46081e-05       -0.0266628        0.149238
281702.4               -0.192863       0.0459194     -0.000113047     0.000354519         0.539203        0.810275     -0.000770538     -0.00014019
                    -8.91964e-05     0.000205384        -0.150735      -0.0277538      0.000189094    -0.000779574         -0.56377       -0.804505
                        0.539492        0.809785      0.000292277     -0.00078296          -0.1183        0.159181     -5.88816e-07    -0.000117239
                    -0.000806076    -0.000105268        -0.564941        -0.80452       4.4955e-05    -3.46205e-05       -0.0266543        0.149234
281702.5               -0.192857       0.0459247     -0.000113034     0.000354513          0.53923        0.810258     -0.000770535     -0.00014016
                    -8.91937e-05     0.000205374        -0.150731       -0.027751      0.000189077    -0.000779575        -0.563796       -0.804488
                        0.539519        0.809768      0.000292255    -0.000782967        -0.118292        0.159181     -5.96692e-07    -0.000117247
                    -0.000806076    -0.000105233        -0.564967       -0.804503      4.49572e-05    -3.46328e-05       -0.0266458         0.14923
281702.6               -0.192851         0.04593     -0.000113022     0.000354507         0.539257        0.810241     -0.000770532    -0.000140131
                    -8.91909e-05     0.000205364        -0.150726      -0.0277483       0.00018906    -0.000779576        -0.563822       -0.804471
                        0.539546        0.809751      0.000292234    -0.000782974        -0.118285        0.159181     -6.04567e-07    -0.000117254
                    -0.000806075    -0.000105198        -0.564993       -0.804485      4.49594e-05    -3.46451e-05       -0.0266373        0.149227
281702.7               -0.192845       0.0459354      -0.00011301     0.000354501         0.539283        0.810224     -0.000770529    -0.000140101
                    -8.91882e-05     0.000205354        -0.150721      -0.0277455      0.000189043    -0.000779576        -0.563848       -0.804454
                        0.539573        0.809734      0.000292212    -0.000782982        -0.118277        0.159181     -6.12443e-07    -0.000117261
                    -0.000806075    -0.000105163        -0.565019       -0.804468      4.49616e-05    -3.46574e-05       -0.0266288        0.149223
281702.8               -0.192839       0.0459407     -0.000112998     0.000354496          0.53931        0.810208     -0.000770526    -0.000140071
                    -8.91854e-05     0.000205344        -0.150716      -0.0277427      0.000189026    -0.000779577        -0.563874       -0.804437
                          0.5396        0.809717       0.00029219    -0.000782989        -0.118269        0.159181     -6.20318e-07    -0.000117268
                    -0.000806074    -0.000105128        -0.565045       -0.804451      4.49638e-05    -3.46697e-05       -0.0266203        0.149219
281702.9               -0.192833       0.0459461     -0.000112986      0.00035449         0.539337        0.810191     -0.000770523    -0.000140042
                    -8.91827e-05     0.000205335        -0.150711      -0.0277399      0.000189009    -0.000779578          -0.5639        -0.80442
                        0.539627        0.809701      0.000292169    -0.000782997        -0.118261        0.159182     -6.28194e-07    -0.000117276
                    -0.000806074    -0.000105093        -0.565071       -0.804434       4.4966e-05    -3.46821e-05       -0.0266118        0.149215
281703                 -0.192828       0.0459514     -0.000112974     0.000354484         0.539364        0.810174      -0.00077052    -0.000140012
                    -8.91799e-05     0.000205325        -0.150707      -0.0277372      0.000188992    -0.000779579        -0.563926       -0.804403
                        0.539653        0.809684      0.000292147    -0.000783004        -0.118254        0.159182      -6.3607e-07    -0.000117283
                    -0.000806073    -0.000105058        -0.565097       -0.804417      4.49681e-05    -3.46944e-05       -0.0266034        0.149211
281703.1               -0.192822       0.0459568     -0.000112962     0.000354478         0.539391        0.810157     -0.000770517    -0.000139982
                    -8.91772e-05     0.000205315        -0.150702      -0.0277344      0.000188975     -0.00077958        -0.563952       -0.804385
                         0.53968        0.809667      0.000292125    -0.000783012        -0.118246        0.159182     -6.43946e-07     -0.00011729
