! TOUCHSTONE file generated by CST MICROWAVE STUDIO
! Date and time: Wed Oct  8 07:02:10 2025
! Project name: Teste_Macro_Metasurface_Nanopilar.cst
! Parameters = {H=600; L_x=165; L_y=130; Lambda=1064; Max_L=200; Min_L=70; PathPara=1; Phi=0; Step_L=10; Theta=0; p=520; phaseX=180; phaseY=0}
! Header version: 2018
! Port assignment regex: !\s*Touchstone port\s*([0-9]+)\s*=\s*(CST MWS port|CST DS port)\s*([0-9]+|Zmin|Zmax)\s*\(\"(.*)\"\)(\s*mode\s*([0-9]+))?.*
! Touchstone port assignment:
! Touchstone port 1 = CST MWS port Zmax ("") mode 1
! Touchstone port 2 = CST MWS port Zmax ("") mode 2
! Touchstone port 3 = CST MWS port Zmin ("") mode 1
! Touchstone port 4 = CST MWS port Zmin ("") mode 2
! S-Parameters are not renormalized. Each port impedance will be approximated by the real part at minimum frequency. The values are described via the [Reference] keyword.
! Default impedance is overridden by [Reference]
[Version] 2.0
# GHz S RI R 376.73
[Number of Ports] 4
[Reference]
376.73 376.73 376.73 376.73 
[Number of Frequencies] 1001
[Network Data]
281700                 -0.175372        0.018788     -0.000455203    -0.000737955        -0.530957       -0.823191      0.000149368    -0.000444784
                     -0.00062986    -0.000548326        -0.293241        0.369148      0.000413916    -0.000162003        -0.525783       -0.692919
                       -0.531011       -0.823327      0.000408862    -0.000106358       -0.0907269        0.150392      0.000346742      0.00054562
                     0.000123159    -0.000230776        -0.525802       -0.692543      0.000432819     0.000623321        -0.440311        0.163283
281700.1               -0.175366       0.0187918     -0.000455245    -0.000737945        -0.530982       -0.823176      0.000149357    -0.000444775
                     -0.00062989    -0.000548347        -0.293224         0.36915      0.000413902    -0.000162026         -0.52581       -0.692905
                       -0.531036       -0.823312      0.000408854     -0.00010639        -0.090719        0.150391      0.000346762     0.000545625
                     0.000123149    -0.000230765        -0.525829       -0.692529      0.000432833     0.000623318        -0.440296        0.163298
281700.2               -0.175361       0.0187957     -0.000455286    -0.000737935        -0.531008        -0.82316      0.000149347    -0.000444766
                     -0.00062992    -0.000548368        -0.293207        0.369151      0.000413888    -0.000162048        -0.525838        -0.69289
                       -0.531062       -0.823296      0.000408845    -0.000106421        -0.090711         0.15039      0.000346783      0.00054563
                      0.00012314    -0.000230753        -0.525856       -0.692515      0.000432846     0.000623314        -0.440281        0.163313
281700.3               -0.175356       0.0187995     -0.000455328    -0.000737926        -0.531034       -0.823145      0.000149337    -0.000444757
                    -0.000629951    -0.000548388         -0.29319        0.369153      0.000413874    -0.000162071        -0.525865       -0.692876
                       -0.531088       -0.823281      0.000408837    -0.000106453       -0.0907031        0.150389      0.000346804     0.000545635
                     0.000123131    -0.000230742        -0.525884       -0.692501      0.000432859     0.000623311        -0.440265        0.163327
281700.4                -0.17535       0.0188033     -0.000455369    -0.000737916        -0.531059       -0.823129      0.000149326    -0.000444748
                    -0.000629981    -0.000548409        -0.293173        0.369155       0.00041386    -0.000162093        -0.525893       -0.692862
                       -0.531113       -0.823265      0.000408828    -0.000106485       -0.0906951        0.150387      0.000346825      0.00054564
                     0.000123121    -0.000230731        -0.525911       -0.692486      0.000432872     0.000623307         -0.44025        0.163342
281700.5               -0.175345       0.0188071     -0.000455411    -0.000737907        -0.531085       -0.823114      0.000149316    -0.000444739
                    -0.000630011     -0.00054843        -0.293157        0.369156      0.000413846    -0.000162116         -0.52592       -0.692848
                       -0.531139        -0.82325       0.00040882    -0.000106517       -0.0906872        0.150386      0.000346845     0.000545645
                     0.000123112     -0.00023072        -0.525939       -0.692472      0.000432886     0.000623304        -0.440235        0.163356
281700.6                -0.17534        0.018811     -0.000455453    -0.000737897        -0.531111       -0.823098      0.000149306     -0.00044473
                    -0.000630041     -0.00054845         -0.29314        0.369158      0.000413832    -0.000162138        -0.525948       -0.692833
                       -0.531165       -0.823234      0.000408811    -0.000106549       -0.0906792        0.150385      0.000346866     0.000545649
                     0.000123103    -0.000230709        -0.525966       -0.692458      0.000432899       0.0006233         -0.44022        0.163371
281700.7               -0.175334       0.0188148     -0.000455494    -0.000737887        -0.531136       -0.823083      0.000149295    -0.000444721
                    -0.000630072    -0.000548471        -0.293123        0.369159      0.000413818    -0.000162161        -0.525975       -0.692819
                        -0.53119       -0.823219      0.000408802     -0.00010658       -0.0906713        0.150384      0.000346887     0.000545654
                     0.000123094    -0.000230698        -0.525994       -0.692443      0.000432912     0.000623297        -0.440205        0.163386
281700.8               -0.175329       0.0188186     -0.000455536    -0.000737878        -0.531162       -0.823067      0.000149285    -0.000444712
                    -0.000630102    -0.000548492        -0.293106        0.369161      0.000413804    -0.000162183        -0.526002       -0.692805
                       -0.531216       -0.823203      0.000408794    -0.000106612       -0.0906633        0.150383      0.000346908     0.000545659
                     0.000123084    -0.000230687        -0.526021       -0.692429      0.000432925     0.000623293         -0.44019          0.1634
281700.9               -0.175323       0.0188225     -0.000455577    -0.000737868        -0.531188       -0.823052      0.000149275    -0.000444703
                    -0.000630132    -0.000548512        -0.293089        0.369163       0.00041379    -0.000162205         -0.52603        -0.69279
                       -0.531242       -0.823188      0.000408785    -0.000106644       -0.0906553        0.150382      0.000346928     0.000545664
                     0.000123075    -0.000230675        -0.526048       -0.692415      0.000432939      0.00062329        -0.440175        0.163415
281701                 -0.175318       0.0188263     -0.000455619    -0.000737858        -0.531213       -0.823036      0.000149265    -0.000444694
                    -0.000630163    -0.000548533        -0.293072        0.369164      0.000413776    -0.000162228        -0.526057       -0.692776
                       -0.531267       -0.823172      0.000408777    -0.000106676       -0.0906474        0.150381      0.000346949     0.000545669
                     0.000123066    -0.000230664        -0.526076       -0.692401      0.000432952     0.000623286         -0.44016        0.163429
281701.1               -0.175313       0.0188301     -0.000455661    -0.000737849        -0.531239       -0.823021      0.000149254    -0.000444685
                    -0.000630193    -0.000548554        -0.293055        0.369166      0.000413762     -0.00016225        -0.526085       -0.692762
                       -0.531293       -0.823156      0.000408768    -0.000106707       -0.0906394         0.15038       0.00034697     0.000545674
                     0.000123056    -0.000230653        -0.526103       -0.692386      0.000432965     0.000623283        -0.440145        0.163444
281701.2               -0.175307       0.0188339     -0.000455702    -0.000737839        -0.531265       -0.823005      0.000149244    -0.000444676
                    -0.000630223    -0.000548574        -0.293038        0.369168      0.000413748    -0.000162273        -0.526112       -0.692748
                       -0.531319       -0.823141       0.00040876    -0.000106739       -0.0906315        0.150379       0.00034699     0.000545679
                     0.000123047    -0.000230642        -0.526131       -0.692372      0.000432978     0.000623279        -0.440129        0.163459
281701.3               -0.175302       0.0188378     -0.000455744    -0.000737829         -0.53129       -0.822989      0.000149234    -0.000444667
                    -0.000630253    -0.000548595        -0.293022        0.369169      0.000413734    -0.000162295         -0.52614       -0.692733
                       -0.531344       -0.823125      0.000408751    -0.000106771       -0.0906235        0.150378      0.000347011     0.000545684
                     0.000123038    -0.000230631        -0.526158       -0.692358      0.000432992     0.000623276        -0.440114        0.163473
281701.4               -0.175296       0.0188416     -0.000455785     -0.00073782        -0.531316       -0.822974      0.000149223    -0.000444658
                    -0.000630284    -0.000548616        -0.293005        0.369171      0.000413719    -0.000162318        -0.526167       -0.692719
                        -0.53137        -0.82311      0.000408742    -0.000106803       -0.0906156        0.150377      0.000347032     0.000545688
                     0.000123028     -0.00023062        -0.526186       -0.692343      0.000433005     0.000623272        -0.440099        0.163488
281701.5               -0.175291       0.0188454     -0.000455827     -0.00073781        -0.531342       -0.822958      0.000149213    -0.000444649
                    -0.000630314    -0.000548637        -0.292988        0.369172      0.000413705     -0.00016234        -0.526194       -0.692705
                       -0.531396       -0.823094      0.000408734    -0.000106834       -0.0906076        0.150376      0.000347053     0.000545693
                     0.000123019    -0.000230609        -0.526213       -0.692329      0.000433018     0.000623269        -0.440084        0.163502
281701.6               -0.175286       0.0188493     -0.000455869      -0.0007378        -0.531367       -0.822943      0.000149203     -0.00044464
                    -0.000630344    -0.000548657        -0.292971        0.369174      0.000413691    -0.000162363        -0.526222        -0.69269
                       -0.531421       -0.823079      0.000408725    -0.000106866       -0.0905997        0.150375      0.000347073     0.000545698
                      0.00012301    -0.000230597         -0.52624       -0.692315      0.000433031     0.000623265        -0.440069        0.163517
281701.7                -0.17528       0.0188531      -0.00045591     -0.00073779        -0.531393       -0.822927      0.000149192    -0.000444631
                    -0.000630374    -0.000548678        -0.292954        0.369176      0.000413677    -0.000162385        -0.526249       -0.692676
                       -0.531447       -0.823063      0.000408717    -0.000106898       -0.0905917        0.150374      0.000347094     0.000545703
                        0.000123    -0.000230586        -0.526268       -0.692301      0.000433045     0.000623262        -0.440054        0.163532
281701.8               -0.175275       0.0188569     -0.000455952    -0.000737781        -0.531419       -0.822912      0.000149182    -0.000444622
                    -0.000630405    -0.000548699        -0.292937        0.369177      0.000413663    -0.000162408        -0.526277       -0.692662
                       -0.531473       -0.823048      0.000408708     -0.00010693       -0.0905838        0.150373      0.000347115     0.000545708
                     0.000122991    -0.000230575        -0.526295       -0.692286      0.000433058     0.000623258        -0.440039        0.163546
281701.9                -0.17527       0.0188607     -0.000455993    -0.000737771        -0.531444       -0.822896      0.000149172    -0.000444613
                    -0.000630435    -0.000548719         -0.29292        0.369179      0.000413649     -0.00016243        -0.526304       -0.692647
                       -0.531498       -0.823032        0.0004087    -0.000106961       -0.0905758        0.150372      0.000347136     0.000545713
                     0.000122982    -0.000230564        -0.526323       -0.692272      0.000433071     0.000623255        -0.440024        0.163561
281702                 -0.175264       0.0188646     -0.000456035    -0.000737761         -0.53147       -0.822881      0.000149161    -0.000444604
                    -0.000630465     -0.00054874        -0.292903         0.36918      0.000413635    -0.000162452        -0.526332       -0.692633
                       -0.531524       -0.823017      0.000408691    -0.000106993       -0.0905678        0.150371      0.000347156     0.000545718
                     0.000122972    -0.000230553         -0.52635       -0.692258      0.000433084     0.000623251        -0.440008        0.163575
281702.1               -0.175259       0.0188684     -0.000456076    -0.000737752        -0.531496       -0.822865      0.000149151    -0.000444595
                    -0.000630496    -0.000548761        -0.292886        0.369182      0.000413621    -0.000162475        -0.526359       -0.692619
                        -0.53155       -0.823001      0.000408682    -0.000107025       -0.0905599         0.15037      0.000347177     0.000545722
                     0.000122963    -0.000230542        -0.526378       -0.692243      0.000433098     0.000623248        -0.439993         0.16359
281702.2               -0.175253       0.0188722     -0.000456118    -0.000737742        -0.531521        -0.82285      0.000149141    -0.000444586
                    -0.000630526    -0.000548781         -0.29287        0.369184      0.000413607    -0.000162497        -0.526386       -0.692605
                       -0.531575       -0.822986      0.000408674    -0.000107057       -0.0905519        0.150369      0.000347198     0.000545727
                     0.000122954    -0.000230531        -0.526405       -0.692229      0.000433111     0.000623244        -0.439978        0.163605
281702.3               -0.175248        0.018876     -0.000456159    -0.000737732        -0.531547       -0.822834       0.00014913    -0.000444577
                    -0.000630556    -0.000548802        -0.292853        0.369185      0.000413593     -0.00016252        -0.526414        -0.69259
                       -0.531601        -0.82297      0.000408665    -0.000107088        -0.090544        0.150368      0.000347218     0.000545732
                     0.000122944    -0.000230519        -0.526432       -0.692215      0.000433124     0.000623241        -0.439963        0.163619
281702.4               -0.175243       0.0188799     -0.000456201    -0.000737722        -0.531573       -0.822819       0.00014912    -0.000444568
                    -0.000630586    -0.000548823        -0.292836        0.369187      0.000413579    -0.000162542        -0.526441       -0.692576
                       -0.531627       -0.822954      0.000408656     -0.00010712        -0.090536        0.150367      0.000347239     0.000545737
                     0.000122935    -0.000230508         -0.52646         -0.6922      0.000433137     0.000623237        -0.439948        0.163634
281702.5               -0.175237       0.0188837     -0.000456243    -0.000737713        -0.531598       -0.822803       0.00014911    -0.000444559
                    -0.000630617    -0.000548843        -0.292819        0.369188      0.000413565    -0.000162565        -0.526469       -0.692562
                       -0.531652       -0.822939      0.000408648    -0.000107152       -0.0905281        0.150366       0.00034726     0.000545742
                     0.000122926    -0.000230497        -0.526487       -0.692186      0.000433151     0.000623234        -0.439933        0.163648
281702.6               -0.175232       0.0188875     -0.000456284    -0.000737703        -0.531624       -0.822788      0.000149099     -0.00044455
                    -0.000630647    -0.000548864        -0.292802         0.36919      0.000413551    -0.000162587        -0.526496       -0.692547
                       -0.531678       -0.822923      0.000408639    -0.000107184       -0.0905201        0.150365      0.000347281     0.000545747
                     0.000122916    -0.000230486        -0.526515       -0.692172      0.000433164      0.00062323        -0.439918        0.163663
281702.7               -0.175226       0.0188913     -0.000456326    -0.000737693         -0.53165       -0.822772      0.000149089    -0.000444541
                    -0.000630677    -0.000548885        -0.292785        0.369192      0.000413537     -0.00016261        -0.526524       -0.692533
                       -0.531704       -0.822908      0.000408631    -0.000107215       -0.0905122        0.150364      0.000347301     0.000545752
                     0.000122907    -0.000230475        -0.526542       -0.692158      0.000433177     0.000623227        -0.439903        0.163677
281702.8               -0.175221       0.0188951     -0.000456367    -0.000737683        -0.531675       -0.822757      0.000149079    -0.000444532
                    -0.000630707    -0.000548905        -0.292768        0.369193      0.000413523    -0.000162632        -0.526551       -0.692519
                       -0.531729       -0.822892      0.000408622    -0.000107247       -0.0905042        0.150363      0.000347322     0.000545756
                     0.000122897    -0.000230464        -0.526569       -0.692143       0.00043319     0.000623223        -0.439888        0.163692
281702.9               -0.175216        0.018899     -0.000456409    -0.000737674        -0.531701       -0.822741      0.000149069    -0.000444523
                    -0.000630738    -0.000548926        -0.292751        0.369195      0.000413509    -0.000162654        -0.526578       -0.692504
                       -0.531755       -0.822877      0.000408613    -0.000107279       -0.0904963        0.150362      0.000347343     0.000545761
                     0.000122888    -0.000230453        -0.526597       -0.692129      0.000433204      0.00062322        -0.439872        0.163707
281703                  -0.17521       0.0189028      -0.00045645    -0.000737664        -0.531727       -0.822726      0.000149058    -0.000444514
                    -0.000630768    -0.000548947        -0.292735        0.369196      0.000413495    -0.000162677        -0.526606        -0.69249
                       -0.531781       -0.822861      0.000408605     -0.00010731       -0.0904883        0.150361      0.000347364     0.000545766
                     0.000122879    -0.000230441        -0.526624       -0.692115      0.000433217     0.000623216        -0.439857        0.163721
281703.1               -0.175205       0.0189066     -0.000456492    -0.000737654        -0.531752        -0.82271      0.000149048    -0.000444505
                    -0.000630798    -0.000548967        -0.292718        0.369198      0.000413481    -0.000162699        -0.526633       -0.692476
                       -0.531806       -0.822846      0.000408596    -0.000107342       -0.0904804         0.15036      0.000347384     0.000545771
