! TOUCHSTONE file generated by CST MICROWAVE STUDIO
! Date and time: Wed Oct  8 07:04:48 2025
! Project name: Teste_Macro_Metasurface_Nanopilar.cst
! Parameters = {H=600; L_x=185; L_y=185; Lambda=1064; Max_L=200; Min_L=70; PathPara=1; Phi=0; Step_L=10; Theta=0; p=520; phaseX=180; phaseY=0}
! Header version: 2018
! Port assignment regex: !\s*Touchstone port\s*([0-9]+)\s*=\s*(CST MWS port|CST DS port)\s*([0-9]+|Zmin|Zmax)\s*\(\"(.*)\"\)(\s*mode\s*([0-9]+))?.*
! Touchstone port assignment:
! Touchstone port 1 = CST MWS port Zmax ("") mode 1
! Touchstone port 2 = CST MWS port Zmax ("") mode 2
! Touchstone port 3 = CST MWS port Zmin ("") mode 1
! Touchstone port 4 = CST MWS port Zmin ("") mode 2
! S-Parameters are not renormalized. Each port impedance will be approximated by the real part at minimum frequency. The values are described via the [Reference] keyword.
! Default impedance is overridden by [Reference]
[Version] 2.0
# GHz S RI R 376.73
[Number of Ports] 4
[Reference]
376.73 376.73 376.73 376.73 
[Number of Frequencies] 1001
[Network Data]
281700                 -0.225626       -0.252662     -0.000517902     -0.00106189        -0.929575        0.101235      0.000553723     0.000833278
                    -0.000479288    -0.000907672        -0.226479         -0.2544      0.000520551      0.00103078        -0.928416        0.103548
                       -0.929489        0.101224      0.000552376     0.000981145         0.165185       -0.290685      -0.00016709     -0.00130526
                     0.000327564     0.000939543        -0.928507        0.103503     -0.000195337     -0.00145291         0.164193       -0.293377
281700.1                -0.22563       -0.252662     -0.000517938      -0.0010619        -0.929571        0.101265      0.000553678     0.000833366
                    -0.000479324    -0.000907685        -0.226483         -0.2544      0.000520582       0.0010308        -0.928413        0.103579
                       -0.929484        0.101255      0.000552403     0.000981137         0.165169       -0.290697     -0.000167344     -0.00130518
                     0.000327607     0.000939546        -0.928503        0.103533     -0.000195416     -0.00145292         0.164177       -0.293389
281700.2               -0.225634       -0.252662     -0.000517974      -0.0010619        -0.929567        0.101296      0.000553633     0.000833454
                     -0.00047936    -0.000907698        -0.226487         -0.2544      0.000520613      0.00103083        -0.928409        0.103609
                        -0.92948        0.101285       0.00055243     0.000981128         0.165154       -0.290709     -0.000167599     -0.00130509
                     0.000327649      0.00093955        -0.928499        0.103563     -0.000195494     -0.00145293         0.164161         -0.2934
281700.3               -0.225638       -0.252662      -0.00051801     -0.00106191        -0.929563        0.101326      0.000553586     0.000833542
                    -0.000479397    -0.000907711        -0.226491         -0.2544      0.000520644      0.00103086        -0.928405         0.10364
                       -0.929476        0.101315      0.000552457     0.000981119         0.165138       -0.290721     -0.000167854       -0.001305
                     0.000327691     0.000939553        -0.928494        0.103594     -0.000195573     -0.00145295         0.164145       -0.293412
281700.4               -0.225642       -0.252662     -0.000518047     -0.00106191        -0.929559        0.101357       0.00055354      0.00083363
                    -0.000479433    -0.000907725        -0.226495         -0.2544      0.000520675      0.00103089        -0.928401         0.10367
                       -0.929472        0.101346      0.000552483      0.00098111         0.165123       -0.290733      -0.00016811     -0.00130492
                     0.000327734     0.000939556         -0.92849        0.103624     -0.000195651     -0.00145296         0.164129       -0.293423
281700.5               -0.225646       -0.252662     -0.000518083     -0.00106192        -0.929555        0.101387      0.000553493     0.000833719
                    -0.000479469    -0.000907738        -0.226499         -0.2544      0.000520706      0.00103091        -0.928397        0.103701
                       -0.929468        0.101376       0.00055251     0.000981101         0.165107       -0.290745     -0.000168366     -0.00130483
                     0.000327776      0.00093956        -0.928486        0.103654      -0.00019573     -0.00145298         0.164113       -0.293435
281700.6               -0.225649       -0.252662     -0.000518119     -0.00106192         -0.92955        0.101418      0.000553446     0.000833807
                    -0.000479506    -0.000907751        -0.226503         -0.2544      0.000520737      0.00103094        -0.928393        0.103732
                       -0.929464        0.101407      0.000552537     0.000981092         0.165092       -0.290757     -0.000168624     -0.00130474
                     0.000327819     0.000939563        -0.928482        0.103685     -0.000195808     -0.00145299         0.164097       -0.293447
281700.7               -0.225653       -0.252662     -0.000518156     -0.00106193        -0.929546        0.101448      0.000553398     0.000833896
                    -0.000479542    -0.000907764        -0.226507         -0.2544      0.000520768      0.00103097        -0.928389        0.103762
                        -0.92946        0.101437      0.000552563     0.000981083         0.165076       -0.290769     -0.000168882     -0.00130466
                     0.000327861     0.000939567        -0.928477        0.103715     -0.000195887       -0.001453         0.164081       -0.293458
281700.8               -0.225657       -0.252662     -0.000518192     -0.00106193        -0.929542        0.101479       0.00055335     0.000833985
                    -0.000479579    -0.000907778        -0.226511         -0.2544      0.000520799        0.001031        -0.928385        0.103793
                       -0.929456        0.101468       0.00055259     0.000981073          0.16506       -0.290781      -0.00016914     -0.00130457
                     0.000327904      0.00093957        -0.928473        0.103745     -0.000195965     -0.00145302         0.164065        -0.29347
281700.9               -0.225661       -0.252662     -0.000518229     -0.00106194        -0.929538        0.101509      0.000553301     0.000834074
                    -0.000479615    -0.000907791        -0.226515         -0.2544      0.000520829      0.00103102        -0.928381        0.103823
                       -0.929452        0.101498      0.000552617     0.000981064         0.165045       -0.290793       -0.0001694     -0.00130449
                     0.000327946     0.000939573        -0.928469        0.103776     -0.000196044     -0.00145303         0.164049       -0.293481
281701                 -0.225665       -0.252662     -0.000518266     -0.00106194        -0.929534        0.101539      0.000553252     0.000834163
                    -0.000479652    -0.000907804        -0.226519         -0.2544       0.00052086      0.00103105        -0.928377        0.103854
                       -0.929448        0.101529      0.000552643     0.000981054         0.165029       -0.290805      -0.00016966      -0.0013044
                     0.000327989     0.000939577        -0.928465        0.103806     -0.000196123     -0.00145304         0.164033       -0.293493
281701.1               -0.225669       -0.252662     -0.000518303     -0.00106195         -0.92953         0.10157      0.000553202     0.000834253
                    -0.000479688    -0.000907817        -0.226523         -0.2544      0.000520891      0.00103108        -0.928373        0.103885
                       -0.929444        0.101559       0.00055267     0.000981044         0.165014       -0.290817      -0.00016992     -0.00130431
                     0.000328031      0.00093958        -0.928461        0.103836     -0.000196201     -0.00145306         0.164017       -0.293505
281701.2               -0.225673       -0.252662      -0.00051834     -0.00106195        -0.929526          0.1016      0.000553152     0.000834342
                    -0.000479725     -0.00090783        -0.226527         -0.2544      0.000520921       0.0010311        -0.928369        0.103915
                        -0.92944        0.101589      0.000552696     0.000981034         0.164998       -0.290829     -0.000170182     -0.00130423
                     0.000328074     0.000939584        -0.928456        0.103867      -0.00019628     -0.00145307         0.164001       -0.293516
281701.3               -0.225677       -0.252662     -0.000518377     -0.00106196        -0.929522        0.101631      0.000553101     0.000834432
                    -0.000479762    -0.000907844        -0.226531         -0.2544      0.000520952      0.00103113        -0.928366        0.103946
                       -0.929435         0.10162      0.000552722     0.000981024         0.164983       -0.290841     -0.000170444     -0.00130414
                     0.000328116     0.000939587        -0.928452        0.103897     -0.000196358     -0.00145308         0.163985       -0.293528
281701.4               -0.225681       -0.252662     -0.000518414     -0.00106197        -0.929517        0.101661       0.00055305     0.000834522
                    -0.000479798    -0.000907857        -0.226535         -0.2544      0.000520983      0.00103116        -0.928362        0.103977
                       -0.929431         0.10165      0.000552749     0.000981014         0.164967       -0.290853     -0.000170707     -0.00130406
                     0.000328159      0.00093959        -0.928448        0.103927     -0.000196437      -0.0014531         0.163969        -0.29354
281701.5               -0.225685       -0.252661     -0.000518452     -0.00106197        -0.929513        0.101692      0.000552999     0.000834612
                    -0.000479835     -0.00090787        -0.226539         -0.2544      0.000521013      0.00103118        -0.928358        0.104007
                       -0.929427        0.101681      0.000552775     0.000981004         0.164952       -0.290865     -0.000170971     -0.00130397
                     0.000328201     0.000939594        -0.928444        0.103958     -0.000196516     -0.00145311         0.163953       -0.293551
281701.6               -0.225689       -0.252661     -0.000518489     -0.00106198        -0.929509        0.101722      0.000552946     0.000834702
                    -0.000479872    -0.000907884        -0.226543         -0.2544      0.000521044      0.00103121        -0.928354        0.104038
                       -0.929423        0.101711      0.000552801     0.000980994         0.164936       -0.290877     -0.000171235     -0.00130389
                     0.000328244     0.000939597        -0.928439        0.103988     -0.000196595     -0.00145312         0.163937       -0.293563
281701.7               -0.225693       -0.252661     -0.000518526     -0.00106198        -0.929505        0.101753      0.000552894     0.000834793
                    -0.000479909    -0.000907897        -0.226547         -0.2544      0.000521074      0.00103124         -0.92835        0.104068
                       -0.929419        0.101742      0.000552827     0.000980983         0.164921       -0.290889       -0.0001715      -0.0013038
                     0.000328286       0.0009396        -0.928435        0.104018     -0.000196673     -0.00145314         0.163921       -0.293575
281701.8               -0.225696       -0.252661     -0.000518564     -0.00106199        -0.929501        0.101783      0.000552841     0.000834883
                    -0.000479946     -0.00090791        -0.226551         -0.2544      0.000521105      0.00103126        -0.928346        0.104099
                       -0.929415        0.101772      0.000552853     0.000980973         0.164905       -0.290901     -0.000171766     -0.00130372
                     0.000328329     0.000939604        -0.928431        0.104049     -0.000196752     -0.00145315         0.163905       -0.293586
281701.9                 -0.2257       -0.252661     -0.000518602     -0.00106199        -0.929497        0.101813      0.000552787     0.000834974
                    -0.000479983    -0.000907923        -0.226555         -0.2544      0.000521135      0.00103129        -0.928342         0.10413
                       -0.929411        0.101802       0.00055288     0.000980962          0.16489       -0.290913     -0.000172033     -0.00130363
                     0.000328372     0.000939607        -0.928427        0.104079     -0.000196831     -0.00145316         0.163889       -0.293598
281702                 -0.225704       -0.252661      -0.00051864       -0.001062        -0.929493        0.101844      0.000552733     0.000835065
                    -0.000480019    -0.000907937        -0.226559         -0.2544      0.000521166      0.00103132        -0.928338         0.10416
                       -0.929407        0.101833      0.000552906     0.000980951         0.164874       -0.290925       -0.0001723     -0.00130355
                     0.000328414      0.00093961        -0.928422        0.104109      -0.00019691     -0.00145318         0.163873        -0.29361
281702.1               -0.225708       -0.252661     -0.000518678     -0.00106201        -0.929489        0.101874      0.000552678     0.000835156
                    -0.000480056     -0.00090795        -0.226563         -0.2544      0.000521196      0.00103134        -0.928334        0.104191
                       -0.929403        0.101863      0.000552932      0.00098094         0.164859       -0.290937     -0.000172569     -0.00130346
                     0.000328457     0.000939614        -0.928418         0.10414     -0.000196988     -0.00145319         0.163857       -0.293621
281702.2               -0.225712       -0.252661     -0.000518716     -0.00106201        -0.929484        0.101905      0.000552623     0.000835247
                    -0.000480093    -0.000907963        -0.226567         -0.2544      0.000521226      0.00103137         -0.92833        0.104221
                       -0.929399        0.101894      0.000552958     0.000980929         0.164843       -0.290949     -0.000172838     -0.00130338
                     0.000328499     0.000939617        -0.928414         0.10417     -0.000197067      -0.0014532         0.163841       -0.293633
281702.3               -0.225716       -0.252661     -0.000518754     -0.00106202         -0.92948        0.101935      0.000552567     0.000835339
                     -0.00048013    -0.000907976        -0.226571         -0.2544      0.000521257       0.0010314        -0.928326        0.104252
                       -0.929395        0.101924      0.000552983     0.000980918         0.164827       -0.290961     -0.000173108      -0.0013033
                     0.000328542      0.00093962         -0.92841          0.1042     -0.000197146     -0.00145321         0.163825       -0.293645
281702.4                -0.22572       -0.252661     -0.000518792     -0.00106202        -0.929476        0.101966      0.000552511      0.00083543
                    -0.000480167     -0.00090799        -0.226575         -0.2544      0.000521287      0.00103142        -0.928322        0.104283
                        -0.92939        0.101955      0.000553009     0.000980906         0.164812       -0.290973     -0.000173378     -0.00130321
                     0.000328585     0.000939623        -0.928405        0.104231     -0.000197225     -0.00145323         0.163809       -0.293656
281702.5               -0.225724       -0.252661     -0.000518831     -0.00106203        -0.929472        0.101996      0.000552454     0.000835522
                    -0.000480205    -0.000908003        -0.226578         -0.2544      0.000521317      0.00103145        -0.928318        0.104313
                       -0.929386        0.101985      0.000553035     0.000980894         0.164796       -0.290985      -0.00017365     -0.00130313
                     0.000328627     0.000939627        -0.928401        0.104261     -0.000197304     -0.00145324         0.163793       -0.293668
281702.6               -0.225728       -0.252661     -0.000518869     -0.00106203        -0.929468        0.102026      0.000552396     0.000835614
                    -0.000480242    -0.000908016        -0.226582         -0.2544      0.000521347      0.00103147        -0.928314        0.104344
                       -0.929382        0.102015      0.000553061     0.000980883         0.164781       -0.290997     -0.000173922     -0.00130305
                      0.00032867      0.00093963        -0.928397        0.104291     -0.000197383     -0.00145325         0.163777        -0.29368
281702.7               -0.225732       -0.252661     -0.000518908     -0.00106204        -0.929464        0.102057      0.000552338     0.000835706
                    -0.000480279     -0.00090803        -0.226586         -0.2544      0.000521377       0.0010315         -0.92831        0.104374
                       -0.929378        0.102046      0.000553087     0.000980871         0.164765       -0.291009     -0.000174196     -0.00130296
                     0.000328713     0.000939633        -0.928393        0.104322     -0.000197462     -0.00145327         0.163761       -0.293691
281702.8               -0.225736       -0.252661     -0.000518947     -0.00106205         -0.92946        0.102087      0.000552279     0.000835798
                    -0.000480316    -0.000908043         -0.22659         -0.2544      0.000521407      0.00103153        -0.928306        0.104405
                       -0.929374        0.102076      0.000553112     0.000980859          0.16475       -0.291021      -0.00017447     -0.00130288
                     0.000328756     0.000939636        -0.928388        0.104352     -0.000197541     -0.00145328         0.163745       -0.293703
281702.9                -0.22574       -0.252661     -0.000518986     -0.00106205        -0.929455        0.102118       0.00055222      0.00083589
                    -0.000480353    -0.000908056        -0.226594         -0.2544      0.000521438      0.00103155        -0.928302        0.104435
                        -0.92937        0.102107      0.000553138     0.000980847         0.164734       -0.291033     -0.000174745      -0.0013028
                     0.000328798      0.00093964        -0.928384        0.104383      -0.00019762     -0.00145329         0.163729       -0.293715
281703                 -0.225744       -0.252661     -0.000519025     -0.00106206        -0.929451        0.102148       0.00055216     0.000835982
                     -0.00048039     -0.00090807        -0.226598         -0.2544      0.000521468      0.00103158        -0.928298        0.104466
                       -0.929366        0.102137      0.000553163     0.000980834         0.164719       -0.291045      -0.00017502     -0.00130272
                     0.000328841     0.000939643         -0.92838        0.104413     -0.000197699     -0.00145331         0.163713       -0.293726
281703.1               -0.225747       -0.252661     -0.000519064     -0.00106207        -0.929447        0.102179        0.0005521     0.000836075
                    -0.000480428    -0.000908083        -0.226602         -0.2544      0.000521498      0.00103161        -0.928294        0.104497
                       -0.929362        0.102168      0.000553189     0.000980822         0.164703       -0.291057     -0.000175297     -0.00130263
