! TOUCHSTONE file generated by CST MICROWAVE STUDIO
! Date and time: Wed Oct  8 06:57:28 2025
! Project name: Teste_Macro_Metasurface_Nanopilar.cst
! Parameters = {H=600; L_x=125; L_y=150; Lambda=1064; Max_L=200; Min_L=70; PathPara=1; Phi=0; Step_L=10; Theta=0; p=520; phaseX=180; phaseY=0}
! Header version: 2018
! Port assignment regex: !\s*Touchstone port\s*([0-9]+)\s*=\s*(CST MWS port|CST DS port)\s*([0-9]+|Zmin|Zmax)\s*\(\"(.*)\"\)(\s*mode\s*([0-9]+))?.*
! Touchstone port assignment:
! Touchstone port 1 = CST MWS port Zmax ("") mode 1
! Touchstone port 2 = CST MWS port Zmax ("") mode 2
! Touchstone port 3 = CST MWS port Zmin ("") mode 1
! Touchstone port 4 = CST MWS port Zmin ("") mode 2
! S-Parameters are not renormalized. Each port impedance will be approximated by the real part at minimum frequency. The values are described via the [Reference] keyword.
! Default impedance is overridden by [Reference]
[Version] 2.0
# GHz S RI R 376.73
[Number of Ports] 4
[Reference]
376.73 376.73 376.73 376.73 
[Number of Frequencies] 1001
[Network Data]
281700                 -0.105132      -0.0656943     -0.000443882     0.000852322        -0.756221       -0.633848      3.09053e-05     0.000321195
                    -0.000500907     0.000845838        -0.240159      -0.0523714     -0.000355315    -8.72088e-06        -0.093583        -0.95861
                       -0.756468       -0.633433     -0.000405489     -4.2085e-06          0.07971       0.0878291      -0.00105213     8.20009e-05
                    -2.41761e-05     0.000302013       -0.0936282       -0.959008       -0.0011963    -4.71799e-05        -0.225947       0.0977915
281700.1               -0.105127      -0.0656967     -0.000443854     0.000852339        -0.756242       -0.633823      3.09211e-05      0.00032119
                    -0.000500868     0.000845841        -0.240159      -0.0523629      -0.00035534    -8.70759e-06       -0.0936124       -0.958608
                       -0.756489       -0.633407     -0.000405498    -4.19441e-06        0.0797176       0.0878187      -0.00105212     8.20387e-05
                    -2.41665e-05     0.000302007       -0.0936575       -0.959005      -0.00119633    -4.71362e-05        -0.225943       0.0977968
281700.2               -0.105123      -0.0656992     -0.000443827     0.000852355        -0.756264       -0.633798       3.0937e-05     0.000321185
                    -0.000500829     0.000845843        -0.240159      -0.0523544     -0.000355366     -8.6943e-06       -0.0936418       -0.958605
                        -0.75651       -0.633382     -0.000405506    -4.18031e-06        0.0797252       0.0878084      -0.00105212      8.2077e-05
                    -2.41569e-05     0.000302002       -0.0936868       -0.959003      -0.00119636    -4.70925e-05        -0.225939       0.0978022
281700.3               -0.105119      -0.0657017     -0.000443799     0.000852372        -0.756285       -0.633773      3.09529e-05     0.000321179
                     -0.00050079     0.000845846        -0.240159      -0.0523458     -0.000355391    -8.68101e-06       -0.0936712       -0.958603
                       -0.756532       -0.633357     -0.000405515    -4.16622e-06        0.0797327       0.0877981      -0.00105212     8.21157e-05
                    -2.41473e-05     0.000301996       -0.0937162       -0.959001      -0.00119639    -4.70487e-05        -0.225934       0.0978075
281700.4               -0.105114      -0.0657042     -0.000443772     0.000852389        -0.756306       -0.633748      3.09689e-05     0.000321174
                    -0.000500751     0.000845848        -0.240159      -0.0523373     -0.000355416    -8.66772e-06       -0.0937005         -0.9586
                       -0.756553       -0.633332     -0.000405523    -4.15212e-06        0.0797403       0.0877878      -0.00105211     8.21549e-05
                    -2.41377e-05      0.00030199       -0.0937455       -0.958998      -0.00119642     -4.7005e-05         -0.22593       0.0978129
281700.5                -0.10511      -0.0657067     -0.000443744     0.000852405        -0.756328       -0.633723       3.0985e-05     0.000321169
                    -0.000500712      0.00084585        -0.240159      -0.0523288     -0.000355441    -8.65443e-06       -0.0937299       -0.958598
                       -0.756574       -0.633307     -0.000405532    -4.13803e-06        0.0797478       0.0877775      -0.00105211     8.21945e-05
                     -2.4128e-05     0.000301985       -0.0937749       -0.958996      -0.00119645    -4.69613e-05        -0.225926       0.0978182
281700.6               -0.105106      -0.0657092     -0.000443717     0.000852422        -0.756349       -0.633698      3.10012e-05     0.000321164
                    -0.000500674     0.000845853        -0.240158      -0.0523203     -0.000355466    -8.64114e-06       -0.0937593       -0.958595
                       -0.756596       -0.633282      -0.00040554    -4.12393e-06        0.0797554       0.0877672       -0.0010521     8.22346e-05
                    -2.41184e-05     0.000301979       -0.0938042       -0.958994      -0.00119648    -4.69176e-05        -0.225921       0.0978236
281700.7               -0.105101      -0.0657116     -0.000443689     0.000852439         -0.75637       -0.633673      3.10174e-05     0.000321159
                    -0.000500635     0.000845855        -0.240158      -0.0523117     -0.000355491    -8.62784e-06       -0.0937887       -0.958592
                       -0.756617       -0.633257     -0.000405549    -4.10983e-06         0.079763       0.0877569       -0.0010521     8.22751e-05
                    -2.41088e-05     0.000301973       -0.0938335       -0.958991      -0.00119651    -4.68739e-05        -0.225917       0.0978289
281700.8               -0.105097      -0.0657141     -0.000443662     0.000852455        -0.756392       -0.633647      3.10338e-05     0.000321154
                    -0.000500596     0.000845858        -0.240158      -0.0523032     -0.000355516    -8.61455e-06        -0.093818        -0.95859
                       -0.756639       -0.633232     -0.000405557    -4.09573e-06        0.0797705       0.0877465       -0.0010521     8.23161e-05
                    -2.40991e-05     0.000301968       -0.0938629       -0.958989      -0.00119655    -4.68301e-05        -0.225912       0.0978343
281700.9               -0.105093      -0.0657166     -0.000443634     0.000852472        -0.756413       -0.633622      3.10502e-05     0.000321149
                    -0.000500557      0.00084586        -0.240158      -0.0522947     -0.000355541    -8.60125e-06       -0.0938474       -0.958587
                        -0.75666       -0.633207     -0.000405566    -4.08163e-06        0.0797781       0.0877362      -0.00105209     8.23576e-05
                    -2.40895e-05     0.000301962       -0.0938922       -0.958986      -0.00119658    -4.67864e-05        -0.225908       0.0978396
281701                 -0.105088      -0.0657191     -0.000443607     0.000852489        -0.756434       -0.633597      3.10666e-05     0.000321144
                    -0.000500518     0.000845862        -0.240158      -0.0522861     -0.000355566    -8.58795e-06       -0.0938767       -0.958585
                       -0.756681       -0.633181     -0.000405574    -4.06753e-06        0.0797856       0.0877259      -0.00105209     8.23995e-05
                    -2.40799e-05     0.000301956       -0.0939215       -0.958984      -0.00119661    -4.67427e-05        -0.225904       0.0978449
281701.1               -0.105084      -0.0657216     -0.000443579     0.000852505        -0.756456       -0.633572      3.10832e-05     0.000321139
                    -0.000500479     0.000845865        -0.240158      -0.0522776     -0.000355592    -8.57465e-06       -0.0939061       -0.958582
                       -0.756703       -0.633156     -0.000405583    -4.05343e-06        0.0797932       0.0877156      -0.00105209     8.24419e-05
                    -2.40702e-05     0.000301951       -0.0939509       -0.958982      -0.00119664    -4.66989e-05        -0.225899       0.0978503
281701.2                -0.10508      -0.0657241     -0.000443552     0.000852522        -0.756477       -0.633547      3.10998e-05     0.000321134
                    -0.000500441     0.000845867        -0.240158      -0.0522691     -0.000355617    -8.56135e-06       -0.0939354        -0.95858
                       -0.756724       -0.633131     -0.000405591    -4.03932e-06        0.0798007       0.0877053      -0.00105208     8.24848e-05
                    -2.40606e-05     0.000301945       -0.0939802       -0.958979      -0.00119667    -4.66552e-05        -0.225895       0.0978556
281701.3               -0.105075      -0.0657266     -0.000443524     0.000852539        -0.756498       -0.633522      3.11166e-05     0.000321129
                    -0.000500402      0.00084587        -0.240158      -0.0522605     -0.000355642    -8.54805e-06       -0.0939648       -0.958577
                       -0.756745       -0.633106       -0.0004056    -4.02522e-06        0.0798083       0.0876949      -0.00105208     8.25281e-05
                    -2.40509e-05     0.000301939       -0.0940096       -0.958977       -0.0011967    -4.66115e-05        -0.225891        0.097861
281701.4               -0.105071       -0.065729     -0.000443497     0.000852555         -0.75652       -0.633497      3.11334e-05     0.000321124
                    -0.000500363     0.000845872        -0.240158       -0.052252     -0.000355667    -8.53475e-06       -0.0939941       -0.958575
                       -0.756767       -0.633081     -0.000405609    -4.01111e-06        0.0798159       0.0876846      -0.00105208     8.25719e-05
                    -2.40413e-05     0.000301933       -0.0940389       -0.958975      -0.00119673    -4.65678e-05        -0.225886       0.0978663
281701.5               -0.105066      -0.0657315     -0.000443469     0.000852572        -0.756541       -0.633471      3.11502e-05     0.000321119
                    -0.000500324     0.000845874        -0.240158      -0.0522435     -0.000355692    -8.52145e-06       -0.0940235       -0.958572
                       -0.756788       -0.633056     -0.000405617      -3.997e-06        0.0798234       0.0876743      -0.00105207     8.26161e-05
                    -2.40316e-05     0.000301928       -0.0940682       -0.958972      -0.00119676     -4.6524e-05        -0.225882       0.0978717
281701.6               -0.105062       -0.065734     -0.000443442     0.000852589        -0.756562       -0.633446      3.11672e-05     0.000321115
                    -0.000500285     0.000845877        -0.240158      -0.0522349     -0.000355717    -8.50814e-06       -0.0940528        -0.95857
                       -0.756809       -0.633031     -0.000405626     -3.9829e-06         0.079831        0.087664      -0.00105207     8.26608e-05
                     -2.4022e-05     0.000301922       -0.0940976        -0.95897      -0.00119679    -4.64803e-05        -0.225878        0.097877
281701.7               -0.105058      -0.0657365     -0.000443414     0.000852605        -0.756584       -0.633421      3.11842e-05      0.00032111
                    -0.000500246     0.000845879        -0.240158      -0.0522264     -0.000355742    -8.49484e-06       -0.0940822       -0.958568
                       -0.756831       -0.633006     -0.000405634    -3.96879e-06        0.0798385       0.0876536      -0.00105207      8.2706e-05
                    -2.40123e-05     0.000301916       -0.0941269       -0.958967      -0.00119682    -4.64366e-05        -0.225873       0.0978824
281701.8               -0.105053       -0.065739     -0.000443387     0.000852622        -0.756605       -0.633396      3.12013e-05     0.000321105
                    -0.000500208     0.000845881        -0.240158      -0.0522179     -0.000355768    -8.48153e-06       -0.0941115       -0.958565
                       -0.756852        -0.63298     -0.000405643    -3.95468e-06        0.0798461       0.0876433      -0.00105207     8.27517e-05
                    -2.40027e-05     0.000301911       -0.0941562       -0.958965      -0.00119685    -4.63928e-05        -0.225869       0.0978877
281701.9               -0.105049      -0.0657415     -0.000443359     0.000852639        -0.756626       -0.633371      3.12185e-05     0.000321101
                    -0.000500169     0.000845884        -0.240158      -0.0522093     -0.000355793    -8.46822e-06       -0.0941409       -0.958563
                       -0.756873       -0.632955     -0.000405651    -3.94057e-06        0.0798536        0.087633      -0.00105206     8.27978e-05
                     -2.3993e-05     0.000301905       -0.0941856       -0.958963      -0.00119688    -4.63491e-05        -0.225864       0.0978931
281702                 -0.105045       -0.065744     -0.000443332     0.000852655        -0.756648       -0.633346      3.12358e-05     0.000321096
                     -0.00050013     0.000845886        -0.240158      -0.0522008     -0.000355818    -8.45491e-06       -0.0941702        -0.95856
                       -0.756895        -0.63293      -0.00040566    -3.92646e-06        0.0798612       0.0876227      -0.00105206     8.28444e-05
                    -2.39833e-05     0.000301899       -0.0942149        -0.95896      -0.00119691    -4.63053e-05         -0.22586       0.0978984
281702.1                -0.10504      -0.0657465     -0.000443304     0.000852672        -0.756669        -0.63332      3.12531e-05     0.000321091
                    -0.000500091     0.000845888        -0.240158      -0.0521923     -0.000355843     -8.4416e-06       -0.0941995       -0.958558
                       -0.756916       -0.632905     -0.000405668    -3.91234e-06        0.0798687       0.0876123      -0.00105206     8.28914e-05
                    -2.39737e-05     0.000301894       -0.0942443       -0.958958      -0.00119694    -4.62616e-05        -0.225856       0.0979037
281702.2               -0.105036       -0.065749     -0.000443277     0.000852688         -0.75669       -0.633295      3.12705e-05     0.000321087
                    -0.000500052     0.000845891        -0.240158      -0.0521838     -0.000355868    -8.42829e-06       -0.0942289       -0.958555
                       -0.756937        -0.63288     -0.000405677    -3.89823e-06        0.0798763        0.087602      -0.00105206     8.29389e-05
                     -2.3964e-05     0.000301888       -0.0942736       -0.958955      -0.00119697    -4.62179e-05        -0.225851       0.0979091
281702.3               -0.105032      -0.0657514     -0.000443249     0.000852705        -0.756712        -0.63327       3.1288e-05     0.000321082
                    -0.000500014     0.000845893        -0.240158      -0.0521752     -0.000355893    -8.41498e-06       -0.0942582       -0.958553
                       -0.756959       -0.632855     -0.000405685    -3.88412e-06        0.0798838       0.0875917      -0.00105205     8.29869e-05
                    -2.39543e-05     0.000301882       -0.0943029       -0.958953        -0.001197    -4.61741e-05        -0.225847       0.0979144
281702.4               -0.105027      -0.0657539     -0.000443222     0.000852722        -0.756733       -0.633245      3.13056e-05     0.000321078
                    -0.000499975     0.000845896        -0.240158      -0.0521667     -0.000355918    -8.40167e-06       -0.0942875        -0.95855
                        -0.75698        -0.63283     -0.000405694       -3.87e-06        0.0798914       0.0875814      -0.00105205     8.30353e-05
                    -2.39446e-05     0.000301877       -0.0943323       -0.958951      -0.00119703    -4.61304e-05        -0.225843       0.0979198
281702.5               -0.105023      -0.0657564     -0.000443194     0.000852738        -0.756754        -0.63322      3.13233e-05     0.000321073
                    -0.000499936     0.000845898        -0.240158      -0.0521582     -0.000355944    -8.38835e-06       -0.0943168       -0.958548
                       -0.757001       -0.632805     -0.000405702    -3.85588e-06        0.0798989        0.087571      -0.00105205     8.30843e-05
                    -2.39349e-05     0.000301871       -0.0943616       -0.958948      -0.00119706    -4.60866e-05        -0.225838       0.0979251
281702.6               -0.105019      -0.0657589     -0.000443167     0.000852755        -0.756776       -0.633195       3.1341e-05     0.000321069
                    -0.000499897       0.0008459        -0.240158      -0.0521496     -0.000355969    -8.37504e-06       -0.0943462       -0.958546
                       -0.757023       -0.632779     -0.000405711    -3.84177e-06        0.0799065       0.0875607      -0.00105205     8.31336e-05
                    -2.39252e-05     0.000301865        -0.094391       -0.958946      -0.00119709    -4.60429e-05        -0.225834       0.0979305
281702.7               -0.105014      -0.0657614      -0.00044314     0.000852772        -0.756797        -0.63317      3.13588e-05     0.000321064
                    -0.000499858     0.000845903        -0.240157      -0.0521411     -0.000355994    -8.36172e-06       -0.0943755       -0.958543
                       -0.757044       -0.632754     -0.000405719    -3.82765e-06         0.079914       0.0875504      -0.00105205     8.31835e-05
                    -2.39155e-05      0.00030186       -0.0944203       -0.958943      -0.00119712    -4.59992e-05        -0.225829       0.0979358
281702.8                -0.10501      -0.0657639     -0.000443112     0.000852788        -0.756818       -0.633144      3.13767e-05      0.00032106
                    -0.000499819     0.000845905        -0.240157      -0.0521326     -0.000356019     -8.3484e-06       -0.0944048       -0.958541
                       -0.757065       -0.632729     -0.000405728    -3.81353e-06        0.0799216         0.08754      -0.00105204     8.32338e-05
                    -2.39058e-05     0.000301854       -0.0944496       -0.958941      -0.00119715    -4.59554e-05        -0.225825       0.0979411
281702.9               -0.105006      -0.0657664     -0.000443085     0.000852805         -0.75684       -0.633119      3.13947e-05     0.000321056
                    -0.000499781     0.000845907        -0.240157       -0.052124     -0.000356044    -8.33508e-06       -0.0944341       -0.958538
                       -0.757087       -0.632704     -0.000405736    -3.79941e-06        0.0799291       0.0875297      -0.00105204     8.32846e-05
                    -2.38961e-05     0.000301848        -0.094479       -0.958939      -0.00119718    -4.59117e-05        -0.225821       0.0979465
281703                 -0.105001      -0.0657689     -0.000443057     0.000852821        -0.756861       -0.633094      3.14127e-05     0.000321051
                    -0.000499742      0.00084591        -0.240157      -0.0521155     -0.000356069    -8.32176e-06       -0.0944634       -0.958536
                       -0.757108       -0.632679     -0.000405745    -3.78529e-06        0.0799367       0.0875194      -0.00105204     8.33359e-05
                    -2.38864e-05     0.000301843       -0.0945083       -0.958936      -0.00119721    -4.58679e-05        -0.225816       0.0979518
281703.1               -0.104997      -0.0657714      -0.00044303     0.000852838        -0.756882       -0.633069      3.14309e-05     0.000321047
                    -0.000499703     0.000845912        -0.240157       -0.052107     -0.000356095    -8.30844e-06       -0.0944928       -0.958534
                       -0.757129       -0.632654     -0.000405753    -3.77117e-06        0.0799442        0.087509      -0.00105204     8.33876e-05
