! TOUCHSTONE file generated by CST MICROWAVE STUDIO
! Date and time: Wed Oct  8 07:03:19 2025
! Project name: Teste_Macro_Metasurface_Nanopilar.cst
! Parameters = {H=600; L_x=175; L_y=120; Lambda=1064; Max_L=200; Min_L=70; PathPara=1; Phi=0; Step_L=10; Theta=0; p=520; phaseX=180; phaseY=0}
! Header version: 2018
! Port assignment regex: !\s*Touchstone port\s*([0-9]+)\s*=\s*(CST MWS port|CST DS port)\s*([0-9]+|Zmin|Zmax)\s*\(\"(.*)\"\)(\s*mode\s*([0-9]+))?.*
! Touchstone port assignment:
! Touchstone port 1 = CST MWS port Zmax ("") mode 1
! Touchstone port 2 = CST MWS port Zmax ("") mode 2
! Touchstone port 3 = CST MWS port Zmin ("") mode 1
! Touchstone port 4 = CST MWS port Zmin ("") mode 2
! S-Parameters are not renormalized. Each port impedance will be approximated by the real part at minimum frequency. The values are described via the [Reference] keyword.
! Default impedance is overridden by [Reference]
[Version] 2.0
# GHz S RI R 376.73
[Number of Ports] 4
[Reference]
376.73 376.73 376.73 376.73 
[Number of Frequencies] 1001
[Network Data]
281700                 -0.248622      -0.0308276     -3.67263e-05        0.000676        -0.137393       -0.952575      0.000322909    -0.000714953
                     0.000165462     0.000158905        -0.253747        0.378559      0.000859732     5.54268e-05        -0.573972        -0.66629
                       -0.136667       -0.952889      0.000355285     7.88049e-05        -0.230387       0.0990026     -0.000256823    -0.000929451
                     0.000610581    -0.000835539        -0.573942       -0.666532     -7.94254e-05    -0.000781459        -0.417996        0.178793
281700.1               -0.248621       -0.030819     -2.55278e-05     0.000667064        -0.137423       -0.952571      0.000322879    -0.000714939
                     0.000165448     0.000158884        -0.253732        0.378559      0.000859728     5.53983e-05        -0.573997       -0.666274
                       -0.136696       -0.952886      0.000357257     8.03788e-05        -0.230383       0.0990079     -0.000256902    -0.000929442
                     0.000610563    -0.000835544        -0.573967       -0.666516     -7.94508e-05    -0.000781437        -0.417982        0.178805
281700.2                -0.24862      -0.0308104     -1.50258e-05     0.000658191        -0.137452       -0.952567      0.000322848    -0.000714925
                     0.000165434     0.000158864        -0.253716         0.37856      0.000859725     5.53699e-05        -0.574022       -0.666258
                       -0.136725       -0.952882      0.000359236     8.19242e-05        -0.230378       0.0990133     -0.000256981    -0.000929433
                     0.000610544    -0.000835548        -0.573992         -0.6665     -7.94762e-05    -0.000781416        -0.417968        0.178818
281700.3               -0.248619      -0.0308017       -5.176e-06     0.000649405        -0.137481       -0.952564      0.000322818    -0.000714911
                     0.000165421     0.000158843        -0.253701        0.378561      0.000859721     5.53414e-05        -0.574047       -0.666242
                       -0.136754       -0.952878      0.000361219      8.3441e-05        -0.230373       0.0990186      -0.00025706    -0.000929424
                     0.000610525    -0.000835552        -0.574017       -0.666484     -7.95015e-05    -0.000781394        -0.417954         0.17883
281700.4               -0.248617      -0.0307931      4.06372e-06     0.000640724         -0.13751        -0.95256      0.000322787    -0.000714897
                     0.000165407     0.000158822        -0.253685        0.378562      0.000859718      5.5313e-05        -0.574072       -0.666226
                       -0.136783       -0.952875      0.000363207     8.49295e-05        -0.230369       0.0990239     -0.000257138    -0.000929416
                     0.000610507    -0.000835557        -0.574042       -0.666468     -7.95269e-05    -0.000781373         -0.41794        0.178843
281700.5               -0.248616      -0.0307845       1.2733e-05     0.000632165        -0.137539       -0.952557      0.000322757    -0.000714883
                     0.000165394     0.000158801        -0.253669        0.378562      0.000859714     5.52845e-05        -0.574097        -0.66621
                       -0.136812       -0.952871        0.0003652     8.63898e-05        -0.230364       0.0990292     -0.000257217    -0.000929407
                     0.000610488    -0.000835561        -0.574067       -0.666452     -7.95522e-05    -0.000781351        -0.417926        0.178855
281700.6               -0.248615      -0.0307759       2.0869e-05     0.000623739        -0.137568       -0.952553      0.000322727    -0.000714869
                      0.00016538      0.00015878        -0.253654        0.378563      0.000859711      5.5256e-05        -0.574122       -0.666194
                       -0.136841       -0.952868      0.000367196      8.7822e-05         -0.23036       0.0990345     -0.000257296    -0.000929399
                      0.00061047    -0.000835565        -0.574092       -0.666436     -7.95776e-05     -0.00078133        -0.417912        0.178868
281700.7               -0.248614      -0.0307672      2.85068e-05     0.000615457        -0.137597        -0.95255      0.000322696    -0.000714855
                     0.000165366     0.000158759        -0.253638        0.378564      0.000859707     5.52276e-05        -0.574147       -0.666178
                        -0.13687       -0.952864      0.000369196     8.92263e-05        -0.230355       0.0990398     -0.000257375     -0.00092939
                     0.000610451    -0.000835569        -0.574117        -0.66642     -7.96029e-05    -0.000781308        -0.417898         0.17888
281700.8               -0.248613      -0.0307586      3.56791e-05     0.000607327        -0.137626       -0.952546      0.000322666    -0.000714841
                     0.000165353     0.000158738        -0.253623        0.378565      0.000859704     5.51991e-05        -0.574172       -0.666162
                       -0.136899       -0.952861      0.000371199     9.06028e-05         -0.23035       0.0990451     -0.000257454    -0.000929382
                     0.000610432    -0.000835574        -0.574141       -0.666404     -7.96283e-05    -0.000781286        -0.417885        0.178893
281700.9               -0.248612        -0.03075      4.24167e-05     0.000599355        -0.137655       -0.952542      0.000322635    -0.000714828
                     0.000165339     0.000158717        -0.253607        0.378565        0.0008597     5.51706e-05        -0.574197       -0.666146
                       -0.136927       -0.952857      0.000373204     9.19517e-05        -0.230346       0.0990504     -0.000257533    -0.000929374
                     0.000610414    -0.000835578        -0.574166       -0.666388     -7.96536e-05    -0.000781265        -0.417871        0.178906
281701                 -0.248611      -0.0307413      4.87481e-05     0.000591544        -0.137684       -0.952539      0.000322605    -0.000714814
                     0.000165325     0.000158697        -0.253591        0.378566      0.000859696     5.51422e-05        -0.574222        -0.66613
                       -0.136956       -0.952853      0.000375211     9.32732e-05        -0.230341       0.0990557     -0.000257612    -0.000929365
                     0.000610395    -0.000835582        -0.574191       -0.666372      -7.9679e-05    -0.000781243        -0.417857        0.178918
281701.1                -0.24861      -0.0307327      5.47001e-05     0.000583898        -0.137713       -0.952535      0.000322575      -0.0007148
                     0.000165312     0.000158676        -0.253576        0.378567      0.000859693     5.51137e-05        -0.574247       -0.666115
                       -0.136985        -0.95285       0.00037722     9.45674e-05        -0.230337       0.0990611     -0.000257691    -0.000929357
                     0.000610377    -0.000835587        -0.574216       -0.666356     -7.97043e-05    -0.000781221        -0.417843        0.178931
281701.2               -0.248609      -0.0307241      6.02975e-05     0.000576418        -0.137742       -0.952532      0.000322544    -0.000714786
                     0.000165298     0.000158655         -0.25356        0.378568      0.000859689     5.50852e-05        -0.574272       -0.666099
                       -0.137014       -0.952846      0.000379229     9.58347e-05        -0.230332       0.0990664      -0.00025777    -0.000929349
                     0.000610358    -0.000835591        -0.574241        -0.66634     -7.97297e-05      -0.0007812        -0.417829        0.178943
281701.3               -0.248608      -0.0307155      6.55637e-05     0.000569105        -0.137771       -0.952528      0.000322514    -0.000714772
                     0.000165285     0.000158634        -0.253545        0.378568      0.000859686     5.50568e-05        -0.574297       -0.666083
                       -0.137043       -0.952843       0.00038124      9.7075e-05        -0.230327       0.0990717     -0.000257849    -0.000929341
                     0.000610339    -0.000835595        -0.574266       -0.666324      -7.9755e-05    -0.000781178        -0.417815        0.178956
281701.4               -0.248607      -0.0307068      7.05201e-05     0.000561959          -0.1378       -0.952524      0.000322483    -0.000714758
                     0.000165271     0.000158613        -0.253529        0.378569      0.000859682     5.50283e-05        -0.574322       -0.666067
                       -0.137072       -0.952839       0.00038325     9.82888e-05        -0.230323        0.099077     -0.000257928    -0.000929333
                     0.000610321    -0.000835599        -0.574291       -0.666309     -7.97803e-05    -0.000781157        -0.417801        0.178968
281701.5               -0.248606      -0.0306982       7.5187e-05     0.000554978        -0.137829       -0.952521      0.000322453    -0.000714745
                     0.000165257     0.000158592        -0.253513         0.37857      0.000859678     5.49998e-05        -0.574347       -0.666051
                       -0.137101       -0.952835      0.000385261     9.94761e-05        -0.230318       0.0990823     -0.000258007    -0.000929325
                     0.000610302    -0.000835604        -0.574316       -0.666293     -7.98056e-05    -0.000781135        -0.417787        0.178981
281701.6               -0.248604      -0.0306896       7.9583e-05     0.000548162        -0.137858       -0.952517      0.000322422    -0.000714731
                     0.000165244     0.000158571        -0.253498        0.378571      0.000859675     5.49714e-05        -0.574372       -0.666035
                        -0.13713       -0.952832      0.000387271     0.000100637        -0.230313       0.0990876     -0.000258086    -0.000929317
                     0.000610284    -0.000835608        -0.574341       -0.666277      -7.9831e-05    -0.000781113        -0.417773        0.178993
281701.7               -0.248603       -0.030681      8.37255e-05     0.000541508        -0.137887       -0.952514      0.000322392    -0.000714717
                      0.00016523     0.000158551        -0.253482        0.378571      0.000859671     5.49429e-05        -0.574397       -0.666019
                       -0.137159       -0.952828       0.00038928     0.000101772        -0.230309       0.0990929     -0.000258166    -0.000929309
                     0.000610265    -0.000835612        -0.574366       -0.666261     -7.98563e-05    -0.000781092        -0.417759        0.179006
281701.8               -0.248602      -0.0306723      8.76308e-05     0.000535014        -0.137916        -0.95251      0.000322362    -0.000714703
                     0.000165216      0.00015853        -0.253467        0.378572      0.000859668     5.49144e-05        -0.574422       -0.666003
                       -0.137188       -0.952825      0.000391287     0.000102882        -0.230304       0.0990982     -0.000258245    -0.000929301
                     0.000610246    -0.000835617        -0.574391       -0.666245     -7.98816e-05     -0.00078107        -0.417745        0.179018
281701.9               -0.248601      -0.0306637       9.1314e-05     0.000528677        -0.137945       -0.952506      0.000322331     -0.00071469
                     0.000165203     0.000158509        -0.253451        0.378573      0.000859664     5.48859e-05        -0.574447       -0.665987
                       -0.137217       -0.952821      0.000393293     0.000103965          -0.2303       0.0991035     -0.000258324    -0.000929293
                     0.000610228    -0.000835621        -0.574416       -0.666229     -7.99069e-05    -0.000781048        -0.417731        0.179031
281702                   -0.2486      -0.0306551       9.4789e-05     0.000522495        -0.137974       -0.952503      0.000322301    -0.000714676
                     0.000165189     0.000158488        -0.253435        0.378574       0.00085966     5.48575e-05        -0.574472       -0.665971
                       -0.137246       -0.952817      0.000395296     0.000105024        -0.230295       0.0991088     -0.000258403    -0.000929285
                     0.000610209    -0.000835625        -0.574441       -0.666213     -7.99322e-05    -0.000781027        -0.417717        0.179043
281702.1               -0.248599      -0.0306464       9.8069e-05     0.000516464        -0.138003       -0.952499       0.00032227    -0.000714662
                     0.000165175     0.000158467         -0.25342        0.378574      0.000859657      5.4829e-05        -0.574497       -0.665955
                       -0.137275       -0.952814      0.000397298     0.000106057         -0.23029       0.0991142     -0.000258482    -0.000929277
                     0.000610191    -0.000835629        -0.574465       -0.666197     -7.99576e-05    -0.000781005        -0.417703        0.179056
281702.2               -0.248598      -0.0306378      0.000101166     0.000510581        -0.138032       -0.952496       0.00032224    -0.000714648
                     0.000165162     0.000158446        -0.253404        0.378575      0.000859653     5.48005e-05        -0.574522       -0.665939
                       -0.137304        -0.95281      0.000399296     0.000107066        -0.230286       0.0991195     -0.000258561    -0.000929269
                     0.000610172    -0.000835634         -0.57449       -0.666181     -7.99829e-05    -0.000780983        -0.417689        0.179069
281702.3               -0.248597      -0.0306292      0.000104092     0.000504843        -0.138061       -0.952492      0.000322209    -0.000714635
                     0.000165148     0.000158426        -0.253389        0.378576      0.000859649      5.4772e-05        -0.574547       -0.665923
                       -0.137333       -0.952807      0.000401291      0.00010805        -0.230281       0.0991248      -0.00025864    -0.000929261
                     0.000610154    -0.000835638        -0.574515       -0.666165     -8.00082e-05    -0.000780962        -0.417675        0.179081
281702.4               -0.248596      -0.0306206      0.000106856     0.000499246         -0.13809       -0.952488      0.000322179    -0.000714621
                     0.000165135     0.000158405        -0.253373        0.378577      0.000859646     5.47436e-05        -0.574572       -0.665907
                       -0.137362       -0.952803      0.000403283      0.00010901        -0.230276       0.0991301     -0.000258719    -0.000929254
                     0.000610135    -0.000835642         -0.57454       -0.666149     -8.00335e-05     -0.00078094        -0.417661        0.179094
281702.5               -0.248595      -0.0306119      0.000109469     0.000493786        -0.138119       -0.952485      0.000322148    -0.000714607
                     0.000165121     0.000158384        -0.253357        0.378578      0.000859642     5.47151e-05        -0.574597       -0.665891
                       -0.137391       -0.952799      0.000405271     0.000109946        -0.230272       0.0991354     -0.000258798    -0.000929246
                     0.000610116    -0.000835647        -0.574565       -0.666133     -8.00588e-05    -0.000780918        -0.417647        0.179106
281702.6               -0.248594      -0.0306033      0.000111941     0.000488461        -0.138148       -0.952481      0.000322118    -0.000714594
                     0.000165107     0.000158363        -0.253342        0.378578      0.000859639     5.46866e-05        -0.574622       -0.665875
                        -0.13742       -0.952796      0.000407255     0.000110858        -0.230267       0.0991407     -0.000258877    -0.000929238
                     0.000610098    -0.000835651         -0.57459       -0.666117     -8.00841e-05    -0.000780897        -0.417633        0.179119
281702.7               -0.248592      -0.0305947      0.000114278     0.000483267        -0.138177       -0.952478      0.000322087     -0.00071458
                     0.000165094     0.000158342        -0.253326        0.378579      0.000859635     5.46581e-05        -0.574647       -0.665859
                       -0.137449       -0.952792      0.000409234     0.000111746        -0.230263        0.099146     -0.000258957    -0.000929231
                     0.000610079    -0.000835655        -0.574615       -0.666101     -8.01094e-05    -0.000780875        -0.417619        0.179131
281702.8               -0.248591      -0.0305861      0.000116491     0.000478199        -0.138206       -0.952474      0.000322057    -0.000714567
                      0.00016508     0.000158321        -0.253311         0.37858      0.000859631     5.46297e-05        -0.574672       -0.665843
                       -0.137478       -0.952789      0.000411208     0.000112611        -0.230258       0.0991513     -0.000259036    -0.000929223
                     0.000610061     -0.00083566         -0.57464       -0.666085     -8.01347e-05    -0.000780853        -0.417605        0.179144
281702.9                -0.24859      -0.0305774      0.000118585     0.000473256        -0.138235        -0.95247      0.000322026    -0.000714553
                     0.000165066       0.0001583        -0.253295        0.378581      0.000859628     5.46012e-05        -0.574697       -0.665827
                       -0.137507       -0.952785      0.000413178     0.000113453        -0.230253       0.0991566     -0.000259115    -0.000929215
                     0.000610042    -0.000835664        -0.574665       -0.666069       -8.016e-05    -0.000780832        -0.417591        0.179156
281703                 -0.248589      -0.0305688      0.000120568     0.000468433        -0.138264       -0.952467      0.000321996    -0.000714539
                     0.000165053      0.00015828        -0.253279        0.378581      0.000859624     5.45727e-05        -0.574722       -0.665811
                       -0.137536       -0.952781      0.000415142     0.000114273        -0.230249       0.0991619     -0.000259194    -0.000929208
                     0.000610024    -0.000835668         -0.57469       -0.666053     -8.01852e-05     -0.00078081        -0.417577        0.179169
281703.1               -0.248588      -0.0305602      0.000122446     0.000463727        -0.138293       -0.952463      0.000321965    -0.000714526
                     0.000165039     0.000158259        -0.253264        0.378582       0.00085962     5.45442e-05        -0.574747       -0.665795
                       -0.137565       -0.952778        0.0004171      0.00011507        -0.230244       0.0991672     -0.000259273      -0.0009292
