! TOUCHSTONE file generated by CST MICROWAVE STUDIO
! Date and time: Wed Oct  8 07:04:13 2025
! Project name: Teste_Macro_Metasurface_Nanopilar.cst
! Parameters = {H=600; L_x=180; L_y=190; Lambda=1064; Max_L=200; Min_L=70; PathPara=1; Phi=0; Step_L=10; Theta=0; p=520; phaseX=180; phaseY=0}
! Header version: 2018
! Port assignment regex: !\s*Touchstone port\s*([0-9]+)\s*=\s*(CST MWS port|CST DS port)\s*([0-9]+|Zmin|Zmax)\s*\(\"(.*)\"\)(\s*mode\s*([0-9]+))?.*
! Touchstone port assignment:
! Touchstone port 1 = CST MWS port Zmax ("") mode 1
! Touchstone port 2 = CST MWS port Zmax ("") mode 2
! Touchstone port 3 = CST MWS port Zmin ("") mode 1
! Touchstone port 4 = CST MWS port Zmin ("") mode 2
! S-Parameters are not renormalized. Each port impedance will be approximated by the real part at minimum frequency. The values are described via the [Reference] keyword.
! Default impedance is overridden by [Reference]
[Version] 2.0
# GHz S RI R 376.73
[Number of Ports] 4
[Reference]
376.73 376.73 376.73 376.73 
[Number of Frequencies] 1001
[Network Data]
281700                 -0.346863       -0.711391     -0.000471383     0.000378631        -0.461424       -0.181479      0.000277307     -6.3968e-05
                     -0.00042437     0.000344559        -0.148122        -0.19799     -0.000642594    -0.000747553        -0.959269        0.106643
                       -0.461314       -0.181333     -0.000615104    -0.000796546         0.750073       0.0121296      0.000160108      0.00086481
                     0.000339984     0.000186393        -0.959153        0.106752     -0.000170506     0.000909458        0.0982081        -0.22478
281700.1               -0.346907       -0.711331     -0.000471292     0.000378694        -0.461508       -0.181472      0.000277289    -6.39796e-05
                    -0.000424368      0.00034462        -0.148126       -0.197993     -0.000642698    -0.000747362        -0.959264        0.106672
                       -0.461397       -0.181326     -0.000615166    -0.000796414         0.750044       0.0119992      0.000160186     0.000864701
                     0.000340012     0.000186364        -0.959148        0.106781      -0.00017034     0.000909357        0.0981981        -0.22479
281700.2               -0.346951       -0.711272       -0.0004712     0.000378756        -0.461591       -0.181466      0.000277272    -6.39912e-05
                    -0.000424367      0.00034468         -0.14813       -0.197996     -0.000642802    -0.000747172         -0.95926        0.106701
                       -0.461481       -0.181319     -0.000615228    -0.000796282         0.750016       0.0118688      0.000160264     0.000864592
                      0.00034004     0.000186335        -0.959144         0.10681     -0.000170173     0.000909257        0.0981881         -0.2248
281700.3               -0.346996       -0.711212     -0.000471108     0.000378819        -0.461675       -0.181459      0.000277254    -6.40028e-05
                    -0.000424365     0.000344738        -0.148135       -0.197998     -0.000642905    -0.000746982        -0.959256         0.10673
                       -0.461564       -0.181312      -0.00061529     -0.00079615         0.749987       0.0117384      0.000160341     0.000864483
                     0.000340068     0.000186306        -0.959139        0.106839     -0.000170007     0.000909157         0.098178        -0.22481
281700.4                -0.34704       -0.711152     -0.000471017     0.000378881        -0.461758       -0.181452      0.000277236    -6.40145e-05
                    -0.000424364     0.000344796        -0.148139       -0.198001     -0.000643008    -0.000746793        -0.959251        0.106758
                       -0.461647       -0.181306     -0.000615352    -0.000796018         0.749959        0.011608      0.000160419     0.000864375
                     0.000340095     0.000186277        -0.959135        0.106867     -0.000169841     0.000909057         0.098168       -0.224819
281700.5               -0.347084       -0.711093     -0.000470925     0.000378944        -0.461841       -0.181445      0.000277218    -6.40261e-05
                    -0.000424363     0.000344852        -0.148143       -0.198004      -0.00064311    -0.000746605        -0.959247        0.106787
                       -0.461731       -0.181299     -0.000615413    -0.000795887          0.74993       0.0114777      0.000160496     0.000864266
                     0.000340122     0.000186248        -0.959131        0.106896     -0.000169675     0.000908958        0.0981579       -0.224829
281700.6               -0.347128       -0.711033     -0.000470833     0.000379006        -0.461925       -0.181438      0.000277201    -6.40378e-05
                    -0.000424363     0.000344907        -0.148148       -0.198007     -0.000643213    -0.000746417        -0.959242        0.106816
                       -0.461814       -0.181292     -0.000615475    -0.000795755         0.749902       0.0113474      0.000160573     0.000864157
                     0.000340149     0.000186218        -0.959126        0.106925      -0.00016951     0.000908859        0.0981479       -0.224839
281700.7               -0.347172       -0.710973     -0.000470742     0.000379068        -0.462008       -0.181431      0.000277183    -6.40495e-05
                    -0.000424362      0.00034496        -0.148152        -0.19801     -0.000643314    -0.000746231        -0.959238        0.106845
                       -0.461898       -0.181285     -0.000615537    -0.000795623         0.749873       0.0112171      0.000160651     0.000864049
                     0.000340176     0.000186189        -0.959122        0.106954     -0.000169344      0.00090876        0.0981379       -0.224849
281700.8               -0.347216       -0.710914      -0.00047065      0.00037913        -0.462091       -0.181424      0.000277165    -6.40612e-05
                    -0.000424362     0.000345012        -0.148156       -0.198012     -0.000643416    -0.000746044        -0.959234        0.106874
                       -0.461981       -0.181278     -0.000615598    -0.000795491         0.749844       0.0110868      0.000160728      0.00086394
                     0.000340202      0.00018616        -0.959117        0.106983     -0.000169179     0.000908662        0.0981278       -0.224858
281700.9                -0.34726       -0.710854     -0.000470558     0.000379193        -0.462174       -0.181417      0.000277147     -6.4073e-05
                    -0.000424362     0.000345063        -0.148161       -0.198015     -0.000643517    -0.000745859        -0.959229        0.106903
                       -0.462064       -0.181271      -0.00061566    -0.000795359         0.749816       0.0109565      0.000160805     0.000863832
                     0.000340229      0.00018613        -0.959113        0.107012     -0.000169013     0.000908564        0.0981178       -0.224868
281701                 -0.347304       -0.710794     -0.000470467     0.000379255        -0.462258        -0.18141      0.000277129    -6.40847e-05
                    -0.000424362     0.000345113        -0.148165       -0.198018     -0.000643618    -0.000745674        -0.959225        0.106931
                       -0.462148       -0.181264     -0.000615721    -0.000795228         0.749787       0.0108263      0.000160883     0.000863723
                     0.000340255       0.0001861        -0.959108        0.107041     -0.000168848     0.000908466        0.0981077       -0.224878
281701.1               -0.347348       -0.710735     -0.000470375     0.000379317        -0.462341       -0.181403       0.00027711    -6.40965e-05
                    -0.000424362     0.000345162        -0.148169       -0.198021     -0.000643718    -0.000745489         -0.95922         0.10696
                       -0.462231       -0.181257     -0.000615783    -0.000795096         0.749758       0.0106961       0.00016096     0.000863615
                      0.00034028     0.000186071        -0.959104         0.10707     -0.000168683     0.000908368        0.0980977       -0.224888
281701.2               -0.347392       -0.710675     -0.000470283     0.000379379        -0.462424       -0.181396      0.000277092    -6.41083e-05
                    -0.000424362     0.000345209        -0.148174       -0.198024     -0.000643818    -0.000745305        -0.959216        0.106989
                       -0.462314        -0.18125     -0.000615844    -0.000794964          0.74973       0.0105659      0.000161037     0.000863506
                     0.000340306     0.000186041        -0.959099        0.107099     -0.000168518     0.000908271        0.0980877       -0.224897
281701.3               -0.347436       -0.710615     -0.000470191     0.000379441        -0.462507       -0.181389      0.000277074    -6.41201e-05
                    -0.000424362     0.000345255        -0.148178       -0.198026     -0.000643917    -0.000745122        -0.959211        0.107018
                       -0.462398       -0.181243     -0.000615906    -0.000794832         0.749701       0.0104358      0.000161114     0.000863398
                     0.000340332     0.000186011        -0.959095        0.107128     -0.000168353     0.000908174        0.0980776       -0.224907
281701.4                -0.34748       -0.710556       -0.0004701     0.000379503        -0.462591       -0.181382      0.000277056     -6.4132e-05
                    -0.000424362     0.000345299        -0.148182       -0.198029     -0.000644017    -0.000744939        -0.959207        0.107047
                       -0.462481       -0.181236     -0.000615967      -0.0007947         0.749672       0.0103056      0.000161191      0.00086329
                     0.000340357     0.000185981         -0.95909        0.107156     -0.000168188     0.000908078        0.0980676       -0.224917
281701.5               -0.347524       -0.710496     -0.000470008     0.000379565        -0.462674       -0.181375      0.000277037    -6.41438e-05
                    -0.000424362     0.000345342        -0.148187       -0.198032     -0.000644116    -0.000744757        -0.959203        0.107076
                       -0.462564       -0.181229     -0.000616029    -0.000794568         0.749643       0.0101755      0.000161268     0.000863181
                     0.000340382     0.000185951        -0.959086        0.107185     -0.000168024     0.000907981        0.0980575       -0.224927
281701.6               -0.347568       -0.710436     -0.000469916     0.000379627        -0.462757       -0.181368      0.000277019    -6.41557e-05
                    -0.000424362     0.000345384        -0.148191       -0.198035     -0.000644214    -0.000744576        -0.959198        0.107105
                       -0.462647       -0.181222      -0.00061609    -0.000794437         0.749615       0.0100454      0.000161345     0.000863073
                     0.000340407     0.000185921        -0.959082        0.107214      -0.00016786     0.000907885        0.0980475       -0.224936
281701.7               -0.347612       -0.710377     -0.000469824     0.000379688         -0.46284       -0.181361         0.000277    -6.41676e-05
                    -0.000424362     0.000345425        -0.148195       -0.198038     -0.000644312    -0.000744395        -0.959194        0.107133
                       -0.462731       -0.181215     -0.000616151    -0.000794305         0.749586      0.00991534      0.000161422     0.000862965
                     0.000340431      0.00018589        -0.959077        0.107243     -0.000167695      0.00090779        0.0980374       -0.224946
281701.8               -0.347656       -0.710317     -0.000469732      0.00037975        -0.462924       -0.181354      0.000276982    -6.41796e-05
                    -0.000424361     0.000345465          -0.1482        -0.19804      -0.00064441    -0.000744215        -0.959189        0.107162
                       -0.462814       -0.181208     -0.000616213    -0.000794173         0.749557      0.00978529      0.000161499     0.000862857
                     0.000340456      0.00018586        -0.959073        0.107272     -0.000167531     0.000907694        0.0980274       -0.224956
281701.9                 -0.3477       -0.710257      -0.00046964     0.000379812        -0.463007       -0.181346      0.000276963    -6.41915e-05
                    -0.000424361     0.000345503        -0.148204       -0.198043     -0.000644508    -0.000744035        -0.959185        0.107191
                       -0.462897       -0.181201     -0.000616274    -0.000794041         0.749528      0.00965527      0.000161576     0.000862749
                      0.00034048     0.000185829        -0.959068        0.107301     -0.000167367     0.000907599        0.0980173       -0.224966
281702                 -0.347744       -0.710198     -0.000469549     0.000379873         -0.46309       -0.181339      0.000276944    -6.42035e-05
                     -0.00042436      0.00034554        -0.148208       -0.198046     -0.000644605    -0.000743856         -0.95918         0.10722
                        -0.46298       -0.181194     -0.000616335    -0.000793909         0.749499      0.00952527      0.000161653      0.00086264
                     0.000340504     0.000185799        -0.959064         0.10733     -0.000167203     0.000907504        0.0980073       -0.224975
281702.1               -0.347788       -0.710138     -0.000469457     0.000379935        -0.463173       -0.181332      0.000276926    -6.42155e-05
                    -0.000424359     0.000345575        -0.148213       -0.198049     -0.000644701    -0.000743677        -0.959176        0.107249
                       -0.463064       -0.181186     -0.000616396    -0.000793777          0.74947      0.00939529      0.000161729     0.000862532
                     0.000340527     0.000185768        -0.959059        0.107359      -0.00016704      0.00090741        0.0979973       -0.224985
281702.2               -0.347832       -0.710079     -0.000469365     0.000379996        -0.463256       -0.181325      0.000276907    -6.42275e-05
                    -0.000424358     0.000345609        -0.148217       -0.198052     -0.000644798    -0.000743499        -0.959172        0.107278
                       -0.463147       -0.181179     -0.000616457    -0.000793646         0.749441      0.00926533      0.000161806     0.000862424
                     0.000340551     0.000185737        -0.959055        0.107388     -0.000166876     0.000907316        0.0979872       -0.224995
281702.3               -0.347876       -0.710019     -0.000469273     0.000380058        -0.463339       -0.181318      0.000276888    -6.42395e-05
                    -0.000424357     0.000345643        -0.148221       -0.198054     -0.000644894    -0.000743321        -0.959167        0.107306
                        -0.46323       -0.181172     -0.000616518    -0.000793514         0.749412       0.0091354      0.000161883     0.000862317
                     0.000340574     0.000185706         -0.95905        0.107417     -0.000166713     0.000907222        0.0979772       -0.225005
281702.4               -0.347919       -0.709959     -0.000469181     0.000380119        -0.463422        -0.18131      0.000276869    -6.42516e-05
                    -0.000424355     0.000345674        -0.148226       -0.198057      -0.00064499    -0.000743144        -0.959163        0.107335
                       -0.463313       -0.181165     -0.000616579    -0.000793382         0.749383      0.00900549      0.000161959     0.000862209
                     0.000340597     0.000185675        -0.959046        0.107445     -0.000166549     0.000907128        0.0979671       -0.225014
281702.5               -0.347963         -0.7099     -0.000469089     0.000380181        -0.463506       -0.181303       0.00027685    -6.42636e-05
                    -0.000424353     0.000345705         -0.14823        -0.19806     -0.000645085    -0.000742968        -0.959158        0.107364
                       -0.463396       -0.181157      -0.00061664     -0.00079325         0.749354       0.0088756      0.000162036     0.000862101
                      0.00034062     0.000185644        -0.959041        0.107474     -0.000166386     0.000907035        0.0979571       -0.225024
281702.6               -0.348007        -0.70984     -0.000468997     0.000380242        -0.463589       -0.181296      0.000276831    -6.42757e-05
                    -0.000424351     0.000345734        -0.148234       -0.198063      -0.00064518    -0.000742792        -0.959154        0.107393
                       -0.463479        -0.18115     -0.000616701    -0.000793118         0.749325      0.00874573      0.000162113     0.000861993
                     0.000340643     0.000185613        -0.959037        0.107503     -0.000166223     0.000906942         0.097947       -0.225034
281702.7               -0.348051        -0.70978     -0.000468905     0.000380303        -0.463672       -0.181288      0.000276812    -6.42878e-05
                    -0.000424348     0.000345762        -0.148239       -0.198066     -0.000645274    -0.000742616        -0.959149        0.107422
                       -0.463563       -0.181143     -0.000616762    -0.000792986         0.749296      0.00861589      0.000162189     0.000861885
                     0.000340665     0.000185582        -0.959032        0.107532     -0.000166061     0.000906849         0.097937       -0.225044
281702.8               -0.348095       -0.709721     -0.000468813     0.000380365        -0.463755       -0.181281      0.000276793       -6.43e-05
                    -0.000424345     0.000345789        -0.148243       -0.198068     -0.000645369    -0.000742441        -0.959145        0.107451
                       -0.463646       -0.181136     -0.000616823    -0.000792855         0.749267      0.00848607      0.000162266     0.000861777
                     0.000340688     0.000185551        -0.959028        0.107561     -0.000165898     0.000906756        0.0979269       -0.225053
281702.9               -0.348138       -0.709661     -0.000468721     0.000380426        -0.463838       -0.181273      0.000276774    -6.43121e-05
                    -0.000424341     0.000345815        -0.148247       -0.198071     -0.000645463    -0.000742266        -0.959141        0.107479
                       -0.463729       -0.181128     -0.000616884    -0.000792723         0.749238      0.00835627      0.000162342      0.00086167
                      0.00034071     0.000185519        -0.959024         0.10759     -0.000165735     0.000906664        0.0979169       -0.225063
281703                 -0.348182       -0.709602     -0.000468629     0.000380487        -0.463921       -0.181266      0.000276754    -6.43243e-05
                    -0.000424337      0.00034584        -0.148252       -0.198074     -0.000645556    -0.000742092        -0.959136        0.107508
                       -0.463812       -0.181121     -0.000616945    -0.000792591         0.749209       0.0082265      0.000162418     0.000861562
                     0.000340732     0.000185488        -0.959019        0.107619     -0.000165573     0.000906572        0.0979068       -0.225073
281703.1               -0.348226       -0.709542     -0.000468537     0.000380548        -0.464004       -0.181259      0.000276735    -6.43365e-05
                    -0.000424332     0.000345863        -0.148256       -0.198077      -0.00064565    -0.000741919        -0.959132        0.107537
                       -0.463895       -0.181113     -0.000617006    -0.000792459          0.74918      0.00809674      0.000162495     0.000861454
