! TOUCHSTONE file generated by CST MICROWAVE STUDIO
! Date and time: Wed Oct  8 07:01:39 2025
! Project name: Teste_Macro_Metasurface_Nanopilar.cst
! Parameters = {H=600; L_x=160; L_y=145; Lambda=1064; Max_L=200; Min_L=70; PathPara=1; Phi=0; Step_L=10; Theta=0; p=520; phaseX=180; phaseY=0}
! Header version: 2018
! Port assignment regex: !\s*Touchstone port\s*([0-9]+)\s*=\s*(CST MWS port|CST DS port)\s*([0-9]+|Zmin|Zmax)\s*\(\"(.*)\"\)(\s*mode\s*([0-9]+))?.*
! Touchstone port assignment:
! Touchstone port 1 = CST MWS port Zmax ("") mode 1
! Touchstone port 2 = CST MWS port Zmax ("") mode 2
! Touchstone port 3 = CST MWS port Zmin ("") mode 1
! Touchstone port 4 = CST MWS port Zmin ("") mode 2
! S-Parameters are not renormalized. Each port impedance will be approximated by the real part at minimum frequency. The values are described via the [Reference] keyword.
! Default impedance is overridden by [Reference]
[Version] 2.0
# GHz S RI R 376.73
[Number of Ports] 4
[Reference]
376.73 376.73 376.73 376.73 
[Number of Frequencies] 1001
[Network Data]
281700                 -0.664794        0.306129      -0.00131728     0.000181715        -0.134195       -0.614076       0.00115583     1.25369e-05
                     -0.00133311     0.000225383        -0.153274        0.259628       0.00132515      0.00039103        -0.722339       -0.611607
                       -0.134002       -0.613847       0.00117602     0.000336144        -0.715089       -0.111938      -0.00128624    -0.000126545
                      0.00122455     3.82266e-05        -0.722124       -0.611292      -0.00117178    -0.000139044        -0.236221        0.185389
281700.1               -0.664755        0.306155      -0.00131725     0.000181799        -0.134238       -0.614099       0.00115581     1.24642e-05
                     -0.00133307     0.000225432        -0.153263        0.259627       0.00132513     0.000390954         -0.72236       -0.611586
                       -0.134045        -0.61387       0.00117601     0.000336047        -0.715075       -0.111879      -0.00128622    -0.000126446
                       0.0012245     3.81217e-05        -0.722145       -0.611271      -0.00117178    -0.000138936         -0.23621        0.185393
281700.2               -0.664717        0.306181      -0.00131721     0.000181884        -0.134281       -0.614122       0.00115578     1.23914e-05
                     -0.00133303     0.000225481        -0.153252        0.259625       0.00132511     0.000390879        -0.722381       -0.611565
                       -0.134088       -0.613893         0.001176      0.00033595        -0.715061       -0.111819       -0.0012862    -0.000126346
                      0.00122445     3.80167e-05        -0.722166        -0.61125      -0.00117178    -0.000138828        -0.236198        0.185396
281700.3               -0.664678        0.306208      -0.00131718     0.000181968        -0.134324       -0.614145       0.00115575     1.23187e-05
                     -0.00133299      0.00022553        -0.153241        0.259624       0.00132509     0.000390803        -0.722402       -0.611543
                       -0.134131       -0.613916       0.00117599     0.000335852        -0.715047       -0.111759      -0.00128618    -0.000126247
                       0.0012244     3.79118e-05        -0.722187       -0.611229      -0.00117178     -0.00013872        -0.236187          0.1854
281700.4                -0.66464        0.306234      -0.00131715     0.000182052        -0.134367       -0.614167       0.00115573     1.22459e-05
                     -0.00133295     0.000225579         -0.15323        0.259622       0.00132507     0.000390727        -0.722423       -0.611522
                       -0.134174       -0.613939       0.00117599     0.000335755        -0.715033         -0.1117      -0.00128616    -0.000126148
                      0.00122435     3.78069e-05        -0.722207       -0.611208      -0.00117178    -0.000138612        -0.236175        0.185404
281700.5               -0.664601         0.30626      -0.00131712     0.000182136         -0.13441        -0.61419        0.0011557     1.21732e-05
                     -0.00133291     0.000225628        -0.153219        0.259621       0.00132505     0.000390652        -0.722444       -0.611501
                       -0.134217       -0.613962       0.00117598     0.000335658        -0.715019        -0.11164      -0.00128614    -0.000126048
                       0.0012243      3.7702e-05        -0.722228       -0.611186      -0.00117178    -0.000138504        -0.236164        0.185408
281700.6               -0.664563        0.306287      -0.00131708      0.00018222        -0.134453       -0.614213       0.00115567     1.21004e-05
                     -0.00133287     0.000225678        -0.153208        0.259619       0.00132503     0.000390576        -0.722465        -0.61148
                        -0.13426       -0.613985       0.00117597     0.000335561        -0.715005       -0.111581      -0.00128613    -0.000125949
                      0.00122425     3.75971e-05        -0.722249       -0.611165      -0.00117178    -0.000138396        -0.236152        0.185412
281700.7               -0.664524        0.306313      -0.00131705     0.000182304        -0.134496       -0.614236       0.00115565     1.20277e-05
                     -0.00133283     0.000225727        -0.153197        0.259618       0.00132501     0.000390501        -0.722486       -0.611458
                       -0.134303       -0.614008       0.00117597     0.000335463        -0.714991       -0.111521      -0.00128611     -0.00012585
                       0.0012242     3.74922e-05         -0.72227       -0.611144      -0.00117178    -0.000138288         -0.23614        0.185415
281700.8               -0.664486        0.306339      -0.00131702     0.000182389        -0.134539       -0.614259       0.00115562      1.1955e-05
                     -0.00133279     0.000225776        -0.153186        0.259616       0.00132499     0.000390425        -0.722506       -0.611437
                       -0.134346       -0.614031       0.00117596     0.000335366        -0.714976       -0.111461      -0.00128609     -0.00012575
                      0.00122415     3.73873e-05        -0.722291       -0.611123      -0.00117178     -0.00013818        -0.236129        0.185419
281700.9               -0.664447        0.306365      -0.00131699     0.000182473        -0.134582       -0.614282       0.00115559     1.18823e-05
                     -0.00133275     0.000225825        -0.153175        0.259615       0.00132497     0.000390349        -0.722527       -0.611416
                        -0.13439       -0.614054       0.00117595     0.000335269        -0.714962       -0.111402      -0.00128607    -0.000125651
                       0.0012241     3.72825e-05        -0.722312       -0.611101      -0.00117178    -0.000138072        -0.236117        0.185423
281701                 -0.664409        0.306392      -0.00131695     0.000182557        -0.134625       -0.614305       0.00115556     1.18095e-05
                     -0.00133271     0.000225874        -0.153164        0.259613       0.00132495     0.000390274        -0.722548       -0.611395
                       -0.134433       -0.614077       0.00117595     0.000335172        -0.714948       -0.111342      -0.00128605    -0.000125552
                      0.00122405     3.71777e-05        -0.722333        -0.61108      -0.00117178    -0.000137964        -0.236106        0.185427
281701.1                -0.66437        0.306418      -0.00131692     0.000182641        -0.134669       -0.614328       0.00115554     1.17368e-05
                     -0.00133267     0.000225923        -0.153153        0.259612       0.00132493     0.000390198        -0.722569       -0.611373
                       -0.134476         -0.6141       0.00117594     0.000335075        -0.714934       -0.111283      -0.00128603    -0.000125452
                        0.001224     3.70728e-05        -0.722354       -0.611059      -0.00117178    -0.000137856        -0.236094         0.18543
281701.2               -0.664332        0.306444      -0.00131689     0.000182725        -0.134712        -0.61435       0.00115551     1.16641e-05
                     -0.00133263     0.000225972        -0.153142         0.25961       0.00132491     0.000390123         -0.72259       -0.611352
                       -0.134519       -0.614122       0.00117593     0.000334978         -0.71492       -0.111223      -0.00128601    -0.000125353
                      0.00122395      3.6968e-05        -0.722375       -0.611038      -0.00117179    -0.000137748        -0.236083        0.185434
281701.3               -0.664293         0.30647      -0.00131686     0.000182809        -0.134755       -0.614373       0.00115548     1.15914e-05
                     -0.00133259     0.000226021        -0.153131        0.259609       0.00132489     0.000390047        -0.722611       -0.611331
                       -0.134562       -0.614145       0.00117593      0.00033488        -0.714906       -0.111164      -0.00128599    -0.000125254
                       0.0012239     3.68633e-05        -0.722396       -0.611017      -0.00117179    -0.000137641        -0.236071        0.185438
281701.4               -0.664255        0.306497      -0.00131682     0.000182893        -0.134798       -0.614396       0.00115546     1.15187e-05
                     -0.00133255      0.00022607         -0.15312        0.259607       0.00132487     0.000389972        -0.722632        -0.61131
                       -0.134605       -0.614168       0.00117592     0.000334783        -0.714891       -0.111104      -0.00128598    -0.000125154
                      0.00122385     3.67585e-05        -0.722417       -0.610995      -0.00117179    -0.000137533        -0.236059        0.185442
281701.5               -0.664216        0.306523      -0.00131679     0.000182978        -0.134841       -0.614419       0.00115543      1.1446e-05
                     -0.00133251     0.000226119        -0.153109        0.259606       0.00132485     0.000389896        -0.722653       -0.611288
                       -0.134648       -0.614191       0.00117591     0.000334686        -0.714877       -0.111044      -0.00128596    -0.000125055
                       0.0012238     3.66537e-05        -0.722438       -0.610974      -0.00117179    -0.000137425        -0.236048        0.185446
281701.6               -0.664178        0.306549      -0.00131676     0.000183062        -0.134884       -0.614442        0.0011554     1.13734e-05
                     -0.00133247     0.000226168        -0.153098        0.259604       0.00132483      0.00038982        -0.722674       -0.611267
                       -0.134691       -0.614214        0.0011759     0.000334589        -0.714863       -0.110985      -0.00128594    -0.000124956
                      0.00122375      3.6549e-05        -0.722458       -0.610953      -0.00117179    -0.000137317        -0.236036        0.185449
281701.7                -0.66414        0.306575      -0.00131673     0.000183146        -0.134927       -0.614465       0.00115538     1.13007e-05
                     -0.00133243     0.000226217        -0.153087        0.259603       0.00132481     0.000389745        -0.722695       -0.611246
                       -0.134734       -0.614237        0.0011759     0.000334492        -0.714849       -0.110925      -0.00128592    -0.000124856
                       0.0012237     3.64443e-05        -0.722479       -0.610932      -0.00117179    -0.000137209        -0.236025        0.185453
281701.8               -0.664101        0.306602      -0.00131669      0.00018323         -0.13497       -0.614487       0.00115535      1.1228e-05
                     -0.00133239     0.000226266        -0.153076        0.259601       0.00132479     0.000389669        -0.722716       -0.611225
                       -0.134778        -0.61426       0.00117589     0.000334395        -0.714835       -0.110866       -0.0012859    -0.000124757
                      0.00122365     3.63395e-05          -0.7225        -0.61091      -0.00117179    -0.000137101        -0.236013        0.185457
281701.9               -0.664063        0.306628      -0.00131666     0.000183314        -0.135013        -0.61451       0.00115532     1.11554e-05
                     -0.00133235     0.000226316        -0.153065          0.2596       0.00132477     0.000389594        -0.722737       -0.611203
                       -0.134821       -0.614282       0.00117588     0.000334298        -0.714821       -0.110806      -0.00128588    -0.000124658
                       0.0012236     3.62348e-05        -0.722521       -0.610889      -0.00117179    -0.000136993        -0.236002        0.185461
281702                 -0.664024        0.306654      -0.00131663     0.000183398        -0.135056       -0.614533       0.00115529     1.10827e-05
                     -0.00133231     0.000226365        -0.153054        0.259598       0.00132475     0.000389518        -0.722758       -0.611182
                       -0.134864       -0.614305       0.00117588       0.0003342        -0.714806       -0.110747      -0.00128586    -0.000124559
                      0.00122355     3.61302e-05        -0.722542       -0.610868      -0.00117179    -0.000136885         -0.23599        0.185464
281702.1               -0.663986         0.30668       -0.0013166     0.000183482        -0.135099       -0.614556       0.00115527       1.101e-05
                     -0.00133227     0.000226414        -0.153043        0.259597       0.00132473     0.000389443        -0.722778       -0.611161
                       -0.134907       -0.614328       0.00117587     0.000334103        -0.714792       -0.110687      -0.00128584    -0.000124459
                      0.00122349     3.60255e-05        -0.722563       -0.610847      -0.00117179    -0.000136777        -0.235978        0.185468
281702.2               -0.663947        0.306707      -0.00131656     0.000183566        -0.135143       -0.614579       0.00115524     1.09374e-05
                     -0.00133223     0.000226463        -0.153032        0.259595       0.00132471     0.000389367        -0.722799        -0.61114
                        -0.13495       -0.614351       0.00117586     0.000334006        -0.714778       -0.110628      -0.00128582     -0.00012436
                      0.00122344     3.59208e-05        -0.722584       -0.610826      -0.00117179    -0.000136669        -0.235967        0.185472
281702.3               -0.663909        0.306733      -0.00131653      0.00018365        -0.135186       -0.614601       0.00115521     1.08648e-05
                     -0.00133219     0.000226512        -0.153021        0.259594       0.00132469     0.000389292         -0.72282       -0.611118
                       -0.134993       -0.614374       0.00117585     0.000333909        -0.714764       -0.110568      -0.00128581    -0.000124261
                      0.00122339     3.58162e-05        -0.722605       -0.610804      -0.00117179    -0.000136561        -0.235955        0.185476
281702.4                -0.66387        0.306759       -0.0013165     0.000183734        -0.135229       -0.614624       0.00115519     1.07921e-05
                     -0.00133215     0.000226561         -0.15301        0.259592       0.00132467     0.000389216        -0.722841       -0.611097
                       -0.135036       -0.614397       0.00117585     0.000333812         -0.71475       -0.110509      -0.00128579    -0.000124161
                      0.00122334     3.57116e-05        -0.722626       -0.610783      -0.00117179    -0.000136453        -0.235944        0.185479
281702.5               -0.663832        0.306785      -0.00131647     0.000183818        -0.135272       -0.614647       0.00115516     1.07195e-05
                      -0.0013321      0.00022661        -0.152999        0.259591       0.00132465     0.000389141        -0.722862       -0.611076
                        -0.13508       -0.614419       0.00117584     0.000333715        -0.714735       -0.110449      -0.00128577    -0.000124062
                      0.00122329      3.5607e-05        -0.722647       -0.610762      -0.00117179    -0.000136345        -0.235932        0.185483
281702.6               -0.663793        0.306811      -0.00131643     0.000183902        -0.135315        -0.61467       0.00115513     1.06469e-05
                     -0.00133206     0.000226659        -0.152988         0.25959       0.00132463     0.000389065        -0.722883       -0.611055
                       -0.135123       -0.614442       0.00117583     0.000333618        -0.714721        -0.11039      -0.00128575    -0.000123963
                      0.00122324     3.55024e-05        -0.722667       -0.610741      -0.00117179    -0.000136237        -0.235921        0.185487
281702.7               -0.663755        0.306837       -0.0013164     0.000183986        -0.135358       -0.614692        0.0011551     1.05743e-05
                     -0.00133202     0.000226708        -0.152977        0.259588       0.00132461      0.00038899        -0.722904       -0.611033
                       -0.135166       -0.614465       0.00117583     0.000333521        -0.714707        -0.11033      -0.00128573    -0.000123864
                      0.00122319     3.53978e-05        -0.722688       -0.610719      -0.00117179    -0.000136129        -0.235909        0.185491
281702.8               -0.663716        0.306864      -0.00131637      0.00018407        -0.135401       -0.614715       0.00115508     1.05016e-05
                     -0.00133198     0.000226757        -0.152966        0.259587       0.00132459     0.000388915        -0.722925       -0.611012
                       -0.135209       -0.614488       0.00117582     0.000333424        -0.714693       -0.110271      -0.00128571    -0.000123765
                      0.00122314     3.52932e-05        -0.722709       -0.610698      -0.00117179    -0.000136022        -0.235897        0.185495
281702.9               -0.663678         0.30689      -0.00131634     0.000184154        -0.135444       -0.614738       0.00115505      1.0429e-05
                     -0.00133194     0.000226806        -0.152955        0.259585       0.00132457     0.000388839        -0.722946       -0.610991
                       -0.135252       -0.614511       0.00117581     0.000333327        -0.714678       -0.110211      -0.00128569    -0.000123665
                      0.00122309     3.51887e-05         -0.72273       -0.610677      -0.00117179    -0.000135914        -0.235886        0.185498
281703                 -0.663639        0.306916       -0.0013163     0.000184238        -0.135487       -0.614761       0.00115502     1.03564e-05
                      -0.0013319     0.000226855        -0.152944        0.259584       0.00132455     0.000388764        -0.722967        -0.61097
                       -0.135295       -0.614533        0.0011758      0.00033323        -0.714664       -0.110152      -0.00128567    -0.000123566
                      0.00122304     3.50841e-05        -0.722751       -0.610656      -0.00117179    -0.000135806        -0.235874        0.185502
281703.1               -0.663601        0.306942      -0.00131627     0.000184322         -0.13553       -0.614783         0.001155     1.02838e-05
                     -0.00133186     0.000226904        -0.152933        0.259582       0.00132453     0.000388688        -0.722988       -0.610948
                       -0.135338       -0.614556        0.0011758     0.000333133         -0.71465       -0.110093      -0.00128565    -0.000123467
