! TOUCHSTONE file generated by CST MICROWAVE STUDIO
! Date and time: Wed Oct  8 06:56:34 2025
! Project name: Teste_Macro_Metasurface_Nanopilar.cst
! Parameters = {H=600; L_x=120; L_y=80; Lambda=1064; Max_L=200; Min_L=70; PathPara=1; Phi=0; Step_L=10; Theta=0; p=520; phaseX=180; phaseY=0}
! Header version: 2018
! Port assignment regex: !\s*Touchstone port\s*([0-9]+)\s*=\s*(CST MWS port|CST DS port)\s*([0-9]+|Zmin|Zmax)\s*\(\"(.*)\"\)(\s*mode\s*([0-9]+))?.*
! Touchstone port assignment:
! Touchstone port 1 = CST MWS port Zmax ("") mode 1
! Touchstone port 2 = CST MWS port Zmax ("") mode 2
! Touchstone port 3 = CST MWS port Zmin ("") mode 1
! Touchstone port 4 = CST MWS port Zmin ("") mode 2
! S-Parameters are not renormalized. Each port impedance will be approximated by the real part at minimum frequency. The values are described via the [Reference] keyword.
! Default impedance is overridden by [Reference]
[Version] 2.0
# GHz S RI R 376.73
[Number of Ports] 4
[Reference]
376.73 376.73 376.73 376.73 
[Number of Frequencies] 1001
[Network Data]
281700                  0.110881      -0.0439081      0.000558142    -3.95984e-05        -0.903451        0.409641     -0.000203124    -2.10772e-05
                     0.000661669     -9.3176e-05        -0.258634      -0.0967668     -0.000248528    -0.000232007        -0.119174        0.949351
                       -0.903542         0.40935     -0.000139343    -0.000217662        -0.106374        0.054604      8.73383e-05     0.000484096
                    -0.000357188     6.89975e-05        -0.118969        0.949405      0.000145246     0.000474943        -0.275139       0.0308631
281700.1                0.110878       -0.043913      0.000558146    -3.96176e-05         -0.90344        0.409666     -0.000203125    -2.10706e-05
                     0.000661672    -9.31963e-05        -0.258637      -0.0967581     -0.000248537    -0.000231998        -0.119146        0.949354
                       -0.903532        0.409374      -0.00013935    -0.000217657        -0.106372       0.0546037      8.73512e-05     0.000484094
                    -0.000357195     6.90091e-05        -0.118941        0.949408      0.000145257     0.000474936        -0.275139       0.0308699
281700.2                0.110874      -0.0439179       0.00055815    -3.96367e-05        -0.903429         0.40969     -0.000203127     -2.1064e-05
                     0.000661675    -9.32165e-05        -0.258641      -0.0967494     -0.000248546    -0.000231988        -0.119119        0.949358
                       -0.903521        0.409398     -0.000139357    -0.000217652         -0.10637       0.0546033      8.73641e-05     0.000484092
                    -0.000357203     6.90207e-05        -0.118913        0.949412      0.000145269     0.000474928        -0.275138       0.0308767
281700.3                 0.11087      -0.0439228      0.000558153    -3.96559e-05        -0.903418        0.409714     -0.000203129    -2.10574e-05
                     0.000661678    -9.32368e-05        -0.258644      -0.0967407     -0.000248555    -0.000231979        -0.119091        0.949361
                        -0.90351        0.409423     -0.000139364    -0.000217647        -0.106368       0.0546029       8.7377e-05     0.000484091
                     -0.00035721     6.90323e-05        -0.118886        0.949415      0.000145281     0.000474921        -0.275137       0.0308835
281700.4                0.110866      -0.0439277      0.000558157     -3.9675e-05        -0.903408        0.409739     -0.000203131    -2.10508e-05
                     0.000661681     -9.3257e-05        -0.258647      -0.0967321     -0.000248564    -0.000231969        -0.119063        0.949365
                       -0.903499        0.409447     -0.000139371    -0.000217642        -0.106367       0.0546026      8.73899e-05     0.000484089
                    -0.000357218     6.90439e-05        -0.118858        0.949418      0.000145293     0.000474914        -0.275136       0.0308902
281700.5                0.110862      -0.0439325       0.00055816    -3.96942e-05        -0.903397        0.409763     -0.000203133    -2.10442e-05
                     0.000661684    -9.32773e-05         -0.25865      -0.0967234     -0.000248573     -0.00023196        -0.119036        0.949368
                       -0.903488        0.409471     -0.000139378    -0.000217637        -0.106365       0.0546022      8.74028e-05     0.000484087
                    -0.000357225     6.90555e-05         -0.11883        0.949422      0.000145304     0.000474907        -0.275135        0.030897
281700.6                0.110859      -0.0439374      0.000558164    -3.97133e-05        -0.903386        0.409787     -0.000203135    -2.10376e-05
                     0.000661687    -9.32975e-05        -0.258653      -0.0967147     -0.000248582     -0.00023195        -0.119008        0.949372
                       -0.903478        0.409495     -0.000139385    -0.000217632        -0.106363       0.0546018      8.74157e-05     0.000484086
                    -0.000357232     6.90671e-05        -0.118802        0.949425      0.000145316       0.0004749        -0.275134       0.0309038
281700.7                0.110855      -0.0439423      0.000558167    -3.97324e-05        -0.903375        0.409812     -0.000203137     -2.1031e-05
                      0.00066169    -9.33178e-05        -0.258656       -0.096706     -0.000248592    -0.000231941         -0.11898        0.949375
                       -0.903467         0.40952     -0.000139392    -0.000217627        -0.106361       0.0546014      8.74286e-05     0.000484084
                     -0.00035724     6.90787e-05        -0.118775        0.949429      0.000145328     0.000474892        -0.275134       0.0309106
281700.8                0.110851      -0.0439472      0.000558171    -3.97516e-05        -0.903364        0.409836     -0.000203139    -2.10244e-05
                     0.000661693    -9.33381e-05         -0.25866      -0.0966973     -0.000248601    -0.000231931        -0.118953        0.949379
                       -0.903456        0.409544     -0.000139399    -0.000217622         -0.10636       0.0546011      8.74415e-05     0.000484082
                    -0.000357247     6.90903e-05        -0.118747        0.949432       0.00014534     0.000474885        -0.275133       0.0309174
281700.9                0.110847      -0.0439521      0.000558174    -3.97707e-05        -0.903354         0.40986     -0.000203141    -2.10178e-05
                     0.000661695    -9.33583e-05        -0.258663      -0.0966886      -0.00024861    -0.000231922        -0.118925        0.949382
                       -0.903445        0.409568     -0.000139406    -0.000217617        -0.106358       0.0546007      8.74544e-05     0.000484081
                    -0.000357255     6.91019e-05        -0.118719        0.949436      0.000145351     0.000474878        -0.275132       0.0309242
281701                  0.110844      -0.0439569      0.000558178    -3.97899e-05        -0.903343        0.409884     -0.000203143    -2.10112e-05
                     0.000661698    -9.33786e-05        -0.258666      -0.0966799     -0.000248619    -0.000231912        -0.118897        0.949386
                       -0.903434        0.409593     -0.000139413    -0.000217612        -0.106356       0.0546003      8.74673e-05     0.000484079
                    -0.000357262     6.91135e-05        -0.118692        0.949439      0.000145363     0.000474871        -0.275131        0.030931
281701.1                 0.11084      -0.0439618      0.000558181     -3.9809e-05        -0.903332        0.409909     -0.000203145    -2.10046e-05
                     0.000661701    -9.33988e-05        -0.258669      -0.0966712     -0.000248628    -0.000231903         -0.11887        0.949389
                       -0.903424        0.409617      -0.00013942    -0.000217607        -0.106354          0.0546      8.74802e-05     0.000484078
                    -0.000357269     6.91251e-05        -0.118664        0.949443      0.000145375     0.000474864         -0.27513       0.0309377
281701.2                0.110836      -0.0439667      0.000558185    -3.98282e-05        -0.903321        0.409933     -0.000203147     -2.0998e-05
                     0.000661704    -9.34191e-05        -0.258672      -0.0966625     -0.000248637    -0.000231893        -0.118842        0.949393
                       -0.903413        0.409641     -0.000139427    -0.000217602        -0.106353       0.0545996      8.74931e-05     0.000484076
                    -0.000357277     6.91367e-05        -0.118636        0.949446      0.000145387     0.000474856        -0.275129       0.0309445
281701.3                0.110832      -0.0439716      0.000558188    -3.98473e-05        -0.903311        0.409957     -0.000203149    -2.09914e-05
                     0.000661707    -9.34393e-05        -0.258676      -0.0966539     -0.000248646    -0.000231884        -0.118814        0.949396
                       -0.903402        0.409665     -0.000139434    -0.000217597        -0.106351       0.0545992       8.7506e-05     0.000484074
                    -0.000357284     6.91483e-05        -0.118609         0.94945      0.000145399     0.000474849        -0.275129       0.0309513
281701.4                0.110828      -0.0439765      0.000558192    -3.98665e-05          -0.9033        0.409982     -0.000203151    -2.09848e-05
                      0.00066171    -9.34596e-05        -0.258679      -0.0966452     -0.000248655    -0.000231874        -0.118787          0.9494
                       -0.903391         0.40969     -0.000139441    -0.000217592        -0.106349       0.0545988       8.7519e-05     0.000484073
                    -0.000357292     6.91599e-05        -0.118581        0.949453       0.00014541     0.000474842        -0.275128       0.0309581
281701.5                0.110825      -0.0439813      0.000558195    -3.98856e-05        -0.903289        0.410006     -0.000203153    -2.09782e-05
                     0.000661713    -9.34799e-05        -0.258682      -0.0966365     -0.000248665    -0.000231865        -0.118759        0.949403
                       -0.903381        0.409714     -0.000139448    -0.000217587        -0.106347       0.0545985      8.75319e-05     0.000484071
                    -0.000357299     6.91715e-05        -0.118553        0.949456      0.000145422     0.000474835        -0.275127       0.0309649
281701.6                0.110821      -0.0439862      0.000558199    -3.99047e-05        -0.903278         0.41003     -0.000203155    -2.09716e-05
                     0.000661716    -9.35001e-05        -0.258685      -0.0966278     -0.000248674    -0.000231855        -0.118731        0.949407
                        -0.90337        0.409738     -0.000139455    -0.000217582        -0.106346       0.0545981      8.75448e-05     0.000484069
                    -0.000357306     6.91831e-05        -0.118526         0.94946      0.000145434     0.000474827        -0.275126       0.0309717
281701.7                0.110817      -0.0439911      0.000558202    -3.99239e-05        -0.903267        0.410055     -0.000203157     -2.0965e-05
                     0.000661719    -9.35204e-05        -0.258688      -0.0966191     -0.000248683    -0.000231846        -0.118704         0.94941
                       -0.903359        0.409763     -0.000139462    -0.000217577        -0.106344       0.0545977      8.75577e-05     0.000484068
                    -0.000357314     6.91947e-05        -0.118498        0.949463      0.000145446      0.00047482        -0.275125       0.0309784
281701.8                0.110813       -0.043996      0.000558206     -3.9943e-05        -0.903257        0.410079     -0.000203159    -2.09584e-05
                     0.000661722    -9.35407e-05        -0.258691      -0.0966104     -0.000248692    -0.000231836        -0.118676        0.949414
                       -0.903348        0.409787     -0.000139469    -0.000217572        -0.106342       0.0545974      8.75706e-05     0.000484066
                    -0.000357321     6.92064e-05         -0.11847        0.949467      0.000145457     0.000474813        -0.275124       0.0309852
281701.9                 0.11081      -0.0440008       0.00055821    -3.99621e-05        -0.903246        0.410103     -0.000203161    -2.09518e-05
                     0.000661725    -9.35609e-05        -0.258695      -0.0966017     -0.000248701    -0.000231827        -0.118648        0.949417
                       -0.903337        0.409811     -0.000139476    -0.000217567         -0.10634        0.054597      8.75835e-05     0.000484065
                    -0.000357329      6.9218e-05        -0.118443         0.94947      0.000145469     0.000474806        -0.275124        0.030992
281702                  0.110806      -0.0440057      0.000558213    -3.99813e-05        -0.903235        0.410128     -0.000203162    -2.09452e-05
                     0.000661728    -9.35812e-05        -0.258698       -0.096593      -0.00024871    -0.000231817        -0.118621        0.949421
                       -0.903327        0.409835     -0.000139483    -0.000217562        -0.106339       0.0545966      8.75964e-05     0.000484063
                    -0.000357336     6.92296e-05        -0.118415        0.949474      0.000145481     0.000474798        -0.275123       0.0309988
281702.1                0.110802      -0.0440106      0.000558217    -4.00004e-05        -0.903224        0.410152     -0.000203164    -2.09386e-05
                     0.000661731    -9.36014e-05        -0.258701      -0.0965843     -0.000248719    -0.000231808        -0.118593        0.949424
                       -0.903316         0.40986      -0.00013949    -0.000217557        -0.106337       0.0545962      8.76093e-05     0.000484061
                    -0.000357344     6.92412e-05        -0.118387        0.949477      0.000145493     0.000474791        -0.275122       0.0310056
281702.2                0.110798      -0.0440155       0.00055822    -4.00196e-05        -0.903214        0.410176     -0.000203166     -2.0932e-05
                     0.000661734    -9.36217e-05        -0.258704      -0.0965756     -0.000248729    -0.000231798        -0.118565        0.949428
                       -0.903305        0.409884     -0.000139497    -0.000217552        -0.106335       0.0545959      8.76222e-05      0.00048406
                    -0.000357351     6.92528e-05         -0.11836        0.949481      0.000145504     0.000474784        -0.275121       0.0310124
281702.3                0.110794      -0.0440204      0.000558224    -4.00387e-05        -0.903203        0.410201     -0.000203168    -2.09254e-05
                     0.000661737     -9.3642e-05        -0.258707       -0.096567     -0.000248738    -0.000231789        -0.118538        0.949431
                       -0.903294        0.409908     -0.000139504    -0.000217547        -0.106333       0.0545955      8.76351e-05     0.000484058
                    -0.000357358     6.92644e-05        -0.118332        0.949484      0.000145516     0.000474777         -0.27512       0.0310192
281702.4                0.110791      -0.0440252      0.000558227    -4.00578e-05        -0.903192        0.410225      -0.00020317    -2.09188e-05
                      0.00066174    -9.36622e-05        -0.258711      -0.0965583     -0.000248747    -0.000231779         -0.11851        0.949435
                       -0.903283        0.409933     -0.000139511    -0.000217542        -0.106332       0.0545951       8.7648e-05     0.000484056
                    -0.000357366     6.92761e-05        -0.118304        0.949488      0.000145528     0.000474769        -0.275119       0.0310259
281702.5                0.110787      -0.0440301      0.000558231     -4.0077e-05        -0.903181        0.410249     -0.000203172    -2.09122e-05
                     0.000661743    -9.36825e-05        -0.258714      -0.0965496     -0.000248756     -0.00023177        -0.118483        0.949438
                       -0.903273        0.409957     -0.000139518    -0.000217537         -0.10633       0.0545948      8.76609e-05     0.000484055
                    -0.000357373     6.92877e-05        -0.118277        0.949491       0.00014554     0.000474762        -0.275119       0.0310327
281702.6                0.110783       -0.044035      0.000558234    -4.00961e-05         -0.90317        0.410273     -0.000203174    -2.09056e-05
                     0.000661746    -9.37028e-05        -0.258717      -0.0965409     -0.000248765     -0.00023176        -0.118455        0.949442
                       -0.903262        0.409981     -0.000139525    -0.000217532        -0.106328       0.0545944      8.76738e-05     0.000484053
                    -0.000357381     6.92993e-05        -0.118249        0.949494      0.000145552     0.000474755        -0.275118       0.0310395
281702.7                0.110779      -0.0440399      0.000558238    -4.01152e-05         -0.90316        0.410298     -0.000203176     -2.0899e-05
                     0.000661749     -9.3723e-05         -0.25872      -0.0965322     -0.000248774    -0.000231751        -0.118427        0.949445
                       -0.903251        0.410005     -0.000139532    -0.000217527        -0.106327        0.054594      8.76867e-05     0.000484051
                    -0.000357388     6.93109e-05        -0.118221        0.949498      0.000145563     0.000474748        -0.275117       0.0310463
281702.8                0.110775      -0.0440447      0.000558241    -4.01343e-05        -0.903149        0.410322     -0.000203178    -2.08924e-05
                     0.000661752    -9.37433e-05        -0.258723      -0.0965235     -0.000248784    -0.000231741          -0.1184        0.949449
                        -0.90324         0.41003     -0.000139539    -0.000217522        -0.106325       0.0545936      8.76997e-05      0.00048405
                    -0.000357395     6.93226e-05        -0.118194        0.949501      0.000145575      0.00047474        -0.275116       0.0310531
281702.9                0.110772      -0.0440496      0.000558245    -4.01535e-05        -0.903138        0.410346      -0.00020318    -2.08858e-05
                     0.000661754    -9.37636e-05        -0.258726      -0.0965148     -0.000248793    -0.000231732        -0.118372        0.949452
                       -0.903229        0.410054     -0.000139546    -0.000217517        -0.106323       0.0545933      8.77126e-05     0.000484048
                    -0.000357403     6.93342e-05        -0.118166        0.949505      0.000145587     0.000474733        -0.275115       0.0310599
281703                  0.110768      -0.0440545      0.000558248    -4.01726e-05        -0.903127        0.410371     -0.000203182    -2.08792e-05
                     0.000661757    -9.37838e-05         -0.25873      -0.0965061     -0.000248802    -0.000231722        -0.118344        0.949456
                       -0.903219        0.410078     -0.000139553    -0.000217512        -0.106321       0.0545929      8.77255e-05     0.000484046
                     -0.00035741     6.93458e-05        -0.118138        0.949508      0.000145599     0.000474726        -0.275114       0.0310667
281703.1                0.110764      -0.0440594      0.000558252    -4.01917e-05        -0.903117        0.410395     -0.000203184    -2.08726e-05
                      0.00066176    -9.38041e-05        -0.258733      -0.0964974     -0.000248811    -0.000231713        -0.118317        0.949459
                       -0.903208        0.410103      -0.00013956    -0.000217507         -0.10632       0.0545925      8.77384e-05     0.000484045
