! TOUCHSTONE file generated by CST MICROWAVE STUDIO
! Date and time: Wed Oct  8 06:50:55 2025
! Project name: Teste_Macro_Metasurface_Nanopilar.cst
! Parameters = {H=600; L_x=70; L_y=150; Lambda=1064; Max_L=200; Min_L=70; PathPara=1; Phi=0; Step_L=10; Theta=0; p=520; phaseX=180; phaseY=0}
! Header version: 2018
! Port assignment regex: !\s*Touchstone port\s*([0-9]+)\s*=\s*(CST MWS port|CST DS port)\s*([0-9]+|Zmin|Zmax)\s*\(\"(.*)\"\)(\s*mode\s*([0-9]+))?.*
! Touchstone port assignment:
! Touchstone port 1 = CST MWS port Zmax ("") mode 1
! Touchstone port 2 = CST MWS port Zmax ("") mode 2
! Touchstone port 3 = CST MWS port Zmin ("") mode 1
! Touchstone port 4 = CST MWS port Zmin ("") mode 2
! S-Parameters are not renormalized. Each port impedance will be approximated by the real part at minimum frequency. The values are described via the [Reference] keyword.
! Default impedance is overridden by [Reference]
[Version] 2.0
# GHz S RI R 376.73
[Number of Ports] 4
[Reference]
376.73 376.73 376.73 376.73 
[Number of Frequencies] 1001
[Network Data]
281700                 0.0754946        0.237344      5.03639e-05     0.000208453         0.937636        0.200449     -0.000237482     0.000197815
                     2.63896e-05     0.000485978         0.114239     -0.00721342     -2.92967e-05     3.94676e-05        -0.938674        0.324181
                        0.937569        0.200376     -0.000667642      0.00013011        -0.170901        0.185842     -0.000274481    -0.000236414
                    -0.000186016     9.51111e-05        -0.939171        0.323789     -0.000284973    -0.000378629       -0.0944764       0.0649458
281700.1               0.0755029        0.237336      5.03753e-05      0.00020845         0.937644        0.200417     -0.000237463     0.000197822
                     2.64053e-05      0.00048599         0.114236     -0.00721885     -2.93305e-05     3.94488e-05        -0.938666        0.324206
                        0.937577        0.200344     -0.000667653     0.000130135        -0.170893        0.185844     -0.000274464    -0.000236408
                    -0.000186014     9.51144e-05        -0.939163        0.323814     -0.000284966    -0.000378621       -0.0944742       0.0649449
281700.2               0.0755111        0.237328      5.05139e-05     0.000208421         0.937652        0.200385     -0.000237445      0.00019783
                     2.64195e-05     0.000486001         0.114233     -0.00722428     -2.93664e-05     3.94225e-05        -0.938658        0.324231
                        0.937585        0.200312     -0.000669174     0.000129063        -0.170885        0.185845     -0.000274449    -0.000236399
                    -0.000186011     9.51191e-05        -0.939155        0.323839     -0.000284955    -0.000378617       -0.0944721        0.064944
281700.3               0.0755193        0.237321      5.07851e-05     0.000208367          0.93766        0.200354     -0.000237427     0.000197839
                     2.64332e-05     0.000486012         0.114231     -0.00722972     -2.94057e-05     3.93814e-05        -0.938649        0.324256
                        0.937593         0.20028      -0.00067219     0.000126854        -0.170877        0.185846     -0.000274436    -0.000236389
                    -0.000186009     9.51242e-05        -0.939146        0.323864     -0.000284938    -0.000378625       -0.0944699       0.0649432
281700.4               0.0755275        0.237313      5.11944e-05     0.000208291         0.937668        0.200322     -0.000237411     0.000197849
                     2.64466e-05     0.000486022         0.114228     -0.00723515     -2.94501e-05     3.93053e-05        -0.938641        0.324282
                        0.937601        0.200249     -0.000676606     0.000123471        -0.170868        0.185847     -0.000274424    -0.000236379
                    -0.000186006     9.51297e-05        -0.939138         0.32389     -0.000284916    -0.000378664       -0.0944678       0.0649423
281700.5               0.0755357        0.237305      5.17472e-05     0.000208196         0.937676         0.20029     -0.000237394     0.000197859
                     2.64599e-05     0.000486033         0.114226     -0.00724058     -2.94922e-05     3.91117e-05        -0.938632        0.324307
                        0.937609        0.200217     -0.000682256     0.000118897         -0.17086        0.185848     -0.000274413    -0.000236368
                    -0.000186004     9.51354e-05         -0.93913        0.323915     -0.000284947    -0.000378784       -0.0944656       0.0649415
281700.6               0.0755439        0.237298      5.24485e-05      0.00020809         0.937683        0.200258     -0.000237377     0.000197869
                     2.64731e-05     0.000486043         0.114223       -0.007246     -2.88026e-05     3.82439e-05        -0.938624        0.324332
                        0.937617        0.200185     -0.000688908     0.000113136         -0.17085        0.185849     -0.000274401    -0.000236356
                    -0.000186002     9.51411e-05        -0.939122         0.32394     -0.000285197    -0.000378775       -0.0944635       0.0649406
281700.7               0.0755521         0.23729      5.33031e-05      0.00020798         0.937692        0.200227     -0.000237361      0.00019788
                     2.64863e-05     0.000486054          0.11422     -0.00725143     -2.89674e-05      3.9988e-05        -0.938616        0.324357
                        0.937625        0.200154     -0.000696287     0.000106229        -0.170843         0.18585      -0.00027439    -0.000236344
                    -0.000185999      9.5147e-05        -0.939113        0.323965      -0.00028522    -0.000378582       -0.0944613       0.0649397
281700.8               0.0755604        0.237283      5.43149e-05     0.000207879           0.9377        0.200195     -0.000237345      0.00019789
                     2.64994e-05     0.000486064         0.114218     -0.00725686     -2.93108e-05     3.97782e-05        -0.938607        0.324382
                        0.937633        0.200122     -0.000704096     9.82607e-05        -0.170835        0.185851      -0.00027438    -0.000236332
                    -0.000185997     9.51529e-05        -0.939105         0.32399     -0.000285172     -0.00037851       -0.0944592       0.0649389
281700.9               0.0755686        0.237275      5.54862e-05     0.000207799         0.937708        0.200163     -0.000237329     0.000197901
                     2.65125e-05     0.000486075         0.114215     -0.00726229     -2.94124e-05      3.9692e-05        -0.938599        0.324407
                        0.937641         0.20009      -0.00071204      8.9357e-05        -0.170827        0.185853     -0.000274369     -0.00023632
                    -0.000185995     9.51588e-05        -0.939097        0.324015     -0.000285143    -0.000378477        -0.094457        0.064938
281701                 0.0755768        0.237267      5.68178e-05     0.000207756         0.937716        0.200132     -0.000237313     0.000197912
                     2.65256e-05     0.000486085         0.114213     -0.00726771     -2.94717e-05     3.96467e-05        -0.938591        0.324432
                        0.937649        0.200058     -0.000719851     7.96822e-05        -0.170819        0.185854     -0.000274359    -0.000236308
                    -0.000185993     9.51648e-05        -0.939089         0.32404     -0.000285125    -0.000378455       -0.0944549       0.0649372
281701.1                0.075585         0.23726      5.83078e-05      0.00020777         0.937724          0.2001     -0.000237297     0.000197923
                     2.65387e-05     0.000486096          0.11421     -0.00727314     -2.95168e-05     3.96184e-05        -0.938582        0.324457
                        0.937657        0.200027     -0.000727302     6.94275e-05         -0.17081        0.185855     -0.000274348    -0.000236296
                     -0.00018599     9.51708e-05         -0.93908        0.324065     -0.000285115    -0.000378437       -0.0944527       0.0649363
281701.2               0.0755932        0.237252      5.99511e-05     0.000207861         0.937732        0.200068     -0.000237281     0.000197934
                     2.65518e-05     0.000486106         0.114207     -0.00727856     -2.95556e-05     3.95986e-05        -0.938574        0.324482
                        0.937665        0.199995     -0.000734223      5.8797e-05        -0.170802        0.185856     -0.000274338    -0.000236284
                    -0.000185988     9.51768e-05        -0.939072         0.32409     -0.000285108    -0.000378421       -0.0944506       0.0649355
281701.3               0.0756014        0.237244       6.1739e-05     0.000208049          0.93774        0.200036     -0.000237265     0.000197945
                     2.65648e-05     0.000486117         0.114205     -0.00728399     -2.95911e-05     3.95836e-05        -0.938565        0.324507
                        0.937673        0.199963     -0.000740497     4.79926e-05        -0.170794        0.185857     -0.000274328    -0.000236272
                    -0.000185986     9.51828e-05        -0.939064        0.324115     -0.000285103    -0.000378405       -0.0944484       0.0649346
281701.4               0.0756096        0.237237      6.36583e-05     0.000208357         0.937748        0.200005     -0.000237249     0.000197956
                     2.65779e-05     0.000486127         0.114202     -0.00728941     -2.96245e-05     3.95717e-05        -0.938557        0.324532
                        0.937681        0.199931     -0.000746064     3.72017e-05        -0.170786        0.185858     -0.000274317    -0.000236259
                    -0.000185984     9.51888e-05        -0.939056         0.32414     -0.000285101    -0.000378389       -0.0944463       0.0649337
281701.5               0.0756178        0.237229       6.5691e-05     0.000208807         0.937756        0.199973     -0.000237233     0.000197967
                     2.65909e-05     0.000486137           0.1142     -0.00729483     -2.96567e-05     3.95618e-05        -0.938549        0.324557
                        0.937689          0.1999     -0.000750907     2.65875e-05        -0.170777        0.185859     -0.000274307    -0.000236247
                    -0.000185982     9.51949e-05        -0.939048        0.324165     -0.000285099    -0.000378374       -0.0944441       0.0649329
281701.6                0.075626        0.237221      6.78146e-05     0.000209417         0.937764        0.199941     -0.000237217     0.000197978
                     2.66039e-05     0.000486148         0.114197     -0.00730026      -2.9688e-05     3.95533e-05         -0.93854        0.324582
                        0.937697        0.199868     -0.000755046     1.62835e-05        -0.170769         0.18586     -0.000274297    -0.000236235
                    -0.000185979     9.52009e-05         -0.93904         0.32419     -0.000285098    -0.000378358        -0.094442        0.064932
281701.7               0.0756342        0.237214      7.00015e-05     0.000210205         0.937772         0.19991     -0.000237201     0.000197989
                      2.6617e-05     0.000486158         0.114194     -0.00730568     -2.97187e-05     3.95459e-05        -0.938532        0.324608
                        0.937705        0.199836     -0.000758525     6.39225e-06        -0.170761        0.185861     -0.000274287    -0.000236222
                    -0.000185977      9.5207e-05        -0.939032        0.324215     -0.000285098    -0.000378343       -0.0944398       0.0649312
281701.8               0.0756424        0.237206      7.22206e-05     0.000211182          0.93778        0.199878     -0.000237186        0.000198
                       2.663e-05     0.000486169         0.114192      -0.0073111     -2.97489e-05     3.95392e-05        -0.938524        0.324633
                        0.937713        0.199805     -0.000761403    -3.01355e-06        -0.170753        0.185863     -0.000274277     -0.00023621
                    -0.000185975      9.5213e-05        -0.939024         0.32424     -0.000285098    -0.000378328       -0.0944377       0.0649303
281701.9               0.0756507        0.237198      7.44379e-05     0.000212354         0.937788        0.199846      -0.00023717     0.000198011
                      2.6643e-05     0.000486179         0.114189     -0.00731652     -2.97788e-05     3.95331e-05        -0.938515        0.324658
                        0.937721        0.199773     -0.000763748    -1.18878e-05        -0.170744        0.185864     -0.000274267    -0.000236197
                    -0.000185973     9.52191e-05        -0.939016        0.324265     -0.000285099    -0.000378313       -0.0944355       0.0649294
281702                 0.0756589        0.237191      7.66178e-05     0.000213721         0.937796        0.199814     -0.000237154     0.000198022
                      2.6656e-05      0.00048619         0.114187     -0.00732193     -2.98084e-05     3.95275e-05        -0.938507        0.324683
                        0.937729        0.199741     -0.000765628    -2.02068e-05        -0.170736        0.185865     -0.000274257    -0.000236185
                     -0.00018597     9.52251e-05        -0.939008         0.32429     -0.000285099    -0.000378297       -0.0944334       0.0649286
281702.1               0.0756671        0.237183      7.87254e-05     0.000215275         0.937804        0.199783     -0.000237138     0.000198033
                     2.66691e-05       0.0004862         0.114184     -0.00732735     -2.98378e-05     3.95222e-05        -0.938498        0.324708
                        0.937737        0.199709     -0.000767111    -2.79649e-05        -0.170728        0.185866     -0.000274247    -0.000236172
                    -0.000185968     9.52312e-05           -0.939        0.324315     -0.000285101    -0.000378282       -0.0944312       0.0649277
281702.2               0.0756753        0.237176      8.07277e-05     0.000217002         0.937812        0.199751     -0.000237123     0.000198044
                     2.66821e-05      0.00048621         0.114181     -0.00733277     -2.98671e-05     3.95173e-05         -0.93849        0.324733
                        0.937745        0.199678     -0.000768257    -3.51698e-05         -0.17072        0.185867     -0.000274237     -0.00023616
                    -0.000185966     9.52373e-05        -0.938992         0.32434     -0.000285102    -0.000378267       -0.0944291       0.0649269
281702.3               0.0756835        0.237168      8.25956e-05     0.000218882          0.93782        0.199719     -0.000237107     0.000198055
                     2.66951e-05     0.000486221         0.114179     -0.00733818     -2.98962e-05     3.95126e-05        -0.938482        0.324758
                        0.937753        0.199646     -0.000769124    -4.18394e-05        -0.170711        0.185868     -0.000274227    -0.000236147
                    -0.000185964     9.52433e-05        -0.938984        0.324365     -0.000285103    -0.000378252       -0.0944269        0.064926
281702.4               0.0756917         0.23716      8.43054e-05     0.000220889         0.937828        0.199688     -0.000237091     0.000198067
                     2.67081e-05     0.000486231         0.114176     -0.00734359     -2.99251e-05     3.95081e-05        -0.938473        0.324783
                        0.937761        0.199614     -0.000769758     -4.7998e-05        -0.170703        0.185869     -0.000274217    -0.000236135
                    -0.000185961     9.52494e-05        -0.938976        0.324389     -0.000285105    -0.000378237       -0.0944248       0.0649252
281702.5               0.0756999        0.237153      8.58394e-05     0.000222995         0.937836        0.199656     -0.000237075     0.000198078
                     2.67211e-05     0.000486242         0.114174     -0.00734901      -2.9954e-05     3.95038e-05        -0.938465        0.324808
                        0.937769        0.199583     -0.000770204    -5.36744e-05        -0.170695         0.18587     -0.000274207    -0.000236122
                    -0.000185959     9.52555e-05        -0.938969        0.324414     -0.000285106    -0.000378221       -0.0944226       0.0649243
281702.6               0.0757081        0.237145      8.71866e-05     0.000225169         0.937844        0.199624      -0.00023706     0.000198089
                     2.67342e-05     0.000486252         0.114171     -0.00735442     -2.99828e-05     3.94996e-05        -0.938457        0.324833
                        0.937777        0.199551     -0.000770495    -5.88996e-05        -0.170686        0.185872     -0.000274197     -0.00023611
                    -0.000185957     9.52616e-05        -0.938961        0.324439     -0.000285108    -0.000378206       -0.0944205       0.0649234
281702.7               0.0757163        0.237137      8.83425e-05     0.000227381         0.937852        0.199593     -0.000237044       0.0001981
                     2.67472e-05     0.000486262         0.114168     -0.00735983     -3.00115e-05     3.94956e-05        -0.938448        0.324858
                        0.937785        0.199519     -0.000770664     -6.3705e-05        -0.170678        0.185873     -0.000274188    -0.000236097
                    -0.000185955     9.52676e-05        -0.938953        0.324464      -0.00028511    -0.000378191       -0.0944183       0.0649226
281702.8               0.0757245         0.23713      8.93085e-05     0.000229602          0.93786        0.199561     -0.000237028     0.000198111
                     2.67602e-05     0.000486273         0.114166     -0.00736523     -3.00402e-05     3.94916e-05         -0.93844        0.324883
                        0.937793        0.199487     -0.000770734    -6.81223e-05         -0.17067        0.185874     -0.000274178    -0.000236085
                    -0.000185953     9.52737e-05        -0.938946        0.324489     -0.000285111    -0.000378176       -0.0944162       0.0649217
281702.9               0.0757327        0.237122      9.00913e-05     0.000231806         0.937868        0.199529     -0.000237013     0.000198122
                     2.67732e-05     0.000486283         0.114163     -0.00737064     -3.00688e-05     3.94878e-05        -0.938431        0.324908
                        0.937801        0.199456     -0.000770726     -7.2182e-05        -0.170662        0.185875     -0.000274168    -0.000236072
                     -0.00018595     9.52798e-05        -0.938938        0.324514     -0.000285113     -0.00037816        -0.094414       0.0649209
281703                 0.0757409        0.237114      9.07015e-05      0.00023397         0.937876        0.199497     -0.000236997     0.000198134
                     2.67862e-05     0.000486294         0.114161     -0.00737604     -3.00974e-05      3.9484e-05        -0.938423        0.324933
                        0.937809        0.199424     -0.000770658     -7.5913e-05        -0.170653        0.185876     -0.000274158     -0.00023606
                    -0.000185948     9.52859e-05        -0.938931        0.324538     -0.000285115    -0.000378145       -0.0944119         0.06492
281703.1               0.0757491        0.237107      9.11525e-05     0.000236074         0.937884        0.199466     -0.000236981     0.000198145
                     2.67993e-05     0.000486304         0.114158     -0.00738145     -3.01259e-05     3.94803e-05        -0.938415        0.324959
                        0.937817        0.199392     -0.000770544    -7.93426e-05        -0.170645        0.185877     -0.000274148    -0.000236047
