! TOUCHSTONE file generated by CST MICROWAVE STUDIO
! Date and time: Wed Oct  8 06:55:41 2025
! Project name: Teste_Macro_Metasurface_Nanopilar.cst
! Parameters = {H=600; L_x=110; L_y=150; Lambda=1064; Max_L=200; Min_L=70; PathPara=1; Phi=0; Step_L=10; Theta=0; p=520; phaseX=180; phaseY=0}
! Header version: 2018
! Port assignment regex: !\s*Touchstone port\s*([0-9]+)\s*=\s*(CST MWS port|CST DS port)\s*([0-9]+|Zmin|Zmax)\s*\(\"(.*)\"\)(\s*mode\s*([0-9]+))?.*
! Touchstone port assignment:
! Touchstone port 1 = CST MWS port Zmax ("") mode 1
! Touchstone port 2 = CST MWS port Zmax ("") mode 2
! Touchstone port 3 = CST MWS port Zmin ("") mode 1
! Touchstone port 4 = CST MWS port Zmin ("") mode 2
! S-Parameters are not renormalized. Each port impedance will be approximated by the real part at minimum frequency. The values are described via the [Reference] keyword.
! Default impedance is overridden by [Reference]
[Version] 2.0
# GHz S RI R 376.73
[Number of Ports] 4
[Reference]
376.73 376.73 376.73 376.73 
[Number of Frequencies] 1001
[Network Data]
281700                 -0.179638     -0.00876577       0.00026457    -0.000763776        -0.482187       -0.851767      0.000378757    -0.000377131
                     0.000288735    -0.000776168        0.0299272      -0.0351201     -0.000191386     0.000665256         0.974114       -0.171275
                       -0.482174       -0.851822      -0.00013288     0.000648187       -0.0860619        0.157235     -0.000573924      0.00070171
                     0.000480988    -0.000257755         0.974289        -0.17137     -0.000500115     0.000717832       -0.0449973      -0.0208431
281700.1               -0.179634     -0.00876112      0.000264525    -0.000763807        -0.482214       -0.851753       0.00037877    -0.000377145
                     0.000288721     -0.00077617        0.0299253      -0.0351275     -0.000191351      0.00066528         0.974108       -0.171309
                       -0.482201       -0.851808     -0.000132853     0.000648194       -0.0860539        0.157234     -0.000573858     0.000701786
                     0.000480987    -0.000257777         0.974283       -0.171404     -0.000500106     0.000717832       -0.0449995      -0.0208477
281700.2               -0.179629     -0.00875647       0.00026448    -0.000763837         -0.48224       -0.851739      0.000378784    -0.000377158
                     0.000288706    -0.000776172        0.0299233       -0.035135     -0.000191317     0.000665304         0.974102       -0.171344
                       -0.482228       -0.851794     -0.000132826       0.0006482       -0.0860458        0.157233     -0.000573792     0.000701862
                     0.000480986    -0.000257798         0.974277       -0.171439     -0.000500097     0.000717831       -0.0450017      -0.0208522
281700.3               -0.179625     -0.00875182      0.000264434    -0.000763868        -0.482267       -0.851725      0.000378797    -0.000377172
                     0.000288691    -0.000776174        0.0299214      -0.0351424     -0.000191282     0.000665328         0.974096       -0.171379
                       -0.482254       -0.851779     -0.000132799     0.000648207       -0.0860377        0.157232     -0.000573726     0.000701938
                     0.000480985    -0.000257819         0.974271       -0.171473     -0.000500087     0.000717831       -0.0450039      -0.0208568
281700.4                -0.17962     -0.00874717      0.000264389    -0.000763898        -0.482294        -0.85171       0.00037881    -0.000377186
                     0.000288676    -0.000776176        0.0299194      -0.0351499     -0.000191248     0.000665352          0.97409       -0.171413
                       -0.482281       -0.851765     -0.000132772     0.000648213       -0.0860296        0.157231      -0.00057366     0.000702013
                     0.000480984     -0.00025784         0.974265       -0.171507     -0.000500077      0.00071783       -0.0450061      -0.0208613
281700.5               -0.179616     -0.00874252      0.000264344    -0.000763929        -0.482321       -0.851696      0.000378824    -0.000377199
                     0.000288662    -0.000776178        0.0299175      -0.0351573     -0.000191214     0.000665375         0.974084       -0.171448
                       -0.482308       -0.851751     -0.000132745     0.000648219       -0.0860215         0.15723     -0.000573594     0.000702089
                     0.000480983    -0.000257861         0.974259       -0.171542     -0.000500066      0.00071783       -0.0450083      -0.0208659
281700.6               -0.179611     -0.00873787      0.000264298    -0.000763959        -0.482347       -0.851682      0.000378837    -0.000377213
                     0.000288647     -0.00077618        0.0299155      -0.0351648      -0.00019118     0.000665399         0.974078       -0.171482
                       -0.482335       -0.851737     -0.000132718     0.000648226       -0.0860134        0.157229     -0.000573528     0.000702165
                     0.000480982    -0.000257883         0.974253       -0.171576     -0.000500055     0.000717829       -0.0450105      -0.0208705
281700.7               -0.179607     -0.00873323      0.000264253     -0.00076399        -0.482374       -0.851668       0.00037885    -0.000377227
                     0.000288632    -0.000776182        0.0299135      -0.0351723     -0.000191146     0.000665424         0.974072       -0.171517
                       -0.482362       -0.851723     -0.000132691     0.000648232       -0.0860053        0.157228     -0.000573462      0.00070224
                     0.000480981    -0.000257904         0.974247       -0.171611     -0.000500043     0.000717829       -0.0450128       -0.020875
281700.8               -0.179602     -0.00872858      0.000264208     -0.00076402        -0.482401       -0.851654      0.000378863    -0.000377241
                     0.000288617    -0.000776184        0.0299116      -0.0351797     -0.000191112     0.000665448         0.974066       -0.171552
                       -0.482388       -0.851709     -0.000132664     0.000648239       -0.0859972        0.157227     -0.000573396     0.000702316
                      0.00048098    -0.000257925         0.974241       -0.171645     -0.000500031     0.000717828        -0.045015      -0.0208796
281700.9               -0.179598     -0.00872393      0.000264162    -0.000764051        -0.482428        -0.85164      0.000378877    -0.000377255
                     0.000288602    -0.000776186        0.0299096      -0.0351872     -0.000191078     0.000665472          0.97406       -0.171586
                       -0.482415       -0.851694     -0.000132636     0.000648245       -0.0859891        0.157225      -0.00057333     0.000702392
                     0.000480979    -0.000257946         0.974235       -0.171679     -0.000500018     0.000717828       -0.0450172      -0.0208842
281701                 -0.179593     -0.00871928      0.000264117    -0.000764081        -0.482454       -0.851626       0.00037889    -0.000377269
                     0.000288588    -0.000776188        0.0299077      -0.0351946     -0.000191044     0.000665496         0.974054       -0.171621
                       -0.482442        -0.85168     -0.000132609     0.000648251        -0.085981        0.157224     -0.000573263     0.000702467
                     0.000480978    -0.000257968         0.974229       -0.171714     -0.000500005     0.000717828       -0.0450194      -0.0208887
281701.1               -0.179589     -0.00871464      0.000264072    -0.000764112        -0.482481       -0.851611      0.000378903    -0.000377283
                     0.000288573     -0.00077619        0.0299057      -0.0352021      -0.00019101      0.00066552         0.974048       -0.171656
                       -0.482469       -0.851666     -0.000132582     0.000648258       -0.0859729        0.157223     -0.000573197     0.000702543
                     0.000480977    -0.000257989         0.974222       -0.171748     -0.000499991     0.000717828       -0.0450216      -0.0208933
281701.2               -0.179584     -0.00870999      0.000264026    -0.000764142        -0.482508       -0.851597      0.000378916    -0.000377297
                     0.000288558    -0.000776192        0.0299037      -0.0352095     -0.000190976     0.000665544         0.974042        -0.17169
                       -0.482496       -0.851652     -0.000132555     0.000648264       -0.0859649        0.157222     -0.000573131     0.000702619
                     0.000480975     -0.00025801         0.974216       -0.171783     -0.000499977     0.000717827       -0.0450238      -0.0208978
281701.3                -0.17958     -0.00870535      0.000263981    -0.000764172        -0.482535       -0.851583       0.00037893    -0.000377312
                     0.000288543    -0.000776193        0.0299018       -0.035217     -0.000190943     0.000665568         0.974036       -0.171725
                       -0.482522       -0.851638     -0.000132528      0.00064827       -0.0859568        0.157221     -0.000573064     0.000702695
                     0.000480974    -0.000258031          0.97421       -0.171817     -0.000499962     0.000717827        -0.045026      -0.0209024
281701.4               -0.179575      -0.0087007      0.000263935    -0.000764203        -0.482562       -0.851569      0.000378943    -0.000377326
                     0.000288529    -0.000776195        0.0298998      -0.0352244     -0.000190909     0.000665593          0.97403       -0.171759
                       -0.482549       -0.851624     -0.000132501     0.000648276       -0.0859487         0.15722     -0.000572998      0.00070277
                     0.000480973    -0.000258052         0.974204       -0.171851     -0.000499947     0.000717827       -0.0450283       -0.020907
281701.5                -0.17957     -0.00869606       0.00026389    -0.000764233        -0.482588       -0.851555      0.000378956     -0.00037734
                     0.000288514    -0.000776197        0.0298978      -0.0352319     -0.000190875     0.000665617         0.974024       -0.171794
                       -0.482576       -0.851609     -0.000132474     0.000648283       -0.0859406        0.157219     -0.000572932     0.000702846
                     0.000480972    -0.000258074         0.974198       -0.171886     -0.000499932     0.000717827       -0.0450305      -0.0209115
281701.6               -0.179566     -0.00869141      0.000263845    -0.000764263        -0.482615       -0.851541      0.000378969    -0.000377355
                     0.000288499    -0.000776199        0.0298958      -0.0352393     -0.000190842     0.000665641         0.974018       -0.171829
                       -0.482603       -0.851595     -0.000132447     0.000648289       -0.0859325        0.157218     -0.000572865     0.000702921
                     0.000480971    -0.000258095         0.974192        -0.17192     -0.000499916     0.000717828       -0.0450327      -0.0209161
281701.7               -0.179561     -0.00868677      0.000263799    -0.000764293        -0.482642       -0.851527      0.000378982    -0.000377369
                     0.000288484    -0.000776201        0.0298939      -0.0352468     -0.000190809     0.000665666         0.974012       -0.171863
                       -0.482629       -0.851581      -0.00013242     0.000648295       -0.0859244        0.157217     -0.000572799     0.000702997
                      0.00048097    -0.000258116         0.974186       -0.171955       -0.0004999     0.000717828       -0.0450349      -0.0209207
281701.8               -0.179557     -0.00868212      0.000263754    -0.000764324        -0.482669       -0.851512      0.000378996    -0.000377384
                      0.00028847    -0.000776203        0.0298919      -0.0352542     -0.000190775      0.00066569         0.974006       -0.171898
                       -0.482656       -0.851567     -0.000132393     0.000648302       -0.0859163        0.157216     -0.000572732     0.000703073
                     0.000480969    -0.000258137          0.97418       -0.171989     -0.000499883     0.000717828       -0.0450371      -0.0209252
281701.9               -0.179552     -0.00867748      0.000263708    -0.000764354        -0.482695       -0.851498      0.000379009    -0.000377399
                     0.000288455    -0.000776205        0.0298899      -0.0352617     -0.000190742     0.000665714            0.974       -0.171933
                       -0.482683       -0.851553     -0.000132366     0.000648308       -0.0859082        0.157215     -0.000572665     0.000703148
                     0.000480968    -0.000258159         0.974174       -0.172023     -0.000499866     0.000717829       -0.0450393      -0.0209298
281702                 -0.179548     -0.00867283      0.000263663    -0.000764384        -0.482722       -0.851484      0.000379022    -0.000377413
                      0.00028844    -0.000776207        0.0298879      -0.0352691     -0.000190709     0.000665739         0.973994       -0.171967
                        -0.48271       -0.851539     -0.000132339     0.000648314       -0.0859001        0.157214     -0.000572599     0.000703224
                     0.000480967     -0.00025818         0.974168       -0.172058     -0.000499849      0.00071783       -0.0450415      -0.0209344
281702.1               -0.179543     -0.00866819      0.000263618    -0.000764414        -0.482749        -0.85147      0.000379035    -0.000377428
                     0.000288425    -0.000776209         0.029886      -0.0352766     -0.000190676     0.000665763         0.973988       -0.172002
                       -0.482737       -0.851524     -0.000132312      0.00064832        -0.085892        0.157213     -0.000572532       0.0007033
                     0.000480966    -0.000258201         0.974161       -0.172092     -0.000499831      0.00071783       -0.0450437      -0.0209389
281702.2               -0.179539     -0.00866355      0.000263572    -0.000764444        -0.482776       -0.851456      0.000379048    -0.000377443
                     0.000288411    -0.000776211         0.029884       -0.035284     -0.000190643     0.000665788         0.973982       -0.172036
                       -0.482763        -0.85151     -0.000132285     0.000648326        -0.085884        0.157212     -0.000572466     0.000703375
                     0.000480965    -0.000258222         0.974155       -0.172127     -0.000499813     0.000717831       -0.0450459      -0.0209435
281702.3               -0.179534      -0.0086589      0.000263527    -0.000764474        -0.482802       -0.851442      0.000379061    -0.000377458
                     0.000288396    -0.000776213         0.029882      -0.0352915      -0.00019061     0.000665812         0.973976       -0.172071
                        -0.48279       -0.851496     -0.000132258     0.000648333       -0.0858759        0.157211     -0.000572399     0.000703451
                     0.000480964    -0.000258243         0.974149       -0.172161     -0.000499794     0.000717832       -0.0450482      -0.0209481
281702.4                -0.17953     -0.00865426      0.000263481    -0.000764504        -0.482829       -0.851427      0.000379075    -0.000377473
                     0.000288381    -0.000776215          0.02988      -0.0352989     -0.000190577     0.000665837          0.97397       -0.172106
                       -0.482817       -0.851482     -0.000132231     0.000648339       -0.0858678         0.15721     -0.000572332     0.000703527
                     0.000480963    -0.000258265         0.974143       -0.172195     -0.000499775     0.000717834       -0.0450504      -0.0209526
281702.5               -0.179525     -0.00864962      0.000263436    -0.000764535        -0.482856       -0.851413      0.000379088    -0.000377488
                     0.000288366    -0.000776217         0.029878      -0.0353064     -0.000190544     0.000665861         0.973964        -0.17214
                       -0.482844       -0.851468     -0.000132204     0.000648345       -0.0858597        0.157209     -0.000572265     0.000703602
                     0.000480962    -0.000258286         0.974137        -0.17223     -0.000499756     0.000717835       -0.0450526      -0.0209572
281702.6               -0.179521     -0.00864498       0.00026339    -0.000764565        -0.482883       -0.851399      0.000379101    -0.000377503
                     0.000288352    -0.000776218         0.029876      -0.0353138     -0.000190512     0.000665886         0.973958       -0.172175
                        -0.48287       -0.851454     -0.000132177     0.000648351       -0.0858516        0.157207     -0.000572198     0.000703678
                     0.000480961    -0.000258307         0.974131       -0.172264     -0.000499736     0.000717836       -0.0450548      -0.0209618
281702.7               -0.179516     -0.00864034      0.000263345    -0.000764595        -0.482909       -0.851385      0.000379114    -0.000377518
                     0.000288337     -0.00077622        0.0298741      -0.0353213     -0.000190479      0.00066591         0.973952       -0.172209
                       -0.482897       -0.851439      -0.00013215     0.000648357       -0.0858435        0.157206     -0.000572131     0.000703753
                      0.00048096    -0.000258328         0.974125       -0.172298     -0.000499717     0.000717838        -0.045057      -0.0209664
281702.8               -0.179511      -0.0086357        0.0002633    -0.000764625        -0.482936       -0.851371      0.000379127    -0.000377533
                     0.000288322    -0.000776222        0.0298721      -0.0353287     -0.000190447     0.000665935         0.973946       -0.172244
                       -0.482924       -0.851425     -0.000132123     0.000648364       -0.0858354        0.157205     -0.000572065     0.000703829
                     0.000480958     -0.00025835         0.974119       -0.172333     -0.000499696      0.00071784       -0.0450592      -0.0209709
281702.9               -0.179507     -0.00863105      0.000263254    -0.000764654        -0.482963       -0.851357       0.00037914    -0.000377549
                     0.000288307    -0.000776224        0.0298701      -0.0353362     -0.000190414     0.000665959          0.97394       -0.172279
                       -0.482951       -0.851411     -0.000132096      0.00064837       -0.0858273        0.157204     -0.000571998     0.000703905
                     0.000480957    -0.000258371         0.974112       -0.172367     -0.000499676     0.000717842       -0.0450614      -0.0209755
281703                 -0.179502     -0.00862641      0.000263209    -0.000764684         -0.48299       -0.851343      0.000379153    -0.000377564
                     0.000288293    -0.000776226        0.0298681      -0.0353436     -0.000190382     0.000665984         0.973934       -0.172313
                       -0.482978       -0.851397      -0.00013207     0.000648376       -0.0858192        0.157203     -0.000571931      0.00070398
                     0.000480956    -0.000258392         0.974106       -0.172402     -0.000499655     0.000717844       -0.0450636      -0.0209801
281703.1               -0.179498     -0.00862177      0.000263163    -0.000764714        -0.483016       -0.851328      0.000379166    -0.000377579
                     0.000288278    -0.000776228        0.0298661      -0.0353511      -0.00019035     0.000666008         0.973928       -0.172348
                       -0.483004       -0.851383     -0.000132043     0.000648382       -0.0858111        0.157202     -0.000571864     0.000704056
