! TOUCHSTONE file generated by CST MICROWAVE STUDIO
! Date and time: Wed Oct  8 07:02:50 2025
! Project name: Teste_Macro_Metasurface_Nanopilar.cst
! Parameters = {H=600; L_x=170; L_y=145; Lambda=1064; Max_L=200; Min_L=70; PathPara=1; Phi=0; Step_L=10; Theta=0; p=520; phaseX=180; phaseY=0}
! Header version: 2018
! Port assignment regex: !\s*Touchstone port\s*([0-9]+)\s*=\s*(CST MWS port|CST DS port)\s*([0-9]+|Zmin|Zmax)\s*\(\"(.*)\"\)(\s*mode\s*([0-9]+))?.*
! Touchstone port assignment:
! Touchstone port 1 = CST MWS port Zmax ("") mode 1
! Touchstone port 2 = CST MWS port Zmax ("") mode 2
! Touchstone port 3 = CST MWS port Zmin ("") mode 1
! Touchstone port 4 = CST MWS port Zmin ("") mode 2
! S-Parameters are not renormalized. Each port impedance will be approximated by the real part at minimum frequency. The values are described via the [Reference] keyword.
! Default impedance is overridden by [Reference]
[Version] 2.0
# GHz S RI R 376.73
[Number of Ports] 4
[Reference]
376.73 376.73 376.73 376.73 
[Number of Frequencies] 1001
[Network Data]
281700                 -0.252228        0.292701       0.00144521    -0.000382452        -0.577838       -0.704654      -0.00105158     0.000921854
                      0.00136442     -0.00052017       -0.0423088        0.143355      -0.00115364     0.000556855         -0.89338       -0.411031
                       -0.577905       -0.704522      -0.00102443     0.000510624        -0.342788        0.172745      0.000536281    -0.000947372
                    -0.000895629     0.000890121        -0.893892       -0.411253      0.000481076    -0.000714992       -0.0859903        0.121686
281700.1               -0.252213        0.292701       0.00144517    -0.000382476        -0.577865       -0.704637      -0.00105159     0.000921872
                      0.00136438    -0.000520184       -0.0423025         0.14335      -0.00115357     0.000556893        -0.893393       -0.411004
                       -0.577932       -0.704505      -0.00102439      0.00051065        -0.342772        0.172754      0.000536201    -0.000947331
                    -0.000895571     0.000890131        -0.893905       -0.411226      0.000481006    -0.000715025       -0.0859834        0.121684
281700.2               -0.252198        0.292702       0.00144513    -0.000382501        -0.577892        -0.70462       -0.0010516     0.000921891
                      0.00136433    -0.000520198       -0.0422961        0.143346       -0.0011535     0.000556931        -0.893407       -0.410978
                        -0.57796       -0.704488      -0.00102434     0.000510677        -0.342757        0.172764      0.000536122    -0.000947291
                    -0.000895513      0.00089014        -0.893919         -0.4112      0.000480937    -0.000715058       -0.0859766        0.121681
281700.3               -0.252183        0.292702       0.00144509    -0.000382526         -0.57792       -0.704603       -0.0010516     0.000921909
                      0.00136429    -0.000520212       -0.0422897        0.143341      -0.00115343     0.000556969         -0.89342       -0.410952
                       -0.577987       -0.704471      -0.00102429     0.000510704        -0.342742        0.172774      0.000536042     -0.00094725
                    -0.000895455     0.000890149        -0.893932       -0.411173      0.000480868    -0.000715091       -0.0859698        0.121678
281700.4               -0.252168        0.292703       0.00144505    -0.000382551        -0.577947       -0.704587      -0.00105161     0.000921927
                      0.00136424    -0.000520225       -0.0422834        0.143336      -0.00115336     0.000557007        -0.893433       -0.410925
                       -0.578014       -0.704454      -0.00102425      0.00051073        -0.342727        0.172783      0.000535962     -0.00094721
                    -0.000895397     0.000890158        -0.893945       -0.411147      0.000480799    -0.000715124        -0.085963        0.121675
281700.5               -0.252153        0.292703       0.00144502    -0.000382576        -0.577974        -0.70457      -0.00105162     0.000921946
                       0.0013642    -0.000520239        -0.042277        0.143332      -0.00115329     0.000557045        -0.893446       -0.410899
                       -0.578041       -0.704437       -0.0010242     0.000510757        -0.342712        0.172793      0.000535882    -0.000947169
                    -0.000895339     0.000890168        -0.893958       -0.411121       0.00048073    -0.000715157       -0.0859562        0.121672
281700.6               -0.252139        0.292703       0.00144498      -0.0003826        -0.578001       -0.704553      -0.00105163     0.000921964
                      0.00136415    -0.000520253       -0.0422707        0.143327      -0.00115322     0.000557083        -0.893459       -0.410872
                       -0.578069       -0.704421      -0.00102415     0.000510783        -0.342697        0.172803      0.000535803    -0.000947128
                    -0.000895281     0.000890177        -0.893972       -0.411094      0.000480661     -0.00071519       -0.0859494         0.12167
281700.7               -0.252124        0.292704       0.00144494    -0.000382625        -0.578029       -0.704536      -0.00105163     0.000921983
                      0.00136411    -0.000520267       -0.0422643        0.143322      -0.00115315     0.000557122        -0.893473       -0.410846
                       -0.578096       -0.704404       -0.0010241      0.00051081        -0.342681        0.172812      0.000535723    -0.000947088
                    -0.000895222     0.000890186        -0.893985       -0.411068      0.000480591    -0.000715223       -0.0859425        0.121667
281700.8               -0.252109        0.292704        0.0014449     -0.00038265        -0.578056       -0.704519      -0.00105164     0.000922001
                      0.00136407    -0.000520281       -0.0422579        0.143318      -0.00115308      0.00055716        -0.893486       -0.410819
                       -0.578123       -0.704387      -0.00102406     0.000510837        -0.342666        0.172822      0.000535643    -0.000947047
                    -0.000895164     0.000890196        -0.893998       -0.411041      0.000480522    -0.000715256       -0.0859357        0.121664
281700.9               -0.252094        0.292705       0.00144486    -0.000382675        -0.578083       -0.704502      -0.00105165      0.00092202
                      0.00136402    -0.000520295       -0.0422516        0.143313      -0.00115301     0.000557198        -0.893499       -0.410793
                        -0.57815        -0.70437      -0.00102401     0.000510863        -0.342651        0.172832      0.000535563    -0.000947007
                    -0.000895106     0.000890205        -0.894011       -0.411015      0.000480453    -0.000715289       -0.0859289        0.121661
281701                 -0.252079        0.292705       0.00144482      -0.0003827         -0.57811       -0.704486      -0.00105165     0.000922038
                      0.00136398    -0.000520309       -0.0422452        0.143308      -0.00115293     0.000557236        -0.893512       -0.410766
                       -0.578177       -0.704353      -0.00102396      0.00051089        -0.342636        0.172841      0.000535484    -0.000946966
                    -0.000895048     0.000890214        -0.894025       -0.410988      0.000480384    -0.000715322       -0.0859221        0.121658
281701.1               -0.252064        0.292706       0.00144478    -0.000382724        -0.578138       -0.704469      -0.00105166     0.000922057
                      0.00136393    -0.000520323       -0.0422389        0.143304      -0.00115286     0.000557274        -0.893526        -0.41074
                       -0.578205       -0.704336      -0.00102392     0.000510916        -0.342621        0.172851      0.000535404    -0.000946926
                     -0.00089499     0.000890223        -0.894038       -0.410962      0.000480315    -0.000715355       -0.0859153        0.121656
281701.2               -0.252049        0.292706       0.00144475    -0.000382749        -0.578165       -0.704452      -0.00105167     0.000922075
                      0.00136389    -0.000520337       -0.0422325        0.143299      -0.00115279     0.000557312        -0.893539       -0.410713
                       -0.578232        -0.70432      -0.00102387     0.000510943        -0.342606        0.172861      0.000535324    -0.000946885
                    -0.000894932     0.000890233        -0.894051       -0.410935      0.000480245    -0.000715388       -0.0859085        0.121653
281701.3               -0.252034        0.292707       0.00144471    -0.000382774        -0.578192       -0.704435      -0.00105167     0.000922094
                      0.00136384    -0.000520351       -0.0422262        0.143294      -0.00115272      0.00055735        -0.893552       -0.410687
                       -0.578259       -0.704303      -0.00102382     0.000510969         -0.34259         0.17287      0.000535244    -0.000946845
                    -0.000894874     0.000890242        -0.894064       -0.410909      0.000480176    -0.000715421       -0.0859016         0.12165
281701.4               -0.252019        0.292707       0.00144467    -0.000382799        -0.578219       -0.704418      -0.00105168     0.000922112
                       0.0013638    -0.000520365       -0.0422198         0.14329      -0.00115265     0.000557388        -0.893565        -0.41066
                       -0.578286       -0.704286      -0.00102377     0.000510996        -0.342575         0.17288      0.000535165    -0.000946804
                    -0.000894816     0.000890251        -0.894077       -0.410882      0.000480107    -0.000715454       -0.0858948        0.121647
281701.5               -0.252004        0.292707       0.00144463    -0.000382824        -0.578246       -0.704401      -0.00105169     0.000922131
                      0.00136375    -0.000520379       -0.0422135        0.143285      -0.00115258     0.000557426        -0.893578       -0.410634
                       -0.578314       -0.704269      -0.00102373     0.000511023         -0.34256         0.17289      0.000535085    -0.000946764
                    -0.000894758      0.00089026        -0.894091       -0.410856      0.000480038    -0.000715487        -0.085888        0.121645
281701.6                -0.25199        0.292708       0.00144459    -0.000382848        -0.578274       -0.704385      -0.00105169      0.00092215
                      0.00136371    -0.000520393       -0.0422071         0.14328      -0.00115251     0.000557464        -0.893592       -0.410607
                       -0.578341       -0.704252      -0.00102368     0.000511049        -0.342545        0.172899      0.000535005    -0.000946723
                      -0.0008947      0.00089027        -0.894104       -0.410829      0.000479969     -0.00071552       -0.0858812        0.121642
281701.7               -0.251975        0.292708       0.00144455    -0.000382873        -0.578301       -0.704368       -0.0010517     0.000922168
                      0.00136366    -0.000520406       -0.0422007        0.143276      -0.00115244     0.000557503        -0.893605       -0.410581
                       -0.578368       -0.704235      -0.00102363     0.000511076         -0.34253        0.172909      0.000534926    -0.000946683
                    -0.000894642     0.000890279        -0.894117       -0.410803        0.0004799    -0.000715553       -0.0858744        0.121639
281701.8                -0.25196        0.292709       0.00144452    -0.000382898        -0.578328       -0.704351      -0.00105171     0.000922187
                      0.00136362     -0.00052042       -0.0421944        0.143271      -0.00115237     0.000557541        -0.893618       -0.410554
                       -0.578395       -0.704219      -0.00102359     0.000511102        -0.342515        0.172919      0.000534846    -0.000946642
                    -0.000894584     0.000890288         -0.89413       -0.410776       0.00047983    -0.000715586       -0.0858676        0.121636
281701.9               -0.251945        0.292709       0.00144448    -0.000382923        -0.578355       -0.704334      -0.00105171     0.000922206
                      0.00136357    -0.000520434        -0.042188        0.143266       -0.0011523     0.000557579        -0.893631       -0.410528
                       -0.578422       -0.704202      -0.00102354     0.000511129        -0.342499        0.172928      0.000534766    -0.000946602
                    -0.000894526     0.000890297        -0.894144        -0.41075      0.000479761    -0.000715619       -0.0858607        0.121633
281702                  -0.25193         0.29271       0.00144444    -0.000382947        -0.578383       -0.704317      -0.00105172     0.000922224
                      0.00136353    -0.000520448       -0.0421817        0.143262      -0.00115223     0.000557617        -0.893645       -0.410502
                        -0.57845       -0.704185      -0.00102349     0.000511155        -0.342484        0.172938      0.000534687    -0.000946561
                    -0.000894468     0.000890306        -0.894157       -0.410723      0.000479692    -0.000715652       -0.0858539        0.121631
281702.1               -0.251915         0.29271        0.0014444    -0.000382972         -0.57841         -0.7043      -0.00105173     0.000922243
                      0.00136349    -0.000520462       -0.0421753        0.143257      -0.00115215     0.000557655        -0.893658       -0.410475
                       -0.578477       -0.704168      -0.00102344     0.000511182        -0.342469        0.172947      0.000534607    -0.000946521
                     -0.00089441     0.000890316         -0.89417       -0.410697      0.000479623    -0.000715685       -0.0858471        0.121628
281702.2                 -0.2519        0.292711       0.00144436    -0.000382997        -0.578437       -0.704284      -0.00105174     0.000922262
                      0.00136344    -0.000520476        -0.042169        0.143252      -0.00115208     0.000557693        -0.893671       -0.410449
                       -0.578504       -0.704151       -0.0010234     0.000511208        -0.342454        0.172957      0.000534527     -0.00094648
                    -0.000894352     0.000890325        -0.894183        -0.41067      0.000479554    -0.000715718       -0.0858403        0.121625
281702.3               -0.251885        0.292711       0.00144432    -0.000383022        -0.578464       -0.704267      -0.00105174     0.000922281
                       0.0013634     -0.00052049       -0.0421626        0.143248      -0.00115201     0.000557731        -0.893684       -0.410422
                       -0.578531       -0.704134      -0.00102335     0.000511235        -0.342439        0.172967      0.000534448     -0.00094644
                    -0.000894294     0.000890334        -0.894196       -0.410644      0.000479484    -0.000715751       -0.0858335        0.121622
281702.4                -0.25187        0.292711       0.00144429    -0.000383047        -0.578491        -0.70425      -0.00105175       0.0009223
                      0.00136335    -0.000520504       -0.0421563        0.143243      -0.00115194     0.000557769        -0.893697       -0.410396
                       -0.578558       -0.704117       -0.0010233     0.000511261        -0.342424        0.172976      0.000534368    -0.000946399
                    -0.000894236     0.000890343         -0.89421       -0.410617      0.000479415    -0.000715784       -0.0858267        0.121619
281702.5               -0.251855        0.292712       0.00144425    -0.000383071        -0.578519       -0.704233      -0.00105176     0.000922318
                      0.00136331    -0.000520518       -0.0421499        0.143238      -0.00115187     0.000557807        -0.893711       -0.410369
                       -0.578586       -0.704101      -0.00102326     0.000511288        -0.342408        0.172986      0.000534289    -0.000946359
                    -0.000894178     0.000890352        -0.894223       -0.410591      0.000479346    -0.000715816       -0.0858199        0.121617
281702.6               -0.251841        0.292712       0.00144421    -0.000383096        -0.578546       -0.704216      -0.00105176     0.000922337
                      0.00136326    -0.000520531       -0.0421436        0.143234       -0.0011518     0.000557845        -0.893724       -0.410343
                       -0.578613       -0.704084      -0.00102321     0.000511315        -0.342393        0.172996      0.000534209    -0.000946318
                     -0.00089412     0.000890362        -0.894236       -0.410564      0.000479277    -0.000715849       -0.0858131        0.121614
281702.7               -0.251826        0.292713       0.00144417    -0.000383121        -0.578573       -0.704199      -0.00105177     0.000922356
                      0.00136322    -0.000520545       -0.0421372        0.143229      -0.00115173     0.000557883        -0.893737       -0.410316
                        -0.57864       -0.704067      -0.00102316     0.000511341        -0.342378        0.173005      0.000534129    -0.000946278
                    -0.000894062     0.000890371        -0.894249       -0.410538      0.000479208    -0.000715882       -0.0858062        0.121611
281702.8               -0.251811        0.292713       0.00144413    -0.000383146          -0.5786       -0.704182      -0.00105178     0.000922375
                      0.00136317    -0.000520559       -0.0421309        0.143224      -0.00115166     0.000557921         -0.89375        -0.41029
                       -0.578667        -0.70405      -0.00102311     0.000511368        -0.342363        0.173015       0.00053405    -0.000946237
                    -0.000894004      0.00089038        -0.894263       -0.410511      0.000479138    -0.000715915       -0.0857994        0.121608
281702.9               -0.251796        0.292714       0.00144409     -0.00038317        -0.578628       -0.704166      -0.00105178     0.000922394
                      0.00136313    -0.000520573       -0.0421245         0.14322      -0.00115159     0.000557959        -0.893763       -0.410263
                       -0.578694       -0.704033      -0.00102307     0.000511394        -0.342348        0.173025       0.00053397    -0.000946197
                    -0.000893946     0.000890389        -0.894276       -0.410485      0.000479069    -0.000715948       -0.0857926        0.121605
281703                 -0.251781        0.292714       0.00144406    -0.000383195        -0.578655       -0.704149      -0.00105179     0.000922413
                      0.00136308    -0.000520587       -0.0421181        0.143215      -0.00115151     0.000557997        -0.893777       -0.410237
                       -0.578722       -0.704016      -0.00102302     0.000511421        -0.342333        0.173034       0.00053389    -0.000946156
                    -0.000893888     0.000890398        -0.894289       -0.410458         0.000479    -0.000715981       -0.0857858        0.121603
281703.1               -0.251766        0.292715       0.00144402     -0.00038322        -0.578682       -0.704132       -0.0010518     0.000922432
                      0.00136304    -0.000520601       -0.0421118         0.14321      -0.00115144     0.000558035         -0.89379        -0.41021
                       -0.578749          -0.704      -0.00102297     0.000511447        -0.342317        0.173044      0.000533811    -0.000946116
