! TOUCHSTONE file generated by CST MICROWAVE STUDIO
! Date and time: Wed Oct  8 06:57:12 2025
! Project name: Teste_Macro_Metasurface_Nanopilar.cst
! Parameters = {H=600; L_x=125; L_y=90; Lambda=1064; Max_L=200; Min_L=70; PathPara=1; Phi=0; Step_L=10; Theta=0; p=520; phaseX=180; phaseY=0}
! Header version: 2018
! Port assignment regex: !\s*Touchstone port\s*([0-9]+)\s*=\s*(CST MWS port|CST DS port)\s*([0-9]+|Zmin|Zmax)\s*\(\"(.*)\"\)(\s*mode\s*([0-9]+))?.*
! Touchstone port assignment:
! Touchstone port 1 = CST MWS port Zmax ("") mode 1
! Touchstone port 2 = CST MWS port Zmax ("") mode 2
! Touchstone port 3 = CST MWS port Zmin ("") mode 1
! Touchstone port 4 = CST MWS port Zmin ("") mode 2
! S-Parameters are not renormalized. Each port impedance will be approximated by the real part at minimum frequency. The values are described via the [Reference] keyword.
! Default impedance is overridden by [Reference]
[Version] 2.0
# GHz S RI R 376.73
[Number of Ports] 4
[Reference]
376.73 376.73 376.73 376.73 
[Number of Frequencies] 1001
[Network Data]
281700                 0.0151874       -0.152494     -0.000870206     0.000444377        -0.690399        0.704765      0.000955512     0.000207697
                    -0.000840271       0.0004904        -0.174489        0.203637       0.00090733    -0.000425541         0.667689        0.683155
                       -0.690119        0.704614         0.001093     -0.00042532        -0.152465       0.0188209     -0.000675654    -0.000124627
                      0.00101476     0.000168699         0.667753        0.683068     -0.000657635    -0.000184589        -0.210205        0.169201
281700.1               0.0151805       -0.152494     -0.000870191     0.000444409         -0.69038        0.704784       0.00095551     0.000207664
                    -0.000840261     0.000490428        -0.174479        0.203641      0.000907315    -0.000425572         0.667712        0.683134
                         -0.6901        0.704633       0.00109298    -0.000425359        -0.152465       0.0188224     -0.000675649    -0.000124605
                      0.00101477     0.000168672         0.667777        0.683047     -0.000657652    -0.000184579        -0.210197        0.169204
281700.2               0.0151737       -0.152495     -0.000870177     0.000444441         -0.69036        0.704803      0.000955508     0.000207632
                    -0.000840251     0.000490456        -0.174469        0.203644        0.0009073    -0.000425602         0.667735        0.683113
                        -0.69008        0.704652       0.00109296    -0.000425398        -0.152465        0.018824     -0.000675644    -0.000124582
                      0.00101478     0.000168645           0.6678        0.683025     -0.000657669    -0.000184568        -0.210189        0.169208
281700.3               0.0151669       -0.152495     -0.000870163     0.000444474        -0.690341        0.704822      0.000955506     0.000207599
                    -0.000840241     0.000490484         -0.17446        0.203648      0.000907285    -0.000425633         0.667758        0.683091
                       -0.690061        0.704671       0.00109294    -0.000425438        -0.152465       0.0188255     -0.000675639    -0.000124559
                      0.00101479     0.000168618         0.667823        0.683004     -0.000657686    -0.000184558        -0.210181        0.169212
281700.4                 0.01516       -0.152496     -0.000870149     0.000444506        -0.690322        0.704841      0.000955503     0.000207566
                    -0.000840231     0.000490512         -0.17445        0.203651       0.00090727    -0.000425664         0.667781         0.68307
                       -0.690041         0.70469       0.00109292    -0.000425477        -0.152464        0.018827     -0.000675634    -0.000124537
                       0.0010148     0.000168591         0.667846        0.682983     -0.000657703    -0.000184548        -0.210173        0.169216
281700.5               0.0151532       -0.152497     -0.000870135     0.000444538        -0.690302         0.70486      0.000955501     0.000207534
                    -0.000840222      0.00049054         -0.17444        0.203655      0.000907255    -0.000425695         0.667805        0.683049
                       -0.690022        0.704709        0.0010929    -0.000425516        -0.152464       0.0188286     -0.000675629    -0.000124514
                       0.0010148     0.000168564         0.667869        0.682961     -0.000657719    -0.000184537        -0.210165         0.16922
281700.6               0.0151463       -0.152497     -0.000870121      0.00044457        -0.690283        0.704879      0.000955499     0.000207501
                    -0.000840212     0.000490568         -0.17443        0.203658      0.000907241    -0.000425726         0.667828        0.683028
                       -0.690003        0.704728       0.00109288    -0.000425556        -0.152464       0.0188301     -0.000675624    -0.000124491
                      0.00101481     0.000168537         0.667893         0.68294     -0.000657736    -0.000184527        -0.210158        0.169224
281700.7               0.0151395       -0.152498     -0.000870106     0.000444603        -0.690264        0.704898      0.000955497     0.000207468
                    -0.000840202     0.000490596         -0.17442        0.203662      0.000907226    -0.000425756         0.667851        0.683006
                       -0.689983        0.704747       0.00109286    -0.000425595        -0.152463       0.0188316     -0.000675619    -0.000124469
                      0.00101482      0.00016851         0.667916        0.682919     -0.000657753    -0.000184517         -0.21015        0.169227
281700.8               0.0151326       -0.152498     -0.000870092     0.000444635        -0.690244        0.704917      0.000955495     0.000207436
                    -0.000840192     0.000490624        -0.174411        0.203665      0.000907211    -0.000425787         0.667874        0.682985
                       -0.689964        0.704766       0.00109284    -0.000425634        -0.152463       0.0188332     -0.000675614    -0.000124446
                      0.00101483     0.000168483         0.667939        0.682898      -0.00065777    -0.000184506        -0.210142        0.169231
281700.9               0.0151258       -0.152499     -0.000870078     0.000444667        -0.690225        0.704936      0.000955492     0.000207403
                    -0.000840182     0.000490652        -0.174401        0.203669      0.000907196    -0.000425818         0.667897        0.682964
                       -0.689945        0.704785       0.00109282    -0.000425673        -0.152463       0.0188347     -0.000675609    -0.000124423
                      0.00101484     0.000168456         0.667962        0.682876     -0.000657786    -0.000184496        -0.210134        0.169235
281701                 0.0151189         -0.1525     -0.000870064     0.000444699        -0.690205        0.704955       0.00095549      0.00020737
                    -0.000840173      0.00049068        -0.174391        0.203672      0.000907181    -0.000425849         0.667921        0.682942
                       -0.689925        0.704804        0.0010928    -0.000425713        -0.152462       0.0188362     -0.000675604    -0.000124401
                      0.00101484     0.000168429         0.667985        0.682855     -0.000657803    -0.000184485        -0.210126        0.169239
281701.1               0.0151121         -0.1525      -0.00087005     0.000444732        -0.690186        0.704974      0.000955488     0.000207338
                    -0.000840163     0.000490708        -0.174381        0.203676      0.000907166     -0.00042588         0.667944        0.682921
                       -0.689906        0.704823       0.00109278    -0.000425752        -0.152462       0.0188378     -0.000675599    -0.000124378
                      0.00101485     0.000168402         0.668009        0.682834      -0.00065782    -0.000184475        -0.210118        0.169243
281701.2               0.0151052       -0.152501     -0.000870036     0.000444764        -0.690167        0.704993      0.000955486     0.000207305
                    -0.000840153     0.000490736        -0.174371        0.203679      0.000907151     -0.00042591         0.667967          0.6829
                       -0.689886        0.704842       0.00109276    -0.000425791        -0.152462       0.0188393     -0.000675594    -0.000124355
                      0.00101486     0.000168375         0.668032        0.682812     -0.000657837    -0.000184465         -0.21011        0.169247
281701.3               0.0150984       -0.152501     -0.000870022     0.000444796        -0.690147        0.705012      0.000955484     0.000207273
                    -0.000840143     0.000490764        -0.174362        0.203683      0.000907136    -0.000425941          0.66799        0.682879
                       -0.689867        0.704861       0.00109274    -0.000425831        -0.152462       0.0188408     -0.000675589    -0.000124333
                      0.00101487     0.000168348         0.668055        0.682791     -0.000657853    -0.000184454        -0.210103         0.16925
281701.4               0.0150915       -0.152502     -0.000870007     0.000444828        -0.690128        0.705031      0.000955481      0.00020724
                    -0.000840133     0.000490792        -0.174352        0.203686      0.000907121    -0.000425972         0.668014        0.682857
                       -0.689848         0.70488       0.00109272     -0.00042587        -0.152461       0.0188424     -0.000675584     -0.00012431
                      0.00101488     0.000168321         0.668078         0.68277      -0.00065787    -0.000184444        -0.210095        0.169254
281701.5               0.0150847       -0.152503     -0.000869993     0.000444861        -0.690109         0.70505      0.000955479     0.000207207
                    -0.000840124      0.00049082        -0.174342         0.20369      0.000907106    -0.000426003         0.668037        0.682836
                       -0.689828        0.704899        0.0010927    -0.000425909        -0.152461       0.0188439     -0.000675579    -0.000124287
                      0.00101488     0.000168294         0.668102        0.682748     -0.000657887    -0.000184434        -0.210087        0.169258
281701.6               0.0150778       -0.152503     -0.000869979     0.000444893        -0.690089        0.705069      0.000955477     0.000207175
                    -0.000840114     0.000490848        -0.174332        0.203693      0.000907092    -0.000426034          0.66806        0.682815
                       -0.689809        0.704918       0.00109268    -0.000425949        -0.152461       0.0188454     -0.000675574    -0.000124264
                      0.00101489     0.000168267         0.668125        0.682727     -0.000657904    -0.000184423        -0.210079        0.169262
281701.7                0.015071       -0.152504     -0.000869965     0.000444925         -0.69007        0.705088      0.000955475     0.000207142
                    -0.000840104     0.000490876        -0.174322        0.203697      0.000907077    -0.000426064         0.668083        0.682793
                       -0.689789        0.704937       0.00109267    -0.000425988         -0.15246        0.018847     -0.000675569    -0.000124242
                       0.0010149      0.00016824         0.668148        0.682706     -0.000657921    -0.000184413        -0.210071        0.169266
281701.8               0.0150641       -0.152504     -0.000869951     0.000444957         -0.69005        0.705107      0.000955473     0.000207109
                    -0.000840094     0.000490904        -0.174313          0.2037      0.000907062    -0.000426095         0.668106        0.682772
                        -0.68977        0.704956       0.00109265    -0.000426027         -0.15246       0.0188485     -0.000675564    -0.000124219
                      0.00101491     0.000168213         0.668171        0.682684     -0.000657937    -0.000184403        -0.210063         0.16927
281701.9               0.0150573       -0.152505     -0.000869937      0.00044499        -0.690031        0.705126       0.00095547     0.000207077
                    -0.000840084     0.000490932        -0.174303        0.203704      0.000907047    -0.000426126          0.66813        0.682751
                       -0.689751        0.704975       0.00109263    -0.000426067         -0.15246       0.0188501     -0.000675559    -0.000124196
                      0.00101492     0.000168186         0.668194        0.682663     -0.000657954    -0.000184392        -0.210055        0.169273
281702                 0.0150504       -0.152505     -0.000869922     0.000445022        -0.690012        0.705145      0.000955468     0.000207044
                    -0.000840074      0.00049096        -0.174293        0.203707      0.000907032    -0.000426157         0.668153         0.68273
                       -0.689731        0.704994       0.00109261    -0.000426106         -0.15246       0.0188516     -0.000675554    -0.000124174
                      0.00101492     0.000168159         0.668218        0.682642     -0.000657971    -0.000184382        -0.210048        0.169277
281702.1               0.0150436       -0.152506     -0.000869908     0.000445054        -0.689992        0.705164      0.000955466     0.000207012
                    -0.000840065     0.000490988        -0.174283        0.203711      0.000907017    -0.000426188         0.668176        0.682708
                       -0.689712        0.705013       0.00109259    -0.000426145        -0.152459       0.0188531     -0.000675549    -0.000124151
                      0.00101493     0.000168132         0.668241        0.682621     -0.000657988    -0.000184371         -0.21004        0.169281
281702.2               0.0150367       -0.152507     -0.000869894     0.000445087        -0.689973        0.705183      0.000955464     0.000206979
                    -0.000840055     0.000491016        -0.174273        0.203714      0.000907002    -0.000426218         0.668199        0.682687
                       -0.689692        0.705032       0.00109257    -0.000426184        -0.152459       0.0188547     -0.000675544    -0.000124128
                      0.00101494     0.000168105         0.668264        0.682599     -0.000658005    -0.000184361        -0.210032        0.169285
281702.3               0.0150299       -0.152507      -0.00086988     0.000445119        -0.689953        0.705202      0.000955461     0.000206946
                    -0.000840045     0.000491044        -0.174264        0.203718      0.000906987    -0.000426249         0.668222        0.682666
                       -0.689673        0.705051       0.00109255    -0.000426224        -0.152459       0.0188562     -0.000675539    -0.000124106
                      0.00101495     0.000168078         0.668287        0.682578     -0.000658021    -0.000184351        -0.210024        0.169289
281702.4                0.015023       -0.152508     -0.000869866     0.000445151        -0.689934        0.705221      0.000955459     0.000206914
                    -0.000840035     0.000491073        -0.174254        0.203721      0.000906972     -0.00042628         0.668246        0.682644
                       -0.689654        0.705069       0.00109253    -0.000426263        -0.152458       0.0188577     -0.000675534    -0.000124083
                      0.00101496     0.000168051          0.66831        0.682557     -0.000658038     -0.00018434        -0.210016        0.169293
281702.5               0.0150162       -0.152508     -0.000869852     0.000445183        -0.689915         0.70524      0.000955457     0.000206881
                    -0.000840025     0.000491101        -0.174244        0.203725      0.000906957    -0.000426311         0.668269        0.682623
                       -0.689634        0.705088       0.00109251    -0.000426302        -0.152458       0.0188593     -0.000675529     -0.00012406
                      0.00101496     0.000168024         0.668334        0.682535     -0.000658055     -0.00018433        -0.210008        0.169296
281702.6               0.0150093       -0.152509     -0.000869837     0.000445216        -0.689895        0.705259      0.000955455     0.000206848
                    -0.000840016     0.000491129        -0.174234        0.203728      0.000906942    -0.000426342         0.668292        0.682602
                       -0.689615        0.705107       0.00109249    -0.000426342        -0.152458       0.0188608     -0.000675524    -0.000124037
                      0.00101497     0.000167998         0.668357        0.682514     -0.000658072     -0.00018432            -0.21          0.1693
281702.7               0.0150025        -0.15251     -0.000869823     0.000445248        -0.689876        0.705278      0.000955453     0.000206816
                    -0.000840006     0.000491157        -0.174224        0.203732      0.000906928    -0.000426372         0.668315        0.682581
                       -0.689595        0.705126       0.00109247    -0.000426381        -0.152457       0.0188623     -0.000675519    -0.000124015
                      0.00101498     0.000167971          0.66838        0.682493     -0.000658088    -0.000184309        -0.209993        0.169304
281702.8               0.0149956        -0.15251     -0.000869809      0.00044528        -0.689856        0.705297       0.00095545     0.000206783
                    -0.000839996     0.000491185        -0.174215        0.203735      0.000906913    -0.000426403         0.668338        0.682559
                       -0.689576        0.705145       0.00109245     -0.00042642        -0.152457       0.0188639     -0.000675514    -0.000123992
                      0.00101499     0.000167944         0.668403        0.682471     -0.000658105    -0.000184299        -0.209985        0.169308
281702.9               0.0149888       -0.152511     -0.000869795     0.000445312        -0.689837        0.705316      0.000955448      0.00020675
                    -0.000839986     0.000491213        -0.174205        0.203739      0.000906898    -0.000426434         0.668362        0.682538
                       -0.689557        0.705164       0.00109243     -0.00042646        -0.152457       0.0188654     -0.000675509    -0.000123969
                        0.001015     0.000167917         0.668426         0.68245     -0.000658122    -0.000184288        -0.209977        0.169312
281703                 0.0149819       -0.152511     -0.000869781     0.000445345        -0.689818        0.705335      0.000955446     0.000206718
                    -0.000839976     0.000491241        -0.174195        0.203742      0.000906883    -0.000426465         0.668385        0.682517
                       -0.689537        0.705183       0.00109241    -0.000426499        -0.152457       0.0188669     -0.000675504    -0.000123946
                        0.001015      0.00016789          0.66845        0.682429     -0.000658139    -0.000184278        -0.209969        0.169316
281703.1               0.0149751       -0.152512     -0.000869767     0.000445377        -0.689798        0.705354      0.000955444     0.000206685
                    -0.000839967     0.000491269        -0.174185        0.203745      0.000906868    -0.000426495         0.668408        0.682495
                       -0.689518        0.705202       0.00109239    -0.000426538        -0.152456       0.0188685     -0.000675499    -0.000123924
