! TOUCHSTONE file generated by CST MICROWAVE STUDIO
! Date and time: Wed Oct  8 06:54:09 2025
! Project name: Teste_Macro_Metasurface_Nanopilar.cst
! Parameters = {H=600; L_x=100; L_y=75; Lambda=1064; Max_L=200; Min_L=70; PathPara=1; Phi=0; Step_L=10; Theta=0; p=520; phaseX=180; phaseY=0}
! Header version: 2018
! Port assignment regex: !\s*Touchstone port\s*([0-9]+)\s*=\s*(CST MWS port|CST DS port)\s*([0-9]+|Zmin|Zmax)\s*\(\"(.*)\"\)(\s*mode\s*([0-9]+))?.*
! Touchstone port assignment:
! Touchstone port 1 = CST MWS port Zmax ("") mode 1
! Touchstone port 2 = CST MWS port Zmax ("") mode 2
! Touchstone port 3 = CST MWS port Zmin ("") mode 1
! Touchstone port 4 = CST MWS port Zmin ("") mode 2
! S-Parameters are not renormalized. Each port impedance will be approximated by the real part at minimum frequency. The values are described via the [Reference] keyword.
! Default impedance is overridden by [Reference]
[Version] 2.0
# GHz S RI R 376.73
[Number of Ports] 4
[Reference]
376.73 376.73 376.73 376.73 
[Number of Frequencies] 1001
[Network Data]
281700                  0.123744       0.0362256     -0.000355765     0.000224317        -0.966384        0.220875     -0.000275828    -0.000498428
                    -0.000262671     0.000239851        0.0780164      -0.0931753     -0.000264196    -0.000472794        -0.851033        0.509766
                       -0.966578          0.2207     -0.000265523    -0.000511768       -0.0958938       0.0864544      0.000331049    -0.000259491
                    -0.000337316    -0.000438002        -0.851018        0.508953      0.000434004    -0.000205858        -0.119401       0.0249419
281700.1                0.123743       0.0362196     -0.000355761     0.000224321        -0.966379        0.220901     -0.000275839     -0.00049843
                    -0.000262667     0.000239857        0.0780111       -0.093179     -0.000264209    -0.000472788        -0.851019        0.509789
                       -0.966573        0.220726     -0.000265536    -0.000511762       -0.0958908       0.0864535      0.000331045    -0.000259497
                    -0.000337328    -0.000437993        -0.851005        0.508976      0.000434004    -0.000205874          -0.1194       0.0249419
281700.2                0.123741       0.0362136     -0.000355757     0.000224326        -0.966373        0.220926     -0.000275849    -0.000498432
                    -0.000262663     0.000239864        0.0780059      -0.0931827     -0.000264223    -0.000472782        -0.851006        0.509812
                       -0.966567        0.220752     -0.000265548    -0.000511756       -0.0958878       0.0864527       0.00033104    -0.000259503
                    -0.000337339    -0.000437984        -0.850991        0.508999      0.000434003     -0.00020589          -0.1194        0.024942
281700.3                 0.12374       0.0362077     -0.000355753      0.00022433        -0.966368        0.220952      -0.00027586    -0.000498435
                    -0.000262658     0.000239871        0.0780006      -0.0931864     -0.000264237    -0.000472776        -0.850992        0.509835
                       -0.966562        0.220777     -0.000265561    -0.000511751       -0.0958848       0.0864519      0.000331036     -0.00025951
                    -0.000337351    -0.000437976        -0.850977        0.509022      0.000434002    -0.000205907        -0.119399       0.0249421
281700.4                0.123739       0.0362017     -0.000355749     0.000224334        -0.966362        0.220978     -0.000275871    -0.000498437
                    -0.000262654     0.000239877        0.0779954      -0.0931901      -0.00026425     -0.00047277        -0.850978        0.509858
                       -0.966556        0.220803     -0.000265574    -0.000511745       -0.0958817       0.0864511      0.000331031    -0.000259516
                    -0.000337362    -0.000437967        -0.850964        0.509045      0.000434002    -0.000205923        -0.119399       0.0249421
281700.5                0.123738       0.0361957     -0.000355746     0.000224338        -0.966357        0.221003     -0.000275881    -0.000498439
                     -0.00026265     0.000239884        0.0779901      -0.0931938     -0.000264264    -0.000472764        -0.850965        0.509881
                       -0.966551        0.220829     -0.000265586    -0.000511739       -0.0958787       0.0864503      0.000331027    -0.000259522
                    -0.000337374    -0.000437958         -0.85095        0.509068      0.000434001    -0.000205939        -0.119398       0.0249422
281700.6                0.123737       0.0361897     -0.000355742     0.000224343        -0.966351        0.221029     -0.000275892    -0.000498442
                    -0.000262646      0.00023989        0.0779849      -0.0931975     -0.000264277    -0.000472758        -0.850951        0.509904
                       -0.966545        0.220854     -0.000265599    -0.000511733       -0.0958757       0.0864495      0.000331022    -0.000259528
                    -0.000337385    -0.000437949        -0.850936        0.509091         0.000434    -0.000205956        -0.119398       0.0249423
281700.7                0.123736       0.0361837     -0.000355738     0.000224347        -0.966346        0.221055     -0.000275902    -0.000498444
                    -0.000262642     0.000239897        0.0779796      -0.0932012     -0.000264291    -0.000472752        -0.850937        0.509927
                        -0.96654         0.22088     -0.000265612    -0.000511727       -0.0958727       0.0864487      0.000331018    -0.000259534
                    -0.000337397     -0.00043794        -0.850923        0.509114      0.000433999    -0.000205972        -0.119397       0.0249423
281700.8                0.123735       0.0361778     -0.000355734     0.000224351         -0.96634        0.221081     -0.000275913    -0.000498446
                    -0.000262638     0.000239904        0.0779744      -0.0932049     -0.000264305    -0.000472746        -0.850924         0.50995
                       -0.966534        0.220906     -0.000265624    -0.000511721       -0.0958697       0.0864479      0.000331013     -0.00025954
                    -0.000337408    -0.000437931        -0.850909        0.509137      0.000433999    -0.000205988        -0.119397       0.0249424
281700.9                0.123733       0.0361718      -0.00035573     0.000224355        -0.966335        0.221106     -0.000275923    -0.000498449
                    -0.000262634      0.00023991        0.0779692      -0.0932086     -0.000264318     -0.00047274         -0.85091        0.509973
                       -0.966529        0.220932     -0.000265637    -0.000511716       -0.0958667       0.0864471      0.000331009    -0.000259546
                     -0.00033742    -0.000437922        -0.850895         0.50916      0.000433998    -0.000206004        -0.119396       0.0249425
281701                  0.123732       0.0361658     -0.000355726      0.00022436        -0.966329        0.221132     -0.000275934    -0.000498451
                     -0.00026263     0.000239917        0.0779639      -0.0932123     -0.000264332    -0.000472733        -0.850896        0.509996
                       -0.966523        0.220957     -0.000265649     -0.00051171       -0.0958637       0.0864463      0.000331004    -0.000259552
                    -0.000337431    -0.000437914        -0.850881        0.509183      0.000433997    -0.000206021        -0.119395       0.0249426
281701.1                0.123731       0.0361598     -0.000355723     0.000224364        -0.966323        0.221158     -0.000275944    -0.000498453
                    -0.000262625     0.000239924        0.0779587       -0.093216     -0.000264346    -0.000472727        -0.850883        0.510019
                       -0.966518        0.220983     -0.000265662    -0.000511704       -0.0958606       0.0864455         0.000331    -0.000259558
                    -0.000337443    -0.000437905        -0.850868        0.509206      0.000433997    -0.000206037        -0.119395       0.0249426
281701.2                 0.12373       0.0361538     -0.000355719     0.000224368        -0.966318        0.221183     -0.000275955    -0.000498456
                    -0.000262621      0.00023993        0.0779534      -0.0932197     -0.000264359    -0.000472721        -0.850869        0.510042
                       -0.966512        0.221009     -0.000265675    -0.000511698       -0.0958576       0.0864447      0.000330995    -0.000259564
                    -0.000337455    -0.000437896        -0.850854        0.509229      0.000433996    -0.000206053        -0.119394       0.0249427
281701.3                0.123729       0.0361479     -0.000355715     0.000224372        -0.966312        0.221209     -0.000275965    -0.000498458
                    -0.000262617     0.000239937        0.0779482      -0.0932234     -0.000264373    -0.000472715        -0.850855        0.510065
                       -0.966507        0.221034     -0.000265687    -0.000511692       -0.0958546       0.0864439      0.000330991     -0.00025957
                    -0.000337466    -0.000437887         -0.85084        0.509252      0.000433995     -0.00020607        -0.119394       0.0249428
281701.4                0.123728       0.0361419     -0.000355711     0.000224377        -0.966307        0.221235     -0.000275976     -0.00049846
                    -0.000262613     0.000239943        0.0779429       -0.093227     -0.000264386    -0.000472709        -0.850842        0.510088
                       -0.966501         0.22106       -0.0002657    -0.000511686       -0.0958516       0.0864431      0.000330986    -0.000259576
                    -0.000337478    -0.000437878        -0.850827        0.509275      0.000433995    -0.000206086        -0.119393       0.0249428
281701.5                0.123727       0.0361359     -0.000355707     0.000224381        -0.966301         0.22126     -0.000275986    -0.000498463
                    -0.000262609      0.00023995        0.0779377      -0.0932307       -0.0002644    -0.000472703        -0.850828        0.510111
                       -0.966496        0.221086     -0.000265713     -0.00051168       -0.0958486       0.0864423      0.000330982    -0.000259582
                    -0.000337489    -0.000437869        -0.850813        0.509298      0.000433994    -0.000206102        -0.119393       0.0249429
281701.6                0.123725       0.0361299     -0.000355704     0.000224385        -0.966296        0.221286     -0.000275997    -0.000498465
                    -0.000262605     0.000239957        0.0779324      -0.0932344     -0.000264414    -0.000472697        -0.850814        0.510134
                        -0.96649        0.221111     -0.000265725    -0.000511675       -0.0958456       0.0864415      0.000330977    -0.000259589
                    -0.000337501     -0.00043786        -0.850799        0.509321      0.000433993    -0.000206119        -0.119392        0.024943
281701.7                0.123724        0.036124       -0.0003557     0.000224389         -0.96629        0.221312     -0.000276007    -0.000498468
                    -0.000262601     0.000239963        0.0779272      -0.0932381     -0.000264427    -0.000472691        -0.850801        0.510157
                       -0.966485        0.221137     -0.000265738    -0.000511669       -0.0958426       0.0864407      0.000330973    -0.000259595
                    -0.000337512    -0.000437852        -0.850786        0.509344      0.000433992    -0.000206135        -0.119391        0.024943
281701.8                0.123723        0.036118     -0.000355696     0.000224394        -0.966285        0.221337     -0.000276018     -0.00049847
                    -0.000262597      0.00023997        0.0779219      -0.0932418     -0.000264441    -0.000472685        -0.850787         0.51018
                       -0.966479        0.221163     -0.000265751    -0.000511663       -0.0958396       0.0864399      0.000330968    -0.000259601
                    -0.000337524    -0.000437843        -0.850772        0.509367      0.000433992    -0.000206151        -0.119391       0.0249431
281701.9                0.123722        0.036112     -0.000355692     0.000224398        -0.966279        0.221363     -0.000276029    -0.000498472
                    -0.000262593     0.000239976        0.0779167      -0.0932455     -0.000264455    -0.000472679        -0.850773        0.510203
                       -0.966474        0.221188     -0.000265763    -0.000511657       -0.0958365       0.0864391      0.000330964    -0.000259607
                    -0.000337535    -0.000437834        -0.850758         0.50939      0.000433991    -0.000206167         -0.11939       0.0249432
281702                  0.123721        0.036106     -0.000355688     0.000224402        -0.966274        0.221389     -0.000276039    -0.000498475
                    -0.000262589     0.000239983        0.0779114      -0.0932492     -0.000264468    -0.000472673         -0.85076        0.510226
                       -0.966468        0.221214     -0.000265776    -0.000511651       -0.0958335       0.0864382      0.000330959    -0.000259613
                    -0.000337547    -0.000437825        -0.850744        0.509413       0.00043399    -0.000206184         -0.11939       0.0249432
281702.1                 0.12372          0.0361     -0.000355684     0.000224406        -0.966268        0.221414      -0.00027605    -0.000498477
                    -0.000262585      0.00023999        0.0779062      -0.0932529     -0.000264482    -0.000472667        -0.850746        0.510249
                       -0.966463         0.22124     -0.000265789    -0.000511645       -0.0958305       0.0864374      0.000330955    -0.000259619
                    -0.000337558    -0.000437816        -0.850731        0.509436       0.00043399      -0.0002062        -0.119389       0.0249433
281702.2                0.123719       0.0360941     -0.000355681      0.00022441        -0.966263         0.22144      -0.00027606    -0.000498479
                     -0.00026258     0.000239996        0.0779009      -0.0932566     -0.000264495    -0.000472661        -0.850732        0.510272
                       -0.966457        0.221266     -0.000265801     -0.00051164       -0.0958275       0.0864366       0.00033095    -0.000259625
                     -0.00033757    -0.000437807        -0.850717        0.509459      0.000433989    -0.000206216        -0.119389       0.0249434
281702.3                0.123717       0.0360881     -0.000355677     0.000224415        -0.966257        0.221466     -0.000276071    -0.000498482
                    -0.000262576     0.000240003        0.0778957      -0.0932603     -0.000264509    -0.000472655        -0.850719        0.510295
                       -0.966452        0.221291     -0.000265814    -0.000511634       -0.0958245       0.0864358      0.000330946    -0.000259631
                    -0.000337581    -0.000437798        -0.850703        0.509482      0.000433988    -0.000206233        -0.119388       0.0249434
281702.4                0.123716       0.0360821     -0.000355673     0.000224419        -0.966252        0.221491     -0.000276081    -0.000498484
                    -0.000262572      0.00024001        0.0778904      -0.0932639     -0.000264523    -0.000472649        -0.850705        0.510318
                       -0.966446        0.221317     -0.000265827    -0.000511628       -0.0958215        0.086435      0.000330941    -0.000259637
                    -0.000337593     -0.00043779         -0.85069        0.509505      0.000433988    -0.000206249        -0.119387       0.0249435
281702.5                0.123715       0.0360761     -0.000355669     0.000224423        -0.966246        0.221517     -0.000276092    -0.000498486
                    -0.000262568     0.000240016        0.0778852      -0.0932676     -0.000264536    -0.000472643        -0.850691        0.510341
                        -0.96644        0.221343     -0.000265839    -0.000511622       -0.0958185       0.0864342      0.000330937    -0.000259643
                    -0.000337604    -0.000437781        -0.850676        0.509528      0.000433987    -0.000206265        -0.119387       0.0249436
281702.6                0.123714       0.0360701     -0.000355665     0.000224427        -0.966241        0.221543     -0.000276102    -0.000498489
                    -0.000262564     0.000240023        0.0778799      -0.0932713      -0.00026455    -0.000472637        -0.850678        0.510364
                       -0.966435        0.221368     -0.000265852    -0.000511616       -0.0958155       0.0864334      0.000330932    -0.000259649
                    -0.000337616    -0.000437772        -0.850662        0.509551      0.000433986    -0.000206281        -0.119386       0.0249436
281702.7                0.123713       0.0360642     -0.000355662     0.000224432        -0.966235        0.221568     -0.000276113    -0.000498491
                     -0.00026256     0.000240029        0.0778747       -0.093275     -0.000264564    -0.000472631        -0.850664        0.510388
                       -0.966429        0.221394     -0.000265865     -0.00051161       -0.0958124       0.0864326      0.000330928    -0.000259655
                    -0.000337627    -0.000437763        -0.850648        0.509574      0.000433985    -0.000206298        -0.119386       0.0249437
281702.8                0.123712       0.0360582     -0.000355658     0.000224436         -0.96623        0.221594     -0.000276123    -0.000498493
                    -0.000262556     0.000240036        0.0778694      -0.0932787     -0.000264577    -0.000472624         -0.85065        0.510411
                       -0.966424         0.22142     -0.000265877    -0.000511605       -0.0958094       0.0864318      0.000330923    -0.000259662
                    -0.000337639    -0.000437754        -0.850635        0.509597      0.000433985    -0.000206314        -0.119385       0.0249438
281702.9                0.123711       0.0360522     -0.000355654      0.00022444        -0.966224         0.22162     -0.000276134    -0.000498496
                    -0.000262552     0.000240043        0.0778642      -0.0932824     -0.000264591    -0.000472618        -0.850636        0.510434
                       -0.966418        0.221445      -0.00026589    -0.000511599       -0.0958064        0.086431      0.000330919    -0.000259668
                     -0.00033765    -0.000437745        -0.850621         0.50962      0.000433984     -0.00020633        -0.119385       0.0249438
281703                  0.123709       0.0360462      -0.00035565     0.000224444        -0.966219        0.221645     -0.000276144    -0.000498498
                    -0.000262548     0.000240049        0.0778589      -0.0932861     -0.000264604    -0.000472612        -0.850623        0.510457
                       -0.966413        0.221471     -0.000265902    -0.000511593       -0.0958034       0.0864302      0.000330914    -0.000259674
                    -0.000337662    -0.000437736        -0.850607        0.509643      0.000433983    -0.000206347        -0.119384       0.0249439
281703.1                0.123708       0.0360403     -0.000355646     0.000224449        -0.966213        0.221671     -0.000276155      -0.0004985
                    -0.000262544     0.000240056        0.0778537      -0.0932898     -0.000264618    -0.000472606        -0.850609         0.51048
                       -0.966407        0.221497     -0.000265915    -0.000511587       -0.0958004       0.0864294       0.00033091     -0.00025968
