! TOUCHSTONE file generated by CST MICROWAVE STUDIO
! Date and time: Wed Oct  8 06:51:19 2025
! Project name: Teste_Macro_Metasurface_Nanopilar.cst
! Parameters = {H=600; L_x=75; L_y=105; Lambda=1064; Max_L=200; Min_L=70; PathPara=1; Phi=0; Step_L=10; Theta=0; p=520; phaseX=180; phaseY=0}
! Header version: 2018
! Port assignment regex: !\s*Touchstone port\s*([0-9]+)\s*=\s*(CST MWS port|CST DS port)\s*([0-9]+|Zmin|Zmax)\s*\(\"(.*)\"\)(\s*mode\s*([0-9]+))?.*
! Touchstone port assignment:
! Touchstone port 1 = CST MWS port Zmax ("") mode 1
! Touchstone port 2 = CST MWS port Zmax ("") mode 2
! Touchstone port 3 = CST MWS port Zmin ("") mode 1
! Touchstone port 4 = CST MWS port Zmin ("") mode 2
! S-Parameters are not renormalized. Each port impedance will be approximated by the real part at minimum frequency. The values are described via the [Reference] keyword.
! Default impedance is overridden by [Reference]
[Version] 2.0
# GHz S RI R 376.73
[Number of Ports] 4
[Reference]
376.73 376.73 376.73 376.73 
[Number of Frequencies] 1001
[Network Data]
281700                 0.0319207       -0.134244      0.000121904     0.000597565        -0.770364        0.620773     -0.000195801    -0.000333505
                      0.00034455     0.000213918         0.120894       0.0259887     -0.000103204    -0.000461027        -0.961058        0.245998
                       -0.770117         0.62081     -6.94665e-05    -0.000582615        -0.138469      0.00306263      0.000119695       0.0003985
                    -0.000231999    -0.000346584        -0.960996        0.245886       6.2853e-05     0.000412932       -0.0937387       0.0809394
281700.1               0.0319142       -0.134246      0.000121912      0.00059756        -0.770347        0.620794     -0.000195812    -0.000333504
                     0.000344605     0.000213902         0.120893       0.0259829     -0.000103222    -0.000461028        -0.961052        0.246024
                         -0.7701        0.620831     -6.94713e-05    -0.000582642         -0.13847      0.00306348      0.000119705     0.000398499
                    -0.000231999    -0.000346582         -0.96099        0.245912      6.28591e-05     0.000412926       -0.0937359       0.0809386
281700.2               0.0319078       -0.134248       0.00012192     0.000597555         -0.77033        0.620814     -0.000195823    -0.000333502
                     0.000344661     0.000213886         0.120891       0.0259771      -0.00010324    -0.000461028        -0.961046        0.246049
                       -0.770083        0.620852     -6.94761e-05    -0.000582669         -0.13847      0.00306433      0.000119715     0.000398499
                    -0.000231999    -0.000346581        -0.960983        0.245937      6.28652e-05      0.00041292       -0.0937331       0.0809377
281700.3               0.0319014        -0.13425      0.000121929      0.00059755        -0.770314        0.620835     -0.000195834    -0.000333501
                     0.000344717      0.00021387          0.12089       0.0259713     -0.000103258    -0.000461029         -0.96104        0.246075
                       -0.770066        0.620872     -6.94809e-05    -0.000582696         -0.13847      0.00306518      0.000119726     0.000398498
                    -0.000231999    -0.000346579        -0.960977        0.245963      6.28712e-05     0.000412914       -0.0937303       0.0809368
281700.4               0.0318949       -0.134252      0.000121937     0.000597545        -0.770297        0.620856     -0.000195845      -0.0003335
                     0.000344772     0.000213854         0.120888       0.0259654     -0.000103276     -0.00046103        -0.961033        0.246101
                       -0.770049        0.620893     -6.94857e-05    -0.000582723        -0.138471      0.00306603      0.000119736     0.000398498
                    -0.000231999    -0.000346578        -0.960971        0.245988      6.28773e-05     0.000412908       -0.0937275        0.080936
281700.5               0.0318885       -0.134254      0.000121945      0.00059754         -0.77028        0.620877     -0.000195856    -0.000333499
                     0.000344828     0.000213838         0.120887       0.0259596     -0.000103293    -0.000461031        -0.961027        0.246126
                       -0.770032        0.620914     -6.94905e-05     -0.00058275        -0.138471      0.00306687      0.000119746     0.000398497
                    -0.000231999    -0.000346576        -0.960965        0.246014      6.28834e-05     0.000412902       -0.0937247       0.0809351
281700.6               0.0318821       -0.134256      0.000121954     0.000597535        -0.770263        0.620898     -0.000195867    -0.000333497
                     0.000344883     0.000213822         0.120885       0.0259538     -0.000103311    -0.000461032        -0.961021        0.246152
                       -0.770015        0.620935     -6.94953e-05    -0.000582776        -0.138471      0.00306772      0.000119756     0.000398497
                    -0.000231999    -0.000346575        -0.960959        0.246039      6.28895e-05     0.000412896       -0.0937219       0.0809343
281700.7               0.0318756       -0.134258      0.000121962      0.00059753        -0.770246        0.620919     -0.000195878    -0.000333496
                     0.000344939     0.000213806         0.120883        0.025948     -0.000103329    -0.000461032        -0.961015        0.246177
                       -0.769998        0.620956     -6.95001e-05    -0.000582803        -0.138472      0.00306857      0.000119767     0.000398496
                       -0.000232    -0.000346573        -0.960952        0.246065      6.28955e-05      0.00041289       -0.0937191       0.0809334
281700.8               0.0318692        -0.13426       0.00012197     0.000597525        -0.770229         0.62094     -0.000195889    -0.000333495
                     0.000344995      0.00021379         0.120882       0.0259421     -0.000103347    -0.000461033        -0.961009        0.246203
                       -0.769981        0.620977     -6.95049e-05     -0.00058283        -0.138472      0.00306942      0.000119777     0.000398496
                       -0.000232    -0.000346572        -0.960946         0.24609      6.29016e-05     0.000412884       -0.0937162       0.0809325
281700.9               0.0318628       -0.134261      0.000121979      0.00059752        -0.770212        0.620961       -0.0001959    -0.000333494
                      0.00034505     0.000213774          0.12088       0.0259363     -0.000103365    -0.000461034        -0.961002        0.246229
                       -0.769964        0.620998     -6.95097e-05    -0.000582857        -0.138472      0.00307027      0.000119787     0.000398495
                       -0.000232     -0.00034657         -0.96094        0.246116      6.29077e-05     0.000412878       -0.0937134       0.0809317
281701                 0.0318563       -0.134263      0.000121987     0.000597515        -0.770195        0.620982     -0.000195911    -0.000333493
                     0.000345106     0.000213758         0.120879       0.0259305     -0.000103383    -0.000461035        -0.960996        0.246254
                       -0.769947        0.621019     -6.95145e-05    -0.000582884        -0.138472      0.00307112      0.000119798     0.000398495
                       -0.000232    -0.000346568        -0.960934        0.246142      6.29138e-05     0.000412872       -0.0937106       0.0809308
281701.1               0.0318499       -0.134265      0.000121995      0.00059751        -0.770178        0.621003     -0.000195922    -0.000333491
                     0.000345161     0.000213742         0.120877       0.0259247       -0.0001034    -0.000461036         -0.96099         0.24628
                        -0.76993         0.62104     -6.95193e-05    -0.000582911        -0.138473      0.00307196      0.000119808     0.000398494
                       -0.000232    -0.000346567        -0.960928        0.246167      6.29198e-05     0.000412866       -0.0937078         0.08093
281701.2               0.0318435       -0.134267      0.000122004     0.000597504        -0.770161        0.621024     -0.000195932     -0.00033349
                     0.000345217     0.000213726         0.120876       0.0259188     -0.000103418    -0.000461036        -0.960984        0.246305
                       -0.769913        0.621061     -6.95241e-05    -0.000582938        -0.138473      0.00307281      0.000119818     0.000398494
                       -0.000232    -0.000346565        -0.960921        0.246193      6.29259e-05      0.00041286        -0.093705       0.0809291
281701.3                0.031837       -0.134269      0.000122012     0.000597499        -0.770144        0.621045     -0.000195943    -0.000333489
                     0.000345273      0.00021371         0.120874        0.025913     -0.000103436    -0.000461037        -0.960978        0.246331
                       -0.769896        0.621082      -6.9529e-05    -0.000582965        -0.138473      0.00307366      0.000119828     0.000398494
                       -0.000232    -0.000346564        -0.960915        0.246218       6.2932e-05     0.000412854       -0.0937022       0.0809282
281701.4               0.0318306       -0.134271      0.000122021     0.000597494        -0.770127        0.621066     -0.000195954    -0.000333488
                     0.000345328     0.000213694         0.120873       0.0259072     -0.000103454    -0.000461038        -0.960971        0.246357
                       -0.769879        0.621103     -6.95338e-05    -0.000582992        -0.138474      0.00307451      0.000119839     0.000398493
                       -0.000232    -0.000346562        -0.960909        0.246244      6.29381e-05     0.000412848       -0.0936994       0.0809274
281701.5               0.0318242       -0.134273      0.000122029     0.000597489         -0.77011        0.621087     -0.000195965    -0.000333486
                     0.000345384     0.000213678         0.120871       0.0259014     -0.000103472    -0.000461039        -0.960965        0.246382
                       -0.769862        0.621124     -6.95386e-05    -0.000583019        -0.138474      0.00307536      0.000119849     0.000398493
                       -0.000232    -0.000346561        -0.960903        0.246269      6.29441e-05     0.000412842       -0.0936966       0.0809265
281701.6               0.0318177       -0.134275      0.000122037     0.000597484        -0.770093        0.621108     -0.000195976    -0.000333485
                      0.00034544     0.000213662          0.12087       0.0258955      -0.00010349    -0.000461039        -0.960959        0.246408
                       -0.769845        0.621145     -6.95435e-05    -0.000583046        -0.138474      0.00307621      0.000119859     0.000398492
                    -0.000232001    -0.000346559        -0.960897        0.246295      6.29502e-05     0.000412836       -0.0936937       0.0809257
281701.7               0.0318113       -0.134276      0.000122046     0.000597479        -0.770076        0.621129     -0.000195987    -0.000333484
                     0.000345495     0.000213646         0.120868       0.0258897     -0.000103507     -0.00046104        -0.960953        0.246433
                       -0.769829        0.621166     -6.95483e-05    -0.000583073        -0.138475      0.00307706       0.00011987     0.000398492
                    -0.000232001    -0.000346557         -0.96089         0.24632      6.29563e-05      0.00041283       -0.0936909       0.0809248
281701.8               0.0318049       -0.134278      0.000122054     0.000597474        -0.770059         0.62115     -0.000195998    -0.000333483
                     0.000345551      0.00021363         0.120867       0.0258839     -0.000103525    -0.000461041        -0.960947        0.246459
                       -0.769812        0.621187     -6.95531e-05      -0.0005831        -0.138475      0.00307791       0.00011988     0.000398491
                    -0.000232001    -0.000346556        -0.960884        0.246346      6.29624e-05     0.000412824       -0.0936881       0.0809239
281701.9               0.0317984        -0.13428      0.000122062     0.000597469        -0.770042        0.621171     -0.000196009    -0.000333481
                     0.000345607     0.000213614         0.120865       0.0258781     -0.000103543    -0.000461042         -0.96094        0.246484
                       -0.769795        0.621208      -6.9558e-05    -0.000583127        -0.138475      0.00307875       0.00011989     0.000398491
                    -0.000232001    -0.000346554        -0.960878        0.246372      6.29684e-05     0.000412818       -0.0936853       0.0809231
281702                  0.031792       -0.134282      0.000122071     0.000597464        -0.770025        0.621192      -0.00019602     -0.00033348
                     0.000345662     0.000213598         0.120864       0.0258722     -0.000103561    -0.000461043        -0.960934         0.24651
                       -0.769778        0.621229     -6.95628e-05    -0.000583154        -0.138476       0.0030796        0.0001199      0.00039849
                    -0.000232001    -0.000346552        -0.960872        0.246397      6.29745e-05     0.000412812       -0.0936825       0.0809222
281702.1               0.0317856       -0.134284      0.000122079     0.000597459        -0.770008        0.621213     -0.000196031    -0.000333479
                     0.000345718     0.000213582         0.120862       0.0258664     -0.000103579    -0.000461044        -0.960928        0.246536
                       -0.769761         0.62125     -6.95677e-05    -0.000583181        -0.138476      0.00308045      0.000119911      0.00039849
                    -0.000232001    -0.000346551        -0.960865        0.246423      6.29806e-05     0.000412806       -0.0936797       0.0809214
281702.2               0.0317791       -0.134286      0.000122087     0.000597454        -0.769991        0.621234     -0.000196042    -0.000333478
                     0.000345774     0.000213566         0.120861       0.0258606     -0.000103597    -0.000461044        -0.960922        0.246561
                       -0.769744        0.621271     -6.95726e-05    -0.000583207        -0.138476       0.0030813      0.000119921     0.000398489
                    -0.000232002    -0.000346549        -0.960859        0.246448      6.29867e-05     0.000412801       -0.0936769       0.0809205
281702.3               0.0317727       -0.134288      0.000122096     0.000597449        -0.769974        0.621255     -0.000196053    -0.000333477
                     0.000345829      0.00021355         0.120859       0.0258548     -0.000103614    -0.000461045        -0.960916        0.246587
                       -0.769727        0.621292     -6.95774e-05    -0.000583234        -0.138477      0.00308215      0.000119931     0.000398489
                    -0.000232002    -0.000346547        -0.960853        0.246474      6.29928e-05     0.000412795       -0.0936741       0.0809196
281702.4               0.0317663        -0.13429      0.000122104     0.000597443        -0.769957        0.621276     -0.000196064    -0.000333475
                     0.000345885     0.000213534         0.120858       0.0258489     -0.000103632    -0.000461046        -0.960909        0.246612
                        -0.76971        0.621313     -6.95823e-05    -0.000583261        -0.138477        0.003083      0.000119942     0.000398488
                    -0.000232002    -0.000346546        -0.960847        0.246499      6.29988e-05     0.000412789       -0.0936713       0.0809188
281702.5               0.0317598       -0.134291      0.000122113     0.000597438         -0.76994        0.621297     -0.000196074    -0.000333474
                     0.000345941     0.000213518         0.120856       0.0258431      -0.00010365    -0.000461047        -0.960903        0.246638
                       -0.769693        0.621334     -6.95872e-05    -0.000583288        -0.138477      0.00308385      0.000119952     0.000398488
                    -0.000232002    -0.000346544        -0.960841        0.246525      6.30049e-05     0.000412783       -0.0936684       0.0809179
281702.6               0.0317534       -0.134293      0.000122121     0.000597433        -0.769923        0.621318     -0.000196085    -0.000333473
                     0.000345997     0.000213502         0.120855       0.0258373     -0.000103668    -0.000461048        -0.960897        0.246664
                       -0.769676        0.621355      -6.9592e-05    -0.000583315        -0.138478       0.0030847      0.000119962     0.000398487
                    -0.000232002    -0.000346542        -0.960834         0.24655       6.3011e-05     0.000412777       -0.0936656        0.080917
281702.7                0.031747       -0.134295      0.000122129     0.000597428        -0.769906        0.621339     -0.000196096    -0.000333472
                     0.000346052     0.000213486         0.120853       0.0258315     -0.000103686    -0.000461048        -0.960891        0.246689
                       -0.769659        0.621376     -6.95969e-05    -0.000583342        -0.138478      0.00308554      0.000119973     0.000398487
                    -0.000232003    -0.000346541        -0.960828        0.246576      6.30171e-05     0.000412771       -0.0936628       0.0809162
281702.8               0.0317405       -0.134297      0.000122138     0.000597423        -0.769889         0.62136     -0.000196107     -0.00033347
                     0.000346108      0.00021347         0.120852       0.0258256     -0.000103704    -0.000461049        -0.960884        0.246715
                       -0.769642        0.621396     -6.96018e-05    -0.000583369        -0.138478      0.00308639      0.000119983     0.000398486
                    -0.000232003    -0.000346539        -0.960822        0.246602      6.30232e-05     0.000412765         -0.09366       0.0809153
281702.9               0.0317341       -0.134299      0.000122146     0.000597418        -0.769872        0.621381     -0.000196118    -0.000333469
                     0.000346164     0.000213454          0.12085       0.0258198     -0.000103722     -0.00046105        -0.960878         0.24674
                       -0.769625        0.621417     -6.96067e-05    -0.000583396        -0.138479      0.00308724      0.000119993     0.000398486
                    -0.000232003    -0.000346537        -0.960816        0.246627      6.30292e-05     0.000412759       -0.0936572       0.0809145
281703                 0.0317277       -0.134301      0.000122155     0.000597413        -0.769855        0.621402     -0.000196129    -0.000333468
                      0.00034622     0.000213438         0.120849        0.025814      -0.00010374    -0.000461051        -0.960872        0.246766
                       -0.769608        0.621438     -6.96116e-05    -0.000583423        -0.138479      0.00308809      0.000120003     0.000398485
                    -0.000232003    -0.000346535        -0.960809        0.246653      6.30353e-05     0.000412753       -0.0936544       0.0809136
281703.1               0.0317212       -0.134303      0.000122163     0.000597408        -0.769838        0.621423      -0.00019614    -0.000333467
                     0.000346275     0.000213423         0.120847       0.0258082     -0.000103757    -0.000461052        -0.960866        0.246792
                       -0.769591        0.621459     -6.96165e-05     -0.00058345        -0.138479      0.00308894      0.000120014     0.000398485
