! TOUCHSTONE file generated by CST MICROWAVE STUDIO
! Date and time: Wed Oct  8 06:53:04 2025
! Project name: Teste_Macro_Metasurface_Nanopilar.cst
! Parameters = {H=600; L_x=90; L_y=95; Lambda=1064; Max_L=200; Min_L=70; PathPara=1; Phi=0; Step_L=10; Theta=0; p=520; phaseX=180; phaseY=0}
! Header version: 2018
! Port assignment regex: !\s*Touchstone port\s*([0-9]+)\s*=\s*(CST MWS port|CST DS port)\s*([0-9]+|Zmin|Zmax)\s*\(\"(.*)\"\)(\s*mode\s*([0-9]+))?.*
! Touchstone port assignment:
! Touchstone port 1 = CST MWS port Zmax ("") mode 1
! Touchstone port 2 = CST MWS port Zmax ("") mode 2
! Touchstone port 3 = CST MWS port Zmin ("") mode 1
! Touchstone port 4 = CST MWS port Zmin ("") mode 2
! S-Parameters are not renormalized. Each port impedance will be approximated by the real part at minimum frequency. The values are described via the [Reference] keyword.
! Default impedance is overridden by [Reference]
[Version] 2.0
# GHz S RI R 376.73
[Number of Ports] 4
[Reference]
376.73 376.73 376.73 376.73 
[Number of Frequencies] 1001
[Network Data]
281700                 0.0660599       -0.106715      0.000565655    -4.17578e-05        -0.822232        0.553479     -0.000244867    -0.000361072
                     0.000561475    -3.77461e-05        0.0893647      -0.0764772     -0.000215874    -0.000371259        -0.868335        0.480979
                       -0.821538        0.553414     -0.000147615    -0.000377403        -0.124115       0.0214189     -0.000329305       0.0003375
                     -0.00014073    -0.000377044        -0.867736        0.480987     -0.000314273     0.000329979        -0.112511       0.0355247
281700.1               0.0660542       -0.106718      0.000565651    -4.17687e-05        -0.822217        0.553502     -0.000244875    -0.000361066
                     0.000561467    -3.77518e-05        0.0893599      -0.0764813     -0.000215882    -0.000371257        -0.868322        0.481002
                       -0.821523        0.553436     -0.000147625    -0.000377405        -0.124114       0.0214191     -0.000329303     0.000337507
                    -0.000140735    -0.000377051        -0.867723        0.481011     -0.000314267     0.000329991         -0.11251       0.0355245
281700.2               0.0660485       -0.106721      0.000565646    -4.17796e-05        -0.822202        0.553524     -0.000244884     -0.00036106
                     0.000561459    -3.77576e-05        0.0893551      -0.0764853      -0.00021589    -0.000371256        -0.868309        0.481025
                       -0.821508        0.553459     -0.000147634    -0.000377407        -0.124114       0.0214194     -0.000329301     0.000337515
                     -0.00014074    -0.000377059         -0.86771        0.481034      -0.00031426     0.000330004        -0.112509       0.0355243
281700.3               0.0660428       -0.106724      0.000565642    -4.17905e-05        -0.822187        0.553546     -0.000244892    -0.000361054
                     0.000561451    -3.77633e-05        0.0893503      -0.0764894     -0.000215898    -0.000371254        -0.868296        0.481049
                       -0.821493        0.553481     -0.000147644    -0.000377409        -0.124114       0.0214197     -0.000329299     0.000337523
                    -0.000140746    -0.000377067        -0.867697        0.481057     -0.000314254     0.000330017        -0.112508       0.0355242
281700.4               0.0660372       -0.106727      0.000565638    -4.18014e-05        -0.822172        0.553569       -0.0002449    -0.000361047
                     0.000561442    -3.77691e-05        0.0893455      -0.0764935     -0.000215905    -0.000371253        -0.868283        0.481072
                       -0.821478        0.553503     -0.000147654     -0.00037741        -0.124113         0.02142     -0.000329297     0.000337531
                    -0.000140751    -0.000377075        -0.867685        0.481081     -0.000314248     0.000330029        -0.112507        0.035524
281700.5               0.0660315        -0.10673      0.000565634    -4.18123e-05        -0.822157        0.553591     -0.000244909    -0.000361041
                     0.000561434    -3.77748e-05        0.0893407      -0.0764975     -0.000215913    -0.000371251        -0.868271        0.481096
                       -0.821463        0.553525     -0.000147663    -0.000377412        -0.124113       0.0214203     -0.000329295     0.000337539
                    -0.000140756    -0.000377082        -0.867672        0.481104     -0.000314241     0.000330042        -0.112506       0.0355238
281700.6               0.0660258       -0.106733       0.00056563    -4.18232e-05        -0.822142        0.553613     -0.000244917    -0.000361035
                     0.000561426    -3.77806e-05        0.0893359      -0.0765016     -0.000215921    -0.000371249        -0.868258        0.481119
                       -0.821448        0.553548     -0.000147673    -0.000377414        -0.124112       0.0214206     -0.000329293     0.000337546
                    -0.000140761     -0.00037709        -0.867659        0.481128     -0.000314235     0.000330055        -0.112505       0.0355237
281700.7               0.0660201       -0.106736      0.000565626     -4.1834e-05        -0.822127        0.553636     -0.000244926    -0.000361029
                     0.000561418    -3.77863e-05        0.0893311      -0.0765057     -0.000215928    -0.000371248        -0.868245        0.481143
                       -0.821433         0.55357     -0.000147682    -0.000377416        -0.124112       0.0214209     -0.000329291     0.000337554
                    -0.000140766    -0.000377098        -0.867646        0.481151     -0.000314229     0.000330067        -0.112504       0.0355235
281700.8               0.0660144       -0.106739      0.000565622    -4.18449e-05        -0.822112        0.553658     -0.000244934    -0.000361023
                      0.00056141    -3.77921e-05        0.0893263      -0.0765098     -0.000215936    -0.000371246        -0.868232        0.481166
                       -0.821418        0.553592     -0.000147692    -0.000377417        -0.124111       0.0214212     -0.000329289     0.000337562
                    -0.000140771    -0.000377106        -0.867633        0.481175     -0.000314222      0.00033008        -0.112503       0.0355233
281700.9               0.0660087       -0.106743      0.000565618    -4.18558e-05        -0.822097         0.55368     -0.000244943    -0.000361017
                     0.000561401    -3.77978e-05        0.0893215      -0.0765138     -0.000215944    -0.000371245        -0.868219         0.48119
                       -0.821403        0.553615     -0.000147702    -0.000377419        -0.124111       0.0214215     -0.000329287      0.00033757
                    -0.000140776    -0.000377113         -0.86762        0.481198     -0.000314216     0.000330093        -0.112502       0.0355232
281701                 0.0660031       -0.106746      0.000565614    -4.18667e-05        -0.822082        0.553702     -0.000244951    -0.000361011
                     0.000561393    -3.78035e-05        0.0893167      -0.0765179     -0.000215952    -0.000371243        -0.868206        0.481213
                       -0.821388        0.553637     -0.000147711    -0.000377421        -0.124111       0.0214217     -0.000329285     0.000337577
                    -0.000140782    -0.000377121        -0.867607        0.481222      -0.00031421     0.000330105        -0.112501        0.035523
281701.1               0.0659974       -0.106749       0.00056561    -4.18776e-05        -0.822067        0.553725     -0.000244959    -0.000361005
                     0.000561385    -3.78093e-05        0.0893119       -0.076522     -0.000215959    -0.000371242        -0.868193        0.481237
                       -0.821373        0.553659     -0.000147721    -0.000377423         -0.12411        0.021422     -0.000329283     0.000337585
                    -0.000140787    -0.000377129        -0.867594        0.481245     -0.000314204     0.000330118          -0.1125       0.0355228
281701.2               0.0659917       -0.106752      0.000565606    -4.18885e-05        -0.822052        0.553747     -0.000244968    -0.000360999
                     0.000561377     -3.7815e-05        0.0893071      -0.0765261     -0.000215967     -0.00037124         -0.86818         0.48126
                       -0.821358        0.553682      -0.00014773    -0.000377424         -0.12411       0.0214223     -0.000329281     0.000337593
                    -0.000140792    -0.000377137        -0.867582        0.481269     -0.000314197      0.00033013        -0.112499       0.0355227
281701.3                0.065986       -0.106755      0.000565602    -4.18994e-05        -0.822037        0.553769     -0.000244976    -0.000360993
                     0.000561368    -3.78208e-05        0.0893023      -0.0765301     -0.000215975    -0.000371239        -0.868167        0.481284
                       -0.821343        0.553704      -0.00014774    -0.000377426        -0.124109       0.0214226     -0.000329279     0.000337601
                    -0.000140797    -0.000377144        -0.867569        0.481292     -0.000314191     0.000330143        -0.112498       0.0355225
281701.4               0.0659803       -0.106758      0.000565597    -4.19103e-05        -0.822022        0.553792     -0.000244985    -0.000360987
                      0.00056136    -3.78265e-05        0.0892975      -0.0765342     -0.000215983    -0.000371237        -0.868154        0.481307
                       -0.821328        0.553726      -0.00014775    -0.000377428        -0.124109       0.0214229     -0.000329277     0.000337609
                    -0.000140802    -0.000377152        -0.867556        0.481316     -0.000314185     0.000330156        -0.112497       0.0355223
281701.5               0.0659746       -0.106761      0.000565593    -4.19212e-05        -0.822007        0.553814     -0.000244993    -0.000360981
                     0.000561352    -3.78323e-05        0.0892927      -0.0765383      -0.00021599    -0.000371236        -0.868142        0.481331
                       -0.821313        0.553749     -0.000147759     -0.00037743        -0.124109       0.0214232     -0.000329275     0.000337616
                    -0.000140807     -0.00037716        -0.867543        0.481339     -0.000314179     0.000330168        -0.112496       0.0355222
281701.6               0.0659689       -0.106764      0.000565589     -4.1932e-05        -0.821992        0.553836     -0.000245002    -0.000360975
                     0.000561344     -3.7838e-05        0.0892879      -0.0765424     -0.000215998    -0.000371234        -0.868129        0.481354
                       -0.821298        0.553771     -0.000147769    -0.000377431        -0.124108       0.0214235     -0.000329273     0.000337624
                    -0.000140812    -0.000377168         -0.86753        0.481363     -0.000314172     0.000330181        -0.112495        0.035522
281701.7               0.0659633       -0.106767      0.000565585    -4.19429e-05        -0.821977        0.553859      -0.00024501    -0.000360969
                     0.000561335    -3.78437e-05        0.0892831      -0.0765464     -0.000216006    -0.000371233        -0.868116        0.481378
                       -0.821283        0.553793     -0.000147778    -0.000377433        -0.124108       0.0214238     -0.000329271     0.000337632
                    -0.000140818    -0.000377176        -0.867517        0.481386     -0.000314166     0.000330194        -0.112494       0.0355218
281701.8               0.0659576        -0.10677      0.000565581    -4.19538e-05        -0.821962        0.553881     -0.000245019    -0.000360963
                     0.000561327    -3.78495e-05        0.0892783      -0.0765505     -0.000216014    -0.000371231        -0.868103        0.481401
                       -0.821268        0.553816     -0.000147788    -0.000377435        -0.124107       0.0214241     -0.000329269      0.00033764
                    -0.000140823    -0.000377183        -0.867504        0.481409      -0.00031416     0.000330206        -0.112493       0.0355217
281701.9               0.0659519       -0.106774      0.000565577    -4.19647e-05        -0.821947        0.553903     -0.000245027    -0.000360956
                     0.000561319    -3.78552e-05        0.0892735      -0.0765546     -0.000216021     -0.00037123         -0.86809        0.481424
                       -0.821253        0.553838     -0.000147798    -0.000377437        -0.124107       0.0214244     -0.000329267     0.000337647
                    -0.000140828    -0.000377191        -0.867491        0.481433     -0.000314154     0.000330219        -0.112492       0.0355215
281702                 0.0659462       -0.106777      0.000565573    -4.19756e-05        -0.821932        0.553926     -0.000245036     -0.00036095
                     0.000561311    -3.78609e-05        0.0892687      -0.0765586     -0.000216029    -0.000371228        -0.868077        0.481448
                       -0.821238         0.55386     -0.000147807    -0.000377438        -0.124106       0.0214246     -0.000329265     0.000337655
                    -0.000140833    -0.000377199        -0.867478        0.481456     -0.000314148     0.000330231        -0.112491       0.0355213
281702.1               0.0659405        -0.10678      0.000565569    -4.19865e-05        -0.821917        0.553948     -0.000245044    -0.000360944
                     0.000561303    -3.78667e-05        0.0892639      -0.0765627     -0.000216037    -0.000371226        -0.868064        0.481471
                       -0.821223        0.553882     -0.000147817     -0.00037744        -0.124106       0.0214249     -0.000329263     0.000337663
                    -0.000140838    -0.000377207        -0.867466         0.48148     -0.000314142     0.000330244         -0.11249       0.0355212
281702.2               0.0659348       -0.106783      0.000565565    -4.19974e-05        -0.821902         0.55397     -0.000245052    -0.000360938
                     0.000561294    -3.78724e-05        0.0892591      -0.0765668     -0.000216045    -0.000371225        -0.868051        0.481495
                       -0.821208        0.553905     -0.000147827    -0.000377442        -0.124106       0.0214252     -0.000329261     0.000337671
                    -0.000140843    -0.000377214        -0.867453        0.481503     -0.000314136     0.000330257        -0.112489        0.035521
281702.3               0.0659292       -0.106786      0.000565561    -4.20082e-05        -0.821887        0.553993     -0.000245061    -0.000360932
                     0.000561286    -3.78781e-05        0.0892543      -0.0765708     -0.000216052    -0.000371223        -0.868038        0.481518
                       -0.821193        0.553927     -0.000147836    -0.000377444        -0.124105       0.0214255     -0.000329259     0.000337678
                    -0.000140848    -0.000377222         -0.86744        0.481527      -0.00031413     0.000330269        -0.112488       0.0355208
281702.4               0.0659235       -0.106789      0.000565557    -4.20191e-05        -0.821872        0.554015     -0.000245069    -0.000360926
                     0.000561278    -3.78839e-05        0.0892495      -0.0765749      -0.00021606    -0.000371222        -0.868025        0.481542
                       -0.821178        0.553949     -0.000147846    -0.000377445        -0.124105       0.0214258     -0.000329257     0.000337686
                    -0.000140854     -0.00037723        -0.867427         0.48155     -0.000314123     0.000330282        -0.112487       0.0355206
281702.5               0.0659178       -0.106792      0.000565553      -4.203e-05        -0.821857        0.554037     -0.000245078     -0.00036092
                      0.00056127    -3.78896e-05        0.0892447       -0.076579     -0.000216068     -0.00037122        -0.868013        0.481565
                       -0.821163        0.553972     -0.000147855    -0.000377447        -0.124104       0.0214261     -0.000329255     0.000337694
                    -0.000140859    -0.000377238        -0.867414        0.481574     -0.000314117     0.000330294        -0.112486       0.0355205
281702.6               0.0659121       -0.106795      0.000565548    -4.20409e-05        -0.821842         0.55406     -0.000245086    -0.000360914
                     0.000561261    -3.78953e-05        0.0892398      -0.0765831     -0.000216076    -0.000371219           -0.868        0.481589
                       -0.821148        0.553994     -0.000147865    -0.000377449        -0.124104       0.0214264     -0.000329253     0.000337702
                    -0.000140864    -0.000377245        -0.867401        0.481597     -0.000314111     0.000330307        -0.112485       0.0355203
281702.7               0.0659064       -0.106798      0.000565544    -4.20518e-05        -0.821827        0.554082     -0.000245095    -0.000360908
                     0.000561253    -3.79011e-05         0.089235      -0.0765871     -0.000216083    -0.000371217        -0.867987        0.481612
                       -0.821133        0.554016     -0.000147875    -0.000377451        -0.124104       0.0214267     -0.000329251     0.000337709
                    -0.000140869    -0.000377253        -0.867388        0.481621     -0.000314105      0.00033032        -0.112484       0.0355201
281702.8               0.0659007       -0.106801       0.00056554    -4.20627e-05        -0.821812        0.554104     -0.000245103    -0.000360902
                     0.000561245    -3.79068e-05        0.0892302      -0.0765912     -0.000216091    -0.000371216        -0.867974        0.481636
                       -0.821118        0.554039     -0.000147884    -0.000377452        -0.124103        0.021427     -0.000329249     0.000337717
                    -0.000140874    -0.000377261        -0.867375        0.481644     -0.000314099     0.000330332        -0.112483         0.03552
281702.9                0.065895       -0.106804      0.000565536    -4.20736e-05        -0.821797        0.554127     -0.000245112    -0.000360896
                     0.000561237    -3.79125e-05        0.0892254      -0.0765953     -0.000216099    -0.000371214        -0.867961        0.481659
                       -0.821103        0.554061     -0.000147894    -0.000377454        -0.124103       0.0214272     -0.000329247     0.000337725
                    -0.000140879    -0.000377269        -0.867362        0.481667     -0.000314093     0.000330345        -0.112482       0.0355198
281703                 0.0658893       -0.106808      0.000565532    -4.20844e-05        -0.821782        0.554149      -0.00024512     -0.00036089
                     0.000561229    -3.79182e-05        0.0892206      -0.0765993     -0.000216107    -0.000371213        -0.867948        0.481683
                       -0.821088        0.554083     -0.000147903    -0.000377456        -0.124102       0.0214275     -0.000329245     0.000337732
                    -0.000140884    -0.000377277         -0.86735        0.481691     -0.000314087     0.000330357        -0.112481       0.0355196
281703.1               0.0658837       -0.106811      0.000565528    -4.20953e-05        -0.821767        0.554171     -0.000245129    -0.000360883
                      0.00056122     -3.7924e-05        0.0892158      -0.0766034     -0.000216114    -0.000371211        -0.867935        0.481706
                       -0.821073        0.554106     -0.000147913    -0.000377458        -0.124102       0.0214278     -0.000329243      0.00033774
