! TOUCHSTONE file generated by CST MICROWAVE STUDIO
! Date and time: Wed Oct  8 06:54:23 2025
! Project name: Teste_Macro_Metasurface_Nanopilar.cst
! Parameters = {H=600; L_x=100; L_y=125; Lambda=1064; Max_L=200; Min_L=70; PathPara=1; Phi=0; Step_L=10; Theta=0; p=520; phaseX=180; phaseY=0}
! Header version: 2018
! Port assignment regex: !\s*Touchstone port\s*([0-9]+)\s*=\s*(CST MWS port|CST DS port)\s*([0-9]+|Zmin|Zmax)\s*\(\"(.*)\"\)(\s*mode\s*([0-9]+))?.*
! Touchstone port assignment:
! Touchstone port 1 = CST MWS port Zmax ("") mode 1
! Touchstone port 2 = CST MWS port Zmax ("") mode 2
! Touchstone port 3 = CST MWS port Zmin ("") mode 1
! Touchstone port 4 = CST MWS port Zmin ("") mode 2
! S-Parameters are not renormalized. Each port impedance will be approximated by the real part at minimum frequency. The values are described via the [Reference] keyword.
! Default impedance is overridden by [Reference]
[Version] 2.0
# GHz S RI R 376.73
[Number of Ports] 4
[Reference]
376.73 376.73 376.73 376.73 
[Number of Frequencies] 1001
[Network Data]
281700                 0.0492397         0.14361      0.000205122    -0.000667186         0.965343        0.159524     -0.000390774     0.000676449
                      0.00014779    -0.000500757        -0.186042       -0.140663     -0.000844168     0.000273238        -0.190478        0.949608
                        0.965206        0.159539      -0.00065273     0.000225256       -0.0982064        0.120566      0.000422002    -0.000140712
                    -0.000261426     0.000781373        -0.190507        0.950033      0.000464986     -4.6559e-05        -0.226145       0.0587433
281700.1               0.0492456        0.143602      0.000205118    -0.000667197         0.965349        0.159491     -0.000390747     0.000676461
                     0.000147769    -0.000500762        -0.186047       -0.140656     -0.000844156      0.00027327         -0.19045        0.949613
                        0.965212        0.159505     -0.000652723     0.000225275        -0.098201        0.120563         0.000422    -0.000140725
                    -0.000261385     0.000781386        -0.190479        0.950038       0.00046499    -4.65864e-05        -0.226143       0.0587482
281700.2               0.0492515        0.143594      0.000205113    -0.000667208         0.965356        0.159457      -0.00039072     0.000676472
                     0.000147749    -0.000500766        -0.186051       -0.140649     -0.000844143     0.000273302        -0.190423        0.949619
                        0.965218        0.159471     -0.000652716     0.000225293       -0.0981957        0.120561      0.000421997    -0.000140738
                    -0.000261343     0.000781398        -0.190452        0.950044      0.000464994    -4.66138e-05        -0.226141       0.0587531
281700.3               0.0492574        0.143587      0.000205109    -0.000667219         0.965362        0.159423     -0.000390692     0.000676484
                     0.000147729    -0.000500771        -0.186056       -0.140642     -0.000844131     0.000273334        -0.190395        0.949624
                        0.965225        0.159437      -0.00065271     0.000225312       -0.0981903        0.120558      0.000421994    -0.000140751
                    -0.000261302      0.00078141        -0.190424         0.95005      0.000464999    -4.66412e-05        -0.226139       0.0587581
281700.4               0.0492633        0.143579      0.000205105    -0.000667229         0.965369        0.159389     -0.000390665     0.000676495
                     0.000147709    -0.000500775         -0.18606       -0.140635     -0.000844118     0.000273366        -0.190368         0.94963
                        0.965231        0.159404     -0.000652703     0.000225331        -0.098185        0.120556      0.000421992    -0.000140764
                     -0.00026126     0.000781422        -0.190396        0.950055      0.000465003    -4.66686e-05        -0.226137        0.058763
281700.5               0.0492692        0.143571        0.0002051     -0.00066724         0.965375        0.159355     -0.000390638     0.000676507
                     0.000147688     -0.00050078        -0.186065       -0.140628     -0.000844106     0.000273398         -0.19034        0.949636
                        0.965238         0.15937     -0.000652696      0.00022535       -0.0981796        0.120553      0.000421989    -0.000140777
                    -0.000261218     0.000781434        -0.190369        0.950061      0.000465007    -4.66961e-05        -0.226135       0.0587679
281700.6                0.049275        0.143564      0.000205096    -0.000667251         0.965381        0.159321     -0.000390611     0.000676518
                     0.000147668    -0.000500785        -0.186069       -0.140621     -0.000844093     0.000273431        -0.190313        0.949641
                        0.965244        0.159336     -0.000652689     0.000225368       -0.0981743        0.120551      0.000421987     -0.00014079
                    -0.000261177     0.000781446        -0.190341        0.950067      0.000465012    -4.67235e-05        -0.226133       0.0587729
281700.7               0.0492809        0.143556      0.000205092    -0.000667262         0.965388        0.159287     -0.000390583      0.00067653
                     0.000147648    -0.000500789        -0.186074       -0.140614     -0.000844081     0.000273463        -0.190286        0.949647
                         0.96525        0.159302     -0.000652682     0.000225387       -0.0981689        0.120548      0.000421984    -0.000140803
                    -0.000261135     0.000781458        -0.190313        0.950073      0.000465016    -4.67509e-05        -0.226131       0.0587778
281700.8               0.0492868        0.143548      0.000205087    -0.000667273         0.965394        0.159253     -0.000390556     0.000676541
                     0.000147627    -0.000500794        -0.186078       -0.140607     -0.000844068     0.000273495        -0.190258        0.949653
                        0.965257        0.159268     -0.000652675     0.000225406       -0.0981636        0.120546      0.000421981    -0.000140816
                    -0.000261094      0.00078147        -0.190285        0.950078       0.00046502    -4.67783e-05        -0.226129       0.0587827
281700.9               0.0492927        0.143541      0.000205083    -0.000667283         0.965401        0.159219     -0.000390529     0.000676553
                     0.000147607    -0.000500798        -0.186082         -0.1406     -0.000844056     0.000273527        -0.190231        0.949658
                        0.965263        0.159234     -0.000652668     0.000225425       -0.0981582        0.120544      0.000421979    -0.000140829
                    -0.000261052     0.000781482        -0.190258        0.950084      0.000465025    -4.68057e-05        -0.226127       0.0587877
281701                 0.0492986        0.143533      0.000205079    -0.000667294         0.965407        0.159186     -0.000390502     0.000676564
                     0.000147587    -0.000500803        -0.186087       -0.140593     -0.000844043     0.000273559        -0.190203        0.949664
                         0.96527          0.1592     -0.000652661     0.000225443       -0.0981529        0.120541      0.000421976    -0.000140842
                     -0.00026101     0.000781494         -0.19023         0.95009      0.000465029    -4.68331e-05        -0.226125       0.0587926
281701.1               0.0493045        0.143525      0.000205074    -0.000667305         0.965413        0.159152     -0.000390475     0.000676576
                     0.000147566    -0.000500808        -0.186091       -0.140586     -0.000844031     0.000273591        -0.190176        0.949669
                        0.965276        0.159166     -0.000652654     0.000225462       -0.0981475        0.120539      0.000421974    -0.000140855
                    -0.000260969     0.000781506        -0.190202        0.950095      0.000465033    -4.68606e-05        -0.226123       0.0587975
281701.2               0.0493104        0.143518       0.00020507    -0.000667316          0.96542        0.159118     -0.000390448     0.000676587
                     0.000147546    -0.000500812        -0.186096       -0.140579     -0.000844018     0.000273624        -0.190148        0.949675
                        0.965282        0.159132     -0.000652647     0.000225481       -0.0981422        0.120536      0.000421971    -0.000140868
                    -0.000260927     0.000781518        -0.190175        0.950101      0.000465038     -4.6888e-05        -0.226121       0.0588024
281701.3               0.0493163         0.14351      0.000205066    -0.000667327         0.965426        0.159084     -0.000390421     0.000676599
                     0.000147526    -0.000500817          -0.1861       -0.140571     -0.000844006     0.000273656        -0.190121        0.949681
                        0.965289        0.159099      -0.00065264       0.0002255       -0.0981369        0.120534      0.000421969    -0.000140881
                    -0.000260886      0.00078153        -0.190147        0.950107      0.000465042    -4.69154e-05        -0.226119       0.0588074
281701.4               0.0493221        0.143502      0.000205061    -0.000667337         0.965433         0.15905     -0.000390393      0.00067661
                     0.000147505    -0.000500821        -0.186105       -0.140564     -0.000843993     0.000273688        -0.190093        0.949686
                        0.965295        0.159065     -0.000652633     0.000225518       -0.0981315        0.120531      0.000421966    -0.000140894
                    -0.000260844     0.000781542        -0.190119        0.950113      0.000465046    -4.69428e-05        -0.226117       0.0588123
281701.5                0.049328        0.143495      0.000205057    -0.000667348         0.965439        0.159016     -0.000390366     0.000676622
                     0.000147485    -0.000500826        -0.186109       -0.140557     -0.000843981      0.00027372        -0.190066        0.949692
                        0.965301        0.159031     -0.000652626     0.000225537       -0.0981262        0.120529      0.000421964    -0.000140908
                    -0.000260803     0.000781554        -0.190092        0.950118       0.00046505    -4.69702e-05        -0.226115       0.0588172
281701.6               0.0493339        0.143487      0.000205052    -0.000667359         0.965445        0.158982     -0.000390339     0.000676633
                     0.000147465    -0.000500831        -0.186113        -0.14055     -0.000843968     0.000273752        -0.190038        0.949698
                        0.965308        0.158997     -0.000652619     0.000225556       -0.0981208        0.120526      0.000421961    -0.000140921
                    -0.000260761     0.000781566        -0.190064        0.950124      0.000465055    -4.69977e-05        -0.226113       0.0588222
281701.7               0.0493398        0.143479      0.000205048     -0.00066737         0.965452        0.158948     -0.000390312     0.000676645
                     0.000147444    -0.000500835        -0.186118       -0.140543     -0.000843955     0.000273784        -0.190011        0.949703
                        0.965314        0.158963     -0.000652612     0.000225575       -0.0981155        0.120524      0.000421959    -0.000140934
                    -0.000260719     0.000781578        -0.190036         0.95013      0.000465059    -4.70251e-05        -0.226111       0.0588271
281701.8               0.0493457        0.143472      0.000205044    -0.000667381         0.965458        0.158914     -0.000390285     0.000676656
                     0.000147424     -0.00050084        -0.186122       -0.140536     -0.000843943     0.000273817        -0.189983        0.949709
                        0.965321        0.158929     -0.000652605     0.000225593       -0.0981101        0.120522      0.000421956    -0.000140948
                    -0.000260678      0.00078159        -0.190009        0.950135      0.000465063    -4.70525e-05        -0.226109        0.058832
281701.9               0.0493516        0.143464      0.000205039    -0.000667392         0.965465        0.158881     -0.000390258     0.000676668
                     0.000147404    -0.000500844        -0.186127       -0.140529      -0.00084393     0.000273849        -0.189956        0.949714
                        0.965327        0.158895     -0.000652598     0.000225612       -0.0981048        0.120519      0.000421954    -0.000140961
                    -0.000260636     0.000781602        -0.189981        0.950141      0.000465068    -4.70799e-05        -0.226107        0.058837
281702                 0.0493574        0.143456      0.000205035    -0.000667402         0.965471        0.158847     -0.000390231     0.000676679
                     0.000147384    -0.000500849        -0.186131       -0.140522     -0.000843918     0.000273881        -0.189928         0.94972
                        0.965333        0.158861     -0.000652591     0.000225631       -0.0980994        0.120517      0.000421951    -0.000140974
                    -0.000260595     0.000781614        -0.189953        0.950147      0.000465072    -4.71074e-05        -0.226105       0.0588419
281702.1               0.0493633        0.143449      0.000205031    -0.000667413         0.965477        0.158813     -0.000390204     0.000676691
                     0.000147363    -0.000500854        -0.186136       -0.140515     -0.000843905     0.000273913        -0.189901        0.949726
                         0.96534        0.158827     -0.000652584      0.00022565       -0.0980941        0.120514      0.000421949    -0.000140988
                    -0.000260553     0.000781626        -0.189926        0.950152      0.000465076    -4.71348e-05        -0.226102       0.0588468
281702.2               0.0493692        0.143441      0.000205026    -0.000667424         0.965484        0.158779     -0.000390177     0.000676702
                     0.000147343    -0.000500858         -0.18614       -0.140508     -0.000843893     0.000273945        -0.189873        0.949731
                        0.965346        0.158794     -0.000652577     0.000225668       -0.0980888        0.120512      0.000421946    -0.000141001
                    -0.000260511     0.000781638        -0.189898        0.950158      0.000465081    -4.71622e-05          -0.2261       0.0588517
281702.3               0.0493751        0.143433      0.000205022    -0.000667435          0.96549        0.158745      -0.00039015     0.000676714
                     0.000147323    -0.000500863        -0.186144       -0.140501      -0.00084388     0.000273977        -0.189846        0.949737
                        0.965353         0.15876      -0.00065257     0.000225687       -0.0980834        0.120509      0.000421944    -0.000141015
                     -0.00026047      0.00078165         -0.18987        0.950164      0.000465085    -4.71896e-05        -0.226098       0.0588567
281702.4                0.049381        0.143426      0.000205018    -0.000667446         0.965496        0.158711     -0.000390123     0.000676725
                     0.000147302    -0.000500867        -0.186149       -0.140494     -0.000843868     0.000274009        -0.189818        0.949743
                        0.965359        0.158726     -0.000652563     0.000225706       -0.0980781        0.120507      0.000421941    -0.000141028
                    -0.000260428     0.000781662        -0.189842         0.95017      0.000465089     -4.7217e-05        -0.226096       0.0588616
281702.5               0.0493868        0.143418      0.000205013    -0.000667456         0.965503        0.158677     -0.000390097     0.000676737
                     0.000147282    -0.000500872        -0.186153       -0.140487     -0.000843855     0.000274042        -0.189791        0.949748
                        0.965365        0.158692     -0.000652556     0.000225725       -0.0980727        0.120504      0.000421939    -0.000141042
                    -0.000260387     0.000781674        -0.189815        0.950175      0.000465094    -4.72445e-05        -0.226094       0.0588665
281702.6               0.0493927         0.14341      0.000205009    -0.000667467         0.965509        0.158643      -0.00039007     0.000676748
                     0.000147262    -0.000500877        -0.186158       -0.140479     -0.000843842     0.000274074        -0.189763        0.949754
                        0.965372        0.158658     -0.000652549     0.000225743       -0.0980674        0.120502      0.000421936    -0.000141055
                    -0.000260345     0.000781686        -0.189787        0.950181      0.000465098    -4.72719e-05        -0.226092       0.0588715
281702.7               0.0493986        0.143403      0.000205005    -0.000667478         0.965516        0.158609     -0.000390043      0.00067676
                     0.000147241    -0.000500881        -0.186162       -0.140472      -0.00084383     0.000274106        -0.189736        0.949759
                        0.965378        0.158624     -0.000652542     0.000225762        -0.098062          0.1205      0.000421934    -0.000141069
                    -0.000260304     0.000781698        -0.189759        0.950187      0.000465102    -4.72993e-05         -0.22609       0.0588764
281702.8               0.0494045        0.143395         0.000205    -0.000667489         0.965522        0.158576     -0.000390016     0.000676771
                     0.000147221    -0.000500886        -0.186167       -0.140465     -0.000843817     0.000274138        -0.189708        0.949765
                        0.965384         0.15859     -0.000652535     0.000225781       -0.0980567        0.120497      0.000421932    -0.000141082
                    -0.000260262      0.00078171        -0.189732        0.950192      0.000465106    -4.73267e-05        -0.226088       0.0588813
281702.9               0.0494103        0.143387      0.000204996      -0.0006675         0.965528        0.158542     -0.000389989     0.000676783
                     0.000147201     -0.00050089        -0.186171       -0.140458     -0.000843805      0.00027417        -0.189681        0.949771
                        0.965391        0.158556     -0.000652528       0.0002258       -0.0980514        0.120495      0.000421929    -0.000141096
                     -0.00026022     0.000781722        -0.189704        0.950198      0.000465111    -4.73542e-05        -0.226086       0.0588862
281703                 0.0494162         0.14338      0.000204992    -0.000667511         0.965535        0.158508     -0.000389962     0.000676795
                      0.00014718    -0.000500895        -0.186176       -0.140451     -0.000843792     0.000274202        -0.189653        0.949776
                        0.965397        0.158522     -0.000652521     0.000225818        -0.098046        0.120492      0.000421927     -0.00014111
                    -0.000260179     0.000781734        -0.189676        0.950204      0.000465115    -4.73816e-05        -0.226084       0.0588912
281703.1               0.0494221        0.143372      0.000204987    -0.000667521         0.965541        0.158474     -0.000389935     0.000676806
                      0.00014716      -0.0005009         -0.18618       -0.140444      -0.00084378     0.000274234        -0.189626        0.949782
                        0.965404        0.158489     -0.000652514     0.000225837       -0.0980407         0.12049      0.000421924    -0.000141124
