! TOUCHSTONE file generated by CST MICROWAVE STUDIO
! Date and time: Wed Oct  8 06:57:08 2025
! Project name: Teste_Macro_Metasurface_Nanopilar.cst
! Parameters = {H=600; L_x=125; L_y=75; Lambda=1064; Max_L=200; Min_L=70; PathPara=1; Phi=0; Step_L=10; Theta=0; p=520; phaseX=180; phaseY=0}
! Header version: 2018
! Port assignment regex: !\s*Touchstone port\s*([0-9]+)\s*=\s*(CST MWS port|CST DS port)\s*([0-9]+|Zmin|Zmax)\s*\(\"(.*)\"\)(\s*mode\s*([0-9]+))?.*
! Touchstone port assignment:
! Touchstone port 1 = CST MWS port Zmax ("") mode 1
! Touchstone port 2 = CST MWS port Zmax ("") mode 2
! Touchstone port 3 = CST MWS port Zmin ("") mode 1
! Touchstone port 4 = CST MWS port Zmin ("") mode 2
! S-Parameters are not renormalized. Each port impedance will be approximated by the real part at minimum frequency. The values are described via the [Reference] keyword.
! Default impedance is overridden by [Reference]
[Version] 2.0
# GHz S RI R 376.73
[Number of Ports] 4
[Reference]
376.73 376.73 376.73 376.73 
[Number of Frequencies] 1001
[Network Data]
281700                  0.114399      -0.0114358     -4.11819e-05    -0.000611591        -0.936929        0.331058      0.000161503    -0.000174508
                     3.70876e-05    -0.000635975        -0.284629      -0.0598137     -0.000244788    -0.000130192       -0.0405395        0.951467
                       -0.936187        0.330339     -0.000268939    -3.86908e-05       -0.0964453       0.0629801     -0.000607748     9.06262e-05
                     0.000130685    -0.000214802       -0.0405742        0.951354     -0.000803897      0.00012348        -0.289386       0.0362074
281700.1                0.114397      -0.0114412     -4.11977e-05    -0.000611595        -0.936921        0.331084      0.000161497    -0.000174514
                     3.70685e-05    -0.000635973         -0.28463      -0.0598043     -0.000244797    -0.000130189       -0.0405116        0.951468
                       -0.936179        0.330364     -0.000268943    -3.86893e-05       -0.0964432       0.0629794     -0.000607745     9.06414e-05
                     0.000130679     -0.00021482       -0.0405464        0.951355     -0.000803895     0.000123503        -0.289385       0.0362148
281700.2                0.114394      -0.0114465     -4.12134e-05    -0.000611598        -0.936912        0.331109       0.00016149     -0.00017452
                     3.70494e-05     -0.00063597        -0.284632       -0.059795     -0.000244807    -0.000130185       -0.0404838         0.95147
                        -0.93617        0.330389     -0.000268948    -3.86878e-05        -0.096441       0.0629787     -0.000607743     9.06565e-05
                     0.000130674    -0.000214837       -0.0405185        0.951357     -0.000803893     0.000123525        -0.289384       0.0362222
281700.3                0.114391      -0.0114519     -4.12292e-05    -0.000611601        -0.936904        0.331134      0.000161484    -0.000174526
                     3.70304e-05    -0.000635967        -0.284634      -0.0597856     -0.000244816    -0.000130182       -0.0404559        0.951471
                       -0.936162        0.330414     -0.000268952    -3.86863e-05       -0.0964389       0.0629779      -0.00060774     9.06717e-05
                     0.000130668    -0.000214855       -0.0404906        0.951358     -0.000803891     0.000123548        -0.289382       0.0362296
281700.4                0.114388      -0.0114572     -4.12449e-05    -0.000611604        -0.936895        0.331159      0.000161478    -0.000174532
                     3.70113e-05    -0.000635964        -0.284635      -0.0597762     -0.000244826    -0.000130178        -0.040428        0.951472
                       -0.936153        0.330439     -0.000268956    -3.86848e-05       -0.0964368       0.0629772     -0.000607738     9.06869e-05
                     0.000130662    -0.000214873       -0.0404628        0.951359     -0.000803889     0.000123571        -0.289381        0.036237
281700.5                0.114386      -0.0114625     -4.12606e-05    -0.000611607        -0.936887        0.331184      0.000161472    -0.000174538
                     3.69922e-05    -0.000635962        -0.284637      -0.0597668     -0.000244835    -0.000130175       -0.0404001        0.951473
                       -0.936144        0.330464      -0.00026896    -3.86833e-05       -0.0964346       0.0629764     -0.000607735     9.07021e-05
                     0.000130657    -0.000214891       -0.0404349         0.95136     -0.000803887     0.000123593         -0.28938       0.0362444
281700.6                0.114383      -0.0114679     -4.12763e-05     -0.00061161        -0.936878        0.331209      0.000161465    -0.000174544
                     3.69732e-05    -0.000635959        -0.284639      -0.0597574     -0.000244845    -0.000130171       -0.0403723        0.951475
                       -0.936136        0.330489     -0.000268964    -3.86818e-05       -0.0964325       0.0629757     -0.000607733     9.07173e-05
                     0.000130651    -0.000214909        -0.040407        0.951362     -0.000803885     0.000123616        -0.289379       0.0362518
281700.7                 0.11438      -0.0114732     -4.12921e-05    -0.000611613         -0.93687        0.331234      0.000161459     -0.00017455
                     3.69541e-05    -0.000635956        -0.284641      -0.0597481     -0.000244854    -0.000130168       -0.0403444        0.951476
                       -0.936127        0.330515     -0.000268968    -3.86802e-05       -0.0964304        0.062975     -0.000607731     9.07325e-05
                     0.000130646    -0.000214927       -0.0403792        0.951363     -0.000803883     0.000123639        -0.289378       0.0362592
281700.8                0.114377      -0.0114786     -4.13078e-05    -0.000611616        -0.936861        0.331259      0.000161453    -0.000174556
                      3.6935e-05    -0.000635953        -0.284642      -0.0597387     -0.000244864    -0.000130165       -0.0403165        0.951477
                       -0.936119         0.33054     -0.000268972    -3.86787e-05       -0.0964282       0.0629742     -0.000607728     9.07476e-05
                      0.00013064    -0.000214945       -0.0403513        0.951364     -0.000803881     0.000123662        -0.289377       0.0362666
281700.9                0.114375      -0.0114839     -4.13235e-05    -0.000611619        -0.936852        0.331284      0.000161447    -0.000174562
                      3.6916e-05    -0.000635951        -0.284644      -0.0597293     -0.000244873    -0.000130161       -0.0402886        0.951478
                        -0.93611        0.330565     -0.000268977    -3.86771e-05       -0.0964261       0.0629735     -0.000607726     9.07628e-05
                     0.000130634    -0.000214962       -0.0403234        0.951365     -0.000803879     0.000123684        -0.289375        0.036274
281701                  0.114372      -0.0114892     -4.13392e-05    -0.000611623        -0.936844        0.331309       0.00016144    -0.000174568
                     3.68969e-05    -0.000635948        -0.284646      -0.0597199     -0.000244883    -0.000130158       -0.0402608        0.951479
                       -0.936101         0.33059     -0.000268981    -3.86756e-05       -0.0964239       0.0629727     -0.000607723      9.0778e-05
                     0.000130629     -0.00021498       -0.0402956        0.951367     -0.000803877     0.000123707        -0.289374       0.0362814
281701.1                0.114369      -0.0114946     -4.13549e-05    -0.000611626        -0.936835        0.331334      0.000161434    -0.000174574
                     3.68778e-05    -0.000635945        -0.284648      -0.0597106     -0.000244892    -0.000130154       -0.0402329        0.951481
                       -0.936093        0.330615     -0.000268985     -3.8674e-05       -0.0964218        0.062972     -0.000607721     9.07932e-05
                     0.000130623    -0.000214998       -0.0402677        0.951368     -0.000803875      0.00012373        -0.289373       0.0362888
281701.2                0.114366      -0.0114999     -4.13706e-05    -0.000611629        -0.936827        0.331359      0.000161428     -0.00017458
                     3.68587e-05    -0.000635942        -0.284649      -0.0597012     -0.000244902    -0.000130151        -0.040205        0.951482
                       -0.936084         0.33064     -0.000268989    -3.86724e-05       -0.0964197       0.0629712     -0.000607718     9.08083e-05
                     0.000130617    -0.000215016       -0.0402398        0.951369     -0.000803873     0.000123753        -0.289372       0.0362963
281701.3                0.114364      -0.0115053     -4.13863e-05    -0.000611632        -0.936818        0.331384      0.000161422    -0.000174586
                     3.68397e-05     -0.00063594        -0.284651      -0.0596918     -0.000244911    -0.000130147       -0.0401771        0.951483
                       -0.936076        0.330665     -0.000268993    -3.86708e-05       -0.0964175       0.0629705     -0.000607716     9.08235e-05
                     0.000130612    -0.000215034        -0.040212         0.95137     -0.000803871     0.000123775        -0.289371       0.0363037
281701.4                0.114361      -0.0115106      -4.1402e-05    -0.000611635         -0.93681        0.331409      0.000161415    -0.000174592
                     3.68206e-05    -0.000635937        -0.284653      -0.0596824     -0.000244921    -0.000130144       -0.0401492        0.951484
                       -0.936067         0.33069     -0.000268998    -3.86692e-05       -0.0964154       0.0629698     -0.000607714     9.08387e-05
                     0.000130606    -0.000215052       -0.0401841        0.951372     -0.000803869     0.000123798        -0.289369       0.0363111
281701.5                0.114358      -0.0115159     -4.14177e-05    -0.000611638        -0.936801        0.331434      0.000161409    -0.000174598
                     3.68015e-05    -0.000635934        -0.284655      -0.0596731      -0.00024493     -0.00013014       -0.0401214        0.951486
                       -0.936059        0.330715     -0.000269002    -3.86676e-05       -0.0964133        0.062969     -0.000607711     9.08538e-05
                       0.0001306    -0.000215069       -0.0401562        0.951373     -0.000803867     0.000123821        -0.289368       0.0363185
281701.6                0.114356      -0.0115213     -4.14334e-05    -0.000611641        -0.936792        0.331459      0.000161403    -0.000174604
                     3.67824e-05    -0.000635931        -0.284656      -0.0596637      -0.00024494    -0.000130137       -0.0400935        0.951487
                        -0.93605         0.33074     -0.000269006     -3.8666e-05       -0.0964111       0.0629683     -0.000607709      9.0869e-05
                     0.000130595    -0.000215087       -0.0401284        0.951374     -0.000803865     0.000123843        -0.289367       0.0363259
281701.7                0.114353      -0.0115266     -4.14491e-05    -0.000611644        -0.936784        0.331484      0.000161397     -0.00017461
                     3.67634e-05    -0.000635929        -0.284658      -0.0596543     -0.000244949    -0.000130133       -0.0400656        0.951488
                       -0.936041        0.330765      -0.00026901    -3.86644e-05        -0.096409       0.0629675     -0.000607706     9.08841e-05
                     0.000130589    -0.000215105       -0.0401005        0.951375     -0.000803863     0.000123866        -0.289366       0.0363333
281701.8                 0.11435       -0.011532     -4.14648e-05    -0.000611647        -0.936775        0.331509       0.00016139    -0.000174616
                     3.67443e-05    -0.000635926         -0.28466      -0.0596449     -0.000244959     -0.00013013       -0.0400377        0.951489
                       -0.936033         0.33079     -0.000269014    -3.86627e-05       -0.0964069       0.0629668     -0.000607704     9.08993e-05
                     0.000130583    -0.000215123       -0.0400726        0.951377     -0.000803861     0.000123889        -0.289365       0.0363407
281701.9                0.114347      -0.0115373     -4.14805e-05     -0.00061165        -0.936767        0.331534      0.000161384    -0.000174622
                     3.67252e-05    -0.000635923        -0.284661      -0.0596355     -0.000244968    -0.000130126       -0.0400099        0.951491
                       -0.936024        0.330815     -0.000269019    -3.86611e-05       -0.0964047       0.0629661     -0.000607701     9.09144e-05
                     0.000130578    -0.000215141       -0.0400448        0.951378     -0.000803859     0.000123912        -0.289364       0.0363481
281702                  0.114345      -0.0115426     -4.14961e-05    -0.000611653        -0.936758        0.331559      0.000161378    -0.000174628
                     3.67061e-05     -0.00063592        -0.284663      -0.0596262     -0.000244978    -0.000130123        -0.039982        0.951492
                       -0.936016         0.33084     -0.000269023    -3.86595e-05       -0.0964026       0.0629653     -0.000607699     9.09296e-05
                     0.000130572    -0.000215159       -0.0400169        0.951379     -0.000803857     0.000123934        -0.289362       0.0363555
281702.1                0.114342       -0.011548     -4.15118e-05    -0.000611657         -0.93675        0.331584      0.000161371    -0.000174634
                      3.6687e-05    -0.000635918        -0.284665      -0.0596168     -0.000244987    -0.000130119       -0.0399541        0.951493
                       -0.936007        0.330865     -0.000269027    -3.86578e-05       -0.0964005       0.0629646     -0.000607696     9.09447e-05
                     0.000130567    -0.000215177        -0.039989         0.95138     -0.000803855     0.000123957        -0.289361       0.0363629
281702.2                0.114339      -0.0115533     -4.15275e-05     -0.00061166        -0.936741        0.331609      0.000161365     -0.00017464
                     3.66679e-05    -0.000635915        -0.284667      -0.0596074     -0.000244997    -0.000130116       -0.0399262        0.951494
                       -0.935998         0.33089     -0.000269031    -3.86561e-05       -0.0963983       0.0629638     -0.000607694     9.09599e-05
                     0.000130561    -0.000215194       -0.0399611        0.951382     -0.000803853      0.00012398         -0.28936       0.0363703
281702.3                0.114336      -0.0115587     -4.15432e-05    -0.000611663        -0.936732        0.331634      0.000161359    -0.000174646
                     3.66489e-05    -0.000635912        -0.284668       -0.059598     -0.000245006    -0.000130112       -0.0398983        0.951495
                        -0.93599        0.330915     -0.000269036    -3.86545e-05       -0.0963962       0.0629631     -0.000607691      9.0975e-05
                     0.000130555    -0.000215212       -0.0399333        0.951383     -0.000803851     0.000124002        -0.289359       0.0363777
281702.4                0.114334       -0.011564     -4.15588e-05    -0.000611666        -0.936724        0.331659      0.000161353    -0.000174652
                     3.66298e-05    -0.000635909         -0.28467      -0.0595887     -0.000245016    -0.000130109       -0.0398705        0.951497
                       -0.935981         0.33094      -0.00026904    -3.86528e-05       -0.0963941       0.0629623     -0.000607689     9.09901e-05
                      0.00013055     -0.00021523       -0.0399054        0.951384     -0.000803849     0.000124025        -0.289358       0.0363851
281702.5                0.114331      -0.0115693     -4.15745e-05    -0.000611669        -0.936715        0.331685      0.000161346    -0.000174658
                     3.66107e-05    -0.000635906        -0.284672      -0.0595793     -0.000245025    -0.000130105       -0.0398426        0.951498
                       -0.935973        0.330965     -0.000269044    -3.86511e-05       -0.0963919       0.0629616     -0.000607687     9.10053e-05
                     0.000130544    -0.000215248       -0.0398775        0.951385     -0.000803847     0.000124048        -0.289356       0.0363926
281702.6                0.114328      -0.0115747     -4.15901e-05    -0.000611672        -0.936707         0.33171       0.00016134    -0.000174664
                     3.65916e-05    -0.000635904        -0.284673      -0.0595699     -0.000245035    -0.000130102       -0.0398147        0.951499
                       -0.935964         0.33099     -0.000269048    -3.86494e-05       -0.0963898       0.0629609     -0.000607684     9.10204e-05
                     0.000130538    -0.000215266       -0.0398497        0.951387     -0.000803845     0.000124071        -0.289355          0.0364
281702.7                0.114325        -0.01158     -4.16058e-05    -0.000611675        -0.936698        0.331735      0.000161334     -0.00017467
                     3.65725e-05    -0.000635901        -0.284675      -0.0595605     -0.000245044    -0.000130098       -0.0397868          0.9515
                       -0.935955        0.331015     -0.000269053    -3.86477e-05       -0.0963877       0.0629601     -0.000607682     9.10355e-05
                     0.000130533    -0.000215284       -0.0398218        0.951388     -0.000803843     0.000124093        -0.289354       0.0364074
281702.8                0.114323      -0.0115853     -4.16214e-05    -0.000611678        -0.936689         0.33176      0.000161327    -0.000174675
                     3.65534e-05    -0.000635898        -0.284677      -0.0595511     -0.000245054    -0.000130095       -0.0397589        0.951502
                       -0.935947         0.33104     -0.000269057     -3.8646e-05       -0.0963855       0.0629594     -0.000607679     9.10506e-05
                     0.000130527    -0.000215302       -0.0397939        0.951389     -0.000803841     0.000124116        -0.289353       0.0364148
281702.9                 0.11432      -0.0115907     -4.16371e-05    -0.000611681        -0.936681        0.331785      0.000161321    -0.000174681
                     3.65343e-05    -0.000635895        -0.284679      -0.0595418     -0.000245063    -0.000130091       -0.0397311        0.951503
                       -0.935938        0.331065     -0.000269061    -3.86443e-05       -0.0963834       0.0629586     -0.000607677     9.10657e-05
                     0.000130521    -0.000215319       -0.0397661         0.95139     -0.000803839     0.000124139        -0.289352       0.0364222
281703                  0.114317       -0.011596     -4.16527e-05    -0.000611684        -0.936672         0.33181      0.000161315    -0.000174687
                     3.65152e-05    -0.000635893         -0.28468      -0.0595324     -0.000245072    -0.000130088       -0.0397032        0.951504
                        -0.93593         0.33109     -0.000269065    -3.86426e-05       -0.0963813       0.0629579     -0.000607674     9.10808e-05
                     0.000130516    -0.000215337       -0.0397382        0.951391     -0.000803837     0.000124161        -0.289351       0.0364296
281703.1                0.114314      -0.0116014     -4.16684e-05    -0.000611687        -0.936664        0.331835      0.000161309    -0.000174693
                     3.64961e-05     -0.00063589        -0.284682       -0.059523     -0.000245082    -0.000130084       -0.0396753        0.951505
                       -0.935921        0.331115      -0.00026907    -3.86408e-05       -0.0963791       0.0629571     -0.000607672      9.1096e-05
