! TOUCHSTONE file generated by CST MICROWAVE STUDIO
! Date and time: Wed Oct  8 06:52:13 2025
! Project name: Teste_Macro_Metasurface_Nanopilar.cst
! Parameters = {H=600; L_x=80; L_y=175; Lambda=1064; Max_L=200; Min_L=70; PathPara=1; Phi=0; Step_L=10; Theta=0; p=520; phaseX=180; phaseY=0}
! Header version: 2018
! Port assignment regex: !\s*Touchstone port\s*([0-9]+)\s*=\s*(CST MWS port|CST DS port)\s*([0-9]+|Zmin|Zmax)\s*\(\"(.*)\"\)(\s*mode\s*([0-9]+))?.*
! Touchstone port assignment:
! Touchstone port 1 = CST MWS port Zmax ("") mode 1
! Touchstone port 2 = CST MWS port Zmax ("") mode 2
! Touchstone port 3 = CST MWS port Zmin ("") mode 1
! Touchstone port 4 = CST MWS port Zmin ("") mode 2
! S-Parameters are not renormalized. Each port impedance will be approximated by the real part at minimum frequency. The values are described via the [Reference] keyword.
! Default impedance is overridden by [Reference]
[Version] 2.0
# GHz S RI R 376.73
[Number of Ports] 4
[Reference]
376.73 376.73 376.73 376.73 
[Number of Frequencies] 1001
[Network Data]
281700                  -0.17238       -0.078751     -0.000214802    -0.000263806        -0.324693       -0.920525     -0.000335777    -4.23664e-05
                    -0.000135755    -0.000537339        0.0275485       -0.144436      0.000101995     2.60892e-05        -0.703827         0.69308
                       -0.324592       -0.920313      0.000212737      0.00024912       -0.0857897        0.168349      0.000348921    -0.000236339
                    -0.000289611     4.04442e-05        -0.703734        0.693431      0.000562461    -0.000189684        -0.144994       0.0258729
281700.1               -0.172378       -0.078745     -0.000214818    -0.000263799        -0.324722       -0.920516      -0.00033578    -4.23545e-05
                    -0.000136925    -0.000537108        0.0275419       -0.144437      0.000101985     2.60483e-05        -0.703808        0.693099
                       -0.324621       -0.920304       0.00021274     0.000249117       -0.0857811        0.168348      0.000348916    -0.000236353
                    -0.000289869     4.08242e-05        -0.703715        0.693451      0.000562485    -0.000189678        -0.144993       0.0258742
281700.2               -0.172376      -0.0787391     -0.000214833    -0.000263792        -0.324752       -0.920506     -0.000335783    -4.23426e-05
                    -0.000137727    -0.000536926        0.0275353       -0.144438      0.000101975     2.60074e-05         -0.70379        0.693118
                       -0.324651       -0.920294      0.000212743     0.000249115       -0.0857724        0.168348       0.00034891    -0.000236367
                    -0.000290049     4.10868e-05        -0.703696         0.69347      0.000562508    -0.000189671        -0.144993       0.0258755
281700.3               -0.172374      -0.0787332     -0.000214849    -0.000263786        -0.324782       -0.920497     -0.000335786    -4.23306e-05
                    -0.000138152    -0.000536823        0.0275287       -0.144439      0.000101965     2.59665e-05        -0.703771        0.693138
                        -0.32468       -0.920285      0.000212747     0.000249113       -0.0857638        0.168347      0.000348905    -0.000236381
                    -0.000290144     4.12284e-05        -0.703677        0.693489      0.000562532    -0.000189664        -0.144992       0.0258768
281700.4               -0.172372      -0.0787272     -0.000214864    -0.000263779        -0.324811       -0.920487     -0.000335789    -4.23187e-05
                    -0.000138193    -0.000536817        0.0275221        -0.14444      0.000101955     2.59256e-05        -0.703752        0.693157
                        -0.32471       -0.920275       0.00021275      0.00024911       -0.0857551        0.168346        0.0003489    -0.000236395
                    -0.000290147     4.12456e-05        -0.703658        0.693508      0.000562556    -0.000189657        -0.144992       0.0258781
281700.5               -0.172369      -0.0787213     -0.000214879    -0.000263773        -0.324841       -0.920478     -0.000335792    -4.23068e-05
                    -0.000137841    -0.000536913        0.0275155       -0.144441      0.000101945     2.58847e-05        -0.703733        0.693176
                        -0.32474       -0.920265      0.000212754     0.000249108       -0.0857465        0.168346      0.000348894    -0.000236409
                    -0.000290057     4.11353e-05        -0.703639        0.693528      0.000562579     -0.00018965        -0.144991       0.0258794
281700.6               -0.172367      -0.0787153     -0.000214894    -0.000263766         -0.32487       -0.920468     -0.000335795    -4.22949e-05
                    -0.000137084    -0.000537097        0.0275089       -0.144442      0.000101935     2.58438e-05        -0.703714        0.693195
                       -0.324769       -0.920256      0.000212757     0.000249106       -0.0857378        0.168345      0.000348889    -0.000236423
                    -0.000289874     4.08946e-05         -0.70362        0.693547      0.000562603    -0.000189642         -0.14499       0.0258807
281700.7               -0.172365      -0.0787094     -0.000214909     -0.00026376          -0.3249       -0.920459     -0.000335799     -4.2283e-05
                    -0.000135909    -0.000537339        0.0275023       -0.144443      0.000101926      2.5803e-05        -0.703695        0.693215
                       -0.324799       -0.920246      0.000212761     0.000249104       -0.0857292        0.168345      0.000348884    -0.000236437
                    -0.000289601     4.05207e-05        -0.703601        0.693566      0.000562627    -0.000189635         -0.14499        0.025882
281700.8               -0.172363      -0.0787034     -0.000214924    -0.000263753         -0.32493       -0.920449     -0.000335802    -4.22711e-05
                    -0.000134306    -0.000537593        0.0274957       -0.144444      0.000101917     2.57621e-05        -0.703676        0.693234
                       -0.324828       -0.920237      0.000212764     0.000249102       -0.0857205        0.168344      0.000348878    -0.000236451
                    -0.000289245     4.00117e-05        -0.703582        0.693585      0.000562651    -0.000189627        -0.144989       0.0258833
281700.9               -0.172361      -0.0786975     -0.000214939    -0.000263746        -0.324959        -0.92044     -0.000335805    -4.22592e-05
                    -0.000132273     -0.00053779        0.0274891       -0.144444      0.000101908     2.57212e-05        -0.703657        0.693253
                       -0.324858       -0.920227      0.000212768       0.0002491       -0.0857119        0.168343      0.000348873    -0.000236465
                    -0.000288817     3.93665e-05        -0.703564        0.693605      0.000562675     -0.00018962        -0.144988       0.0258846
281701                 -0.172359      -0.0786915     -0.000214953     -0.00026374        -0.324989        -0.92043     -0.000335808    -4.22472e-05
                    -0.000129821    -0.000537848        0.0274826       -0.144445      0.000101899     2.56804e-05        -0.703639        0.693273
                       -0.324888       -0.920218      0.000212771     0.000249097       -0.0857032        0.168343      0.000348868    -0.000236479
                     -0.00028833     3.85852e-05        -0.703545        0.693624      0.000562699    -0.000189612        -0.144988       0.0258859
281701.1               -0.172357      -0.0786856     -0.000214968    -0.000263733        -0.325018        -0.92042     -0.000335811    -4.22353e-05
                    -0.000126985    -0.000537673         0.027476       -0.144446      0.000101891     2.56395e-05         -0.70362        0.693292
                       -0.324917       -0.920208      0.000212775     0.000249095       -0.0856946        0.168342      0.000348862    -0.000236493
                    -0.000287799     3.76697e-05        -0.703526        0.693643      0.000562723    -0.000189603        -0.144987       0.0258872
281701.2               -0.172355      -0.0786797     -0.000214983    -0.000263727        -0.325048       -0.920411     -0.000335814    -4.22234e-05
                    -0.000123826    -0.000537166        0.0274694       -0.144447      0.000101883     2.55986e-05        -0.703601        0.693311
                       -0.324947       -0.920199      0.000212778     0.000249094        -0.085686        0.168342      0.000348857    -0.000236507
                    -0.000287241     3.66242e-05        -0.703507        0.693662      0.000562747    -0.000189595        -0.144987       0.0258885
281701.3               -0.172353      -0.0786737     -0.000214997     -0.00026372        -0.325078       -0.920401     -0.000335817    -4.22115e-05
                    -0.000120441     -0.00053624        0.0274628       -0.144448      0.000101876     2.55578e-05        -0.703582         0.69333
                       -0.324977       -0.920189      0.000212782     0.000249092       -0.0856773        0.168341      0.000348852    -0.000236521
                    -0.000286676     3.54551e-05        -0.703488        0.693681      0.000562771    -0.000189586        -0.144986       0.0258898
281701.4               -0.172351      -0.0786678     -0.000215012    -0.000263714        -0.325107       -0.920392     -0.000335821    -4.21996e-05
                    -0.000116953    -0.000534831        0.0274562       -0.144449       0.00010187     2.55169e-05        -0.703563         0.69335
                       -0.325006        -0.92018      0.000212786      0.00024909       -0.0856687         0.16834      0.000348846    -0.000236535
                    -0.000286121      3.4172e-05        -0.703469        0.693701      0.000562795    -0.000189577        -0.144985       0.0258911
281701.5               -0.172348      -0.0786618     -0.000215026    -0.000263707        -0.325137       -0.920382     -0.000335824    -4.21877e-05
                    -0.000113506    -0.000532914        0.0274496        -0.14445      0.000101864     2.54761e-05        -0.703544        0.693369
                       -0.325036        -0.92017      0.000212789     0.000249088         -0.08566         0.16834      0.000348841    -0.000236549
                    -0.000285596     3.27867e-05         -0.70345         0.69372       0.00056282    -0.000189568        -0.144985       0.0258924
281701.6               -0.172346      -0.0786558     -0.000215041      -0.0002637        -0.325166       -0.920373     -0.000335827    -4.21758e-05
                    -0.000110249    -0.000530509         0.027443       -0.144451      0.000101859     2.54352e-05        -0.703525        0.693388
                       -0.325066        -0.92016      0.000212793     0.000249086       -0.0856514        0.168339      0.000348836    -0.000236562
                    -0.000285116     3.13138e-05        -0.703431        0.693739      0.000562845    -0.000189557        -0.144984       0.0258937
281701.7               -0.172344      -0.0786499     -0.000215055    -0.000263694        -0.325196       -0.920363      -0.00033583    -4.21639e-05
                    -0.000107314    -0.000527684        0.0274364       -0.144451      0.000101856     2.53942e-05        -0.703506        0.693408
                       -0.325095       -0.920151      0.000212797     0.000249084       -0.0856427        0.168339       0.00034883    -0.000236576
                    -0.000284697     2.97698e-05        -0.703412        0.693758       0.00056287    -0.000189547        -0.144984        0.025895
281701.8               -0.172342      -0.0786439     -0.000215069    -0.000263687        -0.325225       -0.920354     -0.000335833     -4.2152e-05
                    -0.000104799    -0.000524541        0.0274298       -0.144452      0.000101854     2.53532e-05        -0.703488        0.693427
                       -0.325125       -0.920141      0.000212801     0.000249082       -0.0856341        0.168338      0.000348825     -0.00023659
                     -0.00028435     2.81727e-05        -0.703394        0.693778      0.000562895    -0.000189535        -0.144983       0.0258963
281701.9                -0.17234       -0.078638     -0.000215083    -0.000263681        -0.325255       -0.920344     -0.000335836    -4.21401e-05
                    -0.000102764    -0.000521201        0.0274232       -0.144453      0.000101854     2.53121e-05        -0.703469        0.693446
                       -0.325155       -0.920132      0.000212804     0.000249081       -0.0856254        0.168337       0.00034882    -0.000236604
                    -0.000284083     2.65412e-05        -0.703375        0.693797       0.00056292    -0.000189522        -0.144982       0.0258975
281702                 -0.172338       -0.078632     -0.000215097    -0.000263674        -0.325285       -0.920335     -0.000335839    -4.21282e-05
                    -0.000101221     -0.00051779        0.0274167       -0.144454      0.000101857     2.52709e-05         -0.70345        0.693465
                       -0.325184       -0.920122      0.000212808     0.000249079       -0.0856168        0.168337      0.000348815    -0.000236618
                    -0.000283901     2.48941e-05        -0.703356        0.693816      0.000562946    -0.000189508        -0.144982       0.0258988
281702.1               -0.172336      -0.0786261     -0.000215112    -0.000263668        -0.325314       -0.920325     -0.000335842    -4.21163e-05
                    -0.000100148    -0.000514417        0.0274101       -0.144455      0.000101864     2.52294e-05        -0.703431        0.693485
                       -0.325214       -0.920113      0.000212812     0.000249077       -0.0856082        0.168336      0.000348809    -0.000236632
                    -0.000283806     2.32492e-05        -0.703337        0.693835      0.000562973    -0.000189492        -0.144981       0.0259001
281702.2               -0.172334      -0.0786201     -0.000215126    -0.000263661        -0.325344       -0.920316     -0.000335846    -4.21044e-05
                     -9.9496e-05     -0.00051117        0.0274035       -0.144456      0.000101876     2.51873e-05        -0.703412        0.693504
                       -0.325244       -0.920103      0.000212816     0.000249076       -0.0855995        0.168336      0.000348804    -0.000236646
                    -0.000283796      2.1623e-05        -0.703318        0.693855      0.000563001    -0.000189474         -0.14498       0.0259014
281702.3               -0.172332      -0.0786141      -0.00021514    -0.000263655        -0.325373       -0.920306     -0.000335849    -4.20925e-05
                    -9.92019e-05    -0.000508112        0.0273969       -0.144457      0.000101896     2.51444e-05        -0.703393        0.693523
                       -0.325274       -0.920093       0.00021282     0.000249074       -0.0855909        0.168335      0.000348799     -0.00023666
                    -0.000283868     2.00303e-05        -0.703299        0.693874       0.00056303    -0.000189453         -0.14498       0.0259027
281702.4                -0.17233      -0.0786082     -0.000215154    -0.000263648        -0.325403       -0.920297     -0.000335852    -4.20806e-05
                    -9.91983e-05     -0.00050528        0.0273903       -0.144458      0.000101928     2.50996e-05        -0.703374        0.693543
                       -0.325303       -0.920084      0.000212824     0.000249072       -0.0855822        0.168334      0.000348794    -0.000236674
                    -0.000284016     1.84835e-05         -0.70328        0.693893      0.000563061    -0.000189426        -0.144979        0.025904
281702.5               -0.172328      -0.0786022     -0.000215167    -0.000263642        -0.325433       -0.920287     -0.000335855    -4.20687e-05
                    -9.94206e-05    -0.000502693        0.0273837       -0.144458      0.000101982     2.50507e-05        -0.703355        0.693562
                       -0.325333       -0.920074      0.000212828     0.000249071       -0.0855736        0.168334      0.000348788    -0.000236687
                    -0.000284231     1.69927e-05        -0.703261        0.693912      0.000563095    -0.000189392        -0.144979       0.0259053
281702.6               -0.172326      -0.0785962     -0.000215181    -0.000263636        -0.325462       -0.920278     -0.000335858    -4.20568e-05
                    -9.98113e-05    -0.000500353        0.0273771       -0.144459      0.000102078     2.49911e-05        -0.703337        0.693581
                       -0.325363       -0.920065      0.000212832     0.000249069        -0.085565        0.168333      0.000348783    -0.000236701
                    -0.000284506     1.55656e-05        -0.703242        0.693931      0.000563136    -0.000189345        -0.144978       0.0259066
281702.7               -0.172323      -0.0785903     -0.000215195    -0.000263629        -0.325492       -0.920268     -0.000335861     -4.2045e-05
                    -0.000100322    -0.000498251        0.0273705        -0.14446       0.00010227      2.4894e-05        -0.703318          0.6936
                       -0.325393       -0.920055      0.000212836     0.000249067       -0.0855563        0.168333      0.000348778    -0.000236715
                    -0.000284833     1.42077e-05        -0.703223        0.693951      0.000563189    -0.000189275        -0.144977       0.0259079
281702.8               -0.172321      -0.0785843     -0.000215209    -0.000263623        -0.325522       -0.920259     -0.000335864    -4.20331e-05
                    -0.000100912    -0.000496372        0.0273639       -0.144461      0.000102763     2.45761e-05        -0.703299         0.69362
                       -0.325423       -0.920045       0.00021284     0.000249066       -0.0855477        0.168332      0.000348773    -0.000236729
                    -0.000285202     1.29225e-05        -0.703205         0.69397      0.000563274    -0.000189155        -0.144977       0.0259092
281702.9               -0.172319      -0.0785783     -0.000215223    -0.000263616        -0.325552       -0.920251     -0.000335868    -4.20212e-05
                    -0.000101551    -0.000494699        0.0273573       -0.144462      0.000102323     2.16447e-05         -0.70328        0.693639
                       -0.325453       -0.920036      0.000212845     0.000249064       -0.0855391        0.168331      0.000348768    -0.000236742
                    -0.000285605     1.17117e-05        -0.703186        0.693989      0.000563485    -0.000188895        -0.144976       0.0259105
281703                 -0.172317      -0.0785724     -0.000215236     -0.00026361        -0.325569       -0.920238     -0.000335871    -4.20094e-05
                    -0.000102215    -0.000493211        0.0273508       -0.144463      0.000100374     2.42408e-05        -0.703261        0.693658
                       -0.325482       -0.920026      0.000212849     0.000249063       -0.0855304        0.168331      0.000348763    -0.000236756
                    -0.000286035     1.05755e-05        -0.703167        0.694008      0.000564985    -0.000188395        -0.144975       0.0259118
281703.1               -0.172315      -0.0785664      -0.00021525    -0.000263603        -0.325608       -0.920228     -0.000335874    -4.19975e-05
                    -0.000102887    -0.000491888        0.0273442       -0.144464      0.000100895     2.46331e-05        -0.703242        0.693678
                       -0.325512       -0.920016      0.000212853     0.000249061       -0.0855217         0.16833      0.000348758     -0.00023677
