! TOUCHSTONE file generated by CST MICROWAVE STUDIO
! Date and time: Wed Oct  8 07:01:20 2025
! Project name: Teste_Macro_Metasurface_Nanopilar.cst
! Parameters = {H=600; L_x=160; L_y=75; Lambda=1064; Max_L=200; Min_L=70; PathPara=1; Phi=0; Step_L=10; Theta=0; p=520; phaseX=180; phaseY=0}
! Header version: 2018
! Port assignment regex: !\s*Touchstone port\s*([0-9]+)\s*=\s*(CST MWS port|CST DS port)\s*([0-9]+|Zmin|Zmax)\s*\(\"(.*)\"\)(\s*mode\s*([0-9]+))?.*
! Touchstone port assignment:
! Touchstone port 1 = CST MWS port Zmax ("") mode 1
! Touchstone port 2 = CST MWS port Zmax ("") mode 2
! Touchstone port 3 = CST MWS port Zmin ("") mode 1
! Touchstone port 4 = CST MWS port Zmin ("") mode 2
! S-Parameters are not renormalized. Each port impedance will be approximated by the real part at minimum frequency. The values are described via the [Reference] keyword.
! Default impedance is overridden by [Reference]
[Version] 2.0
# GHz S RI R 376.73
[Number of Ports] 4
[Reference]
376.73 376.73 376.73 376.73 
[Number of Frequencies] 1001
[Network Data]
281700                 0.0936848      -0.0745082      2.32493e-06     0.000178599        -0.868848        0.479048      3.50823e-06       0.0004176
                    -0.000306491      0.00029781        0.0134178        -0.18167     -0.000262162    -7.16787e-05         0.573152        -0.78788
                        -0.86859        0.478616     -0.000261321     5.70439e-05        -0.113233       0.0396553     -0.000260348     9.48578e-05
                    -2.66556e-05     0.000371799          0.57326       -0.787669     -0.000131033     0.000187643         -0.17158       0.0715273
281700.1                 0.09368      -0.0745123      2.34374e-06      0.00017856        -0.868836        0.479072      3.52583e-06     0.000417594
                    -0.000306478     0.000297819        0.0134084        -0.18167     -0.000262154    -7.16609e-05         0.573126       -0.787899
                       -0.868577        0.478639     -0.000261339     5.71012e-05        -0.113232       0.0396551     -0.000260351     9.48632e-05
                    -2.66529e-05     0.000371791         0.573234       -0.787688     -0.000131025     0.000187646        -0.171578       0.0715296
281700.2               0.0936753      -0.0745165      2.36478e-06     0.000178523        -0.868823        0.479095      3.54344e-06     0.000417588
                    -0.000306464     0.000297828        0.0133989        -0.18167     -0.000262145     -7.1643e-05           0.5731       -0.787919
                       -0.868565        0.478663     -0.000261356     5.71575e-05         -0.11323        0.039655     -0.000260354     9.48686e-05
                    -2.66503e-05     0.000371784         0.573207       -0.787707     -0.000131016     0.000187648        -0.171577       0.0715319
281700.3               0.0936705      -0.0745206        2.388e-06     0.000178487         -0.86881        0.479119      3.56104e-06     0.000417582
                    -0.000306451     0.000297837        0.0133895        -0.18167     -0.000262137    -7.16252e-05         0.573074       -0.787938
                       -0.868552        0.478686     -0.000261374     5.72128e-05        -0.113229       0.0396548     -0.000260357      9.4874e-05
                    -2.66477e-05     0.000371776         0.573181       -0.787727     -0.000131008     0.000187651        -0.171575       0.0715342
281700.4               0.0936658      -0.0745247      2.41337e-06     0.000178453        -0.868797        0.479142      3.57865e-06     0.000417575
                    -0.000306438     0.000297846          0.01338        -0.18167     -0.000262128    -7.16073e-05         0.573047       -0.787957
                       -0.868539         0.47871     -0.000261391      5.7267e-05        -0.113228       0.0396547     -0.000260359     9.48794e-05
                    -2.66451e-05     0.000371769         0.573155       -0.787746     -0.000130999     0.000187653        -0.171573       0.0715365
281700.5                0.093661      -0.0745288      2.44085e-06     0.000178421        -0.868785        0.479165      3.59626e-06     0.000417569
                    -0.000306425     0.000297855        0.0133706        -0.18167      -0.00026212    -7.15894e-05         0.573021       -0.787976
                       -0.868526        0.478733     -0.000261408     5.73203e-05        -0.113227       0.0396545     -0.000260362     9.48848e-05
                    -2.66424e-05     0.000371761         0.573129       -0.787765     -0.000130991     0.000187655        -0.171571       0.0715388
281700.6               0.0936562       -0.074533       2.4704e-06      0.00017839        -0.868772        0.479189      3.61386e-06     0.000417563
                    -0.000306412     0.000297864        0.0133611       -0.181671     -0.000262111    -7.15715e-05         0.572995       -0.787996
                       -0.868514        0.478756     -0.000261424     5.73726e-05        -0.113226       0.0396544     -0.000260365     9.48902e-05
                    -2.66398e-05     0.000371754         0.573102       -0.787784     -0.000130982     0.000187658        -0.171569       0.0715411
281700.7               0.0936515      -0.0745371      2.50198e-06     0.000178362        -0.868759        0.479212      3.63147e-06     0.000417557
                    -0.000306399     0.000297873        0.0133516       -0.181671     -0.000262102    -7.15536e-05         0.572969       -0.788015
                       -0.868501         0.47878     -0.000261441     5.74239e-05        -0.113225       0.0396542     -0.000260368     9.48956e-05
                    -2.66373e-05     0.000371746         0.573076       -0.787804     -0.000130973      0.00018766        -0.171568       0.0715434
281700.8               0.0936467      -0.0745412      2.53554e-06     0.000178334        -0.868746        0.479236      3.64907e-06     0.000417551
                    -0.000306386     0.000297882        0.0133422       -0.181671     -0.000262093    -7.15356e-05         0.572943       -0.788034
                       -0.868488        0.478803     -0.000261458     5.74742e-05        -0.113223       0.0396541     -0.000260371      9.4901e-05
                    -2.66347e-05     0.000371738          0.57305       -0.787823     -0.000130964     0.000187662        -0.171566       0.0715457
281700.9                0.093642      -0.0745453      2.57103e-06     0.000178309        -0.868734        0.479259      3.66668e-06     0.000417544
                    -0.000306373     0.000297891        0.0133327       -0.181671     -0.000262084    -7.15176e-05         0.572916       -0.788053
                       -0.868476        0.478827     -0.000261474     5.75237e-05        -0.113222       0.0396539     -0.000260374     9.49064e-05
                    -2.66322e-05     0.000371731         0.573024       -0.787842     -0.000130955     0.000187664        -0.171564        0.071548
281701                 0.0936372      -0.0745494       2.6084e-06     0.000178284        -0.868721        0.479283      3.68429e-06     0.000417538
                     -0.00030636       0.0002979        0.0133233       -0.181671     -0.000262074    -7.14994e-05          0.57289       -0.788073
                       -0.868463         0.47885      -0.00026149     5.75723e-05        -0.113221       0.0396538     -0.000260376     9.49118e-05
                    -2.66297e-05     0.000371723         0.572998       -0.787861     -0.000130946     0.000187666        -0.171562       0.0715503
281701.1               0.0936324      -0.0745536       2.6476e-06     0.000178262        -0.868708        0.479306       3.7019e-06     0.000417532
                    -0.000306346     0.000297909        0.0133138       -0.181671     -0.000262065    -7.14812e-05         0.572864       -0.788092
                        -0.86845        0.478873     -0.000261506       5.762e-05         -0.11322       0.0396536     -0.000260379     9.49172e-05
                    -2.66273e-05     0.000371715         0.572971        -0.78788     -0.000130936     0.000187668        -0.171561       0.0715526
281701.2               0.0936277      -0.0745577      2.68857e-06      0.00017824        -0.868695        0.479329      3.71951e-06     0.000417526
                    -0.000306333     0.000297918        0.0133044       -0.181671     -0.000262055    -7.14629e-05         0.572838       -0.788111
                       -0.868437        0.478897     -0.000261522     5.76668e-05        -0.113219       0.0396535     -0.000260382     9.49226e-05
                    -2.66251e-05     0.000371707         0.572945         -0.7879     -0.000130926      0.00018767        -0.171559       0.0715549
281701.3               0.0936229      -0.0745618      2.73127e-06      0.00017822        -0.868683        0.479353      3.73711e-06     0.000417519
                     -0.00030632     0.000297927        0.0132949       -0.181671     -0.000262044    -7.14444e-05         0.572812        -0.78813
                       -0.868425         0.47892     -0.000261538     5.77129e-05        -0.113217       0.0396533     -0.000260385      9.4928e-05
                     -2.6623e-05     0.000371699         0.572919       -0.787919     -0.000130916     0.000187672        -0.171557       0.0715572
281701.4               0.0936182      -0.0745659      2.77562e-06     0.000178202         -0.86867        0.479376      3.75472e-06     0.000417513
                    -0.000306307     0.000297936        0.0132855       -0.181671     -0.000262033    -7.14257e-05         0.572785        -0.78815
                       -0.868412        0.478943     -0.000261554     5.77582e-05        -0.113216       0.0396532     -0.000260388     9.49334e-05
                    -2.66212e-05     0.000371691         0.572893       -0.787938     -0.000130905     0.000187674        -0.171555       0.0715595
281701.5               0.0936134      -0.0745701      2.82157e-06     0.000178184        -0.868657          0.4794      3.77233e-06     0.000417507
                    -0.000306294     0.000297945         0.013276       -0.181671     -0.000262022    -7.14066e-05         0.572759       -0.788169
                       -0.868399        0.478967     -0.000261569     5.78027e-05        -0.113215        0.039653     -0.000260391     9.49388e-05
                      -2.662e-05     0.000371683         0.572866       -0.787957     -0.000130893     0.000187676        -0.171553       0.0715618
281701.6               0.0936086      -0.0745742      2.86906e-06     0.000178168        -0.868644        0.479423      3.78994e-06     0.000417501
                    -0.000306281     0.000297955        0.0132665       -0.181671      -0.00026201     -7.1387e-05         0.572733       -0.788188
                       -0.868386         0.47899     -0.000261585     5.78465e-05        -0.113214       0.0396529     -0.000260393     9.49442e-05
                      -2.662e-05     0.000371675          0.57284       -0.787977     -0.000130881     0.000187678        -0.171552       0.0715641
281701.7               0.0936039      -0.0745783      2.91801e-06     0.000178153        -0.868632        0.479446      3.80756e-06     0.000417495
                    -0.000306268     0.000297964        0.0132571       -0.181671     -0.000261996    -7.13666e-05         0.572707       -0.788207
                       -0.868374        0.479014       -0.0002616     5.78896e-05        -0.113213       0.0396527     -0.000260396     9.49496e-05
                    -2.66221e-05     0.000371669         0.572814       -0.787996     -0.000130867      0.00018768         -0.17155       0.0715664
281701.8               0.0935991      -0.0745824      2.96836e-06     0.000178139        -0.868619         0.47947      3.82517e-06     0.000417488
                    -0.000306255     0.000297973        0.0132476       -0.181671     -0.000261982    -7.13448e-05          0.57268       -0.788227
                       -0.868361        0.479037     -0.000261615      5.7932e-05        -0.113212       0.0396526     -0.000260399     9.49551e-05
                    -2.66243e-05     0.000371669         0.572788       -0.788015     -0.000130852     0.000187682        -0.171548       0.0715687
281701.9               0.0935943      -0.0745866      3.02003e-06     0.000178127        -0.868606        0.479493      3.84278e-06     0.000417482
                    -0.000306241     0.000297982        0.0132382       -0.181671     -0.000261965    -7.13207e-05         0.572654       -0.788246
                       -0.868348         0.47906     -0.000261631     5.79738e-05         -0.11321       0.0396524     -0.000260402     9.49605e-05
                    -2.66155e-05     0.000371671         0.572762       -0.788034     -0.000130834     0.000187684        -0.171546        0.071571
281702                 0.0935896      -0.0745907      3.07296e-06     0.000178115        -0.868593        0.479517       3.8604e-06     0.000417476
                    -0.000306228     0.000297991        0.0132287       -0.181671     -0.000261946    -7.12925e-05         0.572628       -0.788265
                       -0.868336        0.479084     -0.000261646     5.80151e-05        -0.113209       0.0396523     -0.000260405     9.49659e-05
                    -2.66048e-05     0.000371663         0.572735       -0.788053     -0.000130813     0.000187688        -0.171544       0.0715733
281702.1               0.0935849      -0.0745948      3.12706e-06     0.000178104        -0.868581         0.47954      3.87801e-06      0.00041747
                    -0.000306215        0.000298        0.0132193       -0.181671     -0.000261925    -7.12561e-05         0.572602       -0.788284
                       -0.868323        0.479107     -0.000261661     5.80558e-05        -0.113208       0.0396521     -0.000260408     9.49713e-05
                    -2.65988e-05     0.000371653         0.572709       -0.788073     -0.000130785     0.000187694        -0.171543       0.0715756
281702.2               0.0935801      -0.0745989      3.18225e-06     0.000178094        -0.868568        0.479563      3.89563e-06     0.000417463
                    -0.000306202      0.00029801        0.0132098       -0.181671     -0.000261907    -7.12042e-05         0.572576       -0.788304
                        -0.86831        0.479131     -0.000261676      5.8096e-05        -0.113207        0.039652      -0.00026041     9.49767e-05
                     -2.6595e-05     0.000371644         0.572683       -0.788092     -0.000130748     0.000187708        -0.171541       0.0715778
281702.3               0.0935753       -0.074603      3.23845e-06     0.000178085        -0.868555        0.479587      3.91324e-06     0.000417457
                    -0.000306189     0.000298019        0.0132004       -0.181671     -0.000261911    -7.11296e-05         0.572549       -0.788323
                       -0.868297        0.479154     -0.000261691     5.81357e-05        -0.113206       0.0396518     -0.000260413     9.49822e-05
                    -2.65918e-05     0.000371635         0.572657       -0.788111     -0.000130698     0.000187744        -0.171539       0.0715801
281702.4               0.0935706      -0.0746071      3.29558e-06     0.000178076        -0.868542         0.47961      3.93086e-06     0.000417451
                    -0.000306176     0.000298028        0.0131909       -0.181671     -0.000261971    -7.10641e-05         0.572523       -0.788342
                       -0.868285        0.479177     -0.000261706      5.8175e-05        -0.113204       0.0396517     -0.000260416     9.49876e-05
                    -2.65889e-05     0.000371626          0.57263        -0.78813     -0.000130657     0.000187838        -0.171537       0.0715824
281702.5               0.0935658      -0.0746113      3.35354e-06     0.000178068         -0.86853        0.479634      3.94849e-06     0.000417445
                    -0.000306162     0.000298038        0.0131814       -0.181671     -0.000262046    -7.10733e-05         0.572497       -0.788361
                       -0.868272        0.479201      -0.00026172      5.8214e-05        -0.113203       0.0396515     -0.000260419     9.49931e-05
                    -2.65862e-05     0.000371618         0.572604       -0.788149     -0.000130733     0.000187969        -0.171535       0.0715847
281702.6               0.0935611      -0.0746154      3.41224e-06     0.000178061        -0.868517        0.479657      3.96611e-06     0.000417439
                    -0.000306149     0.000298047         0.013172       -0.181671     -0.000262065    -7.11117e-05         0.572471       -0.788381
                       -0.868259        0.479224     -0.000261735     5.82526e-05        -0.113202       0.0396514     -0.000260422     9.49985e-05
                    -2.65834e-05      0.00037161         0.572578       -0.788169     -0.000130871     0.000187952        -0.171534        0.071587
281702.7               0.0935563      -0.0746195      3.47158e-06     0.000178055        -0.868504         0.47968      3.98373e-06     0.000417432
                    -0.000306136     0.000298057        0.0131625       -0.181671     -0.000262053    -7.11325e-05         0.572444         -0.7884
                       -0.868246        0.479248      -0.00026175     5.82909e-05        -0.113201       0.0396512     -0.000260424      9.5004e-05
                    -2.65807e-05     0.000371602         0.572552       -0.788188     -0.000130911      0.00018788        -0.171532       0.0715893
281702.8               0.0935515      -0.0746236      3.53147e-06     0.000178048        -0.868491        0.479704      4.00136e-06     0.000417426
                    -0.000306122     0.000298067        0.0131531       -0.181671     -0.000262035    -7.11369e-05         0.572418       -0.788419
                       -0.868234        0.479271     -0.000261765      5.8329e-05          -0.1132       0.0396511     -0.000260427     9.50095e-05
                     -2.6578e-05     0.000371595         0.572526       -0.788207     -0.000130907     0.000187833         -0.17153       0.0715916
281702.9               0.0935468      -0.0746277      3.59181e-06     0.000178042        -0.868479        0.479727      4.01899e-06      0.00041742
                    -0.000306108     0.000298077        0.0131436       -0.181671     -0.000262018    -7.11321e-05         0.572392       -0.788438
                       -0.868221        0.479294     -0.000261779     5.83669e-05        -0.113199       0.0396509      -0.00026043      9.5015e-05
                    -2.65753e-05     0.000371587         0.572499       -0.788226     -0.000130893     0.000187807        -0.171528       0.0715939
281703                  0.093542      -0.0746318      3.65248e-06     0.000178037        -0.868466        0.479751      4.03663e-06     0.000417414
                    -0.000306093     0.000298087        0.0131342       -0.181671     -0.000262002    -7.11223e-05         0.572366       -0.788458
                       -0.868208        0.479318     -0.000261794     5.84047e-05        -0.113197       0.0396508     -0.000260433     9.50205e-05
                    -2.65726e-05     0.000371579         0.572473       -0.788245     -0.000130878     0.000187792        -0.171527       0.0715962
281703.1               0.0935372       -0.074636      3.71337e-06     0.000178031        -0.868453        0.479774      4.05426e-06     0.000417407
                    -0.000306077     0.000298096        0.0131247       -0.181671     -0.000261988    -7.11098e-05          0.57234       -0.788477
                       -0.868195        0.479341     -0.000261809     5.84425e-05        -0.113196       0.0396506     -0.000260436      9.5026e-05
