! TOUCHSTONE file generated by CST MICROWAVE STUDIO
! Date and time: Wed Oct  8 07:04:52 2025
! Project name: Teste_Macro_Metasurface_Nanopilar.cst
! Parameters = {H=600; L_x=185; L_y=200; Lambda=1064; Max_L=200; Min_L=70; PathPara=1; Phi=0; Step_L=10; Theta=0; p=520; phaseX=180; phaseY=0}
! Header version: 2018
! Port assignment regex: !\s*Touchstone port\s*([0-9]+)\s*=\s*(CST MWS port|CST DS port)\s*([0-9]+|Zmin|Zmax)\s*\(\"(.*)\"\)(\s*mode\s*([0-9]+))?.*
! Touchstone port assignment:
! Touchstone port 1 = CST MWS port Zmax ("") mode 1
! Touchstone port 2 = CST MWS port Zmax ("") mode 2
! Touchstone port 3 = CST MWS port Zmin ("") mode 1
! Touchstone port 4 = CST MWS port Zmin ("") mode 2
! S-Parameters are not renormalized. Each port impedance will be approximated by the real part at minimum frequency. The values are described via the [Reference] keyword.
! Default impedance is overridden by [Reference]
[Version] 2.0
# GHz S RI R 376.73
[Number of Ports] 4
[Reference]
376.73 376.73 376.73 376.73 
[Number of Frequencies] 1001
[Network Data]
281700                 -0.343173       -0.278192      0.000127441    -0.000145411        -0.808439        0.378735     -9.98675e-05      -1.828e-05
                     9.23213e-05    -0.000165096        -0.204197       -0.239763      0.000174103    -6.58727e-05        -0.900561        0.288439
                       -0.808452         0.37876        8.789e-05    -8.81578e-05       0.00301412       -0.440181     -0.000170545    -1.38852e-05
                    -0.000200201    -1.13491e-05        -0.900548        0.288387     -0.000172145    -1.67342e-05        0.0236177       -0.313079
281700.1               -0.343181        -0.27819      0.000127412    -0.000145328        -0.808426        0.378759     -9.98726e-05    -1.82874e-05
                     9.23313e-05    -0.000165095        -0.204204       -0.239764      0.000174105    -6.59586e-05        -0.900551        0.288465
                       -0.808439        0.378783      8.78925e-05    -8.81419e-05       0.00299488       -0.440186     -0.000170539    -1.38629e-05
                    -0.000200177    -1.13329e-05        -0.900538        0.288413     -0.000172074     -1.6604e-05        0.0236045       -0.313086
281700.2                -0.34319       -0.278187      0.000127383    -0.000145244        -0.808413        0.378783     -9.98777e-05    -1.82947e-05
                     9.23413e-05    -0.000165095        -0.204211       -0.239765      0.000174107    -6.60448e-05        -0.900541        0.288491
                       -0.808426        0.378807      8.78948e-05     -8.8126e-05       0.00297565        -0.44019     -0.000170533    -1.38407e-05
                    -0.000200153    -1.13169e-05        -0.900528        0.288439     -0.000172003    -1.64725e-05        0.0235913       -0.313092
281700.3               -0.343198       -0.278185      0.000127357    -0.000145159          -0.8084        0.378807     -9.98828e-05    -1.83021e-05
                     9.23514e-05    -0.000165095        -0.204219       -0.239766      0.000174109    -6.61314e-05        -0.900531        0.288517
                       -0.808413         0.37883      8.78969e-05    -8.81101e-05       0.00295642       -0.440195     -0.000170527    -1.38186e-05
                    -0.000200129    -1.13008e-05        -0.900517        0.288465     -0.000171931    -1.63397e-05         0.023578       -0.313099
281700.4               -0.343206       -0.278182      0.000127332    -0.000145073        -0.808386        0.378831     -9.98878e-05    -1.83095e-05
                     9.23614e-05    -0.000165094        -0.204226       -0.239767      0.000174111    -6.62182e-05        -0.900521        0.288543
                         -0.8084        0.378853      8.78989e-05    -8.80943e-05       0.00293718         -0.4402      -0.00017052    -1.37965e-05
                    -0.000200105    -1.12849e-05        -0.900507        0.288491     -0.000171857    -1.62055e-05        0.0235648       -0.313105
281700.5               -0.343214        -0.27818      0.000127308    -0.000144987        -0.808373        0.378855     -9.98927e-05    -1.83168e-05
                     9.23715e-05    -0.000165094        -0.204233       -0.239768      0.000174113    -6.63055e-05         -0.90051        0.288569
                       -0.808386        0.378876      8.79007e-05    -8.80786e-05       0.00291795       -0.440205     -0.000170514    -1.37745e-05
                    -0.000200081     -1.1269e-05        -0.900497        0.288518     -0.000171783      -1.607e-05        0.0235515       -0.313112
281700.6               -0.343222       -0.278177      0.000127287    -0.000144899         -0.80836        0.378879     -9.98976e-05    -1.83242e-05
                     9.23815e-05    -0.000165093         -0.20424       -0.239769      0.000174116     -6.6393e-05          -0.9005        0.288595
                       -0.808373        0.378899      8.79024e-05    -8.80628e-05       0.00289871        -0.44021     -0.000170509    -1.37526e-05
                    -0.000200057    -1.12532e-05        -0.900487        0.288544     -0.000171707    -1.59331e-05        0.0235383       -0.313118
281700.7                -0.34323       -0.278175      0.000127267    -0.000144812        -0.808347        0.378903     -9.99025e-05    -1.83316e-05
                     9.23916e-05    -0.000165093        -0.204247        -0.23977      0.000174119    -6.64809e-05         -0.90049        0.288621
                        -0.80836        0.378922       8.7904e-05    -8.80472e-05       0.00287947       -0.440215     -0.000170503    -1.37306e-05
                    -0.000200033    -1.12375e-05        -0.900477         0.28857     -0.000171631    -1.57949e-05        0.0235251       -0.313125
281700.8               -0.343239       -0.278172      0.000127249    -0.000144724        -0.808334        0.378927     -9.99073e-05    -1.83389e-05
                     9.24017e-05    -0.000165092        -0.204255       -0.239771      0.000174122    -6.65692e-05         -0.90048        0.288647
                       -0.808347        0.378946      8.79053e-05    -8.80315e-05       0.00286023        -0.44022     -0.000170497    -1.37088e-05
                    -0.000200009    -1.12218e-05        -0.900467        0.288596     -0.000171553    -1.56552e-05        0.0235118       -0.313131
281700.9               -0.343247        -0.27817      0.000127232    -0.000144635        -0.808321        0.378951     -9.99121e-05    -1.83463e-05
                     9.24118e-05    -0.000165092        -0.204262       -0.239772      0.000174125    -6.66578e-05        -0.900469        0.288672
                       -0.808334        0.378969      8.79065e-05    -8.80159e-05         0.002841       -0.440225     -0.000170491     -1.3687e-05
                    -0.000199985    -1.12061e-05        -0.900456        0.288622     -0.000171474    -1.55142e-05        0.0234986       -0.313137
281701                 -0.343255       -0.278167      0.000127218    -0.000144545        -0.808308        0.378975     -9.99168e-05    -1.83536e-05
                     9.24219e-05    -0.000165091        -0.204269       -0.239773      0.000174129    -6.67468e-05        -0.900459        0.288698
                       -0.808321        0.378992      8.79076e-05    -8.80003e-05       0.00282176        -0.44023     -0.000170485    -1.36652e-05
                    -0.000199961    -1.11906e-05        -0.900446        0.288648     -0.000171394    -1.53717e-05        0.0234853       -0.313144
281701.1               -0.343263       -0.278165      0.000127206    -0.000144456        -0.808295        0.378999     -9.99214e-05     -1.8361e-05
                      9.2432e-05    -0.000165091        -0.204276       -0.239774      0.000174132    -6.68361e-05        -0.900449        0.288724
                       -0.808308        0.379015      8.79085e-05    -8.79848e-05       0.00280252       -0.440235     -0.000170479    -1.36435e-05
                    -0.000199938    -1.11751e-05        -0.900436        0.288675     -0.000171313    -1.52278e-05        0.0234721        -0.31315
281701.2               -0.343271       -0.278162      0.000127195    -0.000144366        -0.808282        0.379023      -9.9926e-05    -1.83684e-05
                     9.24421e-05     -0.00016509        -0.204283       -0.239775      0.000174136    -6.69258e-05        -0.900439         0.28875
                       -0.808295        0.379038      8.79092e-05    -8.79694e-05       0.00278328       -0.440239     -0.000170474    -1.36219e-05
                    -0.000199914    -1.11597e-05        -0.900426        0.288701      -0.00017123    -1.50825e-05        0.0234588       -0.313157
281701.3               -0.343279        -0.27816      0.000127187    -0.000144275        -0.808269        0.379047     -9.99306e-05    -1.83757e-05
                     9.24522e-05     -0.00016509        -0.204291       -0.239777       0.00017414    -6.70158e-05        -0.900429        0.288776
                       -0.808282        0.379061      8.79098e-05     -8.7954e-05       0.00276404       -0.440244     -0.000170468    -1.36003e-05
                     -0.00019989    -1.11443e-05        -0.900416        0.288727     -0.000171147    -1.49357e-05        0.0234456       -0.313163
281701.4               -0.343287       -0.278157       0.00012718    -0.000144185        -0.808256        0.379072     -9.99351e-05    -1.83831e-05
                     9.24624e-05    -0.000165089        -0.204298       -0.239778      0.000174144    -6.71062e-05        -0.900418        0.288802
                       -0.808268        0.379084      8.79102e-05    -8.79386e-05       0.00274479       -0.440249     -0.000170462    -1.35788e-05
                    -0.000199866     -1.1129e-05        -0.900405        0.288753     -0.000171061    -1.47875e-05        0.0234324        -0.31317
281701.5               -0.343296       -0.278155      0.000127175    -0.000144094        -0.808243        0.379096     -9.99395e-05    -1.83904e-05
                     9.24725e-05    -0.000165089        -0.204305       -0.239779      0.000174149     -6.7197e-05        -0.900408        0.288828
                       -0.808255        0.379108      8.79104e-05    -8.79233e-05       0.00272555       -0.440254     -0.000170457    -1.35573e-05
                    -0.000199842    -1.11138e-05        -0.900395        0.288779     -0.000170975    -1.46378e-05        0.0234191       -0.313176
281701.6               -0.343304       -0.278152      0.000127173    -0.000144003        -0.808229         0.37912     -9.99439e-05    -1.83978e-05
                     9.24827e-05    -0.000165088        -0.204312        -0.23978      0.000174153    -6.72882e-05        -0.900398        0.288854
                       -0.808242        0.379131      8.79105e-05     -8.7908e-05       0.00270631       -0.440259     -0.000170451    -1.35359e-05
                    -0.000199818    -1.10987e-05        -0.900385        0.288805     -0.000170887    -1.44866e-05        0.0234059       -0.313183
281701.7               -0.343312        -0.27815      0.000127172    -0.000143912        -0.808216        0.379144     -9.99483e-05    -1.84051e-05
                     9.24928e-05    -0.000165088        -0.204319       -0.239781      0.000174158    -6.73798e-05        -0.900388         0.28888
                       -0.808229        0.379154      8.79104e-05    -8.78928e-05       0.00268706       -0.440264     -0.000170446    -1.35145e-05
                    -0.000199794    -1.10836e-05        -0.900375        0.288832     -0.000170798    -1.43339e-05        0.0233926       -0.313189
281701.8                -0.34332       -0.278147      0.000127174     -0.00014382        -0.808203        0.379168     -9.99526e-05    -1.84125e-05
                      9.2503e-05    -0.000165087        -0.204327       -0.239782      0.000174163    -6.74717e-05        -0.900377        0.288906
                       -0.808216        0.379177      8.79101e-05    -8.78777e-05       0.00266782       -0.440269      -0.00017044    -1.34932e-05
                     -0.00019977    -1.10686e-05        -0.900365        0.288858     -0.000170707    -1.41798e-05        0.0233794       -0.313196
281701.9               -0.343328       -0.278145      0.000127178    -0.000143729         -0.80819        0.379192     -9.99568e-05    -1.84198e-05
                     9.25132e-05    -0.000165087        -0.204334       -0.239783      0.000174169    -6.75641e-05        -0.900367        0.288932
                       -0.808203          0.3792      8.79097e-05    -8.78626e-05       0.00264857       -0.440274     -0.000170435    -1.34719e-05
                    -0.000199746    -1.10536e-05        -0.900354        0.288884     -0.000170615    -1.40241e-05        0.0233661       -0.313202
281702                 -0.343336       -0.278142      0.000127184    -0.000143638        -0.808177        0.379216      -9.9961e-05    -1.84272e-05
                     9.25234e-05    -0.000165086        -0.204341       -0.239784      0.000174175    -6.76568e-05        -0.900357        0.288958
                        -0.80819        0.379223      8.79091e-05    -8.78476e-05       0.00262933       -0.440278      -0.00017043    -1.34507e-05
                    -0.000199722    -1.10388e-05        -0.900344         0.28891     -0.000170521    -1.38668e-05        0.0233529       -0.313209
281702.1               -0.343344        -0.27814      0.000127191    -0.000143547        -0.808164         0.37924     -9.99651e-05    -1.84345e-05
                     9.25336e-05    -0.000165086        -0.204348       -0.239785       0.00017418    -6.77499e-05        -0.900347        0.288984
                       -0.808177        0.379246      8.79083e-05    -8.78326e-05       0.00261008       -0.440283     -0.000170424    -1.34296e-05
                    -0.000199698    -1.10239e-05        -0.900334        0.288936     -0.000170426    -1.37081e-05        0.0233396       -0.313215
281702.2               -0.343353       -0.278137      0.000127201    -0.000143457         -0.80815        0.379264     -9.99692e-05    -1.84419e-05
                     9.25438e-05    -0.000165085        -0.204355       -0.239786      0.000174187    -6.78435e-05        -0.900337        0.289009
                       -0.808163         0.37927      8.79074e-05    -8.78178e-05       0.00259083       -0.440288     -0.000170419    -1.34085e-05
                    -0.000199674    -1.10092e-05        -0.900324        0.288962     -0.000170329    -1.35478e-05        0.0233264       -0.313221
281702.3               -0.343361       -0.278135      0.000127214    -0.000143366        -0.808137        0.379288     -9.99732e-05    -1.84492e-05
                      9.2554e-05    -0.000165084        -0.204362       -0.239787      0.000174193    -6.79374e-05        -0.900326        0.289035
                        -0.80815        0.379293      8.79063e-05     -8.7803e-05       0.00257158       -0.440293     -0.000170414    -1.33875e-05
                    -0.000199651    -1.09945e-05        -0.900314        0.288989      -0.00017023    -1.33859e-05        0.0233131       -0.313228
281702.4               -0.343369       -0.278132      0.000127228    -0.000143276        -0.808124        0.379312     -9.99771e-05    -1.84565e-05
                     9.25642e-05    -0.000165084         -0.20437       -0.239788        0.0001742    -6.80317e-05        -0.900316        0.289061
                       -0.808137        0.379316       8.7905e-05    -8.77882e-05       0.00255233       -0.440298     -0.000170409    -1.33665e-05
                    -0.000199627      -1.098e-05        -0.900303        0.289015     -0.000170129    -1.32225e-05        0.0232999       -0.313234
281702.5               -0.343377        -0.27813      0.000127244    -0.000143187        -0.808111        0.379336      -9.9981e-05    -1.84639e-05
                     9.25745e-05    -0.000165083        -0.204377       -0.239789      0.000174207    -6.81265e-05        -0.900306        0.289087
                       -0.808124        0.379339      8.79035e-05    -8.77735e-05       0.00253308       -0.440303     -0.000170404    -1.33456e-05
                    -0.000199603    -1.09654e-05        -0.900293        0.289041     -0.000170027    -1.30575e-05        0.0232866       -0.313241
281702.6               -0.343385       -0.278127      0.000127263    -0.000143098        -0.808098         0.37936     -9.99849e-05    -1.84712e-05
                     9.25847e-05    -0.000165083        -0.204384        -0.23979      0.000174214    -6.82216e-05        -0.900296        0.289113
                       -0.808111        0.379362      8.79019e-05    -8.77589e-05       0.00251383       -0.440308     -0.000170398    -1.33248e-05
                    -0.000199579     -1.0951e-05        -0.900283        0.289067     -0.000169923     -1.2891e-05        0.0232733       -0.313247
281702.7               -0.343393       -0.278125      0.000127283    -0.000143009        -0.808085        0.379384     -9.99886e-05    -1.84785e-05
                      9.2595e-05    -0.000165082        -0.204391       -0.239792      0.000174222    -6.83172e-05        -0.900285        0.289139
                       -0.808098        0.379385         8.79e-05    -8.77444e-05       0.00249458       -0.440313     -0.000170393     -1.3304e-05
                    -0.000199555    -1.09366e-05        -0.900273        0.289093     -0.000169817    -1.27229e-05        0.0232601       -0.313254
281702.8               -0.343401       -0.278123      0.000127306    -0.000142921        -0.808071        0.379408     -9.99923e-05    -1.84858e-05
                     9.26053e-05    -0.000165082        -0.204398       -0.239793       0.00017423    -6.84132e-05        -0.900275        0.289165
                       -0.808085        0.379408       8.7898e-05      -8.773e-05       0.00247533       -0.440317     -0.000170388    -1.32833e-05
                    -0.000199531    -1.09223e-05        -0.900263        0.289119     -0.000169709    -1.25531e-05        0.0232468        -0.31326
281702.9                -0.34341        -0.27812      0.000127331    -0.000142834        -0.808058        0.379432      -9.9996e-05    -1.84931e-05
                     9.26156e-05    -0.000165081        -0.204406       -0.239794      0.000174238    -6.85097e-05        -0.900265        0.289191
                       -0.808072        0.379432      8.78958e-05    -8.77157e-05       0.00245608       -0.440322     -0.000170383    -1.32626e-05
                    -0.000199507    -1.09081e-05        -0.900252        0.289145     -0.000169599    -1.23818e-05        0.0232336       -0.313267
281703                 -0.343418       -0.278118      0.000127358    -0.000142748        -0.808045        0.379456     -9.99996e-05    -1.85005e-05
                     9.26258e-05     -0.00016508        -0.204413       -0.239795      0.000174246    -6.86065e-05        -0.900255        0.289217
                       -0.808058        0.379455      8.78935e-05    -8.77014e-05       0.00243682       -0.440327     -0.000170379     -1.3242e-05
                    -0.000199483    -1.08939e-05        -0.900242        0.289172     -0.000169487    -1.22089e-05        0.0232203       -0.313273
281703.1               -0.343426       -0.278115      0.000127387    -0.000142662        -0.808032         0.37948     -0.000100003    -1.85078e-05
                     9.26361e-05     -0.00016508         -0.20442       -0.239796      0.000174255    -6.87039e-05        -0.900244        0.289243
                       -0.808045        0.379478      8.78909e-05    -8.76872e-05       0.00241757       -0.440332     -0.000170374    -1.32215e-05
