! TOUCHSTONE file generated by CST MICROWAVE STUDIO
! Date and time: Wed Oct  8 07:06:12 2025
! Project name: Teste_Macro_Metasurface_Nanopilar.cst
! Parameters = {H=600; L_x=200; L_y=95; Lambda=1064; Max_L=200; Min_L=70; PathPara=1; Phi=0; Step_L=10; Theta=0; p=520; phaseX=180; phaseY=0}
! Header version: 2018
! Port assignment regex: !\s*Touchstone port\s*([0-9]+)\s*=\s*(CST MWS port|CST DS port)\s*([0-9]+|Zmin|Zmax)\s*\(\"(.*)\"\)(\s*mode\s*([0-9]+))?.*
! Touchstone port assignment:
! Touchstone port 1 = CST MWS port Zmax ("") mode 1
! Touchstone port 2 = CST MWS port Zmax ("") mode 2
! Touchstone port 3 = CST MWS port Zmin ("") mode 1
! Touchstone port 4 = CST MWS port Zmin ("") mode 2
! S-Parameters are not renormalized. Each port impedance will be approximated by the real part at minimum frequency. The values are described via the [Reference] keyword.
! Default impedance is overridden by [Reference]
[Version] 2.0
# GHz S RI R 376.73
[Number of Ports] 4
[Reference]
376.73 376.73 376.73 376.73 
[Number of Frequencies] 1001
[Network Data]
281700                 -0.149745       0.0230804      0.000190803    -0.000298915         0.653665        0.732611      -6.2478e-05    -0.000143937
                     0.000197407    -0.000417926        -0.566218        0.472803      0.000106378     0.000131451         -0.22607       -0.617076
                        0.653443        0.732674      7.83358e-05     4.00106e-05       -0.0422139        0.144687     -0.000378411    -2.01719e-05
                    -0.000535713    -4.24986e-05        -0.226155       -0.617258     -0.000490104    -0.000215567         -0.73599      -0.0252394
281700.1               -0.149739       0.0230833       0.00019081    -0.000298915          0.65369         0.73259     -6.24885e-05    -0.000143928
                     0.000197389    -0.000417922        -0.566199        0.472814      0.000106377      0.00013145        -0.226095       -0.617076
                        0.653468        0.732653      7.83474e-05     3.99919e-05       -0.0422066        0.144683     -0.000378417    -2.01612e-05
                    -0.000535651    -4.25931e-05        -0.226179       -0.617257     -0.000490109    -0.000215559        -0.735984      -0.0252078
281700.2               -0.149733       0.0230862      0.000190817    -0.000298915         0.653715        0.732569     -6.24989e-05     -0.00014392
                     0.000197372    -0.000417917         -0.56618        0.472826      0.000106376     0.000131449        -0.226119       -0.617075
                        0.653493        0.732632      7.83591e-05     3.99731e-05       -0.0421992         0.14468     -0.000378423    -2.01506e-05
                     -0.00053559    -4.26855e-05        -0.226204       -0.617257     -0.000490115    -0.000215552        -0.735979      -0.0251763
281700.3               -0.149728       0.0230892      0.000190825    -0.000298915         0.653739        0.732548     -6.25094e-05    -0.000143911
                     0.000197354    -0.000417913        -0.566161        0.472838      0.000106375     0.000131447        -0.226144       -0.617075
                        0.653518        0.732611      7.83707e-05     3.99544e-05       -0.0421919        0.144676     -0.000378429      -2.014e-05
                    -0.000535532    -4.27757e-05        -0.226229       -0.617257     -0.000490121    -0.000215544        -0.735973      -0.0251447
281700.4               -0.149722       0.0230921      0.000190832    -0.000298915         0.653764        0.732527     -6.25198e-05    -0.000143902
                     0.000197337    -0.000417908        -0.566142         0.47285      0.000106374     0.000131446        -0.226169       -0.617075
                        0.653543         0.73259      7.83824e-05     3.99357e-05       -0.0421846        0.144673     -0.000378436    -2.01293e-05
                    -0.000535475    -4.28636e-05        -0.226253       -0.617256     -0.000490127    -0.000215536        -0.735967      -0.0251132
281700.5               -0.149716        0.023095      0.000190839    -0.000298915         0.653789        0.732506     -6.25303e-05    -0.000143893
                      0.00019732    -0.000417904        -0.566123        0.472861      0.000106373     0.000131445        -0.226193       -0.617074
                        0.653568        0.732569       7.8394e-05      3.9917e-05       -0.0421773        0.144669     -0.000378442    -2.01187e-05
                    -0.000535421    -4.29493e-05        -0.226278       -0.617256     -0.000490133    -0.000215528        -0.735961      -0.0250816
281700.6                -0.14971       0.0230979      0.000190846    -0.000298915         0.653813        0.732485     -6.25407e-05    -0.000143884
                     0.000197303    -0.000417901        -0.566104        0.472873      0.000106372     0.000131443        -0.226218       -0.617074
                        0.653593        0.732548      7.84057e-05     3.98982e-05       -0.0421699        0.144666     -0.000378448    -2.01081e-05
                    -0.000535368    -4.30326e-05        -0.226303       -0.617255     -0.000490139    -0.000215521        -0.735955      -0.0250501
281700.7               -0.149704       0.0231008      0.000190853    -0.000298915         0.653838        0.732464     -6.25511e-05    -0.000143875
                     0.000197287    -0.000417897        -0.566085        0.472885      0.000106371     0.000131442        -0.226242       -0.617073
                        0.653618        0.732527      7.84173e-05     3.98795e-05       -0.0421626        0.144662     -0.000378454    -2.00974e-05
                    -0.000535318    -4.31135e-05        -0.226328       -0.617255     -0.000490145    -0.000215513        -0.735949      -0.0250186
281700.8               -0.149698       0.0231038       0.00019086    -0.000298915         0.653863        0.732443     -6.25616e-05    -0.000143866
                      0.00019727    -0.000417894        -0.566065        0.472897       0.00010637     0.000131441        -0.226267       -0.617073
                        0.653643        0.732506       7.8429e-05     3.98608e-05       -0.0421553        0.144659      -0.00037846    -2.00868e-05
                     -0.00053527     -4.3192e-05        -0.226352       -0.617255     -0.000490151    -0.000215505        -0.735943       -0.024987
281700.9               -0.149692       0.0231067      0.000190868    -0.000298915         0.653887        0.732422      -6.2572e-05    -0.000143857
                     0.000197254    -0.000417891        -0.566046        0.472908      0.000106369     0.000131439        -0.226292       -0.617073
                        0.653668        0.732485      7.84406e-05      3.9842e-05        -0.042148        0.144655     -0.000378467    -2.00762e-05
                    -0.000535223    -4.32681e-05        -0.226377       -0.617254     -0.000490157    -0.000215497        -0.735937      -0.0249555
281701                 -0.149686       0.0231096      0.000190875    -0.000298915         0.653912        0.732401     -6.25825e-05    -0.000143848
                     0.000197238    -0.000417888        -0.566027         0.47292      0.000106368     0.000131438        -0.226316       -0.617072
                        0.653693        0.732464      7.84523e-05     3.98233e-05       -0.0421407        0.144652     -0.000378473    -2.00655e-05
                    -0.000535179    -4.33416e-05        -0.226402       -0.617254     -0.000490163     -0.00021549        -0.735931      -0.0249239
281701.1                -0.14968       0.0231125      0.000190882    -0.000298915         0.653937         0.73238     -6.25929e-05    -0.000143839
                     0.000197223    -0.000417885        -0.566008        0.472932      0.000106367     0.000131437        -0.226341       -0.617072
                        0.653718        0.732443      7.84639e-05     3.98046e-05       -0.0421333        0.144648     -0.000378479    -2.00549e-05
                    -0.000535137    -4.34126e-05        -0.226426       -0.617254     -0.000490169    -0.000215482        -0.735925      -0.0248924
281701.2               -0.149675       0.0231154      0.000190889    -0.000298915         0.653962        0.732359     -6.26033e-05     -0.00014383
                     0.000197207    -0.000417883        -0.565989        0.472944      0.000106366     0.000131436        -0.226366       -0.617071
                        0.653743        0.732422      7.84755e-05     3.97858e-05        -0.042126        0.144645     -0.000378485    -2.00443e-05
                    -0.000535096    -4.34809e-05        -0.226451       -0.617253     -0.000490175    -0.000215474        -0.735919      -0.0248608
281701.3               -0.149669       0.0231183      0.000190896    -0.000298915         0.653986        0.732338     -6.26138e-05    -0.000143821
                     0.000197192     -0.00041788         -0.56597        0.472955      0.000106365     0.000131434         -0.22639       -0.617071
                        0.653768        0.732401      7.84872e-05     3.97671e-05       -0.0421187        0.144641     -0.000378491    -2.00336e-05
                    -0.000535058    -4.35466e-05        -0.226476       -0.617253     -0.000490181    -0.000215466        -0.735913      -0.0248293
281701.4               -0.149663       0.0231213      0.000190903    -0.000298915         0.654011        0.732317     -6.26242e-05    -0.000143813
                     0.000197177    -0.000417878        -0.565951        0.472967      0.000106364     0.000131433        -0.226415       -0.617071
                        0.653793         0.73238      7.84988e-05     3.97483e-05       -0.0421114        0.144637     -0.000378497     -2.0023e-05
                    -0.000535022    -4.36096e-05          -0.2265       -0.617253     -0.000490186    -0.000215459        -0.735907      -0.0247978
281701.5               -0.149657       0.0231242      0.000190911    -0.000298915         0.654036        0.732296     -6.26346e-05    -0.000143804
                     0.000197162    -0.000417877        -0.565931        0.472979      0.000106363     0.000131432         -0.22644        -0.61707
                        0.653818        0.732359      7.85105e-05     3.97296e-05        -0.042104        0.144634     -0.000378504    -2.00123e-05
                    -0.000534988    -4.36698e-05        -0.226525       -0.617252     -0.000490192    -0.000215451        -0.735901      -0.0247662
281701.6               -0.149651       0.0231271      0.000190918    -0.000298915          0.65406        0.732275     -6.26451e-05    -0.000143795
                     0.000197148    -0.000417875        -0.565912        0.472991      0.000106362      0.00013143        -0.226464        -0.61707
                        0.653843        0.732338      7.85221e-05     3.97108e-05       -0.0420967         0.14463      -0.00037851    -2.00017e-05
                    -0.000534956    -4.37273e-05         -0.22655       -0.617252     -0.000490198    -0.000215443        -0.735895      -0.0247347
281701.7               -0.149645         0.02313      0.000190925    -0.000298914         0.654085        0.732254     -6.26555e-05    -0.000143786
                     0.000197133    -0.000417874        -0.565893        0.473002      0.000106361     0.000131429        -0.226489       -0.617069
                        0.653868        0.732317      7.85338e-05     3.96921e-05       -0.0420894        0.144627     -0.000378516    -1.99911e-05
                    -0.000534926    -4.37818e-05        -0.226574       -0.617252     -0.000490204    -0.000215436        -0.735889      -0.0247031
281701.8               -0.149639       0.0231329      0.000190932    -0.000298914          0.65411        0.732233     -6.26659e-05    -0.000143777
                     0.000197119    -0.000417873        -0.565874        0.473014       0.00010636     0.000131428        -0.226514       -0.617069
                        0.653893        0.732296      7.85454e-05     3.96733e-05       -0.0420821        0.144623     -0.000378522    -1.99804e-05
                    -0.000534898    -4.38335e-05        -0.226599       -0.617251      -0.00049021    -0.000215428        -0.735883      -0.0246716
281701.9               -0.149633       0.0231358      0.000190939    -0.000298914         0.654134        0.732212     -6.26763e-05    -0.000143768
                     0.000197106    -0.000417872        -0.565855        0.473026      0.000106359     0.000131427        -0.226538       -0.617069
                        0.653918        0.732275       7.8557e-05     3.96546e-05       -0.0420747         0.14462     -0.000378528    -1.99698e-05
                    -0.000534872    -4.38822e-05        -0.226624       -0.617251     -0.000490216     -0.00021542        -0.735877      -0.0246401
281702                 -0.149627       0.0231387      0.000190947    -0.000298914         0.654159        0.732191     -6.26868e-05    -0.000143759
                     0.000197092    -0.000417872        -0.565836        0.473038      0.000106357     0.000131425        -0.226563       -0.617068
                        0.653943        0.732254      7.85687e-05     3.96358e-05       -0.0420674        0.144616     -0.000378534    -1.99591e-05
                    -0.000534849    -4.39279e-05        -0.226649        -0.61725     -0.000490222    -0.000215413        -0.735871      -0.0246085
281702.1               -0.149621       0.0231417      0.000190954    -0.000298914         0.654184         0.73217     -6.26972e-05     -0.00014375
                     0.000197079    -0.000417872        -0.565817        0.473049      0.000106356     0.000131424        -0.226588       -0.617068
                        0.653968        0.732233      7.85803e-05      3.9617e-05       -0.0420601        0.144613     -0.000378541    -1.99485e-05
                    -0.000534827    -4.39705e-05        -0.226673        -0.61725     -0.000490228    -0.000215405        -0.735865       -0.024577
281702.2               -0.149616       0.0231446      0.000190961    -0.000298914         0.654208        0.732149     -6.27076e-05    -0.000143741
                     0.000197066    -0.000417872        -0.565798        0.473061      0.000106355     0.000131423        -0.226612       -0.617067
                        0.653993        0.732212       7.8592e-05     3.95983e-05       -0.0420528        0.144609     -0.000378547    -1.99378e-05
                    -0.000534808    -4.40101e-05        -0.226698        -0.61725     -0.000490234    -0.000215397        -0.735859      -0.0245455
281702.3                -0.14961       0.0231475      0.000190968    -0.000298914         0.654233        0.732128      -6.2718e-05    -0.000143732
                     0.000197053    -0.000417873        -0.565778        0.473073      0.000106354     0.000131421        -0.226637       -0.617067
                        0.654018        0.732191      7.86036e-05     3.95795e-05       -0.0420455        0.144606     -0.000378553    -1.99272e-05
                     -0.00053479    -4.40464e-05        -0.226723       -0.617249      -0.00049024     -0.00021539        -0.735853      -0.0245139
281702.4               -0.149604       0.0231504      0.000190975    -0.000298914         0.654258        0.732107     -6.27284e-05    -0.000143723
                     0.000197041    -0.000417873        -0.565759        0.473085      0.000106353      0.00013142        -0.226662       -0.617067
                        0.654043         0.73217      7.86153e-05     3.95607e-05       -0.0420381        0.144602     -0.000378559    -1.99165e-05
                    -0.000534775    -4.40796e-05        -0.226747       -0.617249     -0.000490246    -0.000215382        -0.735847      -0.0244824
281702.5               -0.149598       0.0231533      0.000190983    -0.000298914         0.654283        0.732086     -6.27388e-05    -0.000143714
                     0.000197028    -0.000417874         -0.56574        0.473096      0.000106352     0.000131419        -0.226686       -0.617066
                        0.654068        0.732149      7.86269e-05      3.9542e-05       -0.0420308        0.144599     -0.000378565    -1.99059e-05
                    -0.000534762    -4.41095e-05        -0.226772       -0.617249     -0.000490252    -0.000215374        -0.735841      -0.0244509
281702.6               -0.149592       0.0231562       0.00019099    -0.000298914         0.654307        0.732065     -6.27493e-05    -0.000143705
                     0.000197016    -0.000417876        -0.565721        0.473108      0.000106351     0.000131417        -0.226711       -0.617066
                        0.654093        0.732128      7.86385e-05     3.95232e-05       -0.0420235        0.144595     -0.000378572    -1.98952e-05
                    -0.000534751    -4.41361e-05        -0.226797       -0.617248     -0.000490258    -0.000215367        -0.735835      -0.0244194
281702.7               -0.149586       0.0231591      0.000190997    -0.000298914         0.654332        0.732044     -6.27597e-05    -0.000143696
                     0.000197005    -0.000417877        -0.565702         0.47312       0.00010635     0.000131416        -0.226736       -0.617065
                        0.654118        0.732107      7.86502e-05     3.95044e-05       -0.0420162        0.144591     -0.000378578    -1.98846e-05
                    -0.000534743    -4.41593e-05        -0.226821       -0.617248     -0.000490264    -0.000215359        -0.735829      -0.0243878
281702.8                -0.14958        0.023162      0.000191004    -0.000298914         0.654357        0.732024     -6.27701e-05    -0.000143687
                     0.000196994    -0.000417879        -0.565683        0.473132      0.000106349     0.000131415         -0.22676       -0.617065
                        0.654143        0.732085      7.86618e-05     3.94856e-05       -0.0420089        0.144588     -0.000378584    -1.98739e-05
                    -0.000534736    -4.41791e-05        -0.226846       -0.617247     -0.000490269    -0.000215351        -0.735823      -0.0243563
281702.9               -0.149574        0.023165      0.000191012    -0.000298914         0.654381        0.732003     -6.27805e-05    -0.000143678
                     0.000196982    -0.000417882        -0.565664        0.473143      0.000106348     0.000131414        -0.226785       -0.617064
                        0.654168        0.732064      7.86735e-05     3.94668e-05       -0.0420015        0.144584      -0.00037859    -1.98633e-05
                    -0.000534732    -4.41955e-05        -0.226871       -0.617247     -0.000490275    -0.000215344        -0.735817      -0.0243248
281703                 -0.149568       0.0231679      0.000191019    -0.000298914         0.654406        0.731982     -6.27909e-05    -0.000143669
                     0.000196972    -0.000417884        -0.565644        0.473155      0.000106347     0.000131412         -0.22681       -0.617064
                        0.654193        0.732043      7.86851e-05     3.94481e-05       -0.0419942        0.144581     -0.000378596    -1.98526e-05
                     -0.00053473    -4.42083e-05        -0.226896       -0.617247     -0.000490281    -0.000215336        -0.735811      -0.0242932
281703.1               -0.149562       0.0231708      0.000191026    -0.000298914         0.654431        0.731961     -6.28013e-05     -0.00014366
                     0.000196961    -0.000417887        -0.565625        0.473167      0.000106346     0.000131411        -0.226834       -0.617064
                        0.654218        0.732022      7.86967e-05     3.94293e-05       -0.0419869        0.144577     -0.000378602     -1.9842e-05
