! TOUCHSTONE file generated by CST MICROWAVE STUDIO
! Date and time: Wed Oct  8 06:54:50 2025
! Project name: Teste_Macro_Metasurface_Nanopilar.cst
! Parameters = {H=600; L_x=105; L_y=95; Lambda=1064; Max_L=200; Min_L=70; PathPara=1; Phi=0; Step_L=10; Theta=0; p=520; phaseX=180; phaseY=0}
! Header version: 2018
! Port assignment regex: !\s*Touchstone port\s*([0-9]+)\s*=\s*(CST MWS port|CST DS port)\s*([0-9]+|Zmin|Zmax)\s*\(\"(.*)\"\)(\s*mode\s*([0-9]+))?.*
! Touchstone port assignment:
! Touchstone port 1 = CST MWS port Zmax ("") mode 1
! Touchstone port 2 = CST MWS port Zmax ("") mode 2
! Touchstone port 3 = CST MWS port Zmin ("") mode 1
! Touchstone port 4 = CST MWS port Zmin ("") mode 2
! S-Parameters are not renormalized. Each port impedance will be approximated by the real part at minimum frequency. The values are described via the [Reference] keyword.
! Default impedance is overridden by [Reference]
[Version] 2.0
# GHz S RI R 376.73
[Number of Ports] 4
[Reference]
376.73 376.73 376.73 376.73 
[Number of Frequencies] 1001
[Network Data]
281700                 0.0139932       -0.151044     -8.74579e-07      0.00097208        -0.705726        0.689778     -0.000362038    -0.000164067
                    -2.55949e-05      0.00102024        -0.100845       -0.173326     -0.000222285    -7.83966e-05         -0.48028        0.850941
                       -0.705815        0.689773     -0.000243153    -5.60026e-05        -0.151713       0.0110375      0.000957695     -0.00015827
                    -0.000233276     -6.1143e-05         -0.48022        0.850758      0.000936956    -0.000346528        -0.201073      0.00394664
281700.1               0.0139864       -0.151045     -8.57569e-07     0.000972076        -0.705707        0.689797     -0.000362042    -0.000164064
                     -2.5571e-05      0.00102025        -0.100852       -0.173322     -0.000222291    -7.83891e-05        -0.480256        0.850954
                       -0.705796        0.689792     -0.000243145    -5.60009e-05        -0.151713        0.011039      0.000957689    -0.000158287
                    -0.000233274    -6.11404e-05        -0.480196        0.850771      0.000936948    -0.000346552        -0.201073      0.00395022
281700.2               0.0139796       -0.151045      -8.4056e-07     0.000972072        -0.705688        0.689817     -0.000362045     -0.00016406
                    -2.55472e-05      0.00102026        -0.100859       -0.173319     -0.000222298    -7.83817e-05        -0.480232        0.850968
                       -0.705777        0.689812     -0.000243136    -5.59992e-05        -0.151713       0.0110405      0.000957683    -0.000158305
                    -0.000233272    -6.11378e-05        -0.480172        0.850784       0.00093694    -0.000346576        -0.201073       0.0039538
281700.3               0.0139727       -0.151046     -8.23551e-07     0.000972068        -0.705669        0.689836     -0.000362048    -0.000164057
                    -2.55234e-05      0.00102026        -0.100866       -0.173315     -0.000222304    -7.83742e-05        -0.480208        0.850981
                       -0.705758        0.689831     -0.000243128    -5.59975e-05        -0.151713       0.0110419      0.000957677    -0.000158323
                     -0.00023327    -6.11353e-05        -0.480148        0.850798      0.000936931      -0.0003466        -0.201074      0.00395738
281700.4               0.0139659       -0.151047     -8.06543e-07     0.000972064         -0.70565        0.689855     -0.000362052    -0.000164054
                    -2.54996e-05      0.00102027        -0.100873       -0.173312      -0.00022231    -7.83668e-05        -0.480184        0.850995
                       -0.705739         0.68985      -0.00024312    -5.59957e-05        -0.151713       0.0110434       0.00095767    -0.000158341
                    -0.000233268    -6.11327e-05        -0.480124        0.850811      0.000936923    -0.000346624        -0.201074      0.00396096
281700.5                0.013959       -0.151048     -7.89535e-07      0.00097206        -0.705631        0.689875     -0.000362055    -0.000164051
                    -2.54758e-05      0.00102028         -0.10088       -0.173308     -0.000222317    -7.83593e-05         -0.48016        0.851008
                        -0.70572         0.68987     -0.000243111     -5.5994e-05        -0.151713       0.0110448      0.000957664    -0.000158358
                    -0.000233267    -6.11301e-05          -0.4801        0.850825      0.000936914    -0.000346648        -0.201074      0.00396454
281700.6               0.0139522       -0.151048     -7.72527e-07     0.000972056        -0.705612        0.689894     -0.000362058    -0.000164048
                     -2.5452e-05      0.00102029        -0.100886       -0.173305     -0.000222323    -7.83519e-05        -0.480136        0.851022
                       -0.705701        0.689889     -0.000243103    -5.59923e-05        -0.151713       0.0110463      0.000957658    -0.000158376
                    -0.000233265    -6.11276e-05        -0.480076        0.850838      0.000936906    -0.000346672        -0.201075      0.00396812
281700.7               0.0139453       -0.151049      -7.5552e-07     0.000972052        -0.705593        0.689914     -0.000362062    -0.000164045
                    -2.54281e-05       0.0010203        -0.100893       -0.173301     -0.000222329    -7.83444e-05        -0.480112        0.851035
                       -0.705682        0.689909     -0.000243095    -5.59906e-05        -0.151713       0.0110478      0.000957652    -0.000158394
                    -0.000233263     -6.1125e-05        -0.480052        0.850852      0.000936898    -0.000346696        -0.201075       0.0039717
281700.8               0.0139385        -0.15105     -7.38513e-07     0.000972048        -0.705574        0.689933     -0.000362065    -0.000164042
                    -2.54043e-05       0.0010203          -0.1009       -0.173298     -0.000222335    -7.83369e-05        -0.480088        0.851049
                       -0.705663        0.689928     -0.000243086    -5.59889e-05        -0.151713       0.0110492      0.000957646    -0.000158412
                    -0.000233261    -6.11224e-05        -0.480028        0.850865      0.000936889    -0.000346719        -0.201075      0.00397528
281700.9               0.0139317       -0.151051     -7.21506e-07     0.000972044        -0.705555        0.689952     -0.000362068    -0.000164038
                    -2.53805e-05      0.00102031        -0.100907       -0.173294     -0.000222342    -7.83295e-05        -0.480064        0.851062
                       -0.705644        0.689947     -0.000243078    -5.59872e-05        -0.151713       0.0110507      0.000957639     -0.00015843
                    -0.000233259    -6.11198e-05        -0.480004        0.850878      0.000936881    -0.000346743        -0.201076      0.00397886
281701                 0.0139248       -0.151051       -7.045e-07      0.00097204        -0.705536        0.689972     -0.000362072    -0.000164035
                    -2.53567e-05      0.00102032        -0.100914        -0.17329     -0.000222348     -7.8322e-05         -0.48004        0.851075
                       -0.705625        0.689967      -0.00024307    -5.59855e-05        -0.151713       0.0110522      0.000957633    -0.000158447
                    -0.000233257    -6.11173e-05         -0.47998        0.850892      0.000936872    -0.000346767        -0.201076      0.00398245
281701.1                0.013918       -0.151052     -6.87494e-07     0.000972036        -0.705517        0.689991     -0.000362075    -0.000164032
                    -2.53329e-05      0.00102033        -0.100921       -0.173287     -0.000222354    -7.83146e-05        -0.480016        0.851089
                       -0.705606        0.689986     -0.000243061    -5.59837e-05        -0.151713       0.0110536      0.000957627    -0.000158465
                    -0.000233255    -6.11147e-05        -0.479956        0.850905      0.000936864    -0.000346791        -0.201076      0.00398603
281701.2               0.0139111       -0.151053     -6.70489e-07     0.000972032        -0.705498         0.69001     -0.000362078    -0.000164029
                     -2.5309e-05      0.00102033        -0.100928       -0.173283     -0.000222361    -7.83071e-05        -0.479992        0.851102
                       -0.705587        0.690005     -0.000243053     -5.5982e-05        -0.151714       0.0110551      0.000957621    -0.000158483
                    -0.000233253    -6.11121e-05        -0.479932        0.850919      0.000936855    -0.000346815        -0.201077      0.00398961
281701.3               0.0139043       -0.151054     -6.53483e-07     0.000972028        -0.705479         0.69003     -0.000362082    -0.000164026
                    -2.52852e-05      0.00102034        -0.100935        -0.17328     -0.000222367    -7.82996e-05        -0.479968        0.851116
                       -0.705568        0.690025     -0.000243045    -5.59803e-05        -0.151714       0.0110566      0.000957615    -0.000158501
                    -0.000233251    -6.11096e-05        -0.479908        0.850932      0.000936847    -0.000346839        -0.201077      0.00399319
281701.4               0.0138974       -0.151055     -6.36479e-07     0.000972024         -0.70546        0.690049     -0.000362085    -0.000164023
                    -2.52614e-05      0.00102035        -0.100941       -0.173276     -0.000222373    -7.82922e-05        -0.479944        0.851129
                       -0.705549        0.690044     -0.000243036    -5.59786e-05        -0.151714        0.011058      0.000957608    -0.000158519
                     -0.00023325     -6.1107e-05        -0.479884        0.850946      0.000936839    -0.000346863        -0.201077      0.00399677
281701.5               0.0138906       -0.151055     -6.19474e-07      0.00097202        -0.705441        0.690069     -0.000362088    -0.000164019
                    -2.52376e-05      0.00102036        -0.100948       -0.173273     -0.000222379    -7.82847e-05         -0.47992        0.851143
                        -0.70553        0.690064     -0.000243028    -5.59769e-05        -0.151714       0.0110595      0.000957602    -0.000158536
                    -0.000233248    -6.11044e-05         -0.47986        0.850959       0.00093683    -0.000346887        -0.201078      0.00400035
281701.6               0.0138838       -0.151056      -6.0247e-07     0.000972016        -0.705422        0.690088     -0.000362092    -0.000164016
                    -2.52137e-05      0.00102037        -0.100955       -0.173269     -0.000222386    -7.82772e-05        -0.479896        0.851156
                       -0.705511        0.690083      -0.00024302    -5.59752e-05        -0.151714       0.0110609      0.000957596    -0.000158554
                    -0.000233246    -6.11019e-05        -0.479836        0.850972      0.000936822     -0.00034691        -0.201078      0.00400393
281701.7               0.0138769       -0.151057     -5.85467e-07     0.000972012        -0.705403        0.690107     -0.000362095    -0.000164013
                    -2.51899e-05      0.00102037        -0.100962       -0.173266     -0.000222392    -7.82698e-05        -0.479872         0.85117
                       -0.705492        0.690102     -0.000243011    -5.59735e-05        -0.151714       0.0110624       0.00095759    -0.000158572
                    -0.000233244    -6.10993e-05        -0.479812        0.850986      0.000936813    -0.000346934        -0.201078      0.00400751
281701.8               0.0138701       -0.151058     -5.68463e-07     0.000972008        -0.705384        0.690127     -0.000362098     -0.00016401
                    -2.51661e-05      0.00102038        -0.100969       -0.173262     -0.000222398    -7.82623e-05        -0.479848        0.851183
                       -0.705473        0.690122     -0.000243003    -5.59718e-05        -0.151714       0.0110639      0.000957584     -0.00015859
                    -0.000233242    -6.10967e-05        -0.479788        0.850999      0.000936805    -0.000346958        -0.201079      0.00401109
281701.9               0.0138632       -0.151058      -5.5146e-07     0.000972004        -0.705365        0.690146     -0.000362102    -0.000164007
                    -2.51423e-05      0.00102039        -0.100976       -0.173259     -0.000222405    -7.82548e-05        -0.479824        0.851197
                       -0.705454        0.690141     -0.000242995      -5.597e-05        -0.151714       0.0110653      0.000957577    -0.000158607
                     -0.00023324    -6.10942e-05        -0.479764        0.851013      0.000936796    -0.000346982        -0.201079      0.00401467
281702                 0.0138564       -0.151059     -5.34458e-07        0.000972        -0.705346        0.690165     -0.000362105    -0.000164004
                    -2.51184e-05       0.0010204        -0.100983       -0.173255     -0.000222411    -7.82473e-05          -0.4798         0.85121
                       -0.705435         0.69016     -0.000242986    -5.59683e-05        -0.151714       0.0110668      0.000957571    -0.000158625
                    -0.000233238    -6.10916e-05         -0.47974        0.851026      0.000936788    -0.000347006        -0.201079      0.00401825
281702.1               0.0138495        -0.15106     -5.17456e-07     0.000971996        -0.705327        0.690185     -0.000362108    -0.000164001
                    -2.50946e-05       0.0010204        -0.100989       -0.173252     -0.000222417    -7.82399e-05        -0.479776        0.851223
                       -0.705416         0.69018     -0.000242978    -5.59666e-05        -0.151714       0.0110683      0.000957565    -0.000158643
                    -0.000233236     -6.1089e-05        -0.479716         0.85104       0.00093678     -0.00034703        -0.201079      0.00402184
281702.2               0.0138427       -0.151061     -5.00454e-07     0.000971992        -0.705308        0.690204     -0.000362112    -0.000163997
                    -2.50708e-05      0.00102041        -0.100996       -0.173248     -0.000222424    -7.82324e-05        -0.479752        0.851237
                       -0.705397        0.690199      -0.00024297    -5.59649e-05        -0.151714       0.0110697      0.000957559    -0.000158661
                    -0.000233235    -6.10865e-05        -0.479692        0.851053      0.000936771    -0.000347054         -0.20108      0.00402542
281702.3               0.0138359       -0.151061     -4.83453e-07     0.000971988        -0.705289        0.690224     -0.000362115    -0.000163994
                     -2.5047e-05      0.00102042        -0.101003       -0.173244      -0.00022243    -7.82249e-05        -0.479728         0.85125
                       -0.705378        0.690218     -0.000242961    -5.59632e-05        -0.151714       0.0110712      0.000957553    -0.000158679
                    -0.000233233    -6.10839e-05        -0.479668        0.851066      0.000936763    -0.000347078         -0.20108        0.004029
281702.4                0.013829       -0.151062     -4.66451e-07     0.000971984         -0.70527        0.690243     -0.000362118    -0.000163991
                    -2.50231e-05      0.00102043         -0.10101       -0.173241     -0.000222436    -7.82174e-05        -0.479704        0.851264
                       -0.705359        0.690238     -0.000242953    -5.59615e-05        -0.151714       0.0110726      0.000957546    -0.000158696
                    -0.000233231    -6.10813e-05        -0.479644         0.85108      0.000936754    -0.000347101         -0.20108      0.00403258
281702.5               0.0138222       -0.151063     -4.49451e-07      0.00097198        -0.705251        0.690262     -0.000362122    -0.000163988
                    -2.49993e-05      0.00102044        -0.101017       -0.173237     -0.000222442    -7.82099e-05         -0.47968        0.851277
                        -0.70534        0.690257     -0.000242945    -5.59598e-05        -0.151714       0.0110741       0.00095754    -0.000158714
                    -0.000233229    -6.10787e-05         -0.47962        0.851093      0.000936746    -0.000347125        -0.201081      0.00403616
281702.6               0.0138153       -0.151064      -4.3245e-07     0.000971977        -0.705232        0.690282     -0.000362125    -0.000163985
                    -2.49755e-05      0.00102044        -0.101024       -0.173234     -0.000222449    -7.82024e-05        -0.479656        0.851291
                       -0.705321        0.690277     -0.000242936    -5.59581e-05        -0.151714       0.0110756      0.000957534    -0.000158732
                    -0.000233227    -6.10762e-05        -0.479596        0.851107      0.000936737    -0.000347149        -0.201081      0.00403974
281702.7               0.0138085       -0.151065      -4.1545e-07     0.000971973        -0.705213        0.690301     -0.000362128    -0.000163982
                    -2.49517e-05      0.00102045        -0.101031        -0.17323     -0.000222455     -7.8195e-05        -0.479632        0.851304
                       -0.705302        0.690296     -0.000242928    -5.59564e-05        -0.151714        0.011077      0.000957528     -0.00015875
                    -0.000233225    -6.10736e-05        -0.479572         0.85112      0.000936729    -0.000347173        -0.201081      0.00404332
281702.8               0.0138016       -0.151065     -3.98451e-07     0.000971969        -0.705194         0.69032     -0.000362132    -0.000163978
                    -2.49278e-05      0.00102046        -0.101038       -0.173227     -0.000222461    -7.81875e-05        -0.479608        0.851317
                       -0.705283        0.690315      -0.00024292    -5.59546e-05        -0.151714       0.0110785      0.000957522    -0.000158768
                    -0.000233223     -6.1071e-05        -0.479548        0.851134       0.00093672    -0.000347197        -0.201082       0.0040469
281702.9               0.0137948       -0.151066     -3.81452e-07     0.000971965        -0.705175         0.69034     -0.000362135    -0.000163975
                     -2.4904e-05      0.00102047        -0.101044       -0.173223     -0.000222468      -7.818e-05        -0.479584        0.851331
                       -0.705264        0.690335     -0.000242911    -5.59529e-05        -0.151714         0.01108      0.000957515    -0.000158785
                    -0.000233221    -6.10685e-05        -0.479524        0.851147      0.000936712    -0.000347221        -0.201082      0.00405049
281703                  0.013788       -0.151067     -3.64453e-07     0.000971961        -0.705156        0.690359     -0.000362139    -0.000163972
                    -2.48802e-05      0.00102047        -0.101051        -0.17322     -0.000222474    -7.81725e-05         -0.47956        0.851344
                       -0.705245        0.690354     -0.000242903    -5.59512e-05        -0.151714       0.0110814      0.000957509    -0.000158803
                    -0.000233219    -6.10659e-05          -0.4795         0.85116      0.000936704    -0.000347245        -0.201082      0.00405407
281703.1               0.0137811       -0.151068     -3.47454e-07     0.000971957        -0.705137        0.690378     -0.000362142    -0.000163969
                    -2.48563e-05      0.00102048        -0.101058       -0.173216      -0.00022248     -7.8165e-05        -0.479536        0.851358
                       -0.705226        0.690373     -0.000242894    -5.59495e-05        -0.151714       0.0110829      0.000957503    -0.000158821
