! TOUCHSTONE file generated by CST MICROWAVE STUDIO
! Date and time: Wed Oct  8 06:53:42 2025
! Project name: Teste_Macro_Metasurface_Nanopilar.cst
! Parameters = {H=600; L_x=95; L_y=105; Lambda=1064; Max_L=200; Min_L=70; PathPara=1; Phi=0; Step_L=10; Theta=0; p=520; phaseX=180; phaseY=0}
! Header version: 2018
! Port assignment regex: !\s*Touchstone port\s*([0-9]+)\s*=\s*(CST MWS port|CST DS port)\s*([0-9]+|Zmin|Zmax)\s*\(\"(.*)\"\)(\s*mode\s*([0-9]+))?.*
! Touchstone port assignment:
! Touchstone port 1 = CST MWS port Zmax ("") mode 1
! Touchstone port 2 = CST MWS port Zmax ("") mode 2
! Touchstone port 3 = CST MWS port Zmin ("") mode 1
! Touchstone port 4 = CST MWS port Zmin ("") mode 2
! S-Parameters are not renormalized. Each port impedance will be approximated by the real part at minimum frequency. The values are described via the [Reference] keyword.
! Default impedance is overridden by [Reference]
[Version] 2.0
# GHz S RI R 376.73
[Number of Ports] 4
[Reference]
376.73 376.73 376.73 376.73 
[Number of Frequencies] 1001
[Network Data]
281700                 -0.104643       -0.173502     -0.000259474    -2.96536e-05        -0.478726        0.851483     -0.000322236    -0.000153295
                    -0.000176938    -7.36666e-05        0.0110619       -0.149423      -0.00022995    -0.000337211        -0.704594        0.691308
                       -0.478768        0.851357       6.4635e-05    -0.000686372        -0.203097      0.00147361     -0.000393183    -0.000384471
                    -0.000361967    -0.000233807        -0.704363        0.691311     -0.000128745    -0.000256073        -0.149991      0.00878329
281700.1                -0.10465       -0.173498     -0.000259475    -2.96452e-05        -0.478702        0.851496     -0.000322238    -0.000153286
                    -0.000176934    -7.36615e-05        0.0110551       -0.149424      -0.00022996    -0.000337206        -0.704575        0.691327
                       -0.478744        0.851371      6.45965e-05    -0.000686438        -0.203098      0.00147728     -0.000393208    -0.000384464
                    -0.000361982    -0.000233798        -0.704344        0.691331     -0.000128751    -0.000256071        -0.149991      0.00878471
281700.2               -0.104657       -0.173495     -0.000259476    -2.96368e-05        -0.478678        0.851509     -0.000322239    -0.000153278
                    -0.000176929    -7.36563e-05        0.0110483       -0.149424      -0.00022997    -0.000337202        -0.704556        0.691346
                        -0.47872        0.851384       6.4558e-05    -0.000686505        -0.203098      0.00148096     -0.000393233    -0.000384458
                    -0.000361998    -0.000233789        -0.704325         0.69135     -0.000128756    -0.000256069        -0.149992      0.00878613
281700.3               -0.104664       -0.173491     -0.000259477    -2.96285e-05        -0.478654        0.851523     -0.000322241    -0.000153269
                    -0.000176924    -7.36512e-05        0.0110415       -0.149425      -0.00022998    -0.000337197        -0.704537        0.691366
                       -0.478696        0.851397      6.45195e-05    -0.000686571        -0.203099      0.00148464     -0.000393258    -0.000384452
                    -0.000362013     -0.00023378        -0.704306        0.691369     -0.000128761    -0.000256067        -0.149992      0.00878755
281700.4               -0.104671       -0.173488     -0.000259477    -2.96201e-05         -0.47863        0.851536     -0.000322243     -0.00015326
                     -0.00017692    -7.36461e-05        0.0110348       -0.149426      -0.00022999    -0.000337192        -0.704518        0.691385
                       -0.478672        0.851411       6.4481e-05    -0.000686637        -0.203099      0.00148831     -0.000393283    -0.000384446
                    -0.000362028    -0.000233771        -0.704287        0.691389     -0.000128767    -0.000256065        -0.149992      0.00878897
281700.5               -0.104678       -0.173484     -0.000259478    -2.96118e-05        -0.478606         0.85155     -0.000322245    -0.000153252
                    -0.000176915     -7.3641e-05         0.011028       -0.149426         -0.00023    -0.000337187        -0.704499        0.691404
                       -0.478648        0.851424      6.44424e-05    -0.000686703        -0.203099      0.00149199     -0.000393308     -0.00038444
                    -0.000362043    -0.000233762        -0.704268        0.691408     -0.000128772    -0.000256063        -0.149992      0.00879039
281700.6               -0.104685        -0.17348     -0.000259479    -2.96034e-05        -0.478582        0.851563     -0.000322246    -0.000153243
                    -0.000176911    -7.36358e-05        0.0110212       -0.149427      -0.00023001    -0.000337182         -0.70448        0.691424
                       -0.478624        0.851438      6.44038e-05     -0.00068677          -0.2031      0.00149567     -0.000393333    -0.000384434
                    -0.000362059    -0.000233753        -0.704249        0.691427     -0.000128777    -0.000256061        -0.149992      0.00879181
281700.7               -0.104691       -0.173477      -0.00025948     -2.9595e-05        -0.478558        0.851576     -0.000322248    -0.000153235
                    -0.000176906    -7.36307e-05        0.0110144       -0.149428      -0.00023002    -0.000337177        -0.704461        0.691443
                         -0.4786        0.851451      6.43653e-05    -0.000686836          -0.2031      0.00149934     -0.000393358    -0.000384427
                    -0.000362074    -0.000233744         -0.70423        0.691446     -0.000128783    -0.000256059        -0.149992      0.00879323
281700.8               -0.104698       -0.173473     -0.000259481    -2.95867e-05        -0.478534         0.85159      -0.00032225    -0.000153226
                    -0.000176901    -7.36256e-05        0.0110076       -0.149429      -0.00023003    -0.000337172        -0.704442        0.691462
                       -0.478576        0.851464      6.43266e-05    -0.000686902        -0.203101      0.00150302     -0.000393383    -0.000384421
                    -0.000362089    -0.000233735        -0.704211        0.691466     -0.000128788    -0.000256057        -0.149992      0.00879465
281700.9               -0.104705        -0.17347     -0.000259482    -2.95783e-05         -0.47851        0.851603     -0.000322252    -0.000153217
                    -0.000176897    -7.36204e-05        0.0110008       -0.149429      -0.00023004    -0.000337167        -0.704423        0.691482
                       -0.478552        0.851478       6.4288e-05    -0.000686969        -0.203101       0.0015067     -0.000393409    -0.000384415
                    -0.000362104    -0.000233726        -0.704192        0.691485     -0.000128794    -0.000256055        -0.149992      0.00879607
281701                 -0.104712       -0.173466     -0.000259483      -2.957e-05        -0.478486        0.851616     -0.000322253    -0.000153209
                    -0.000176892    -7.36153e-05         0.010994        -0.14943      -0.00023005    -0.000337162        -0.704404        0.691501
                       -0.478528        0.851491      6.42494e-05    -0.000687035        -0.203102      0.00151038     -0.000393434    -0.000384409
                     -0.00036212    -0.000233717        -0.704173        0.691504     -0.000128799    -0.000256053        -0.149992      0.00879749
281701.1               -0.104719       -0.173462     -0.000259484    -2.95616e-05        -0.478462         0.85163     -0.000322255      -0.0001532
                    -0.000176888    -7.36102e-05        0.0109872       -0.149431      -0.00023006    -0.000337158        -0.704385         0.69152
                       -0.478504        0.851504      6.42107e-05    -0.000687101        -0.203102      0.00151405     -0.000393459    -0.000384403
                    -0.000362135    -0.000233708        -0.704154        0.691524     -0.000128804    -0.000256051        -0.149993      0.00879891
281701.2               -0.104726       -0.173459     -0.000259484    -2.95533e-05        -0.478438        0.851643     -0.000322257    -0.000153192
                    -0.000176883    -7.36051e-05        0.0109804       -0.149431      -0.00023007    -0.000337153        -0.704366         0.69154
                        -0.47848        0.851518       6.4172e-05    -0.000687168        -0.203102      0.00151773     -0.000393484    -0.000384396
                     -0.00036215    -0.000233699        -0.704135        0.691543      -0.00012881    -0.000256049        -0.149993      0.00880033
281701.3               -0.104733       -0.173455     -0.000259485    -2.95449e-05        -0.478414        0.851657     -0.000322259    -0.000153183
                    -0.000176879       -7.36e-05        0.0109736       -0.149432      -0.00023008    -0.000337148        -0.704347        0.691559
                       -0.478456        0.851531      6.41334e-05    -0.000687234        -0.203103      0.00152141     -0.000393509     -0.00038439
                    -0.000362165     -0.00023369        -0.704116        0.691562     -0.000128815    -0.000256047        -0.149993      0.00880174
281701.4                -0.10474       -0.173452     -0.000259486    -2.95366e-05         -0.47839         0.85167      -0.00032226    -0.000153174
                    -0.000176874    -7.35948e-05        0.0109668       -0.149433      -0.00023009    -0.000337143        -0.704328        0.691578
                       -0.478432        0.851545      6.40946e-05      -0.0006873        -0.203103      0.00152508     -0.000393534    -0.000384384
                    -0.000362181    -0.000233681        -0.704097        0.691581     -0.000128821    -0.000256045        -0.149993      0.00880316
281701.5               -0.104746       -0.173448     -0.000259487    -2.95282e-05        -0.478365        0.851683     -0.000322262    -0.000153166
                    -0.000176869    -7.35897e-05        0.0109601       -0.149434       -0.0002301    -0.000337138        -0.704309        0.691598
                       -0.478408        0.851558      6.40559e-05    -0.000687367        -0.203104      0.00152876     -0.000393559    -0.000384378
                    -0.000362196    -0.000233672        -0.704078        0.691601     -0.000128826    -0.000256043        -0.149993      0.00880458
281701.6               -0.104753       -0.173444     -0.000259488    -2.95198e-05        -0.478341        0.851697     -0.000322264    -0.000153157
                    -0.000176865    -7.35846e-05        0.0109533       -0.149434      -0.00023011    -0.000337133         -0.70429        0.691617
                       -0.478384        0.851571      6.40172e-05    -0.000687433        -0.203104      0.00153244     -0.000393584    -0.000384372
                    -0.000362211    -0.000233663        -0.704059         0.69162     -0.000128831    -0.000256041        -0.149993        0.008806
281701.7                -0.10476       -0.173441     -0.000259489    -2.95115e-05        -0.478317         0.85171     -0.000322265    -0.000153149
                     -0.00017686    -7.35795e-05        0.0109465       -0.149435      -0.00023012    -0.000337128         -0.70427        0.691636
                        -0.47836        0.851585      6.39784e-05    -0.000687499        -0.203105      0.00153611     -0.000393609    -0.000384365
                    -0.000362226    -0.000233654         -0.70404        0.691639     -0.000128837    -0.000256039        -0.149993      0.00880742
281701.8               -0.104767       -0.173437      -0.00025949    -2.95031e-05        -0.478293        0.851724     -0.000322267     -0.00015314
                    -0.000176856    -7.35744e-05        0.0109397       -0.149436      -0.00023013    -0.000337123        -0.704251        0.691656
                       -0.478336        0.851598      6.39396e-05    -0.000687565        -0.203105      0.00153979     -0.000393634    -0.000384359
                    -0.000362242    -0.000233645        -0.704021        0.691659     -0.000128842    -0.000256037        -0.149993      0.00880884
281701.9               -0.104774       -0.173434      -0.00025949    -2.94948e-05        -0.478269        0.851737     -0.000322269    -0.000153132
                    -0.000176851    -7.35692e-05        0.0109329       -0.149436      -0.00023014    -0.000337119        -0.704232        0.691675
                       -0.478312        0.851612      6.39008e-05    -0.000687632        -0.203105      0.00154347     -0.000393659    -0.000384353
                    -0.000362257    -0.000233636        -0.704002        0.691678     -0.000128847    -0.000256035        -0.149993      0.00881026
281702                 -0.104781        -0.17343     -0.000259491    -2.94864e-05        -0.478245         0.85175     -0.000322271    -0.000153123
                    -0.000176846    -7.35641e-05        0.0109261       -0.149437      -0.00023015    -0.000337114        -0.704213        0.691694
                       -0.478288        0.851625       6.3862e-05    -0.000687698        -0.203106      0.00154715     -0.000393685    -0.000384347
                    -0.000362272    -0.000233627        -0.703983        0.691697     -0.000128853    -0.000256033        -0.149994      0.00881168
281702.1               -0.104788       -0.173426     -0.000259492    -2.94781e-05        -0.478221        0.851764     -0.000322272    -0.000153114
                    -0.000176842     -7.3559e-05        0.0109193       -0.149438      -0.00023016    -0.000337109        -0.704194        0.691714
                       -0.478264        0.851638      6.38232e-05    -0.000687764        -0.203106      0.00155082      -0.00039371    -0.000384341
                    -0.000362287    -0.000233618        -0.703964        0.691716     -0.000128858    -0.000256031        -0.149994       0.0088131
281702.2               -0.104794       -0.173423     -0.000259493    -2.94697e-05        -0.478197        0.851777     -0.000322274    -0.000153106
                    -0.000176837    -7.35539e-05        0.0109125       -0.149439      -0.00023017    -0.000337104        -0.704175        0.691733
                        -0.47824        0.851652      6.37843e-05     -0.00068783        -0.203107       0.0015545     -0.000393735    -0.000384334
                    -0.000362303    -0.000233609        -0.703945        0.691736     -0.000128864    -0.000256029        -0.149994      0.00881452
281702.3               -0.104801       -0.173419     -0.000259494    -2.94614e-05        -0.478173         0.85179     -0.000322276    -0.000153097
                    -0.000176833    -7.35488e-05        0.0109057       -0.149439      -0.00023018    -0.000337099        -0.704156        0.691752
                       -0.478216        0.851665      6.37455e-05    -0.000687897        -0.203107      0.00155818      -0.00039376    -0.000384328
                    -0.000362318      -0.0002336        -0.703926        0.691755     -0.000128869    -0.000256027        -0.149994      0.00881594
281702.4               -0.104808       -0.173416     -0.000259495     -2.9453e-05        -0.478149        0.851804     -0.000322278    -0.000153089
                    -0.000176828    -7.35437e-05        0.0108989        -0.14944      -0.00023019    -0.000337094        -0.704137        0.691772
                       -0.478192        0.851678      6.37066e-05    -0.000687963        -0.203107      0.00156186     -0.000393785    -0.000384322
                    -0.000362333    -0.000233591        -0.703907        0.691774     -0.000128874    -0.000256025        -0.149994      0.00881736
281702.5               -0.104815       -0.173412     -0.000259495    -2.94447e-05        -0.478125        0.851817     -0.000322279     -0.00015308
                    -0.000176823    -7.35385e-05        0.0108922       -0.149441       -0.0002302    -0.000337089        -0.704118        0.691791
                       -0.478168        0.851692      6.36677e-05    -0.000688029        -0.203108      0.00156553      -0.00039381    -0.000384316
                    -0.000362348    -0.000233582        -0.703888        0.691794      -0.00012888    -0.000256023        -0.149994      0.00881878
281702.6               -0.104822       -0.173408     -0.000259496    -2.94363e-05        -0.478101        0.851831     -0.000322281    -0.000153072
                    -0.000176819    -7.35334e-05        0.0108854       -0.149441      -0.00023021    -0.000337085        -0.704099         0.69181
                       -0.478144        0.851705      6.36288e-05    -0.000688096        -0.203108      0.00156921     -0.000393835    -0.000384309
                    -0.000362364    -0.000233573        -0.703869        0.691813     -0.000128885    -0.000256021        -0.149994       0.0088202
281702.7               -0.104829       -0.173405     -0.000259497     -2.9428e-05        -0.478077        0.851844     -0.000322283    -0.000153063
                    -0.000176814    -7.35283e-05        0.0108786       -0.149442      -0.00023022     -0.00033708         -0.70408        0.691829
                        -0.47812        0.851719      6.35898e-05    -0.000688162        -0.203109      0.00157289      -0.00039386    -0.000384303
                    -0.000362379    -0.000233564         -0.70385        0.691832     -0.000128891    -0.000256019        -0.149994      0.00882162
281702.8               -0.104836       -0.173401     -0.000259498    -2.94197e-05        -0.478053        0.851857     -0.000322285    -0.000153055
                     -0.00017681    -7.35232e-05        0.0108718       -0.149443     -0.000230229    -0.000337075        -0.704061        0.691849
                       -0.478096        0.851732      6.35509e-05    -0.000688228        -0.203109      0.00157657     -0.000393885    -0.000384297
                    -0.000362394    -0.000233555        -0.703831        0.691851     -0.000128896    -0.000256017        -0.149994      0.00882304
281702.9               -0.104842       -0.173398     -0.000259499    -2.94113e-05        -0.478029        0.851871     -0.000322286    -0.000153046
                    -0.000176805    -7.35181e-05         0.010865       -0.149444     -0.000230239     -0.00033707        -0.704042        0.691868
                       -0.478072        0.851745      6.35119e-05    -0.000688294         -0.20311      0.00158024      -0.00039391    -0.000384291
                    -0.000362409    -0.000233545        -0.703812        0.691871     -0.000128902    -0.000256015        -0.149995      0.00882446
281703                 -0.104849       -0.173394       -0.0002595     -2.9403e-05        -0.478005        0.851884     -0.000322288    -0.000153037
                    -0.000176801     -7.3513e-05        0.0108582       -0.149444     -0.000230249    -0.000337065        -0.704023        0.691887
                       -0.478048        0.851759      6.34729e-05    -0.000688361         -0.20311      0.00158392     -0.000393936    -0.000384284
                    -0.000362425    -0.000233536        -0.703793         0.69189     -0.000128907    -0.000256013        -0.149995      0.00882588
281703.1               -0.104856        -0.17339       -0.0002595    -2.93946e-05        -0.477981        0.851897      -0.00032229    -0.000153029
                    -0.000176796    -7.35079e-05        0.0108514       -0.149445     -0.000230259     -0.00033706        -0.704004        0.691907
                       -0.478023        0.851772      6.34339e-05    -0.000688427         -0.20311       0.0015876     -0.000393961    -0.000384278
