! TOUCHSTONE file generated by CST MICROWAVE STUDIO
! Date and time: Wed Oct  8 07:03:18 2025
! Project name: Teste_Macro_Metasurface_Nanopilar.cst
! Parameters = {H=600; L_x=175; L_y=115; Lambda=1064; Max_L=200; Min_L=70; PathPara=1; Phi=0; Step_L=10; Theta=0; p=520; phaseX=180; phaseY=0}
! Header version: 2018
! Port assignment regex: !\s*Touchstone port\s*([0-9]+)\s*=\s*(CST MWS port|CST DS port)\s*([0-9]+|Zmin|Zmax)\s*\(\"(.*)\"\)(\s*mode\s*([0-9]+))?.*
! Touchstone port assignment:
! Touchstone port 1 = CST MWS port Zmax ("") mode 1
! Touchstone port 2 = CST MWS port Zmax ("") mode 2
! Touchstone port 3 = CST MWS port Zmin ("") mode 1
! Touchstone port 4 = CST MWS port Zmin ("") mode 2
! S-Parameters are not renormalized. Each port impedance will be approximated by the real part at minimum frequency. The values are described via the [Reference] keyword.
! Default impedance is overridden by [Reference]
[Version] 2.0
# GHz S RI R 376.73
[Number of Ports] 4
[Reference]
376.73 376.73 376.73 376.73 
[Number of Frequencies] 1001
[Network Data]
281700                 -0.221564       -0.125534     -0.000150772     0.000375598         0.220703       -0.934308      0.000172693    -0.000330501
                     0.000269697     0.000590898        -0.462699        0.423739     -7.71393e-05     0.000170811        -0.335693        -0.68241
                        0.220337       -0.934546     -8.02204e-05     0.000111907         -0.25465       0.0141913      8.79837e-05    -0.000593885
                     0.000146236    -0.000406062        -0.335748       -0.682542      0.000109796    -0.000589234        -0.620393       0.0752005
281700.1               -0.221568       -0.125526     -0.000150774     0.000375558         0.220674       -0.934315      0.000172685     -0.00033049
                     0.000269715     0.000590908        -0.462678        0.423747     -7.71247e-05     0.000170811        -0.335723       -0.682405
                        0.220308       -0.934553     -8.01961e-05     0.000111895         -0.25465       0.0141981      8.79511e-05    -0.000593889
                     0.000146226    -0.000406054        -0.335779       -0.682537      0.000109765    -0.000589237         -0.62038       0.0752276
281700.2               -0.221573       -0.125519     -0.000150775     0.000375518         0.220645       -0.934322      0.000172678    -0.000330478
                     0.000269733     0.000590917        -0.462657        0.423755       -7.711e-05     0.000170812        -0.335753         -0.6824
                        0.220279        -0.93456     -8.01718e-05     0.000111883        -0.254649       0.0142049      8.79184e-05    -0.000593892
                     0.000146217    -0.000406046        -0.335809       -0.682532      0.000109734    -0.000589239        -0.620366       0.0752547
281700.3               -0.221578       -0.125511     -0.000150777     0.000375478         0.220616       -0.934329       0.00017267    -0.000330467
                      0.00026975     0.000590927        -0.462636        0.423762     -7.70953e-05     0.000170812        -0.335783       -0.682396
                         0.22025       -0.934567     -8.01475e-05      0.00011187        -0.254649       0.0142117      8.78857e-05    -0.000593895
                     0.000146207    -0.000406039        -0.335839       -0.682527      0.000109703    -0.000589242        -0.620352       0.0752818
281700.4               -0.221582       -0.125503     -0.000150778     0.000375438         0.220586       -0.934336      0.000172662    -0.000330456
                     0.000269768     0.000590936        -0.462614         0.42377     -7.70807e-05     0.000170812        -0.335813       -0.682391
                         0.22022       -0.934574     -8.01232e-05     0.000111858        -0.254649       0.0142185      8.78531e-05    -0.000593899
                     0.000146197    -0.000406031        -0.335869       -0.682522      0.000109672    -0.000589245        -0.620339       0.0753089
281700.5               -0.221587       -0.125495      -0.00015078     0.000375399         0.220557       -0.934343      0.000172655    -0.000330445
                     0.000269786     0.000590946        -0.462593        0.423777      -7.7066e-05     0.000170813        -0.335843       -0.682386
                        0.220191       -0.934581     -8.00989e-05     0.000111846        -0.254649       0.0142253      8.78204e-05    -0.000593902
                     0.000146187    -0.000406023        -0.335899       -0.682517      0.000109641    -0.000589248        -0.620325       0.0753361
281700.6               -0.221591       -0.125487     -0.000150781     0.000375359         0.220528        -0.93435      0.000172647    -0.000330434
                     0.000269803     0.000590955        -0.462572        0.423785     -7.70513e-05     0.000170813        -0.335873       -0.682381
                        0.220162       -0.934587     -8.00747e-05     0.000111833        -0.254648       0.0142321      8.77878e-05    -0.000593906
                     0.000146178    -0.000406015        -0.335929       -0.682513       0.00010961    -0.000589251        -0.620311       0.0753632
281700.7               -0.221596       -0.125479     -0.000150783     0.000375319         0.220499       -0.934356       0.00017264    -0.000330422
                     0.000269821     0.000590965        -0.462551        0.423793     -7.70367e-05     0.000170814        -0.335903       -0.682377
                        0.220133       -0.934594     -8.00504e-05     0.000111821        -0.254648       0.0142389      8.77551e-05    -0.000593909
                     0.000146168    -0.000406008        -0.335959       -0.682508      0.000109579    -0.000589254        -0.620298       0.0753903
281700.8               -0.221601       -0.125472     -0.000150784     0.000375279         0.220469       -0.934363      0.000172632    -0.000330411
                     0.000269839     0.000590974         -0.46253          0.4238      -7.7022e-05     0.000170814        -0.335933       -0.682372
                        0.220103       -0.934601     -8.00261e-05     0.000111809        -0.254648       0.0142456      8.77225e-05    -0.000593913
                     0.000146158       -0.000406        -0.335989       -0.682503      0.000109548    -0.000589256        -0.620284       0.0754174
281700.9               -0.221605       -0.125464     -0.000150786     0.000375239          0.22044        -0.93437      0.000172624      -0.0003304
                     0.000269857     0.000590984        -0.462509        0.423808     -7.70073e-05     0.000170814        -0.335963       -0.682367
                        0.220074       -0.934608     -8.00018e-05     0.000111796        -0.254648       0.0142524      8.76898e-05    -0.000593916
                     0.000146148    -0.000405992        -0.336019       -0.682498      0.000109517    -0.000589259         -0.62027       0.0754445
281701                  -0.22161       -0.125456     -0.000150787     0.000375199         0.220411       -0.934377      0.000172617    -0.000330389
                     0.000269874     0.000590993        -0.462487        0.423816     -7.69927e-05     0.000170815        -0.335993       -0.682362
                        0.220045       -0.934615     -7.99775e-05     0.000111784        -0.254647       0.0142592      8.76572e-05    -0.000593919
                     0.000146138    -0.000405984        -0.336049       -0.682493      0.000109486    -0.000589262        -0.620257       0.0754716
281701.1               -0.221614       -0.125448     -0.000150789     0.000375159         0.220382       -0.934384      0.000172609    -0.000330377
                     0.000269892     0.000591003        -0.462466        0.423823      -7.6978e-05     0.000170815        -0.336023       -0.682357
                        0.220016       -0.934622     -7.99533e-05     0.000111772        -0.254647        0.014266      8.76245e-05    -0.000593923
                     0.000146129    -0.000405977        -0.336079       -0.682488      0.000109455    -0.000589265        -0.620243       0.0754986
281701.2               -0.221619        -0.12544      -0.00015079     0.000375119         0.220352       -0.934391      0.000172602    -0.000330366
                      0.00026991     0.000591012        -0.462445        0.423831     -7.69634e-05     0.000170815        -0.336053       -0.682353
                        0.219986       -0.934629      -7.9929e-05     0.000111759        -0.254647       0.0142728      8.75919e-05    -0.000593926
                     0.000146119    -0.000405969        -0.336109       -0.682483      0.000109424    -0.000589268        -0.620229       0.0755257
281701.3               -0.221624       -0.125433     -0.000150792     0.000375079         0.220323       -0.934398      0.000172594    -0.000330355
                     0.000269927     0.000591022        -0.462424        0.423838     -7.69487e-05     0.000170816        -0.336083       -0.682348
                        0.219957       -0.934636     -7.99047e-05     0.000111747        -0.254647       0.0142796      8.75592e-05     -0.00059393
                     0.000146109    -0.000405961        -0.336139       -0.682479      0.000109393    -0.000589271        -0.620216       0.0755528
281701.4               -0.221628       -0.125425     -0.000150793     0.000375039         0.220294       -0.934405      0.000172586    -0.000330343
                     0.000269945     0.000591031        -0.462403        0.423846      -7.6934e-05     0.000170816        -0.336113       -0.682343
                        0.219928       -0.934642     -7.98805e-05     0.000111735        -0.254646       0.0142864      8.75266e-05    -0.000593933
                     0.000146099    -0.000405953        -0.336169       -0.682474      0.000109362    -0.000589273        -0.620202       0.0755799
281701.5               -0.221633       -0.125417     -0.000150795        0.000375         0.220265       -0.934411      0.000172579    -0.000330332
                     0.000269963     0.000591041        -0.462382        0.423854     -7.69194e-05     0.000170817        -0.336143       -0.682338
                        0.219899       -0.934649     -7.98562e-05     0.000111722        -0.254646       0.0142932      8.74939e-05    -0.000593937
                     0.000146089    -0.000405946        -0.336199       -0.682469      0.000109331    -0.000589276        -0.620188        0.075607
281701.6               -0.221637       -0.125409     -0.000150796      0.00037496         0.220235       -0.934418      0.000172571    -0.000330321
                     0.000269981      0.00059105         -0.46236        0.423861     -7.69047e-05     0.000170817        -0.336173       -0.682334
                        0.219869       -0.934656      -7.9832e-05      0.00011171        -0.254646          0.0143      8.74613e-05     -0.00059394
                      0.00014608    -0.000405938        -0.336229       -0.682464        0.0001093    -0.000589279        -0.620175       0.0756341
281701.7               -0.221642       -0.125401     -0.000150798      0.00037492         0.220206       -0.934425      0.000172564     -0.00033031
                     0.000269998      0.00059106        -0.462339        0.423869     -7.68901e-05     0.000170817        -0.336203       -0.682329
                         0.21984       -0.934663     -7.98077e-05     0.000111697        -0.254646       0.0143067      8.74286e-05    -0.000593943
                      0.00014607     -0.00040593        -0.336259       -0.682459      0.000109269    -0.000589282        -0.620161       0.0756612
281701.8               -0.221647       -0.125393     -0.000150799      0.00037488         0.220177       -0.934432      0.000172556    -0.000330298
                     0.000270016     0.000591069        -0.462318        0.423876     -7.68754e-05     0.000170818        -0.336233       -0.682324
                        0.219811        -0.93467     -7.97834e-05     0.000111685        -0.254645       0.0143135       8.7396e-05    -0.000593947
                      0.00014606    -0.000405922        -0.336289       -0.682454      0.000109238    -0.000589285        -0.620147       0.0756883
281701.9               -0.221651       -0.125386       -0.0001508      0.00037484         0.220148       -0.934439      0.000172549    -0.000330287
                     0.000270034     0.000591079        -0.462297        0.423884     -7.68607e-05     0.000170818        -0.336263       -0.682319
                        0.219782       -0.934677     -7.97592e-05     0.000111673        -0.254645       0.0143203      8.73633e-05     -0.00059395
                      0.00014605    -0.000405914        -0.336319        -0.68245      0.000109207    -0.000589288        -0.620134       0.0757154
281702                 -0.221656       -0.125378     -0.000150802       0.0003748         0.220119       -0.934446      0.000172541    -0.000330276
                     0.000270052     0.000591089        -0.462276        0.423892     -7.68461e-05     0.000170818        -0.336293       -0.682314
                        0.219752       -0.934684     -7.97349e-05      0.00011166        -0.254645       0.0143271      8.73307e-05    -0.000593954
                     0.000146041    -0.000405907        -0.336349       -0.682445      0.000109176     -0.00058929         -0.62012       0.0757424
281702.1                -0.22166        -0.12537     -0.000150803      0.00037476         0.220089       -0.934453      0.000172533    -0.000330265
                     0.000270069     0.000591098        -0.462255        0.423899     -7.68314e-05     0.000170819        -0.336323        -0.68231
                        0.219723       -0.934691     -7.97107e-05     0.000111648        -0.254645       0.0143339       8.7298e-05    -0.000593957
                     0.000146031    -0.000405899        -0.336379        -0.68244      0.000109145    -0.000589293        -0.620107       0.0757695
281702.2               -0.221665       -0.125362     -0.000150805      0.00037472          0.22006        -0.93446      0.000172526    -0.000330253
                     0.000270087     0.000591108        -0.462234        0.423907     -7.68168e-05     0.000170819        -0.336353       -0.682305
                        0.219694       -0.934697     -7.96864e-05     0.000111636        -0.254644       0.0143407      8.72654e-05    -0.000593961
                     0.000146021    -0.000405891        -0.336409       -0.682435      0.000109114    -0.000589296        -0.620093       0.0757966
281702.3                -0.22167       -0.125354     -0.000150806      0.00037468         0.220031       -0.934466      0.000172518    -0.000330242
                     0.000270105     0.000591117        -0.462212        0.423914     -7.68021e-05     0.000170819        -0.336383         -0.6823
                        0.219665       -0.934704     -7.96622e-05     0.000111623        -0.254644       0.0143475      8.72328e-05    -0.000593964
                     0.000146011    -0.000405883        -0.336439        -0.68243      0.000109083    -0.000589299        -0.620079       0.0758237
281702.4               -0.221674       -0.125346     -0.000150807      0.00037464         0.220002       -0.934473      0.000172511    -0.000330231
                     0.000270123     0.000591127        -0.462191        0.423922     -7.67874e-05      0.00017082        -0.336413       -0.682295
                        0.219635       -0.934711     -7.96379e-05     0.000111611        -0.254644       0.0143543      8.72001e-05    -0.000593967
                     0.000146001    -0.000405876        -0.336469       -0.682425      0.000109052    -0.000589302        -0.620066       0.0758508
281702.5               -0.221679       -0.125339     -0.000150809       0.0003746         0.219972        -0.93448      0.000172503    -0.000330219
                      0.00027014     0.000591136         -0.46217         0.42393     -7.67728e-05      0.00017082        -0.336443        -0.68229
                        0.219606       -0.934718     -7.96137e-05     0.000111599        -0.254643       0.0143611      8.71675e-05    -0.000593971
                     0.000145992    -0.000405868        -0.336499        -0.68242      0.000109021    -0.000589304        -0.620052       0.0758778
281702.6               -0.221683       -0.125331      -0.00015081      0.00037456         0.219943       -0.934487      0.000172496    -0.000330208
                     0.000270158     0.000591146        -0.462149        0.423937     -7.67581e-05      0.00017082        -0.336474       -0.682286
                        0.219577       -0.934725     -7.95894e-05     0.000111586        -0.254643       0.0143678      8.71348e-05    -0.000593974
                     0.000145982     -0.00040586        -0.336529       -0.682415       0.00010899    -0.000589307        -0.620038       0.0759049
281702.7               -0.221688       -0.125323     -0.000150811      0.00037452         0.219914       -0.934494      0.000172488    -0.000330197
                     0.000270176     0.000591155        -0.462128        0.423945     -7.67435e-05     0.000170821        -0.336504       -0.682281
                        0.219548       -0.934732     -7.95652e-05     0.000111574        -0.254643       0.0143746      8.71022e-05    -0.000593978
                     0.000145972    -0.000405852        -0.336559       -0.682411      0.000108959     -0.00058931        -0.620025        0.075932
281702.8               -0.221693       -0.125315     -0.000150813      0.00037448         0.219885       -0.934501      0.000172481    -0.000330185
                     0.000270194     0.000591165        -0.462107        0.423952     -7.67288e-05     0.000170821        -0.336534       -0.682276
                        0.219518       -0.934739      -7.9541e-05     0.000111561        -0.254643       0.0143814      8.70696e-05    -0.000593981
                     0.000145962    -0.000405845        -0.336589       -0.682406      0.000108928    -0.000589313        -0.620011       0.0759591
281702.9               -0.221697       -0.125307     -0.000150814      0.00037444         0.219855       -0.934508      0.000172473    -0.000330174
                     0.000270211     0.000591174        -0.462085         0.42396     -7.67141e-05     0.000170822        -0.336564       -0.682271
                        0.219489       -0.934745     -7.95167e-05     0.000111549        -0.254642       0.0143882      8.70369e-05    -0.000593984
                     0.000145953    -0.000405837        -0.336619       -0.682401      0.000108897    -0.000589316        -0.619997       0.0759861
281703                 -0.221702       -0.125299     -0.000150816       0.0003744         0.219826       -0.934515      0.000172466    -0.000330163
                     0.000270229     0.000591184        -0.462064        0.423967     -7.66995e-05     0.000170822        -0.336594       -0.682266
                         0.21946       -0.934752     -7.94925e-05     0.000111537        -0.254642        0.014395      8.70043e-05    -0.000593988
                     0.000145943    -0.000405829        -0.336649       -0.682396      0.000108866    -0.000589318        -0.619983       0.0760132
281703.1               -0.221706       -0.125292     -0.000150817      0.00037436         0.219797       -0.934521      0.000172458    -0.000330151
                     0.000270247     0.000591193        -0.462043        0.423975     -7.66848e-05     0.000170822        -0.336624       -0.682262
                        0.219431       -0.934759     -7.94683e-05     0.000111524        -0.254642       0.0144018      8.69717e-05    -0.000593991
