! TOUCHSTONE file generated by CST MICROWAVE STUDIO
! Date and time: Wed Oct  8 06:51:26 2025
! Project name: Teste_Macro_Metasurface_Nanopilar.cst
! Parameters = {H=600; L_x=75; L_y=130; Lambda=1064; Max_L=200; Min_L=70; PathPara=1; Phi=0; Step_L=10; Theta=0; p=520; phaseX=180; phaseY=0}
! Header version: 2018
! Port assignment regex: !\s*Touchstone port\s*([0-9]+)\s*=\s*(CST MWS port|CST DS port)\s*([0-9]+|Zmin|Zmax)\s*\(\"(.*)\"\)(\s*mode\s*([0-9]+))?.*
! Touchstone port assignment:
! Touchstone port 1 = CST MWS port Zmax ("") mode 1
! Touchstone port 2 = CST MWS port Zmax ("") mode 2
! Touchstone port 3 = CST MWS port Zmin ("") mode 1
! Touchstone port 4 = CST MWS port Zmin ("") mode 2
! S-Parameters are not renormalized. Each port impedance will be approximated by the real part at minimum frequency. The values are described via the [Reference] keyword.
! Default impedance is overridden by [Reference]
[Version] 2.0
# GHz S RI R 376.73
[Number of Ports] 4
[Reference]
376.73 376.73 376.73 376.73 
[Number of Frequencies] 1001
[Network Data]
281700                  -0.30913       0.0771168      0.000280289    -0.000202185         0.258275        0.905903      -2.6722e-05    -6.41361e-05
                     0.000268096    -0.000278005         0.112737      -0.0200735      1.19649e-05     2.61916e-05        -0.928716        0.351462
                        0.258245        0.905867     -0.000155355     0.000191868         -0.30426       0.0978716       -3.579e-05     0.000403176
                     0.000103705      6.2564e-05        -0.928739        0.351244     -2.05505e-05     0.000331609       -0.0979582       0.0596983
281700.1               -0.309126       0.0771265      0.000280271    -0.000202195         0.258303        0.905895     -2.67241e-05    -6.41328e-05
                     0.000268085     -0.00027801         0.112734      -0.0200788      1.19665e-05     2.61943e-05        -0.928707        0.351487
                        0.258272         0.90586     -0.000155333     0.000191881        -0.304256       0.0978798     -3.57781e-05     0.000403165
                     0.000103699     6.25604e-05         -0.92873        0.351269      -2.0551e-05     0.000331607       -0.0979562       0.0596976
281700.2               -0.309122       0.0771362      0.000280252    -0.000202205         0.258331        0.905888     -2.67263e-05    -6.41295e-05
                     0.000268075    -0.000278016         0.112731       -0.020084      1.19682e-05      2.6197e-05        -0.928698        0.351512
                          0.2583        0.905852      -0.00015531     0.000191893        -0.304252       0.0978879     -3.57662e-05     0.000403155
                     0.000103693     6.25568e-05        -0.928721        0.351294     -2.05515e-05     0.000331604       -0.0979542       0.0596969
281700.3               -0.309118       0.0771459      0.000280233    -0.000202215         0.258358         0.90588     -2.67284e-05    -6.41262e-05
                     0.000268064    -0.000278022         0.112728      -0.0200892      1.19698e-05     2.61997e-05        -0.928689        0.351537
                        0.258328        0.905845     -0.000155287     0.000191906        -0.304248       0.0978961     -3.57543e-05     0.000403144
                     0.000103687     6.25532e-05        -0.928712        0.351319     -2.05519e-05     0.000331601       -0.0979522       0.0596961
281700.4               -0.309115       0.0771557      0.000280214    -0.000202225         0.258386        0.905873     -2.67306e-05    -6.41229e-05
                     0.000268053    -0.000278027         0.112725      -0.0200945      1.19715e-05     2.62023e-05         -0.92868        0.351562
                        0.258355        0.905837     -0.000155265     0.000191918        -0.304244       0.0979043     -3.57424e-05     0.000403134
                     0.000103681     6.25496e-05        -0.928703        0.351343     -2.05524e-05     0.000331598       -0.0979502       0.0596954
281700.5               -0.309111       0.0771654      0.000280195    -0.000202235         0.258414        0.905865     -2.67327e-05    -6.41196e-05
                     0.000268043    -0.000278033         0.112722      -0.0200997      1.19731e-05      2.6205e-05         -0.92867        0.351587
                        0.258383         0.90583     -0.000155242     0.000191931         -0.30424       0.0979124     -3.57305e-05     0.000403123
                     0.000103675      6.2546e-05        -0.928694        0.351368     -2.05529e-05     0.000331595       -0.0979482       0.0596947
281700.6               -0.309107       0.0771751      0.000280176    -0.000202246         0.258441        0.905858     -2.67349e-05    -6.41163e-05
                     0.000268032    -0.000278039         0.112719      -0.0201049      1.19748e-05     2.62077e-05        -0.928661        0.351611
                        0.258411        0.905822      -0.00015522     0.000191944        -0.304236       0.0979206     -3.57186e-05     0.000403113
                     0.000103669     6.25424e-05        -0.928685        0.351393     -2.05534e-05     0.000331593       -0.0979462        0.059694
281700.7               -0.309103       0.0771848      0.000280158    -0.000202256         0.258469         0.90585      -2.6737e-05     -6.4113e-05
                     0.000268021    -0.000278044         0.112716      -0.0201102      1.19764e-05     2.62104e-05        -0.928652        0.351636
                        0.258438        0.905815     -0.000155197     0.000191956        -0.304232       0.0979287     -3.57067e-05     0.000403102
                     0.000103663     6.25388e-05        -0.928675        0.351418     -2.05538e-05      0.00033159       -0.0979442       0.0596933
281700.8                 -0.3091       0.0771946      0.000280139    -0.000202266         0.258497        0.905843     -2.67392e-05    -6.41097e-05
                     0.000268011     -0.00027805         0.112713      -0.0201154       1.1978e-05      2.6213e-05        -0.928643        0.351661
                        0.258466        0.905807     -0.000155175     0.000191969        -0.304228       0.0979369     -3.56949e-05     0.000403092
                     0.000103657     6.25352e-05        -0.928666        0.351443     -2.05543e-05     0.000331587       -0.0979422       0.0596926
281700.9               -0.309096       0.0772043       0.00028012    -0.000202276         0.258524        0.905835     -2.67413e-05    -6.41064e-05
                        0.000268    -0.000278055          0.11271      -0.0201207      1.19797e-05     2.62157e-05        -0.928634        0.351686
                        0.258494          0.9058     -0.000155152     0.000191981        -0.304224       0.0979451      -3.5683e-05     0.000403081
                     0.000103651     6.25317e-05        -0.928657        0.351468     -2.05548e-05     0.000331584       -0.0979403       0.0596919
281701                 -0.309092        0.077214      0.000280101    -0.000202286         0.258552        0.905828     -2.67435e-05    -6.41031e-05
                     0.000267989    -0.000278061         0.112707      -0.0201259      1.19813e-05     2.62184e-05        -0.928625        0.351711
                        0.258521        0.905793     -0.000155129     0.000191994         -0.30422       0.0979532     -3.56711e-05      0.00040307
                     0.000103645     6.25281e-05        -0.928648        0.351493     -2.05553e-05     0.000331581       -0.0979383       0.0596912
281701.1               -0.309088       0.0772237      0.000280082    -0.000202296          0.25858        0.905821     -2.67456e-05    -6.40998e-05
                     0.000267979    -0.000278067         0.112704      -0.0201311       1.1983e-05     2.62211e-05        -0.928616        0.351736
                        0.258549        0.905785     -0.000155107     0.000192006        -0.304216       0.0979614     -3.56592e-05      0.00040306
                     0.000103639     6.25245e-05        -0.928639        0.351518     -2.05558e-05     0.000331579       -0.0979363       0.0596905
281701.2               -0.309084       0.0772335      0.000280064    -0.000202306         0.258607        0.905813     -2.67478e-05    -6.40965e-05
                     0.000267968    -0.000278072         0.112701      -0.0201364      1.19846e-05     2.62237e-05        -0.928606        0.351761
                        0.258577        0.905778     -0.000155084     0.000192019        -0.304212       0.0979696     -3.56473e-05     0.000403049
                     0.000103633     6.25209e-05         -0.92863        0.351542     -2.05562e-05     0.000331576       -0.0979343       0.0596898
281701.3               -0.309081       0.0772432      0.000280045    -0.000202316         0.258635        0.905806     -2.67499e-05    -6.40932e-05
                     0.000267957    -0.000278078         0.112698      -0.0201416      1.19863e-05     2.62264e-05        -0.928597        0.351785
                        0.258604         0.90577     -0.000155062     0.000192031        -0.304208       0.0979777     -3.56354e-05     0.000403039
                     0.000103627     6.25173e-05         -0.92862        0.351567     -2.05567e-05     0.000331573       -0.0979323        0.059689
281701.4               -0.309077       0.0772529      0.000280026    -0.000202326         0.258663        0.905798     -2.67521e-05    -6.40899e-05
                     0.000267947    -0.000278084         0.112695      -0.0201468      1.19879e-05     2.62291e-05        -0.928588         0.35181
                        0.258632        0.905763     -0.000155039     0.000192044        -0.304204       0.0979859     -3.56235e-05     0.000403028
                     0.000103621     6.25137e-05        -0.928611        0.351592     -2.05572e-05      0.00033157       -0.0979303       0.0596883
281701.5               -0.309073       0.0772626      0.000280007    -0.000202336          0.25869        0.905791     -2.67542e-05    -6.40866e-05
                     0.000267936    -0.000278089         0.112692      -0.0201521      1.19896e-05     2.62318e-05        -0.928579        0.351835
                         0.25866        0.905755     -0.000155016     0.000192056          -0.3042        0.097994     -3.56116e-05     0.000403018
                     0.000103615     6.25101e-05        -0.928602        0.351617     -2.05577e-05     0.000331567       -0.0979283       0.0596876
281701.6               -0.309069       0.0772723      0.000279988    -0.000202346         0.258718        0.905783     -2.67564e-05    -6.40833e-05
                     0.000267925    -0.000278095         0.112689      -0.0201573      1.19912e-05     2.62344e-05         -0.92857         0.35186
                        0.258687        0.905748     -0.000154994     0.000192069        -0.304196       0.0980022     -3.55997e-05     0.000403007
                     0.000103609     6.25065e-05        -0.928593        0.351642     -2.05581e-05     0.000331565       -0.0979263       0.0596869
281701.7               -0.309065       0.0772821      0.000279969    -0.000202356         0.258746        0.905776     -2.67585e-05      -6.408e-05
                     0.000267914    -0.000278101         0.112686      -0.0201625      1.19929e-05     2.62371e-05        -0.928561        0.351885
                        0.258715         0.90574     -0.000154971     0.000192082        -0.304192       0.0980104     -3.55878e-05     0.000402997
                     0.000103603     6.25029e-05        -0.928584        0.351667     -2.05586e-05     0.000331562       -0.0979244       0.0596862
281701.8               -0.309062       0.0772918      0.000279951    -0.000202366         0.258773        0.905768     -2.67607e-05    -6.40767e-05
                     0.000267904    -0.000278106         0.112683      -0.0201678      1.19945e-05     2.62398e-05        -0.928552         0.35191
                        0.258743        0.905733     -0.000154948     0.000192094        -0.304188       0.0980185     -3.55759e-05     0.000402986
                     0.000103597     6.24993e-05        -0.928575        0.351692     -2.05591e-05     0.000331559       -0.0979224       0.0596855
281701.9               -0.309058       0.0773015      0.000279932    -0.000202376         0.258801        0.905761     -2.67628e-05    -6.40734e-05
                     0.000267893    -0.000278112          0.11268       -0.020173      1.19962e-05     2.62425e-05        -0.928542        0.351935
                         0.25877        0.905725     -0.000154926     0.000192107        -0.304184       0.0980267      -3.5564e-05     0.000402976
                     0.000103591     6.24958e-05        -0.928566        0.351716     -2.05596e-05     0.000331556       -0.0979204       0.0596848
281702                 -0.309054       0.0773112      0.000279913    -0.000202386         0.258829        0.905753      -2.6765e-05    -6.40701e-05
                     0.000267882    -0.000278118         0.112677      -0.0201782      1.19978e-05     2.62451e-05        -0.928533         0.35196
                        0.258798        0.905718     -0.000154903     0.000192119         -0.30418       0.0980349     -3.55521e-05     0.000402965
                     0.000103585     6.24922e-05        -0.928556        0.351741     -2.05601e-05     0.000331553       -0.0979184       0.0596841
281702.1                -0.30905        0.077321      0.000279894    -0.000202397         0.258856        0.905746     -2.67671e-05    -6.40668e-05
                     0.000267872    -0.000278123         0.112674      -0.0201835      1.19994e-05     2.62478e-05        -0.928524        0.351984
                        0.258826         0.90571      -0.00015488     0.000192132        -0.304176        0.098043     -3.55402e-05     0.000402955
                     0.000103579     6.24886e-05        -0.928547        0.351766     -2.05605e-05     0.000331551       -0.0979164       0.0596834
281702.2               -0.309047       0.0773307      0.000279875    -0.000202407         0.258884        0.905739     -2.67693e-05    -6.40635e-05
                     0.000267861    -0.000278129         0.112671      -0.0201887      1.20011e-05     2.62505e-05        -0.928515        0.352009
                        0.258853        0.905703     -0.000154858     0.000192144        -0.304172       0.0980512     -3.55283e-05     0.000402944
                     0.000103573      6.2485e-05        -0.928538        0.351791      -2.0561e-05     0.000331548       -0.0979144       0.0596826
281702.3               -0.309043       0.0773404      0.000279856    -0.000202417         0.258912        0.905731     -2.67714e-05    -6.40602e-05
                      0.00026785    -0.000278134         0.112667      -0.0201939      1.20027e-05     2.62532e-05        -0.928506        0.352034
                        0.258881        0.905696     -0.000154835     0.000192157        -0.304168       0.0980593     -3.55165e-05     0.000402933
                     0.000103567     6.24814e-05        -0.928529        0.351816     -2.05615e-05     0.000331545       -0.0979124       0.0596819
281702.4               -0.309039       0.0773501      0.000279837    -0.000202427         0.258939        0.905724     -2.67736e-05    -6.40569e-05
                      0.00026784     -0.00027814         0.112664      -0.0201992      1.20044e-05     2.62558e-05        -0.928497        0.352059
                        0.258909        0.905688     -0.000154813     0.000192169        -0.304164       0.0980675     -3.55046e-05     0.000402923
                     0.000103561     6.24778e-05         -0.92852        0.351841      -2.0562e-05     0.000331542       -0.0979105       0.0596812
281702.5               -0.309035       0.0773598      0.000279819    -0.000202437         0.258967        0.905716     -2.67757e-05    -6.40536e-05
                     0.000267829    -0.000278146         0.112661      -0.0202044       1.2006e-05     2.62585e-05        -0.928487        0.352084
                        0.258936        0.905681      -0.00015479     0.000192182         -0.30416       0.0980757     -3.54927e-05     0.000402912
                     0.000103555     6.24742e-05        -0.928511        0.351866     -2.05624e-05     0.000331539       -0.0979085       0.0596805
281702.6               -0.309031       0.0773696        0.0002798    -0.000202447         0.258995        0.905709     -2.67779e-05    -6.40503e-05
                     0.000267818    -0.000278151         0.112658      -0.0202096      1.20077e-05     2.62612e-05        -0.928478        0.352109
                        0.258964        0.905673     -0.000154767     0.000192194        -0.304156       0.0980838     -3.54808e-05     0.000402902
                     0.000103549     6.24706e-05        -0.928501        0.351891     -2.05629e-05     0.000331537       -0.0979065       0.0596798
281702.7               -0.309028       0.0773793      0.000279781    -0.000202457         0.259022        0.905701       -2.678e-05     -6.4047e-05
                     0.000267808    -0.000278157         0.112655      -0.0202149      1.20093e-05     2.62639e-05        -0.928469        0.352134
                        0.258992        0.905666     -0.000154745     0.000192207        -0.304152        0.098092     -3.54689e-05     0.000402891
                     0.000103543     6.24671e-05        -0.928492        0.351915     -2.05634e-05     0.000331534       -0.0979045       0.0596791
281702.8               -0.309024        0.077389      0.000279762    -0.000202467          0.25905        0.905694     -2.67821e-05    -6.40437e-05
                     0.000267797    -0.000278163         0.112652      -0.0202201       1.2011e-05     2.62666e-05         -0.92846        0.352158
                        0.259019        0.905658     -0.000154722     0.000192219        -0.304148       0.0981001      -3.5457e-05     0.000402881
                     0.000103537     6.24635e-05        -0.928483         0.35194     -2.05639e-05     0.000331531       -0.0979025       0.0596784
281702.9                -0.30902       0.0773987      0.000279743    -0.000202477         0.259077        0.905686     -2.67843e-05    -6.40404e-05
                     0.000267786    -0.000278168         0.112649      -0.0202253      1.20126e-05     2.62692e-05        -0.928451        0.352183
                        0.259047        0.905651     -0.000154699     0.000192231        -0.304144       0.0981083     -3.54451e-05      0.00040287
                     0.000103531     6.24599e-05        -0.928474        0.351965     -2.05643e-05     0.000331528       -0.0979005       0.0596777
281703                 -0.309016       0.0774084      0.000279724    -0.000202487         0.259105        0.905679     -2.67864e-05    -6.40371e-05
                     0.000267776    -0.000278174         0.112646      -0.0202306      1.20143e-05     2.62719e-05        -0.928442        0.352208
                        0.259075        0.905643     -0.000154677     0.000192244         -0.30414       0.0981165     -3.54332e-05      0.00040286
                     0.000103525     6.24563e-05        -0.928465         0.35199     -2.05648e-05     0.000331525       -0.0978985        0.059677
281703.1               -0.309012       0.0774182      0.000279705    -0.000202497         0.259133        0.905671     -2.67886e-05    -6.40338e-05
                     0.000267765     -0.00027818         0.112643      -0.0202358      1.20159e-05     2.62746e-05        -0.928432        0.352233
                        0.259102        0.905636     -0.000154654     0.000192256        -0.304136       0.0981246     -3.54213e-05     0.000402849
