! TOUCHSTONE file generated by CST MICROWAVE STUDIO
! Date and time: Wed Oct  8 07:03:51 2025
! Project name: Teste_Macro_Metasurface_Nanopilar.cst
! Parameters = {H=600; L_x=180; L_y=110; Lambda=1064; Max_L=200; Min_L=70; PathPara=1; Phi=0; Step_L=10; Theta=0; p=520; phaseX=180; phaseY=0}
! Header version: 2018
! Port assignment regex: !\s*Touchstone port\s*([0-9]+)\s*=\s*(CST MWS port|CST DS port)\s*([0-9]+|Zmin|Zmax)\s*\(\"(.*)\"\)(\s*mode\s*([0-9]+))?.*
! Touchstone port assignment:
! Touchstone port 1 = CST MWS port Zmax ("") mode 1
! Touchstone port 2 = CST MWS port Zmax ("") mode 2
! Touchstone port 3 = CST MWS port Zmin ("") mode 1
! Touchstone port 4 = CST MWS port Zmin ("") mode 2
! S-Parameters are not renormalized. Each port impedance will be approximated by the real part at minimum frequency. The values are described via the [Reference] keyword.
! Default impedance is overridden by [Reference]
[Version] 2.0
# GHz S RI R 376.73
[Number of Ports] 4
[Reference]
376.73 376.73 376.73 376.73 
[Number of Frequencies] 1001
[Network Data]
281700                 -0.134803       -0.164883      2.45223e-05      0.00086251         0.584388       -0.772727      0.000418363     -0.00127011
                      0.00020478     0.000757103        -0.492641        0.435097      -0.00041395     0.000754061        -0.300971        -0.67031
                          0.5845       -0.772655     -0.000513916     0.000782268        -0.196641      -0.0823393      0.000871547    -0.000290038
                     0.000266277     -0.00117357        -0.300903       -0.670509      0.000869166    -0.000204804        -0.653418        0.044085
281700.1               -0.134811        -0.16488      2.45438e-05     0.000862477         0.584362       -0.772745      0.000418303     -0.00127011
                     0.000204812     0.000757061         -0.49262        0.435106     -0.000413907     0.000754064           -0.301       -0.670307
                        0.584474       -0.772674     -0.000513891     0.000782285        -0.196645      -0.0823352      0.000871513    -0.000290057
                     0.000266212     -0.00117356        -0.300932       -0.670506      0.000869134    -0.000204827        -0.653406       0.0441142
281700.2                -0.13482       -0.164877      2.45653e-05     0.000862445         0.584336       -0.772764      0.000418243     -0.00127011
                     0.000204845      0.00075702        -0.492599        0.435115     -0.000413865     0.000754066         -0.30103       -0.670304
                        0.584448       -0.772693     -0.000513867     0.000782302         -0.19665      -0.0823311      0.000871478    -0.000290077
                     0.000266147     -0.00117354        -0.300962       -0.670503      0.000869101     -0.00020485        -0.653394       0.0441434
281700.3               -0.134828       -0.164874      2.45868e-05     0.000862412         0.584311       -0.772783      0.000418183     -0.00127011
                     0.000204878     0.000756979        -0.492578        0.435124     -0.000413822     0.000754069        -0.301059       -0.670301
                        0.584422       -0.772712     -0.000513842     0.000782319        -0.196655       -0.082327      0.000871443    -0.000290097
                     0.000266082     -0.00117353        -0.300991         -0.6705      0.000869068    -0.000204874        -0.653382       0.0441726
281700.4               -0.134836       -0.164871      2.46084e-05     0.000862379         0.584285       -0.772801      0.000418123      -0.0012701
                      0.00020491     0.000756937        -0.492556        0.435133      -0.00041378     0.000754072        -0.301088       -0.670298
                        0.584397        -0.77273     -0.000513818     0.000782336         -0.19666      -0.0823229      0.000871409    -0.000290116
                     0.000266018     -0.00117351         -0.30102       -0.670497      0.000869035    -0.000204897        -0.653371       0.0442019
281700.5               -0.134844       -0.164868      2.46299e-05     0.000862347         0.584259        -0.77282      0.000418063      -0.0012701
                     0.000204943     0.000756896        -0.492535        0.435142     -0.000413737     0.000754074        -0.301118       -0.670295
                        0.584371       -0.772749     -0.000513793     0.000782353        -0.196665      -0.0823188      0.000871374    -0.000290136
                     0.000265953      -0.0011735        -0.301049       -0.670494      0.000869003     -0.00020492        -0.653359       0.0442311
281700.6               -0.134852       -0.164865      2.46514e-05     0.000862314         0.584233       -0.772839      0.000418003      -0.0012701
                     0.000204976     0.000756855        -0.492514         0.43515     -0.000413695     0.000754077        -0.301147       -0.670292
                        0.584345       -0.772768     -0.000513769      0.00078237         -0.19667      -0.0823147      0.000871339    -0.000290156
                     0.000265888     -0.00117348        -0.301079       -0.670491       0.00086897    -0.000204943        -0.653347       0.0442603
281700.7               -0.134861       -0.164863      2.46729e-05     0.000862281         0.584208       -0.772858      0.000417943      -0.0012701
                     0.000205009     0.000756814        -0.492493        0.435159     -0.000413653     0.000754079        -0.301176       -0.670289
                        0.584319       -0.772787     -0.000513744     0.000782387        -0.196674      -0.0823106      0.000871305    -0.000290175
                     0.000265823     -0.00117347        -0.301108       -0.670488      0.000868937    -0.000204967        -0.653335       0.0442895
281700.8               -0.134869        -0.16486      2.46943e-05     0.000862249         0.584182       -0.772876      0.000417883      -0.0012701
                     0.000205041     0.000756772        -0.492472        0.435168      -0.00041361     0.000754082        -0.301205       -0.670286
                        0.584294       -0.772805      -0.00051372     0.000782405        -0.196679      -0.0823064       0.00087127    -0.000290195
                     0.000265758     -0.00117345        -0.301137       -0.670485      0.000868904     -0.00020499        -0.653323       0.0443187
281700.9               -0.134877       -0.164857      2.47158e-05     0.000862216         0.584156       -0.772895      0.000417823      -0.0012701
                     0.000205074     0.000756731        -0.492451        0.435177     -0.000413568     0.000754085        -0.301235       -0.670283
                        0.584268       -0.772824     -0.000513695     0.000782422        -0.196684      -0.0823023      0.000871235    -0.000290214
                     0.000265694     -0.00117344        -0.301167       -0.670482      0.000868872    -0.000205013        -0.653311       0.0443479
281701                 -0.134885       -0.164854      2.47373e-05     0.000862183          0.58413       -0.772914      0.000417763      -0.0012701
                     0.000205106      0.00075669        -0.492429        0.435186     -0.000413525     0.000754087        -0.301264        -0.67028
                        0.584242       -0.772843     -0.000513671     0.000782439        -0.196689      -0.0822982      0.000871201    -0.000290234
                     0.000265629     -0.00117342        -0.301196       -0.670479      0.000868839    -0.000205036        -0.653299       0.0443771
281701.1               -0.134893       -0.164851      2.47588e-05     0.000862151         0.584104       -0.772932      0.000417703      -0.0012701
                     0.000205139     0.000756649        -0.492408        0.435194     -0.000413483      0.00075409        -0.301293       -0.670277
                        0.584216       -0.772862     -0.000513646     0.000782456        -0.196694      -0.0822941      0.000871166    -0.000290254
                     0.000265564     -0.00117341        -0.301225       -0.670476      0.000868806     -0.00020506        -0.653288       0.0444064
281701.2               -0.134902       -0.164848      2.47802e-05     0.000862118         0.584079       -0.772951      0.000417642     -0.00127009
                     0.000205172     0.000756607        -0.492387        0.435203      -0.00041344     0.000754092        -0.301323       -0.670274
                        0.584191        -0.77288     -0.000513622     0.000782473        -0.196699        -0.08229      0.000871131    -0.000290273
                     0.000265499     -0.00117339        -0.301254       -0.670473      0.000868773    -0.000205083        -0.653276       0.0444356
281701.3                -0.13491       -0.164845      2.48017e-05     0.000862085         0.584053        -0.77297      0.000417582     -0.00127009
                     0.000205204     0.000756566        -0.492366        0.435212     -0.000413398     0.000754095        -0.301352       -0.670271
                        0.584165       -0.772899     -0.000513597      0.00078249        -0.196703      -0.0822859      0.000871097    -0.000290293
                     0.000265435     -0.00117338        -0.301284        -0.67047      0.000868741    -0.000205106        -0.653264       0.0444648
281701.4               -0.134918       -0.164842      2.48232e-05     0.000862053         0.584027       -0.772989      0.000417522     -0.00127009
                     0.000205237     0.000756525        -0.492345        0.435221     -0.000413355     0.000754097        -0.301381       -0.670268
                        0.584139       -0.772918     -0.000513573     0.000782507        -0.196708      -0.0822818      0.000871062    -0.000290313
                      0.00026537     -0.00117336        -0.301313       -0.670467      0.000868708    -0.000205129        -0.653252        0.044494
281701.5               -0.134926       -0.164839      2.48446e-05      0.00086202         0.584001       -0.773007      0.000417462     -0.00127009
                      0.00020527     0.000756483        -0.492324         0.43523     -0.000413313       0.0007541        -0.301411       -0.670265
                        0.584113       -0.772937     -0.000513548     0.000782524        -0.196713      -0.0822777      0.000871027    -0.000290332
                     0.000265305     -0.00117335        -0.301342       -0.670464      0.000868675    -0.000205152         -0.65324       0.0445232
281701.6               -0.134934       -0.164836      2.48661e-05     0.000861987         0.583976       -0.773026      0.000417402     -0.00127009
                     0.000205302     0.000756442        -0.492302        0.435238     -0.000413271     0.000754103         -0.30144       -0.670262
                        0.584088       -0.772955     -0.000513524     0.000782541        -0.196718      -0.0822736      0.000870993    -0.000290352
                      0.00026524     -0.00117333        -0.301372       -0.670461      0.000868643    -0.000205176        -0.653228       0.0445524
281701.7               -0.134943       -0.164833      2.48875e-05     0.000861955          0.58395       -0.773045      0.000417342     -0.00127009
                     0.000205335     0.000756401        -0.492281        0.435247     -0.000413228     0.000754105        -0.301469       -0.670259
                        0.584062       -0.772974       -0.0005135     0.000782558        -0.196723      -0.0822695      0.000870958    -0.000290371
                     0.000265175     -0.00117332        -0.301401       -0.670458       0.00086861    -0.000205199        -0.653216       0.0445816
281701.8               -0.134951        -0.16483      2.49089e-05     0.000861922         0.583924       -0.773063      0.000417282     -0.00127009
                     0.000205368      0.00075636         -0.49226        0.435256     -0.000413186     0.000754108        -0.301499       -0.670256
                        0.584036       -0.772993     -0.000513475     0.000782575        -0.196727      -0.0822654      0.000870923    -0.000290391
                     0.000265111     -0.00117331         -0.30143       -0.670454      0.000868577    -0.000205222        -0.653205       0.0446108
281701.9               -0.134959       -0.164827      2.49304e-05     0.000861889         0.583898       -0.773082      0.000417222     -0.00127008
                       0.0002054     0.000756318        -0.492239        0.435265     -0.000413143      0.00075411        -0.301528       -0.670253
                         0.58401       -0.773012     -0.000513451     0.000782592        -0.196732      -0.0822613      0.000870889    -0.000290411
                     0.000265046     -0.00117329        -0.301459       -0.670451      0.000868544    -0.000205245        -0.653193         0.04464
281702                 -0.134967       -0.164824      2.49518e-05     0.000861856         0.583873       -0.773101      0.000417162     -0.00127008
                     0.000205433     0.000756277        -0.492218        0.435274     -0.000413101     0.000754113        -0.301557        -0.67025
                        0.583985        -0.77303     -0.000513426      0.00078261        -0.196737      -0.0822571      0.000870854     -0.00029043
                     0.000264981     -0.00117328        -0.301489       -0.670448      0.000868512    -0.000205268        -0.653181       0.0446692
281702.1               -0.134975       -0.164821      2.49732e-05     0.000861824         0.583847        -0.77312      0.000417102     -0.00127008
                     0.000205465     0.000756236        -0.492197        0.435282     -0.000413058     0.000754115        -0.301586       -0.670247
                        0.583959       -0.773049     -0.000513402     0.000782627        -0.196742       -0.082253      0.000870819     -0.00029045
                     0.000264917     -0.00117326        -0.301518       -0.670445      0.000868479    -0.000205292        -0.653169       0.0446984
281702.2               -0.134984       -0.164818      2.49947e-05     0.000861791         0.583821       -0.773138      0.000417042     -0.00127008
                     0.000205498     0.000756194        -0.492176        0.435291     -0.000413016     0.000754118        -0.301616       -0.670244
                        0.583933       -0.773068     -0.000513377     0.000782644        -0.196747      -0.0822489      0.000870785     -0.00029047
                     0.000264852     -0.00117325        -0.301547       -0.670442      0.000868446    -0.000205315        -0.653157       0.0447276
281702.3               -0.134992       -0.164815      2.50161e-05     0.000861758         0.583795       -0.773157      0.000416982     -0.00127008
                     0.000205531     0.000756153        -0.492154          0.4353     -0.000412974     0.000754121        -0.301645       -0.670241
                        0.583907       -0.773086     -0.000513353     0.000782661        -0.196752      -0.0822448       0.00087075    -0.000290489
                     0.000264787     -0.00117323        -0.301577       -0.670439      0.000868413    -0.000205338        -0.653145       0.0447568
281702.4                  -0.135       -0.164812      2.50375e-05     0.000861726          0.58377       -0.773176      0.000416922     -0.00127008
                     0.000205563     0.000756112        -0.492133        0.435309     -0.000412931     0.000754123        -0.301674       -0.670238
                        0.583881       -0.773105     -0.000513329     0.000782678        -0.196756      -0.0822407      0.000870715    -0.000290509
                     0.000264722     -0.00117322        -0.301606       -0.670436      0.000868381    -0.000205361        -0.653133        0.044786
281702.5               -0.135008       -0.164809      2.50589e-05     0.000861693         0.583744       -0.773194      0.000416862     -0.00127008
                     0.000205596     0.000756071        -0.492112        0.435318     -0.000412889     0.000754126        -0.301704       -0.670235
                        0.583856       -0.773124     -0.000513304     0.000782695        -0.196761      -0.0822366      0.000870681    -0.000290528
                     0.000264658      -0.0011732        -0.301635       -0.670433      0.000868348    -0.000205384        -0.653121       0.0448152
281702.6               -0.135016       -0.164806      2.50803e-05      0.00086166         0.583718       -0.773213      0.000416802     -0.00127007
                     0.000205629     0.000756029        -0.492091        0.435326     -0.000412846     0.000754128        -0.301733       -0.670232
                         0.58383       -0.773143      -0.00051328     0.000782712        -0.196766      -0.0822325      0.000870646    -0.000290548
                     0.000264593     -0.00117319        -0.301665        -0.67043      0.000868315    -0.000205407        -0.653109       0.0448443
281702.7               -0.135025       -0.164803      2.51017e-05     0.000861627         0.583692       -0.773232      0.000416742     -0.00127007
                     0.000205661     0.000755988         -0.49207        0.435335     -0.000412804     0.000754131        -0.301762       -0.670229
                        0.583804       -0.773161     -0.000513255     0.000782729        -0.196771      -0.0822284      0.000870611    -0.000290568
                     0.000264528     -0.00117317        -0.301694       -0.670427      0.000868283    -0.000205431        -0.653098       0.0448735
281702.8               -0.135033         -0.1648      2.51231e-05     0.000861595         0.583667       -0.773251      0.000416682     -0.00127007
                     0.000205694     0.000755947        -0.492049        0.435344     -0.000412762     0.000754133        -0.301792       -0.670226
                        0.583778        -0.77318     -0.000513231     0.000782746        -0.196776      -0.0822243      0.000870577    -0.000290587
                     0.000264463     -0.00117316        -0.301723       -0.670424       0.00086825    -0.000205454        -0.653086       0.0449027
281702.9               -0.135041       -0.164797      2.51444e-05     0.000861562         0.583641       -0.773269      0.000416621     -0.00127007
                     0.000205726     0.000755905        -0.492027        0.435353     -0.000412719     0.000754136        -0.301821       -0.670223
                        0.583753       -0.773199     -0.000513207     0.000782763         -0.19678      -0.0822201      0.000870542    -0.000290607
                     0.000264399     -0.00117314        -0.301752       -0.670421      0.000868217    -0.000205477        -0.653074       0.0449319
281703                 -0.135049       -0.164794      2.51658e-05     0.000861529         0.583615       -0.773288      0.000416561     -0.00127007
                     0.000205759     0.000755864        -0.492006        0.435362     -0.000412677     0.000754138         -0.30185       -0.670219
                        0.583727       -0.773218     -0.000513182      0.00078278        -0.196785       -0.082216      0.000870507    -0.000290626
                     0.000264334     -0.00117313        -0.301782       -0.670418      0.000868184      -0.0002055        -0.653062       0.0449611
281703.1               -0.135057       -0.164791      2.51872e-05     0.000861497         0.583589       -0.773307      0.000416501     -0.00127007
                     0.000205791     0.000755823        -0.491985         0.43537     -0.000412634     0.000754141        -0.301879       -0.670216
                        0.583701       -0.773236     -0.000513158     0.000782797         -0.19679      -0.0822119      0.000870473    -0.000290646
