! TOUCHSTONE file generated by CST MICROWAVE STUDIO
! Date and time: Wed Oct  8 07:00:48 2025
! Project name: Teste_Macro_Metasurface_Nanopilar.cst
! Parameters = {H=600; L_x=155; L_y=90; Lambda=1064; Max_L=200; Min_L=70; PathPara=1; Phi=0; Step_L=10; Theta=0; p=520; phaseX=180; phaseY=0}
! Header version: 2018
! Port assignment regex: !\s*Touchstone port\s*([0-9]+)\s*=\s*(CST MWS port|CST DS port)\s*([0-9]+|Zmin|Zmax)\s*\(\"(.*)\"\)(\s*mode\s*([0-9]+))?.*
! Touchstone port assignment:
! Touchstone port 1 = CST MWS port Zmax ("") mode 1
! Touchstone port 2 = CST MWS port Zmax ("") mode 2
! Touchstone port 3 = CST MWS port Zmin ("") mode 1
! Touchstone port 4 = CST MWS port Zmin ("") mode 2
! S-Parameters are not renormalized. Each port impedance will be approximated by the real part at minimum frequency. The values are described via the [Reference] keyword.
! Default impedance is overridden by [Reference]
[Version] 2.0
# GHz S RI R 376.73
[Number of Ports] 4
[Reference]
376.73 376.73 376.73 376.73 
[Number of Frequencies] 1001
[Network Data]
281700                -0.0978896       -0.175321     -0.000487815    -0.000368545        -0.412473        0.885823     -0.000245099     -0.00011607
                    -0.000577324    -0.000155697        -0.196235       -0.107734       0.00024469    -0.000112612       -0.0386681       -0.967501
                       -0.412498        0.885708      0.000122637     -2.6621e-05        -0.197339        0.038479      0.000361323     0.000133573
                    -0.000176816    -5.50533e-05       -0.0388616       -0.967435      0.000449277     4.61982e-05        -0.187815         0.12344
281700.1               -0.097896       -0.175317     -0.000487827    -0.000368528        -0.412448        0.885835     -0.000245106    -0.000116063
                     -0.00057732     -0.00015567        -0.196236       -0.107726      0.000244682    -0.000112612       -0.0386984         -0.9675
                       -0.412473         0.88572      0.000122644    -2.66107e-05        -0.197338       0.0384827      0.000361326     0.000133562
                    -0.000176814    -5.50361e-05        -0.038892       -0.967434      0.000449277     4.61841e-05         -0.18781        0.123444
281700.2              -0.0979024       -0.175313      -0.00048784    -0.000368511        -0.412423        0.885847     -0.000245114    -0.000116056
                    -0.000577317    -0.000155642        -0.196238       -0.107718      0.000244674    -0.000112612       -0.0387288         -0.9675
                       -0.412448        0.885732      0.000122651    -2.66005e-05        -0.197337       0.0384863      0.000361328     0.000133552
                    -0.000176813     -5.5019e-05       -0.0389224       -0.967434      0.000449278     4.61701e-05        -0.187804        0.123448
281700.3              -0.0979088       -0.175309     -0.000487852    -0.000368494        -0.412398        0.885859     -0.000245122     -0.00011605
                    -0.000577313    -0.000155615         -0.19624        -0.10771      0.000244665    -0.000112612       -0.0387592       -0.967499
                       -0.412423        0.885743      0.000122658    -2.65902e-05        -0.197336       0.0384899      0.000361331     0.000133541
                    -0.000176811    -5.50018e-05       -0.0389527       -0.967433      0.000449278      4.6156e-05        -0.187799        0.123452
281700.4              -0.0979152       -0.175305     -0.000487864    -0.000368477        -0.412373         0.88587     -0.000245129    -0.000116043
                     -0.00057731    -0.000155587        -0.196241       -0.107702      0.000244657    -0.000112612       -0.0387895       -0.967498
                       -0.412398        0.885755      0.000122665      -2.658e-05        -0.197335       0.0384935      0.000361334      0.00013353
                    -0.000176809    -5.49847e-05       -0.0389831       -0.967433      0.000449278     4.61419e-05        -0.187793        0.123456
281700.5              -0.0979215       -0.175301     -0.000487877    -0.000368461        -0.412348        0.885882     -0.000245137    -0.000116036
                    -0.000577306     -0.00015556        -0.196243       -0.107694      0.000244649    -0.000112612       -0.0388199       -0.967498
                       -0.412373        0.885767      0.000122672    -2.65697e-05        -0.197334       0.0384972      0.000361336     0.000133519
                    -0.000176808    -5.49675e-05       -0.0390135       -0.967432      0.000449278     4.61278e-05        -0.187788         0.12346
281700.6              -0.0979279       -0.175297     -0.000487889    -0.000368444        -0.412323        0.885894     -0.000245144     -0.00011603
                    -0.000577303    -0.000155533        -0.196245       -0.107686      0.000244641    -0.000112612       -0.0388502       -0.967497
                       -0.412347        0.885779      0.000122679    -2.65595e-05        -0.197333       0.0385008      0.000361339     0.000133508
                    -0.000176806    -5.49503e-05       -0.0390438       -0.967431      0.000449279     4.61137e-05        -0.187783        0.123463
281700.7              -0.0979343       -0.175293     -0.000487902    -0.000368427        -0.412298        0.885905     -0.000245152    -0.000116023
                    -0.000577299    -0.000155505        -0.196246       -0.107678      0.000244633    -0.000112612       -0.0388806       -0.967496
                       -0.412322         0.88579      0.000122686    -2.65492e-05        -0.197331       0.0385044      0.000361342     0.000133497
                    -0.000176805    -5.49331e-05       -0.0390742       -0.967431      0.000449279     4.60996e-05        -0.187777        0.123467
281700.8              -0.0979407       -0.175289     -0.000487914     -0.00036841        -0.412273        0.885917     -0.000245159    -0.000116016
                    -0.000577296    -0.000155478        -0.196248        -0.10767      0.000244625    -0.000112612        -0.038911       -0.967496
                       -0.412297        0.885802      0.000122693    -2.65389e-05         -0.19733        0.038508      0.000361344     0.000133486
                    -0.000176803    -5.49159e-05       -0.0391046        -0.96743      0.000449279     4.60855e-05        -0.187772        0.123471
281700.9              -0.0979471       -0.175285     -0.000487926    -0.000368393        -0.412248        0.885929     -0.000245167     -0.00011601
                    -0.000577292     -0.00015545         -0.19625       -0.107662      0.000244617    -0.000112612       -0.0389413       -0.967495
                       -0.412272        0.885814        0.0001227    -2.65287e-05        -0.197329       0.0385117      0.000361347     0.000133476
                    -0.000176801    -5.48987e-05       -0.0391349       -0.967429      0.000449279     4.60714e-05        -0.187766        0.123475
281701                -0.0979535       -0.175281     -0.000487939    -0.000368377        -0.412223        0.885941     -0.000245174    -0.000116003
                    -0.000577289    -0.000155423        -0.196251       -0.107654      0.000244609    -0.000112612       -0.0389717       -0.967494
                       -0.412247        0.885825      0.000122707    -2.65184e-05        -0.197328       0.0385153      0.000361349     0.000133465
                      -0.0001768    -5.48815e-05       -0.0391653       -0.967429       0.00044928     4.60573e-05        -0.187761        0.123479
281701.1              -0.0979599       -0.175277     -0.000487951     -0.00036836        -0.412198        0.885952     -0.000245182    -0.000115996
                    -0.000577285    -0.000155395        -0.196253       -0.107646        0.0002446    -0.000112612       -0.0390021       -0.967494
                       -0.412222        0.885837      0.000122714    -2.65082e-05        -0.197327       0.0385189      0.000361352     0.000133454
                    -0.000176798    -5.48643e-05       -0.0391957       -0.967428       0.00044928     4.60432e-05        -0.187755        0.123483
281701.2              -0.0979663       -0.175273     -0.000487964    -0.000368343        -0.412173        0.885964     -0.000245189    -0.000115989
                    -0.000577282    -0.000155368        -0.196255       -0.107638      0.000244592    -0.000112612       -0.0390324       -0.967493
                       -0.412197        0.885849      0.000122722    -2.64979e-05        -0.197326       0.0385225      0.000361355     0.000133443
                    -0.000176796     -5.4847e-05       -0.0392261       -0.967427       0.00044928     4.60291e-05         -0.18775        0.123487
281701.3              -0.0979727       -0.175268     -0.000487976    -0.000368326        -0.412148        0.885976     -0.000245197    -0.000115983
                    -0.000577278     -0.00015534        -0.196256        -0.10763      0.000244584    -0.000112612       -0.0390628       -0.967492
                       -0.412172        0.885861      0.000122729    -2.64877e-05        -0.197325       0.0385262      0.000361357     0.000133432
                    -0.000176795    -5.48298e-05       -0.0392564       -0.967427       0.00044928      4.6015e-05        -0.187745        0.123491
281701.4              -0.0979791       -0.175264     -0.000487988    -0.000368309        -0.412123        0.885988     -0.000245204    -0.000115976
                    -0.000577275    -0.000155313        -0.196258       -0.107622      0.000244576    -0.000112612       -0.0390931       -0.967492
                       -0.412147        0.885872      0.000122736    -2.64774e-05        -0.197323       0.0385298       0.00036136     0.000133421
                    -0.000176793    -5.48125e-05       -0.0392868       -0.967426      0.000449281     4.60009e-05        -0.187739        0.123494
281701.5              -0.0979855        -0.17526     -0.000488001    -0.000368292        -0.412098        0.885999     -0.000245212    -0.000115969
                    -0.000577271    -0.000155286         -0.19626       -0.107614      0.000244568    -0.000112612       -0.0391235       -0.967491
                       -0.412122        0.885884      0.000122743    -2.64672e-05        -0.197322       0.0385334      0.000361363      0.00013341
                    -0.000176791    -5.47952e-05       -0.0393172       -0.967425      0.000449281     4.59868e-05        -0.187734        0.123498
281701.6              -0.0979919       -0.175256     -0.000488013    -0.000368276        -0.412073        0.886011     -0.000245219    -0.000115962
                    -0.000577268    -0.000155258        -0.196262       -0.107606       0.00024456    -0.000112613       -0.0391539        -0.96749
                       -0.412097        0.885896       0.00012275    -2.64569e-05        -0.197321        0.038537      0.000361365     0.000133399
                     -0.00017679     -5.4778e-05       -0.0393475       -0.967425      0.000449281     4.59727e-05        -0.187728        0.123502
281701.7              -0.0979983       -0.175252     -0.000488026    -0.000368259        -0.412048        0.886023     -0.000245227    -0.000115956
                    -0.000577264    -0.000155231        -0.196263       -0.107598      0.000244552    -0.000112613       -0.0391842        -0.96749
                       -0.412072        0.885908      0.000122757    -2.64467e-05         -0.19732       0.0385406      0.000361368     0.000133389
                    -0.000176788    -5.47607e-05       -0.0393779       -0.967424      0.000449281     4.59586e-05        -0.187723        0.123506
281701.8              -0.0980047       -0.175248     -0.000488038    -0.000368242        -0.412023        0.886034     -0.000245234    -0.000115949
                     -0.00057726    -0.000155203        -0.196265        -0.10759      0.000244544    -0.000112613       -0.0392146       -0.967489
                       -0.412047        0.885919      0.000122764    -2.64365e-05        -0.197319       0.0385443      0.000361371     0.000133378
                    -0.000176786    -5.47434e-05       -0.0394083       -0.967423      0.000449282     4.59445e-05        -0.187718         0.12351
281701.9              -0.0980111       -0.175244      -0.00048805    -0.000368225        -0.411998        0.886046     -0.000245242    -0.000115942
                    -0.000577257    -0.000155176        -0.196267       -0.107582      0.000244535    -0.000112613        -0.039245       -0.967488
                       -0.412022        0.885931      0.000122771    -2.64262e-05        -0.197318       0.0385479      0.000361373     0.000133367
                    -0.000176784    -5.47261e-05       -0.0394386       -0.967423      0.000449282     4.59304e-05        -0.187712        0.123514
281702                -0.0980175        -0.17524     -0.000488063    -0.000368208        -0.411973        0.886058     -0.000245249    -0.000115936
                    -0.000577253    -0.000155148        -0.196268       -0.107574      0.000244527    -0.000112613       -0.0392753       -0.967488
                       -0.411997        0.885943      0.000122778     -2.6416e-05        -0.197316       0.0385515      0.000361376     0.000133356
                    -0.000176783    -5.47088e-05        -0.039469       -0.967422      0.000449282     4.59162e-05        -0.187707        0.123518
281702.1              -0.0980238       -0.175236     -0.000488075    -0.000368192        -0.411948         0.88607     -0.000245257    -0.000115929
                     -0.00057725    -0.000155121         -0.19627       -0.107566      0.000244519    -0.000112613       -0.0393057       -0.967487
                       -0.411972        0.885954      0.000122785    -2.64057e-05        -0.197315       0.0385551      0.000361379     0.000133345
                    -0.000176781    -5.46915e-05       -0.0394994       -0.967421      0.000449282     4.59021e-05        -0.187701        0.123521
281702.2              -0.0980302       -0.175232     -0.000488088    -0.000368175        -0.411923        0.886081     -0.000245264    -0.000115922
                    -0.000577246    -0.000155093        -0.196272       -0.107558      0.000244511    -0.000112613        -0.039336       -0.967486
                       -0.411947        0.885966      0.000122792    -2.63955e-05        -0.197314       0.0385588      0.000361382     0.000133334
                    -0.000176779    -5.46741e-05       -0.0395298       -0.967421      0.000449282      4.5888e-05        -0.187696        0.123525
281702.3              -0.0980366       -0.175228       -0.0004881    -0.000368158        -0.411898        0.886093     -0.000245272    -0.000115915
                    -0.000577243    -0.000155066        -0.196273        -0.10755      0.000244503    -0.000112613       -0.0393664       -0.967486
                       -0.411922        0.885978        0.0001228    -2.63852e-05        -0.197313       0.0385624      0.000361384     0.000133323
                    -0.000176778    -5.46568e-05       -0.0395601        -0.96742      0.000449283     4.58739e-05         -0.18769        0.123529
281702.4               -0.098043       -0.175224     -0.000488112    -0.000368141        -0.411873        0.886105      -0.00024528    -0.000115909
                    -0.000577239    -0.000155038        -0.196275       -0.107542      0.000244495    -0.000112613       -0.0393968       -0.967485
                       -0.411897         0.88599      0.000122807     -2.6375e-05        -0.197312        0.038566      0.000361387     0.000133312
                    -0.000176776    -5.46394e-05       -0.0395905       -0.967419      0.000449283     4.58597e-05        -0.187685        0.123533
281702.5              -0.0980494        -0.17522     -0.000488125    -0.000368124        -0.411848        0.886116     -0.000245287    -0.000115902
                    -0.000577236    -0.000155011        -0.196277       -0.107534      0.000244487    -0.000112613       -0.0394271       -0.967484
                       -0.411872        0.886001      0.000122814    -2.63648e-05        -0.197311       0.0385696       0.00036139     0.000133301
                    -0.000176774    -5.46221e-05       -0.0396209       -0.967418      0.000449283     4.58456e-05         -0.18768        0.123537
281702.6              -0.0980558       -0.175216     -0.000488137    -0.000368107        -0.411823        0.886128     -0.000245295    -0.000115895
                    -0.000577232    -0.000154983        -0.196278       -0.107526      0.000244479    -0.000112613       -0.0394575       -0.967484
                       -0.411846        0.886013      0.000122821    -2.63545e-05         -0.19731       0.0385733      0.000361392      0.00013329
                    -0.000176773    -5.46047e-05       -0.0396512       -0.967418      0.000449283     4.58315e-05        -0.187674        0.123541
281702.7              -0.0980622       -0.175212      -0.00048815    -0.000368091        -0.411798         0.88614     -0.000245302    -0.000115888
                    -0.000577229    -0.000154956         -0.19628       -0.107518       0.00024447    -0.000112613       -0.0394879       -0.967483
                       -0.411821        0.886025      0.000122828    -2.63443e-05        -0.197308       0.0385769      0.000361395     0.000133279
                    -0.000176771    -5.45873e-05       -0.0396816       -0.967417      0.000449284     4.58173e-05        -0.187669        0.123545
281702.8              -0.0980686       -0.175208     -0.000488162    -0.000368074        -0.411773        0.886152      -0.00024531    -0.000115881
                    -0.000577225    -0.000154928        -0.196282        -0.10751      0.000244462    -0.000112613       -0.0395182       -0.967482
                       -0.411796        0.886036      0.000122835     -2.6334e-05        -0.197307       0.0385805      0.000361398     0.000133269
                    -0.000176769      -5.457e-05        -0.039712       -0.967416      0.000449284     4.58032e-05        -0.187663        0.123548
281702.9               -0.098075       -0.175204     -0.000488174    -0.000368057        -0.411748        0.886163     -0.000245317    -0.000115875
                    -0.000577221    -0.000154901        -0.196283       -0.107503      0.000244454    -0.000112613       -0.0395486       -0.967482
                       -0.411771        0.886048      0.000122842    -2.63238e-05        -0.197306       0.0385841      0.000361401     0.000133258
                    -0.000176767    -5.45526e-05       -0.0397423       -0.967416      0.000449284     4.57891e-05        -0.187658        0.123552
281703                -0.0980814       -0.175199     -0.000488187     -0.00036804        -0.411723        0.886175     -0.000245325    -0.000115868
                    -0.000577218    -0.000154873        -0.196285       -0.107495      0.000244446    -0.000112613       -0.0395789       -0.967481
                       -0.411746         0.88606      0.000122849    -2.63136e-05        -0.197305       0.0385878      0.000361403     0.000133247
                    -0.000176766    -5.45352e-05       -0.0397727       -0.967415      0.000449284     4.57749e-05        -0.187653        0.123556
281703.1              -0.0980878       -0.175195     -0.000488199    -0.000368023        -0.411698        0.886187     -0.000245332    -0.000115861
                    -0.000577214    -0.000154846        -0.196287       -0.107487      0.000244438    -0.000112613       -0.0396093        -0.96748
                       -0.411721        0.886071      0.000122856    -2.63033e-05        -0.197304       0.0385914      0.000361406     0.000133236
