! TOUCHSTONE file generated by CST MICROWAVE STUDIO
! Date and time: Wed Oct  8 07:03:25 2025
! Project name: Teste_Macro_Metasurface_Nanopilar.cst
! Parameters = {H=600; L_x=175; L_y=145; Lambda=1064; Max_L=200; Min_L=70; PathPara=1; Phi=0; Step_L=10; Theta=0; p=520; phaseX=180; phaseY=0}
! Header version: 2018
! Port assignment regex: !\s*Touchstone port\s*([0-9]+)\s*=\s*(CST MWS port|CST DS port)\s*([0-9]+|Zmin|Zmax)\s*\(\"(.*)\"\)(\s*mode\s*([0-9]+))?.*
! Touchstone port assignment:
! Touchstone port 1 = CST MWS port Zmax ("") mode 1
! Touchstone port 2 = CST MWS port Zmax ("") mode 2
! Touchstone port 3 = CST MWS port Zmin ("") mode 1
! Touchstone port 4 = CST MWS port Zmin ("") mode 2
! S-Parameters are not renormalized. Each port impedance will be approximated by the real part at minimum frequency. The values are described via the [Reference] keyword.
! Default impedance is overridden by [Reference]
[Version] 2.0
# GHz S RI R 376.73
[Number of Ports] 4
[Reference]
376.73 376.73 376.73 376.73 
[Number of Frequencies] 1001
[Network Data]
281700                 -0.187196        0.248152      -0.00113544     0.000655637         -0.67105       -0.661486      0.000928089    -0.000799019
                     -0.00108696     0.000686394       -0.0209288       0.0896702      0.000834849     -0.00093496        -0.940638       -0.312626
                       -0.671198       -0.661367      0.000725579    -0.000877814        -0.251051         0.18013     -0.000439171     0.000985611
                     0.000897612     -0.00104171        -0.940678       -0.312728     -0.000307259      0.00101759       -0.0415277       0.0815536
281700.1               -0.187185        0.248152      -0.00113541     0.000655662        -0.671073       -0.661466      0.000928044    -0.000799061
                     -0.00108694     0.000686417       -0.0209244       0.0896647      0.000834807    -0.000934986        -0.940648       -0.312598
                       -0.671221       -0.661347      0.000725545    -0.000877847        -0.251039        0.180135     -0.000439149     0.000985626
                     0.000897566     -0.00104174        -0.940688         -0.3127     -0.000307208      0.00101762        -0.041523       0.0815489
281700.2               -0.187173        0.248151      -0.00113538     0.000655687        -0.671096       -0.661446      0.000927999    -0.000799102
                     -0.00108693      0.00068644         -0.02092       0.0896591      0.000834764    -0.000935012        -0.940658        -0.31257
                       -0.671244       -0.661328      0.000725511    -0.000877879        -0.251026         0.18014     -0.000439128     0.000985642
                      0.00089752     -0.00104177        -0.940698       -0.312672     -0.000307156      0.00101764       -0.0415182       0.0815442
281700.3               -0.187161        0.248151      -0.00113536     0.000655712         -0.67112       -0.661426      0.000927954    -0.000799144
                     -0.00108691     0.000686463       -0.0209156       0.0896536      0.000834721    -0.000935038        -0.940668       -0.312542
                       -0.671267       -0.661308      0.000725477    -0.000877912        -0.251014        0.180145     -0.000439106     0.000985658
                     0.000897475      -0.0010418        -0.940708       -0.312644     -0.000307105      0.00101766       -0.0415135       0.0815396
281700.4                -0.18715         0.24815      -0.00113533     0.000655737        -0.671143       -0.661406      0.000927909    -0.000799186
                     -0.00108689     0.000686486       -0.0209112       0.0896481      0.000834679    -0.000935065        -0.940678       -0.312514
                       -0.671291       -0.661288      0.000725444    -0.000877944        -0.251001        0.180149     -0.000439085     0.000985673
                     0.000897429     -0.00104183        -0.940718       -0.312616     -0.000307053      0.00101768       -0.0415087       0.0815349
281700.5               -0.187138        0.248149      -0.00113531     0.000655762        -0.671166       -0.661386      0.000927864    -0.000799227
                     -0.00108688     0.000686509       -0.0209068       0.0896426      0.000834636    -0.000935091        -0.940688       -0.312486
                       -0.671314       -0.661268       0.00072541    -0.000877977        -0.250989        0.180154     -0.000439064     0.000985689
                     0.000897383     -0.00104186        -0.940728       -0.312588     -0.000307002       0.0010177        -0.041504       0.0815302
281700.6               -0.187126        0.248149      -0.00113528     0.000655787        -0.671189       -0.661366      0.000927819    -0.000799269
                     -0.00108686     0.000686532       -0.0209024        0.089637      0.000834593    -0.000935117        -0.940698       -0.312458
                       -0.671337       -0.661248      0.000725376    -0.000878009        -0.250976        0.180159     -0.000439042     0.000985705
                     0.000897337     -0.00104189        -0.940738        -0.31256      -0.00030695      0.00101773       -0.0414992       0.0815255
281700.7               -0.187115        0.248148      -0.00113525     0.000655812        -0.671213       -0.661346      0.000927774    -0.000799311
                     -0.00108685     0.000686555        -0.020898       0.0896315      0.000834551    -0.000935143        -0.940707        -0.31243
                       -0.671361       -0.661228      0.000725343    -0.000878041        -0.250964        0.180163     -0.000439021      0.00098572
                     0.000897292     -0.00104192        -0.940748       -0.312532     -0.000306898      0.00101775       -0.0414945       0.0815209
281700.8               -0.187103        0.248148      -0.00113523     0.000655837        -0.671236       -0.661327      0.000927729    -0.000799352
                     -0.00108683     0.000686578       -0.0208936        0.089626      0.000834508    -0.000935169        -0.940717       -0.312402
                       -0.671384       -0.661208      0.000725309    -0.000878074        -0.250951        0.180168     -0.000438999     0.000985736
                     0.000897246     -0.00104195        -0.940758       -0.312504     -0.000306847      0.00101777       -0.0414897       0.0815162
281700.9               -0.187091        0.248147       -0.0011352     0.000655862        -0.671259       -0.661307      0.000927683    -0.000799394
                     -0.00108682     0.000686601       -0.0208892       0.0896204      0.000834465    -0.000935196        -0.940727       -0.312374
                       -0.671407       -0.661188      0.000725275    -0.000878106        -0.250939        0.180173     -0.000438978     0.000985752
                       0.0008972     -0.00104198        -0.940768       -0.312476     -0.000306795      0.00101779        -0.041485       0.0815115
281701                  -0.18708        0.248146      -0.00113518     0.000655887        -0.671282       -0.661287      0.000927638    -0.000799436
                      -0.0010868     0.000686624       -0.0208848       0.0896149      0.000834423    -0.000935222        -0.940737       -0.312346
                        -0.67143       -0.661168      0.000725242    -0.000878139        -0.250926        0.180178     -0.000438957     0.000985768
                     0.000897155     -0.00104201        -0.940778       -0.312448     -0.000306744      0.00101781       -0.0414803       0.0815068
281701.1               -0.187068        0.248146      -0.00113515     0.000655912        -0.671306       -0.661267      0.000927593    -0.000799478
                     -0.00108679     0.000686647       -0.0208804       0.0896094       0.00083438    -0.000935248        -0.940747       -0.312318
                       -0.671454       -0.661148      0.000725208    -0.000878171        -0.250914        0.180182     -0.000438935     0.000985783
                     0.000897109     -0.00104204        -0.940787        -0.31242     -0.000306692      0.00101784       -0.0414755       0.0815022
281701.2               -0.187056        0.248145      -0.00113512     0.000655937        -0.671329       -0.661247      0.000927548    -0.000799519
                     -0.00108677      0.00068667        -0.020876       0.0896038      0.000834337    -0.000935274        -0.940757        -0.31229
                       -0.671477       -0.661128      0.000725174    -0.000878203        -0.250901        0.180187     -0.000438914     0.000985799
                     0.000897063     -0.00104207        -0.940797       -0.312392     -0.000306641      0.00101786       -0.0414708       0.0814975
281701.3               -0.187044        0.248145       -0.0011351     0.000655962        -0.671352       -0.661227      0.000927503    -0.000799561
                     -0.00108676     0.000686693       -0.0208716       0.0895983      0.000834295      -0.0009353        -0.940767       -0.312262
                         -0.6715       -0.661108       0.00072514    -0.000878236        -0.250889        0.180192     -0.000438892     0.000985815
                     0.000897017      -0.0010421        -0.940807       -0.312364     -0.000306589      0.00101788        -0.041466       0.0814928
281701.4               -0.187033        0.248144      -0.00113507     0.000655987        -0.671376       -0.661207      0.000927457    -0.000799603
                     -0.00108674     0.000686716       -0.0208672       0.0895928      0.000834252    -0.000935327        -0.940777       -0.312234
                       -0.671523       -0.661089      0.000725107    -0.000878268        -0.250876        0.180196     -0.000438871     0.000985831
                     0.000896972     -0.00104213        -0.940817       -0.312336     -0.000306538       0.0010179       -0.0414613       0.0814881
281701.5               -0.187021        0.248143      -0.00113504     0.000656012        -0.671399       -0.661187      0.000927412    -0.000799644
                     -0.00108673     0.000686739       -0.0208628       0.0895872      0.000834209    -0.000935353        -0.940787       -0.312206
                       -0.671547       -0.661069      0.000725073    -0.000878301        -0.250864        0.180201     -0.000438849     0.000985847
                     0.000896926     -0.00104216        -0.940827       -0.312308     -0.000306486      0.00101792       -0.0414566       0.0814834
281701.6               -0.187009        0.248143      -0.00113502     0.000656037        -0.671422       -0.661167      0.000927367    -0.000799686
                     -0.00108671     0.000686762       -0.0208584       0.0895817      0.000834167    -0.000935379        -0.940797       -0.312178
                        -0.67157       -0.661049      0.000725039    -0.000878333        -0.250851        0.180206     -0.000438828     0.000985862
                      0.00089688     -0.00104219        -0.940837        -0.31228     -0.000306435      0.00101795       -0.0414518       0.0814788
281701.7               -0.186998        0.248142      -0.00113499     0.000656062        -0.671445       -0.661147      0.000927322    -0.000799728
                      -0.0010867     0.000686785        -0.020854       0.0895762      0.000834124    -0.000935405        -0.940807        -0.31215
                       -0.671593       -0.661029      0.000725006    -0.000878365        -0.250839        0.180211     -0.000438806     0.000985878
                     0.000896835     -0.00104222        -0.940847       -0.312252     -0.000306383      0.00101797       -0.0414471       0.0814741
281701.8               -0.186986        0.248142      -0.00113497     0.000656087        -0.671469       -0.661127      0.000927276     -0.00079977
                     -0.00108668     0.000686808       -0.0208496       0.0895706      0.000834081    -0.000935431        -0.940817       -0.312122
                       -0.671616       -0.661009      0.000724972    -0.000878398        -0.250826        0.180215     -0.000438785     0.000985894
                     0.000896789     -0.00104225        -0.940857       -0.312224     -0.000306332      0.00101799       -0.0414423       0.0814694
281701.9               -0.186974        0.248141      -0.00113494     0.000656112        -0.671492       -0.661108      0.000927231    -0.000799811
                     -0.00108667     0.000686831       -0.0208452       0.0895651      0.000834039    -0.000935458        -0.940826       -0.312094
                        -0.67164       -0.660989      0.000724938     -0.00087843        -0.250814         0.18022     -0.000438763      0.00098591
                     0.000896743     -0.00104228        -0.940867       -0.312196      -0.00030628      0.00101801       -0.0414376       0.0814647
281702                 -0.186963         0.24814      -0.00113491     0.000656137        -0.671515       -0.661088      0.000927186    -0.000799853
                     -0.00108665     0.000686854       -0.0208409       0.0895596      0.000833996    -0.000935484        -0.940836       -0.312066
                       -0.671663       -0.660969      0.000724904    -0.000878462        -0.250801        0.180225     -0.000438742     0.000985926
                     0.000896697     -0.00104231        -0.940877       -0.312168     -0.000306229      0.00101803       -0.0414329         0.08146
281702.1               -0.186951         0.24814      -0.00113489     0.000656162        -0.671538       -0.661068       0.00092714    -0.000799895
                     -0.00108664     0.000686877       -0.0208365        0.089554      0.000833953     -0.00093551        -0.940846       -0.312038
                       -0.671686       -0.660949      0.000724871    -0.000878495        -0.250789        0.180229      -0.00043872     0.000985942
                     0.000896652     -0.00104234        -0.940887        -0.31214     -0.000306177      0.00101806       -0.0414281       0.0814554
281702.2               -0.186939        0.248139      -0.00113486     0.000656187        -0.671562       -0.661048      0.000927095    -0.000799937
                     -0.00108662       0.0006869       -0.0208321       0.0895485      0.000833911    -0.000935536        -0.940856        -0.31201
                        -0.67171       -0.660929      0.000724837    -0.000878527        -0.250776        0.180234     -0.000438699     0.000985958
                     0.000896606     -0.00104237        -0.940897       -0.312112     -0.000306126      0.00101808       -0.0414234       0.0814507
281702.3               -0.186928        0.248138      -0.00113483     0.000656212        -0.671585       -0.661028      0.000927049    -0.000799978
                     -0.00108661     0.000686923       -0.0208277        0.089543      0.000833868    -0.000935562        -0.940866       -0.311982
                       -0.671733       -0.660909      0.000724803     -0.00087856        -0.250764        0.180239     -0.000438677     0.000985974
                      0.00089656      -0.0010424        -0.940906       -0.312084     -0.000306074       0.0010181       -0.0414186        0.081446
281702.4               -0.186916        0.248138      -0.00113481     0.000656237        -0.671608       -0.661008      0.000927004     -0.00080002
                     -0.00108659     0.000686946       -0.0208233       0.0895374      0.000833825    -0.000935589        -0.940876       -0.311954
                       -0.671756       -0.660889      0.000724769    -0.000878592        -0.250751        0.180243     -0.000438656      0.00098599
                     0.000896515     -0.00104243        -0.940916       -0.312056     -0.000306022      0.00101812       -0.0414139       0.0814413
281702.5               -0.186904        0.248137      -0.00113478     0.000656262        -0.671632       -0.660988      0.000926959    -0.000800062
                     -0.00108658     0.000686969       -0.0208189       0.0895319      0.000833783    -0.000935615        -0.940886       -0.311926
                       -0.671779       -0.660869      0.000724736    -0.000878624        -0.250739        0.180248     -0.000438634     0.000986006
                     0.000896469     -0.00104246        -0.940926       -0.312028     -0.000305971      0.00101814       -0.0414092       0.0814366
281702.6               -0.186893        0.248137      -0.00113476     0.000656287        -0.671655       -0.660968      0.000926913    -0.000800104
                     -0.00108656     0.000686992       -0.0208145       0.0895264       0.00083374    -0.000935641        -0.940896       -0.311898
                       -0.671803        -0.66085      0.000724702    -0.000878657        -0.250727        0.180253     -0.000438613     0.000986021
                     0.000896423     -0.00104249        -0.940936          -0.312     -0.000305919      0.00101817       -0.0414044       0.0814319
281702.7               -0.186881        0.248136      -0.00113473     0.000656312        -0.671678       -0.660948      0.000926868    -0.000800146
                     -0.00108655     0.000687015       -0.0208101       0.0895208      0.000833697    -0.000935667        -0.940906        -0.31187
                       -0.671826        -0.66083      0.000724668    -0.000878689        -0.250714        0.180258     -0.000438591     0.000986037
                     0.000896377     -0.00104252        -0.940946       -0.311972     -0.000305868      0.00101819       -0.0413997       0.0814273
281702.8               -0.186869        0.248135       -0.0011347     0.000656337        -0.671701       -0.660928      0.000926822    -0.000800187
                     -0.00108653     0.000687038       -0.0208057       0.0895153      0.000833655    -0.000935693        -0.940916       -0.311842
                       -0.671849        -0.66081      0.000724634    -0.000878721        -0.250702        0.180262      -0.00043857     0.000986053
                     0.000896332     -0.00104255        -0.940956       -0.311944     -0.000305816      0.00101821        -0.041395       0.0814226
281702.9               -0.186857        0.248135      -0.00113468     0.000656362        -0.671725       -0.660908      0.000926777    -0.000800229
                     -0.00108652     0.000687061       -0.0208013       0.0895098      0.000833612    -0.000935719        -0.940925       -0.311814
                       -0.671872        -0.66079      0.000724601    -0.000878754        -0.250689        0.180267     -0.000438548     0.000986069
                     0.000896286     -0.00104258        -0.940966       -0.311916     -0.000305765      0.00101823       -0.0413902       0.0814179
281703                 -0.186846        0.248134      -0.00113465     0.000656387        -0.671748       -0.660888      0.000926731    -0.000800271
                      -0.0010865     0.000687084       -0.0207969       0.0895042      0.000833569    -0.000935746        -0.940935       -0.311786
                       -0.671896        -0.66077      0.000724567    -0.000878786        -0.250677        0.180272     -0.000438527     0.000986085
                      0.00089624     -0.00104261        -0.940976       -0.311888     -0.000305713      0.00101825       -0.0413855       0.0814132
281703.1               -0.186834        0.248134      -0.00113462     0.000656412        -0.671771       -0.660869      0.000926686    -0.000800313
                     -0.00108649     0.000687107       -0.0207925       0.0894987      0.000833527    -0.000935772        -0.940945       -0.311758
                       -0.671919        -0.66075      0.000724533    -0.000878819        -0.250664        0.180276     -0.000438505     0.000986102
