! TOUCHSTONE file generated by CST MICROWAVE STUDIO
! Date and time: Wed Oct  8 06:51:57 2025
! Project name: Teste_Macro_Metasurface_Nanopilar.cst
! Parameters = {H=600; L_x=80; L_y=115; Lambda=1064; Max_L=200; Min_L=70; PathPara=1; Phi=0; Step_L=10; Theta=0; p=520; phaseX=180; phaseY=0}
! Header version: 2018
! Port assignment regex: !\s*Touchstone port\s*([0-9]+)\s*=\s*(CST MWS port|CST DS port)\s*([0-9]+|Zmin|Zmax)\s*\(\"(.*)\"\)(\s*mode\s*([0-9]+))?.*
! Touchstone port assignment:
! Touchstone port 1 = CST MWS port Zmax ("") mode 1
! Touchstone port 2 = CST MWS port Zmax ("") mode 2
! Touchstone port 3 = CST MWS port Zmin ("") mode 1
! Touchstone port 4 = CST MWS port Zmin ("") mode 2
! S-Parameters are not renormalized. Each port impedance will be approximated by the real part at minimum frequency. The values are described via the [Reference] keyword.
! Default impedance is overridden by [Reference]
[Version] 2.0
# GHz S RI R 376.73
[Number of Ports] 4
[Reference]
376.73 376.73 376.73 376.73 
[Number of Frequencies] 1001
[Network Data]
281700                 -0.166524       -0.160454      0.000201045    -0.000310695        -0.374628        0.894827     -8.14525e-05    -0.000288334
                     0.000234198    -0.000306193         0.108918      -0.0359056     -4.50012e-05    -0.000105762        -0.915019        0.385342
                       -0.374532        0.894577      0.000177702    -0.000205398        -0.231773     -0.00520098     -0.000170613     0.000371353
                    -1.40577e-05    -0.000268271        -0.914955        0.384996     -0.000327241     0.000197554        -0.102057       0.0529386
281700.1                -0.16653       -0.160449      0.000201043    -0.000310698        -0.374602        0.894837     -8.14604e-05    -0.000288336
                     0.000234183    -0.000306215         0.108914      -0.0359106     -4.50148e-05    -0.000105753        -0.915009        0.385366
                       -0.374507        0.894587       0.00017769    -0.000205399        -0.231774     -0.00519614     -0.000170595      0.00037136
                    -1.40419e-05    -0.000268255        -0.914945         0.38502     -0.000327233     0.000197519        -0.102055        0.052938
281700.2               -0.166536       -0.160443      0.000201041    -0.000310702        -0.374577        0.894848     -8.14684e-05    -0.000288337
                     0.000234168    -0.000306238         0.108911      -0.0359156     -4.50285e-05    -0.000105744        -0.914999        0.385391
                       -0.374481        0.894598      0.000177679      -0.0002054        -0.231774     -0.00519131     -0.000170577     0.000371366
                    -1.40261e-05    -0.000268239        -0.914935        0.385045     -0.000327224     0.000197483        -0.102053       0.0529375
281700.3               -0.166542       -0.160438      0.000201038    -0.000310705        -0.374552        0.894858     -8.14764e-05    -0.000288339
                     0.000234152     -0.00030626         0.108907      -0.0359206     -4.50421e-05    -0.000105736        -0.914989        0.385415
                       -0.374456        0.894608      0.000177667    -0.000205401        -0.231775     -0.00518647     -0.000170559     0.000371373
                    -1.40103e-05    -0.000268224        -0.914925         0.38507     -0.000327216     0.000197447        -0.102052       0.0529369
281700.4               -0.166549       -0.160432      0.000201036    -0.000310708        -0.374526        0.894869     -8.14844e-05    -0.000288341
                     0.000234137    -0.000306282         0.108903      -0.0359256     -4.50557e-05    -0.000105727        -0.914978         0.38544
                        -0.37443        0.894619      0.000177655    -0.000205401        -0.231776     -0.00518163     -0.000170541     0.000371379
                    -1.39945e-05    -0.000268208        -0.914915        0.385094     -0.000327208     0.000197412         -0.10205       0.0529363
281700.5               -0.166555       -0.160426      0.000201034    -0.000310712        -0.374501        0.894879     -8.14923e-05    -0.000288343
                     0.000234122    -0.000306305           0.1089      -0.0359306     -4.50693e-05    -0.000105718        -0.914968        0.385464
                       -0.374405        0.894629      0.000177643    -0.000205402        -0.231776     -0.00517679     -0.000170523     0.000371386
                    -1.39788e-05    -0.000268193        -0.914905        0.385119       -0.0003272     0.000197376        -0.102048       0.0529357
281700.6               -0.166561       -0.160421      0.000201032    -0.000310715        -0.374475         0.89489     -8.15003e-05    -0.000288344
                     0.000234107    -0.000306327         0.108896      -0.0359356     -4.50829e-05     -0.00010571        -0.914958        0.385489
                       -0.374379         0.89464      0.000177631    -0.000205403        -0.231777     -0.00517195     -0.000170505     0.000371392
                     -1.3963e-05    -0.000268177        -0.914895        0.385143     -0.000327192      0.00019734        -0.102046       0.0529352
281700.7               -0.166567       -0.160415       0.00020103    -0.000310719         -0.37445          0.8949     -8.15083e-05    -0.000288346
                     0.000234091     -0.00030635         0.108893      -0.0359406     -4.50965e-05    -0.000105701        -0.914948        0.385514
                       -0.374354         0.89465      0.000177619    -0.000205404        -0.231778     -0.00516711     -0.000170487     0.000371399
                    -1.39472e-05    -0.000268162        -0.914885        0.385168     -0.000327184     0.000197305        -0.102045       0.0529346
281700.8               -0.166573        -0.16041      0.000201027    -0.000310722        -0.374424        0.894911     -8.15163e-05    -0.000288348
                     0.000234076    -0.000306372         0.108889      -0.0359456     -4.51101e-05    -0.000105692        -0.914938        0.385538
                       -0.374329        0.894661      0.000177607    -0.000205405        -0.231778     -0.00516227     -0.000170469     0.000371405
                    -1.39314e-05    -0.000268146        -0.914874        0.385192     -0.000327176     0.000197269        -0.102043        0.052934
281700.9               -0.166579       -0.160404      0.000201025    -0.000310726        -0.374399        0.894921     -8.15242e-05     -0.00028835
                     0.000234061    -0.000306395         0.108886      -0.0359506     -4.51238e-05    -0.000105683        -0.914928        0.385563
                       -0.374303        0.894671      0.000177595    -0.000205406        -0.231779     -0.00515744     -0.000170451     0.000371412
                    -1.39155e-05     -0.00026813        -0.914864        0.385217     -0.000327168     0.000197233        -0.102041       0.0529334
281701                 -0.166585       -0.160399      0.000201023    -0.000310729        -0.374373        0.894932     -8.15322e-05    -0.000288351
                     0.000234045    -0.000306417         0.108882      -0.0359556     -4.51374e-05    -0.000105675        -0.914918        0.385587
                       -0.374278        0.894682      0.000177583    -0.000205407         -0.23178      -0.0051526     -0.000170432     0.000371418
                    -1.38997e-05    -0.000268115        -0.914854        0.385242      -0.00032716     0.000197198        -0.102039       0.0529329
281701.1               -0.166592       -0.160393      0.000201021    -0.000310732        -0.374348        0.894942     -8.15402e-05    -0.000288353
                      0.00023403     -0.00030644         0.108879      -0.0359606      -4.5151e-05    -0.000105666        -0.914908        0.385612
                       -0.374252        0.894692      0.000177571    -0.000205408         -0.23178     -0.00514776     -0.000170414     0.000371425
                    -1.38839e-05    -0.000268099        -0.914844        0.385266     -0.000327152     0.000197162        -0.102038       0.0529323
281701.2               -0.166598       -0.160388      0.000201019    -0.000310736        -0.374322        0.894953     -8.15482e-05    -0.000288355
                     0.000234015    -0.000306462         0.108875      -0.0359656     -4.51646e-05    -0.000105657        -0.914897        0.385636
                       -0.374227        0.894703       0.00017756    -0.000205409        -0.231781     -0.00514292     -0.000170396     0.000371431
                    -1.38681e-05    -0.000268084        -0.914834        0.385291     -0.000327144     0.000197126        -0.102036       0.0529317
281701.3               -0.166604       -0.160382      0.000201016    -0.000310739        -0.374297        0.894963     -8.15561e-05    -0.000288356
                        0.000234    -0.000306485         0.108872      -0.0359706     -4.51782e-05    -0.000105649        -0.914887        0.385661
                       -0.374201        0.894713      0.000177548    -0.000205409        -0.231782     -0.00513808     -0.000170378     0.000371438
                    -1.38523e-05    -0.000268068        -0.914824        0.385315     -0.000327135     0.000197091        -0.102034       0.0529311
281701.4                -0.16661       -0.160376      0.000201014    -0.000310743        -0.374272        0.894974     -8.15641e-05    -0.000288358
                     0.000233984    -0.000306507         0.108868      -0.0359756     -4.51918e-05     -0.00010564        -0.914877        0.385686
                       -0.374176        0.894724      0.000177536     -0.00020541        -0.231782     -0.00513324      -0.00017036     0.000371444
                    -1.38364e-05    -0.000268052        -0.914814         0.38534     -0.000327127     0.000197055        -0.102033       0.0529306
281701.5               -0.166616       -0.160371      0.000201012    -0.000310746        -0.374246        0.894984     -8.15721e-05     -0.00028836
                     0.000233969     -0.00030653         0.108864      -0.0359806     -4.52054e-05    -0.000105631        -0.914867         0.38571
                        -0.37415        0.894734      0.000177524    -0.000205411        -0.231783      -0.0051284     -0.000170342     0.000371451
                    -1.38206e-05    -0.000268037        -0.914804        0.385364     -0.000327119     0.000197019        -0.102031         0.05293
281701.6               -0.166622       -0.160365       0.00020101     -0.00031075        -0.374221        0.894994     -8.15801e-05    -0.000288362
                     0.000233954    -0.000306552         0.108861      -0.0359856      -4.5219e-05    -0.000105623        -0.914857        0.385735
                       -0.374125        0.894745      0.000177512    -0.000205412        -0.231784     -0.00512356     -0.000170324     0.000371457
                    -1.38047e-05    -0.000268021        -0.914794        0.385389     -0.000327111     0.000196983        -0.102029       0.0529294
281701.7               -0.166628        -0.16036      0.000201008    -0.000310753        -0.374195        0.895005     -8.15881e-05    -0.000288363
                     0.000233938    -0.000306575         0.108857      -0.0359906     -4.52326e-05    -0.000105614        -0.914847        0.385759
                       -0.374099        0.894755        0.0001775    -0.000205413        -0.231784     -0.00511872     -0.000170306     0.000371464
                    -1.37889e-05    -0.000268006        -0.914783        0.385414     -0.000327103     0.000196948        -0.102027       0.0529288
281701.8               -0.166635       -0.160354      0.000201005    -0.000310756         -0.37417        0.895015      -8.1596e-05    -0.000288365
                     0.000233923    -0.000306597         0.108854      -0.0359956     -4.52462e-05    -0.000105605        -0.914837        0.385784
                       -0.374074        0.894766      0.000177488    -0.000205414        -0.231785     -0.00511388     -0.000170288      0.00037147
                     -1.3773e-05     -0.00026799        -0.914773        0.385438     -0.000327095     0.000196912        -0.102026       0.0529283
281701.9               -0.166641       -0.160349      0.000201003     -0.00031076        -0.374144        0.895026      -8.1604e-05    -0.000288367
                     0.000233908    -0.000306619          0.10885      -0.0360006     -4.52598e-05    -0.000105596        -0.914827        0.385808
                       -0.374048        0.894776      0.000177476    -0.000205415        -0.231786     -0.00510905      -0.00017027     0.000371477
                    -1.37572e-05    -0.000267974        -0.914763        0.385463     -0.000327087     0.000196876        -0.102024       0.0529277
281702                 -0.166647       -0.160343      0.000201001    -0.000310763        -0.374119        0.895036      -8.1612e-05    -0.000288369
                     0.000233892    -0.000306642         0.108847      -0.0360056     -4.52735e-05    -0.000105588        -0.914816        0.385833
                       -0.374023        0.894787      0.000177464    -0.000205416        -0.231786     -0.00510421     -0.000170252     0.000371483
                    -1.37413e-05    -0.000267959        -0.914753        0.385487     -0.000327079     0.000196841        -0.102022       0.0529271
281702.1               -0.166653       -0.160338      0.000200999    -0.000310767        -0.374093        0.895047       -8.162e-05     -0.00028837
                     0.000233877    -0.000306664         0.108843      -0.0360106     -4.52871e-05    -0.000105579        -0.914806        0.385858
                       -0.373998        0.894797      0.000177452    -0.000205417        -0.231787     -0.00509937     -0.000170234      0.00037149
                    -1.37254e-05    -0.000267943        -0.914743        0.385512     -0.000327071     0.000196805         -0.10202       0.0529266
281702.2               -0.166659       -0.160332      0.000200997     -0.00031077        -0.374068        0.895057      -8.1628e-05    -0.000288372
                     0.000233862    -0.000306687          0.10884      -0.0360156     -4.53007e-05     -0.00010557        -0.914796        0.385882
                       -0.373972        0.894808       0.00017744    -0.000205417        -0.231788     -0.00509453     -0.000170216     0.000371496
                    -1.37096e-05    -0.000267928        -0.914733        0.385536     -0.000327063     0.000196769        -0.102019        0.052926
281702.3               -0.166665       -0.160326      0.000200994    -0.000310774        -0.374042        0.895068      -8.1636e-05    -0.000288374
                     0.000233847    -0.000306709         0.108836      -0.0360206     -4.53143e-05    -0.000105562        -0.914786        0.385907
                       -0.373947        0.894818      0.000177429    -0.000205418        -0.231788     -0.00508969     -0.000170198     0.000371502
                    -1.36937e-05    -0.000267912        -0.914723        0.385561     -0.000327055     0.000196733        -0.102017       0.0529254
281702.4               -0.166671       -0.160321      0.000200992    -0.000310777        -0.374017        0.895078     -8.16439e-05    -0.000288375
                     0.000233831    -0.000306732         0.108833      -0.0360256     -4.53279e-05    -0.000105553        -0.914776        0.385931
                       -0.373921        0.894829      0.000177417    -0.000205419        -0.231789     -0.00508485      -0.00017018     0.000371509
                    -1.36778e-05    -0.000267896        -0.914713        0.385586     -0.000327047     0.000196698        -0.102015       0.0529248
281702.5               -0.166678       -0.160315       0.00020099     -0.00031078        -0.373991        0.895089     -8.16519e-05    -0.000288377
                     0.000233816    -0.000306754         0.108829      -0.0360306     -4.53415e-05    -0.000105544        -0.914766        0.385956
                       -0.373896        0.894839      0.000177405     -0.00020542         -0.23179     -0.00508001     -0.000170162     0.000371515
                    -1.36619e-05    -0.000267881        -0.914702         0.38561     -0.000327039     0.000196662        -0.102013       0.0529243
281702.6               -0.166684        -0.16031      0.000200988    -0.000310784        -0.373966        0.895099     -8.16599e-05    -0.000288379
                     0.000233801    -0.000306777         0.108825      -0.0360356     -4.53551e-05    -0.000105535        -0.914756         0.38598
                        -0.37387         0.89485      0.000177393    -0.000205421         -0.23179     -0.00507517     -0.000170144     0.000371522
                     -1.3646e-05    -0.000267865        -0.914692        0.385635     -0.000327031     0.000196626        -0.102012       0.0529237
281702.7                -0.16669       -0.160304      0.000200985    -0.000310787        -0.373941         0.89511     -8.16679e-05    -0.000288381
                     0.000233785    -0.000306799         0.108822      -0.0360406     -4.53687e-05    -0.000105527        -0.914745        0.386005
                       -0.373845         0.89486      0.000177381    -0.000205422        -0.231791     -0.00507033     -0.000170126     0.000371528
                    -1.36301e-05    -0.000267849        -0.914682        0.385659     -0.000327023      0.00019659         -0.10201       0.0529231
281702.8               -0.166696       -0.160299      0.000200983    -0.000310791        -0.373915         0.89512     -8.16759e-05    -0.000288382
                      0.00023377    -0.000306822         0.108818      -0.0360456     -4.53823e-05    -0.000105518        -0.914735         0.38603
                       -0.373819        0.894871      0.000177369    -0.000205423        -0.231792     -0.00506549     -0.000170108     0.000371535
                    -1.36142e-05    -0.000267834        -0.914672        0.385684     -0.000327015     0.000196555        -0.102008       0.0529225
281702.9               -0.166702       -0.160293      0.000200981    -0.000310794         -0.37389        0.895131     -8.16839e-05    -0.000288384
                     0.000233755    -0.000306844         0.108815      -0.0360506     -4.53959e-05    -0.000105509        -0.914725        0.386054
                       -0.373794        0.894881      0.000177357    -0.000205424        -0.231792     -0.00506065      -0.00017009     0.000371541
                    -1.35983e-05    -0.000267818        -0.914662        0.385708     -0.000327006     0.000196519        -0.102007        0.052922
281703                 -0.166708       -0.160287      0.000200979    -0.000310797        -0.373864        0.895141     -8.16919e-05    -0.000288386
                     0.000233739    -0.000306867         0.108811      -0.0360556     -4.54095e-05    -0.000105501        -0.914715        0.386079
                       -0.373768        0.894892      0.000177345    -0.000205425        -0.231793     -0.00505581     -0.000170072     0.000371548
                    -1.35824e-05    -0.000267803        -0.914652        0.385733     -0.000326998     0.000196483        -0.102005       0.0529214
281703.1               -0.166714       -0.160282      0.000200977    -0.000310801        -0.373839        0.895152     -8.16999e-05    -0.000288387
                     0.000233724    -0.000306889         0.108808      -0.0360606     -4.54231e-05    -0.000105492        -0.914705        0.386103
                       -0.373743        0.894902      0.000177333    -0.000205425        -0.231794     -0.00505097     -0.000170054     0.000371554
