! TOUCHSTONE file generated by CST MICROWAVE STUDIO
! Date and time: Wed Oct  8 07:01:05 2025
! Project name: Teste_Macro_Metasurface_Nanopilar.cst
! Parameters = {H=600; L_x=155; L_y=155; Lambda=1064; Max_L=200; Min_L=70; PathPara=1; Phi=0; Step_L=10; Theta=0; p=520; phaseX=180; phaseY=0}
! Header version: 2018
! Port assignment regex: !\s*Touchstone port\s*([0-9]+)\s*=\s*(CST MWS port|CST DS port)\s*([0-9]+|Zmin|Zmax)\s*\(\"(.*)\"\)(\s*mode\s*([0-9]+))?.*
! Touchstone port assignment:
! Touchstone port 1 = CST MWS port Zmax ("") mode 1
! Touchstone port 2 = CST MWS port Zmax ("") mode 2
! Touchstone port 3 = CST MWS port Zmin ("") mode 1
! Touchstone port 4 = CST MWS port Zmin ("") mode 2
! S-Parameters are not renormalized. Each port impedance will be approximated by the real part at minimum frequency. The values are described via the [Reference] keyword.
! Default impedance is overridden by [Reference]
[Version] 2.0
# GHz S RI R 376.73
[Number of Ports] 4
[Reference]
376.73 376.73 376.73 376.73 
[Number of Frequencies] 1001
[Network Data]
281700                 -0.148601        0.247562     -0.000906033     0.000943478        -0.727248       -0.612068       0.00161798     -0.00130661
                    -0.000837562     0.000854215        -0.146499        0.248132       0.00176389     -0.00124217        -0.728028       -0.611306
                       -0.727164       -0.612225       0.00182687     -0.00130352        -0.223857        0.180358      -0.00130351    -3.83447e-05
                      0.00139756     -0.00130462        -0.728054       -0.611282      -0.00176965     4.88009e-05        -0.224431        0.178836
281700.1                -0.14859        0.247561     -0.000905995     0.000943492        -0.727268       -0.612047        0.0016179     -0.00130666
                    -0.000837529     0.000854229        -0.146488        0.248131       0.00176379     -0.00124225        -0.728049       -0.611284
                       -0.727185       -0.612203       0.00182679     -0.00130356        -0.223846        0.180362      -0.00130349    -3.82489e-05
                      0.00139747     -0.00130469        -0.728075        -0.61126      -0.00176965     4.89122e-05         -0.22442        0.178839
281700.2                -0.14858        0.247559     -0.000905956     0.000943507        -0.727289       -0.612025       0.00161782     -0.00130671
                    -0.000837495     0.000854243        -0.146478        0.248129       0.00176368     -0.00124234         -0.72807       -0.611263
                       -0.727206       -0.612182       0.00182671      -0.0013036        -0.223835        0.180365      -0.00130347    -3.81531e-05
                      0.00139738     -0.00130477        -0.728096       -0.611239      -0.00176964     4.90235e-05        -0.224409        0.178842
281700.3               -0.148569        0.247558     -0.000905918     0.000943521         -0.72731       -0.612004       0.00161774     -0.00130676
                    -0.000837461     0.000854257        -0.146467        0.248127       0.00176358     -0.00124242        -0.728091       -0.611242
                       -0.727227        -0.61216       0.00182663     -0.00130364        -0.223823        0.180368      -0.00130345    -3.80573e-05
                      0.00139729     -0.00130484        -0.728117       -0.611217      -0.00176964     4.91348e-05        -0.224397        0.178846
281700.4               -0.148558        0.247556     -0.000905879     0.000943535        -0.727331       -0.611982       0.00161766     -0.00130681
                    -0.000837427     0.000854272        -0.146456        0.248126       0.00176347      -0.0012425        -0.728111        -0.61122
                       -0.727247       -0.612139       0.00182654     -0.00130368        -0.223812        0.180371      -0.00130344    -3.79615e-05
                       0.0013972     -0.00130492        -0.728138       -0.611196      -0.00176964     4.92461e-05        -0.224386        0.178849
281700.5               -0.148548        0.247555     -0.000905841      0.00094355        -0.727352       -0.611961       0.00161758     -0.00130687
                    -0.000837393     0.000854286        -0.146446        0.248124       0.00176337     -0.00124258        -0.728132       -0.611199
                       -0.727268       -0.612117       0.00182646     -0.00130372        -0.223801        0.180375      -0.00130342    -3.78657e-05
                       0.0013971     -0.00130499        -0.728158       -0.611174      -0.00176964     4.93574e-05        -0.224375        0.178852
281700.6               -0.148537        0.247553     -0.000905803     0.000943564        -0.727373        -0.61194        0.0016175     -0.00130692
                    -0.000837359       0.0008543        -0.146435        0.248123       0.00176326     -0.00124266        -0.728153       -0.611177
                       -0.727289       -0.612096       0.00182638     -0.00130376        -0.223789        0.180378       -0.0013034    -3.77699e-05
                      0.00139701     -0.00130506        -0.728179       -0.611153      -0.00176963     4.94687e-05        -0.224364        0.178855
281700.7               -0.148526        0.247551     -0.000905764     0.000943578        -0.727393       -0.611918       0.00161742     -0.00130697
                    -0.000837325     0.000854314        -0.146424        0.248121       0.00176315     -0.00124275        -0.728174       -0.611156
                        -0.72731       -0.612074       0.00182629      -0.0013038        -0.223778        0.180381      -0.00130338    -3.76742e-05
                      0.00139692     -0.00130514          -0.7282       -0.611131      -0.00176963       4.958e-05        -0.224352        0.178859
281700.8               -0.148516         0.24755     -0.000905726     0.000943592        -0.727414       -0.611897       0.00161734     -0.00130702
                    -0.000837291     0.000854329        -0.146413        0.248119       0.00176305     -0.00124283        -0.728195       -0.611134
                       -0.727331       -0.612053       0.00182621     -0.00130383        -0.223767        0.180385      -0.00130336    -3.75784e-05
                      0.00139683     -0.00130521        -0.728221        -0.61111      -0.00176963     4.96913e-05        -0.224341        0.178862
281700.9               -0.148505        0.247548     -0.000905687     0.000943607        -0.727435       -0.611875       0.00161726     -0.00130708
                    -0.000837257     0.000854343        -0.146403        0.248118       0.00176294     -0.00124291        -0.728215       -0.611113
                       -0.727351       -0.612031       0.00182613     -0.00130387        -0.223756        0.180388      -0.00130334    -3.74826e-05
                      0.00139674     -0.00130529        -0.728242       -0.611088      -0.00176962     4.98026e-05         -0.22433        0.178865
281701                 -0.148494        0.247547     -0.000905649     0.000943621        -0.727456       -0.611854       0.00161718     -0.00130713
                    -0.000837223     0.000854357        -0.146392        0.248116       0.00176284     -0.00124299        -0.728236       -0.611091
                       -0.727372        -0.61201       0.00182605     -0.00130391        -0.223744        0.180391      -0.00130332    -3.73868e-05
                      0.00139665     -0.00130536        -0.728262       -0.611067      -0.00176962     4.99139e-05        -0.224319        0.178868
281701.1               -0.148484        0.247545      -0.00090561     0.000943635        -0.727477       -0.611832        0.0016171     -0.00130718
                     -0.00083719     0.000854371        -0.146381        0.248114       0.00176273     -0.00124307        -0.728257        -0.61107
                       -0.727393       -0.611988       0.00182596     -0.00130395        -0.223733        0.180394      -0.00130331    -3.72911e-05
                      0.00139655     -0.00130544        -0.728283       -0.611045      -0.00176962     5.00252e-05        -0.224308        0.178872
281701.2               -0.148473        0.247544     -0.000905572      0.00094365        -0.727498       -0.611811       0.00161702     -0.00130723
                    -0.000837156     0.000854386        -0.146371        0.248113       0.00176263     -0.00124316        -0.728278       -0.611049
                       -0.727414       -0.611967       0.00182588     -0.00130399        -0.223722        0.180398      -0.00130329    -3.71953e-05
                      0.00139646     -0.00130551        -0.728304       -0.611024      -0.00176962     5.01365e-05        -0.224296        0.178875
281701.3               -0.148462        0.247542     -0.000905533     0.000943664        -0.727519        -0.61179       0.00161694     -0.00130728
                    -0.000837122       0.0008544         -0.14636        0.248111       0.00176252     -0.00124324        -0.728299       -0.611027
                       -0.727435       -0.611946        0.0018258     -0.00130403         -0.22371        0.180401      -0.00130327    -3.70996e-05
                      0.00139637     -0.00130558        -0.728325       -0.611002      -0.00176961     5.02479e-05        -0.224285        0.178878
281701.4               -0.148452        0.247541     -0.000905495     0.000943678        -0.727539       -0.611768       0.00161686     -0.00130734
                    -0.000837088     0.000854414        -0.146349         0.24811       0.00176242     -0.00124332        -0.728319       -0.611006
                       -0.727455       -0.611924       0.00182571     -0.00130407        -0.223699        0.180404      -0.00130325    -3.70038e-05
                      0.00139628     -0.00130566        -0.728345       -0.610981      -0.00176961     5.03592e-05        -0.224274        0.178881
281701.5               -0.148441        0.247539     -0.000905456     0.000943693         -0.72756       -0.611747       0.00161678     -0.00130739
                    -0.000837054     0.000854428        -0.146338        0.248108       0.00176231      -0.0012434         -0.72834       -0.610984
                       -0.727476       -0.611903       0.00182563     -0.00130411        -0.223688        0.180407      -0.00130323    -3.69081e-05
                      0.00139619     -0.00130573        -0.728366        -0.61096      -0.00176961     5.04705e-05        -0.224263        0.178885
281701.6               -0.148431        0.247537     -0.000905418     0.000943707        -0.727581       -0.611725        0.0016167     -0.00130744
                     -0.00083702     0.000854443        -0.146328        0.248106        0.0017622     -0.00124348        -0.728361       -0.610963
                       -0.727497       -0.611881       0.00182555     -0.00130415        -0.223676        0.180411      -0.00130321    -3.68123e-05
                       0.0013961     -0.00130581        -0.728387       -0.610938       -0.0017696     5.05818e-05        -0.224251        0.178888
281701.7                -0.14842        0.247536     -0.000905379     0.000943721        -0.727602       -0.611704       0.00161662     -0.00130749
                    -0.000836986     0.000854457        -0.146317        0.248105        0.0017621     -0.00124357        -0.728382       -0.610941
                       -0.727518        -0.61186       0.00182547     -0.00130419        -0.223665        0.180414      -0.00130319    -3.67166e-05
                        0.001396     -0.00130588        -0.728408       -0.610917       -0.0017696     5.06931e-05         -0.22424        0.178891
281701.8               -0.148409        0.247534     -0.000905341     0.000943735        -0.727623       -0.611682       0.00161654     -0.00130755
                    -0.000836952     0.000854471        -0.146306        0.248103       0.00176199     -0.00124365        -0.728403        -0.61092
                       -0.727539       -0.611838       0.00182538     -0.00130423        -0.223654        0.180417      -0.00130318    -3.66209e-05
                      0.00139591     -0.00130595        -0.728429       -0.610895       -0.0017696     5.08044e-05        -0.224229        0.178894
281701.9               -0.148399        0.247533     -0.000905302      0.00094375        -0.727644       -0.611661       0.00161646      -0.0013076
                    -0.000836918     0.000854486        -0.146296        0.248102       0.00176189     -0.00124373        -0.728423       -0.610898
                       -0.727559       -0.611817        0.0018253     -0.00130427        -0.223643         0.18042      -0.00130316    -3.65251e-05
                      0.00139582     -0.00130603        -0.728449       -0.610874      -0.00176959     5.09157e-05        -0.224218        0.178898
281702                 -0.148388        0.247531     -0.000905264     0.000943764        -0.727665        -0.61164       0.00161638     -0.00130765
                    -0.000836884       0.0008545        -0.146285          0.2481       0.00176178     -0.00124381        -0.728444       -0.610877
                        -0.72758       -0.611795       0.00182522      -0.0013043        -0.223631        0.180424      -0.00130314    -3.64294e-05
                      0.00139573      -0.0013061         -0.72847       -0.610852      -0.00176959      5.1027e-05        -0.224206        0.178901
281702.1               -0.148377         0.24753     -0.000905225     0.000943778        -0.727685       -0.611618        0.0016163      -0.0013077
                     -0.00083685     0.000854514        -0.146274        0.248098       0.00176168     -0.00124389        -0.728465       -0.610855
                       -0.727601       -0.611774       0.00182514     -0.00130434         -0.22362        0.180427      -0.00130312    -3.63337e-05
                      0.00139564     -0.00130618        -0.728491       -0.610831      -0.00176959     5.11383e-05        -0.224195        0.178904
281702.2               -0.148367        0.247528     -0.000905187     0.000943793        -0.727706       -0.611597       0.00161622     -0.00130775
                    -0.000836817     0.000854528        -0.146263        0.248097       0.00176157     -0.00124398        -0.728486       -0.610834
                       -0.727622       -0.611752       0.00182505     -0.00130438        -0.223609         0.18043       -0.0013031     -3.6238e-05
                      0.00139555     -0.00130625        -0.728512       -0.610809      -0.00176959     5.12496e-05        -0.224184        0.178907
281702.3               -0.148356        0.247526     -0.000905148     0.000943807        -0.727727       -0.611575       0.00161614     -0.00130781
                    -0.000836783     0.000854543        -0.146253        0.248095       0.00176146     -0.00124406        -0.728507       -0.610813
                       -0.727642       -0.611731       0.00182497     -0.00130442        -0.223597        0.180434      -0.00130308    -3.61422e-05
                      0.00139546     -0.00130632        -0.728533       -0.610788      -0.00176958     5.13609e-05        -0.224173        0.178911
281702.4               -0.148345        0.247525      -0.00090511     0.000943821        -0.727748       -0.611554       0.00161606     -0.00130786
                    -0.000836749     0.000854557        -0.146242        0.248093       0.00176136     -0.00124414        -0.728527       -0.610791
                       -0.727663       -0.611709       0.00182489     -0.00130446        -0.223586        0.180437      -0.00130306    -3.60465e-05
                      0.00139536      -0.0013064        -0.728553       -0.610766      -0.00176958     5.14722e-05        -0.224162        0.178914
281702.5               -0.148335        0.247523     -0.000905071     0.000943835        -0.727769       -0.611532       0.00161598     -0.00130791
                    -0.000836715     0.000854571        -0.146231        0.248092       0.00176125     -0.00124422        -0.728548        -0.61077
                       -0.727684       -0.611688        0.0018248      -0.0013045        -0.223575         0.18044      -0.00130305    -3.59508e-05
                      0.00139527     -0.00130647        -0.728574       -0.610745      -0.00176958     5.15835e-05         -0.22415        0.178917
281702.6               -0.148324        0.247522     -0.000905033      0.00094385         -0.72779       -0.611511        0.0016159     -0.00130796
                    -0.000836681     0.000854586        -0.146221         0.24809       0.00176115      -0.0012443        -0.728569       -0.610748
                       -0.727705       -0.611666       0.00182472     -0.00130454        -0.223564        0.180443      -0.00130303    -3.58551e-05
                      0.00139518     -0.00130655        -0.728595       -0.610723      -0.00176957     5.16949e-05        -0.224139         0.17892
281702.7               -0.148313         0.24752     -0.000904994     0.000943864         -0.72781       -0.611489       0.00161582     -0.00130801
                    -0.000836647       0.0008546         -0.14621        0.248089       0.00176104     -0.00124439         -0.72859       -0.610727
                       -0.727726       -0.611645       0.00182464     -0.00130458        -0.223552        0.180447      -0.00130301    -3.57594e-05
                      0.00139509     -0.00130662        -0.728616       -0.610702      -0.00176957     5.18062e-05        -0.224128        0.178924
281702.8               -0.148303        0.247519     -0.000904956     0.000943878        -0.727831       -0.611468       0.00161574     -0.00130807
                    -0.000836613     0.000854614        -0.146199        0.248087       0.00176093     -0.00124447         -0.72861       -0.610705
                       -0.727746       -0.611623       0.00182456     -0.00130462        -0.223541         0.18045      -0.00130299    -3.56637e-05
                        0.001395     -0.00130669        -0.728636        -0.61068      -0.00176957     5.19175e-05        -0.224117        0.178927
281702.9               -0.148292        0.247517     -0.000904917     0.000943893        -0.727852       -0.611447       0.00161567     -0.00130812
                    -0.000836579     0.000854628        -0.146189        0.248085       0.00176083     -0.00124455        -0.728631       -0.610684
                       -0.727767       -0.611602       0.00182447     -0.00130466         -0.22353        0.180453      -0.00130297     -3.5568e-05
                      0.00139491     -0.00130677        -0.728657       -0.610659      -0.00176956     5.20288e-05        -0.224105         0.17893
281703                 -0.148281        0.247516     -0.000904879     0.000943907        -0.727873       -0.611425       0.00161559     -0.00130817
                    -0.000836545     0.000854643        -0.146178        0.248084       0.00176072     -0.00124463        -0.728652       -0.610662
                       -0.727788        -0.61158       0.00182439      -0.0013047        -0.223518        0.180456      -0.00130295    -3.54724e-05
                      0.00139481     -0.00130684        -0.728678       -0.610637      -0.00176956     5.21401e-05        -0.224094        0.178933
281703.1               -0.148271        0.247514      -0.00090484     0.000943921        -0.727894       -0.611404       0.00161551     -0.00130822
                    -0.000836511     0.000854657        -0.146167        0.248082       0.00176062     -0.00124471        -0.728673       -0.610641
                       -0.727809       -0.611559       0.00182431     -0.00130474        -0.223507         0.18046      -0.00130293    -3.53767e-05
