! TOUCHSTONE file generated by CST MICROWAVE STUDIO
! Date and time: Wed Oct  8 06:58:00 2025
! Project name: Teste_Macro_Metasurface_Nanopilar.cst
! Parameters = {H=600; L_x=130; L_y=135; Lambda=1064; Max_L=200; Min_L=70; PathPara=1; Phi=0; Step_L=10; Theta=0; p=520; phaseX=180; phaseY=0}
! Header version: 2018
! Port assignment regex: !\s*Touchstone port\s*([0-9]+)\s*=\s*(CST MWS port|CST DS port)\s*([0-9]+|Zmin|Zmax)\s*\(\"(.*)\"\)(\s*mode\s*([0-9]+))?.*
! Touchstone port assignment:
! Touchstone port 1 = CST MWS port Zmax ("") mode 1
! Touchstone port 2 = CST MWS port Zmax ("") mode 2
! Touchstone port 3 = CST MWS port Zmin ("") mode 1
! Touchstone port 4 = CST MWS port Zmin ("") mode 2
! S-Parameters are not renormalized. Each port impedance will be approximated by the real part at minimum frequency. The values are described via the [Reference] keyword.
! Default impedance is overridden by [Reference]
[Version] 2.0
# GHz S RI R 376.73
[Number of Ports] 4
[Reference]
376.73 376.73 376.73 376.73 
[Number of Frequencies] 1001
[Network Data]
281700                 -0.221006      -0.0206491     -0.000518311     -0.00117849        -0.280201       -0.928901       0.00150748    -0.000216879
                    -0.000607532     -0.00120586        -0.234237      -0.0565874       0.00165593     7.15864e-05        -0.117357        -0.95756
                       -0.279579       -0.928432       0.00163698     0.000132838         -0.17364        0.138744     -0.000458854     0.000772034
                      0.00150607    -0.000378286        -0.117096       -0.957483      -0.00036506     0.000692283        -0.214322         0.11137
281700.1               -0.221004      -0.0206418     -0.000518387     -0.00117847        -0.280229       -0.928893       0.00150749    -0.000216928
                    -0.000607575     -0.00120583        -0.234236      -0.0565789       0.00165594     7.15362e-05        -0.117387       -0.957557
                       -0.279607       -0.928424       0.00163698     0.000132773        -0.173634        0.138747      -0.00045883     0.000772057
                      0.00150607    -0.000378337        -0.117125        -0.95748      -0.00036504     0.000692288        -0.214317        0.111375
281700.2               -0.221001      -0.0206344     -0.000518462     -0.00117846        -0.280258       -0.928885        0.0015075    -0.000216977
                    -0.000607618      -0.0012058        -0.234236      -0.0565705       0.00165594      7.1486e-05        -0.117416       -0.957554
                       -0.279636       -0.928416       0.00163699     0.000132708        -0.173627        0.138749     -0.000458807      0.00077208
                      0.00150607    -0.000378388        -0.117155       -0.957477      -0.00036502     0.000692292        -0.214312        0.111379
281700.3               -0.220999      -0.0206271     -0.000518538     -0.00117844        -0.280286       -0.928877        0.0015075    -0.000217026
                     -0.00060766     -0.00120578        -0.234236       -0.056562       0.00165595     7.14358e-05        -0.117445       -0.957551
                       -0.279664       -0.928408         0.001637     0.000132644        -0.173621        0.138752     -0.000458783     0.000772104
                      0.00150606    -0.000378439        -0.117184       -0.957474     -0.000365001     0.000692297        -0.214307        0.111384
281700.4               -0.220996      -0.0206197     -0.000518613     -0.00117842        -0.280315       -0.928869       0.00150751    -0.000217076
                    -0.000607703     -0.00120575        -0.234236      -0.0565536       0.00165596     7.13855e-05        -0.117475       -0.957548
                       -0.279693         -0.9284       0.00163701     0.000132579        -0.173614        0.138755      -0.00045876     0.000772127
                      0.00150606    -0.000378491        -0.117214       -0.957471     -0.000364981     0.000692302        -0.214302        0.111389
281700.5               -0.220994      -0.0206123     -0.000518689      -0.0011784        -0.280343       -0.928861       0.00150752    -0.000217125
                    -0.000607746     -0.00120572        -0.234236      -0.0565451       0.00165597     7.13353e-05        -0.117504       -0.957545
                       -0.279721       -0.928393       0.00163701     0.000132515        -0.173608        0.138758     -0.000458736      0.00077215
                      0.00150605    -0.000378542        -0.117243       -0.957468     -0.000364961     0.000692307        -0.214297        0.111394
281700.6               -0.220991       -0.020605     -0.000518764     -0.00117838        -0.280372       -0.928854       0.00150752    -0.000217174
                    -0.000607789      -0.0012057        -0.234236      -0.0565367       0.00165598     7.12851e-05        -0.117534       -0.957542
                        -0.27975       -0.928385       0.00163702      0.00013245        -0.173601        0.138761     -0.000458712     0.000772173
                      0.00150605    -0.000378593        -0.117272       -0.957465     -0.000364942     0.000692311        -0.214292        0.111399
281700.7               -0.220988      -0.0205976      -0.00051884     -0.00117836          -0.2804       -0.928846       0.00150753    -0.000217223
                    -0.000607832     -0.00120567        -0.234235      -0.0565282       0.00165599     7.12349e-05        -0.117563       -0.957539
                       -0.279778       -0.928377       0.00163703     0.000132385        -0.173595        0.138764     -0.000458689     0.000772196
                      0.00150605    -0.000378644        -0.117302       -0.957462     -0.000364922     0.000692316        -0.214287        0.111403
281700.8               -0.220986      -0.0205902     -0.000518916     -0.00117834        -0.280429       -0.928838       0.00150753    -0.000217272
                    -0.000607875     -0.00120565        -0.234235      -0.0565198         0.001656     7.11847e-05        -0.117592       -0.957536
                       -0.279807       -0.928369       0.00163704     0.000132321        -0.173588        0.138767     -0.000458665     0.000772219
                      0.00150604    -0.000378695        -0.117331       -0.957459     -0.000364902     0.000692321        -0.214282        0.111408
281700.9               -0.220983      -0.0205829     -0.000518991     -0.00117832        -0.280457        -0.92883       0.00150754    -0.000217322
                    -0.000607917     -0.00120562        -0.234235      -0.0565113       0.00165601     7.11345e-05        -0.117622       -0.957533
                       -0.279835       -0.928361       0.00163704     0.000132256        -0.173581         0.13877     -0.000458641     0.000772242
                      0.00150604    -0.000378746        -0.117361       -0.957456     -0.000364882     0.000692326        -0.214277        0.111413
281701                 -0.220981      -0.0205755     -0.000519067      -0.0011783        -0.280486       -0.928822       0.00150755    -0.000217371
                     -0.00060796     -0.00120559        -0.234235      -0.0565029       0.00165602     7.10843e-05        -0.117651        -0.95753
                       -0.279864       -0.928354       0.00163705     0.000132192        -0.173575        0.138773     -0.000458618     0.000772266
                      0.00150604    -0.000378797         -0.11739       -0.957453     -0.000364863      0.00069233        -0.214272        0.111418
281701.1               -0.220978      -0.0205681     -0.000519142     -0.00117828        -0.280514       -0.928814       0.00150755     -0.00021742
                    -0.000608003     -0.00120557        -0.234235      -0.0564944       0.00165603     7.10341e-05        -0.117681       -0.957527
                       -0.279892       -0.928346       0.00163706     0.000132127        -0.173568        0.138776     -0.000458594     0.000772289
                      0.00150603    -0.000378848        -0.117419        -0.95745     -0.000364843     0.000692335        -0.214267        0.111423
281701.2               -0.220976      -0.0205608     -0.000519218     -0.00117826        -0.280543       -0.928807       0.00150756    -0.000217469
                    -0.000608046     -0.00120554        -0.234234       -0.056486       0.00165603     7.09839e-05         -0.11771       -0.957524
                       -0.279921       -0.928338       0.00163707     0.000132062        -0.173562        0.138779      -0.00045857     0.000772312
                      0.00150603      -0.0003789        -0.117449       -0.957447     -0.000364823      0.00069234        -0.214262        0.111427
281701.3               -0.220973      -0.0205534     -0.000519293     -0.00117824        -0.280571       -0.928799       0.00150757    -0.000217519
                    -0.000608089     -0.00120552        -0.234234      -0.0564776       0.00165604     7.09337e-05        -0.117739       -0.957521
                       -0.279949        -0.92833       0.00163707     0.000131998        -0.173555        0.138782     -0.000458547     0.000772335
                      0.00150602    -0.000378951        -0.117478       -0.957444     -0.000364804     0.000692344        -0.214257        0.111432
281701.4               -0.220971      -0.0205461     -0.000519369     -0.00117822          -0.2806       -0.928791       0.00150757    -0.000217568
                    -0.000608131     -0.00120549        -0.234234      -0.0564691       0.00165605     7.08835e-05        -0.117769       -0.957517
                       -0.279978       -0.928322       0.00163708     0.000131933        -0.173549        0.138785     -0.000458523     0.000772358
                      0.00150602    -0.000379002        -0.117508       -0.957441     -0.000364784     0.000692349        -0.214252        0.111437
281701.5               -0.220968      -0.0205387     -0.000519445      -0.0011782        -0.280629       -0.928783       0.00150758    -0.000217617
                    -0.000608174     -0.00120546        -0.234234      -0.0564607       0.00165606     7.08333e-05        -0.117798       -0.957514
                       -0.280006       -0.928315       0.00163709     0.000131869        -0.173542        0.138788     -0.000458499     0.000772381
                      0.00150602    -0.000379053        -0.117537       -0.957437     -0.000364764     0.000692354        -0.214247        0.111442
281701.6               -0.220966      -0.0205313      -0.00051952     -0.00117818        -0.280657       -0.928775       0.00150758    -0.000217666
                    -0.000608217     -0.00120544        -0.234234      -0.0564522       0.00165607     7.07831e-05        -0.117828       -0.957511
                       -0.280035       -0.928307        0.0016371     0.000131804        -0.173536        0.138791     -0.000458476     0.000772405
                      0.00150601    -0.000379104        -0.117566       -0.957434     -0.000364744     0.000692358        -0.214242        0.111447
281701.7               -0.220963       -0.020524     -0.000519596     -0.00117816        -0.280686       -0.928767       0.00150759    -0.000217716
                     -0.00060826     -0.00120541        -0.234233      -0.0564438       0.00165608     7.07329e-05        -0.117857       -0.957508
                       -0.280063       -0.928299        0.0016371     0.000131739        -0.173529        0.138794     -0.000458452     0.000772428
                      0.00150601    -0.000379155        -0.117596       -0.957431     -0.000364725     0.000692363        -0.214237        0.111451
281701.8                -0.22096      -0.0205166     -0.000519671     -0.00117814        -0.280714        -0.92876        0.0015076    -0.000217765
                    -0.000608303     -0.00120539        -0.234233      -0.0564353       0.00165609     7.06827e-05        -0.117886       -0.957505
                       -0.280092       -0.928291       0.00163711     0.000131675        -0.173523        0.138797     -0.000458428     0.000772451
                      0.00150601    -0.000379206        -0.117625       -0.957428     -0.000364705     0.000692368        -0.214232        0.111456
281701.9               -0.220958      -0.0205092     -0.000519747     -0.00117812        -0.280743       -0.928752        0.0015076    -0.000217814
                    -0.000608346     -0.00120536        -0.234233      -0.0564269        0.0016561     7.06325e-05        -0.117916       -0.957502
                        -0.28012       -0.928283       0.00163712      0.00013161        -0.173516          0.1388     -0.000458405     0.000772474
                        0.001506    -0.000379257        -0.117655       -0.957425     -0.000364685     0.000692373        -0.214227        0.111461
281702                 -0.220955      -0.0205019     -0.000519822      -0.0011781        -0.280771       -0.928744       0.00150761    -0.000217863
                    -0.000608388     -0.00120533        -0.234233      -0.0564184       0.00165611     7.05823e-05        -0.117945       -0.957499
                       -0.280149       -0.928275       0.00163713     0.000131546         -0.17351        0.138803     -0.000458381     0.000772497
                        0.001506    -0.000379308        -0.117684       -0.957422     -0.000364666     0.000692377        -0.214222        0.111466
281702.1               -0.220953      -0.0204945     -0.000519898     -0.00117808          -0.2808       -0.928736       0.00150762    -0.000217913
                    -0.000608431     -0.00120531        -0.234233        -0.05641       0.00165612     7.05321e-05        -0.117975       -0.957496
                       -0.280177       -0.928268       0.00163713     0.000131481        -0.173503        0.138806     -0.000458357      0.00077252
                      0.00150599     -0.00037936        -0.117713       -0.957419     -0.000364646     0.000692382        -0.214217        0.111471
281702.2                -0.22095      -0.0204872     -0.000519973     -0.00117806        -0.280828       -0.928728       0.00150762    -0.000217962
                    -0.000608474     -0.00120528        -0.234233      -0.0564015       0.00165612     7.04819e-05        -0.118004       -0.957493
                       -0.280206        -0.92826       0.00163714     0.000131416        -0.173497        0.138809     -0.000458334     0.000772543
                      0.00150599    -0.000379411        -0.117743       -0.957416     -0.000364626     0.000692387        -0.214212        0.111475
281702.3               -0.220948      -0.0204798     -0.000520049     -0.00117804        -0.280857        -0.92872       0.00150763    -0.000218011
                    -0.000608517     -0.00120525        -0.234232      -0.0563931       0.00165613     7.04317e-05        -0.118033        -0.95749
                       -0.280234       -0.928252       0.00163715     0.000131352         -0.17349        0.138811      -0.00045831     0.000772567
                      0.00150599    -0.000379462        -0.117772       -0.957413     -0.000364607     0.000692391        -0.214207         0.11148
281702.4               -0.220945      -0.0204724     -0.000520124     -0.00117802        -0.280885       -0.928713       0.00150763     -0.00021806
                     -0.00060856     -0.00120523        -0.234232      -0.0563846       0.00165614     7.03815e-05        -0.118063       -0.957487
                       -0.280263       -0.928244       0.00163716     0.000131287        -0.173484        0.138814     -0.000458286      0.00077259
                      0.00150598    -0.000379513        -0.117802        -0.95741     -0.000364587     0.000692396        -0.214202        0.111485
281702.5               -0.220943      -0.0204651       -0.0005202       -0.001178        -0.280914       -0.928705       0.00150764    -0.000218109
                    -0.000608603      -0.0012052        -0.234232      -0.0563762       0.00165615     7.03314e-05        -0.118092       -0.957484
                       -0.280291       -0.928236       0.00163717     0.000131223        -0.173477        0.138817     -0.000458263     0.000772613
                      0.00150598    -0.000379564        -0.117831       -0.957407     -0.000364567     0.000692401        -0.214197         0.11149
281702.6                -0.22094      -0.0204577     -0.000520276     -0.00117798        -0.280942       -0.928697       0.00150765    -0.000218159
                    -0.000608645     -0.00120518        -0.234232      -0.0563677       0.00165616     7.02812e-05        -0.118122       -0.957481
                        -0.28032       -0.928229       0.00163717     0.000131158        -0.173471         0.13882     -0.000458239     0.000772636
                      0.00150598    -0.000379615         -0.11786       -0.957404     -0.000364547     0.000692405        -0.214193        0.111495
281702.7               -0.220938      -0.0204504     -0.000520351     -0.00117796        -0.280971       -0.928689       0.00150765    -0.000218208
                    -0.000608688     -0.00120515        -0.234232      -0.0563593       0.00165617      7.0231e-05        -0.118151       -0.957478
                       -0.280348       -0.928221       0.00163718     0.000131093        -0.173464        0.138823     -0.000458215     0.000772659
                      0.00150597    -0.000379666         -0.11789       -0.957401     -0.000364528      0.00069241        -0.214188        0.111499
281702.8               -0.220935       -0.020443     -0.000520427     -0.00117794        -0.280999       -0.928681       0.00150766    -0.000218257
                    -0.000608731     -0.00120512        -0.234231      -0.0563508       0.00165618     7.01808e-05         -0.11818       -0.957475
                       -0.280377       -0.928213       0.00163719     0.000131029        -0.173458        0.138826     -0.000458192     0.000772682
                      0.00150597    -0.000379717        -0.117919       -0.957398     -0.000364508     0.000692415        -0.214183        0.111504
281702.9               -0.220932      -0.0204356     -0.000520502     -0.00117792        -0.281028       -0.928673       0.00150767    -0.000218306
                    -0.000608774      -0.0012051        -0.234231      -0.0563424       0.00165619     7.01306e-05         -0.11821       -0.957472
                       -0.280405       -0.928205        0.0016372     0.000130964        -0.173451        0.138829     -0.000458168     0.000772705
                      0.00150596    -0.000379768        -0.117949       -0.957395     -0.000364488      0.00069242        -0.214178        0.111509
281703                  -0.22093      -0.0204283     -0.000520578      -0.0011779        -0.281056       -0.928666       0.00150767    -0.000218356
                    -0.000608817     -0.00120507        -0.234231       -0.056334        0.0016562     7.00804e-05        -0.118239       -0.957469
                       -0.280434       -0.928197        0.0016372     0.000130899        -0.173445        0.138832     -0.000458144     0.000772729
                      0.00150596     -0.00037982        -0.117978       -0.957392     -0.000364469     0.000692424        -0.214173        0.111514
281703.1               -0.220927      -0.0204209     -0.000520653     -0.00117788        -0.281085       -0.928658       0.00150768    -0.000218405
                    -0.000608859     -0.00120505        -0.234231      -0.0563255       0.00165621     7.00303e-05        -0.118269       -0.957466
                       -0.280462       -0.928189       0.00163721     0.000130835        -0.173438        0.138835     -0.000458121     0.000772752
