! TOUCHSTONE file generated by CST MICROWAVE STUDIO
! Date and time: Wed Oct  8 07:02:13 2025
! Project name: Teste_Macro_Metasurface_Nanopilar.cst
! Parameters = {H=600; L_x=165; L_y=140; Lambda=1064; Max_L=200; Min_L=70; PathPara=1; Phi=0; Step_L=10; Theta=0; p=520; phaseX=180; phaseY=0}
! Header version: 2018
! Port assignment regex: !\s*Touchstone port\s*([0-9]+)\s*=\s*(CST MWS port|CST DS port)\s*([0-9]+|Zmin|Zmax)\s*\(\"(.*)\"\)(\s*mode\s*([0-9]+))?.*
! Touchstone port assignment:
! Touchstone port 1 = CST MWS port Zmax ("") mode 1
! Touchstone port 2 = CST MWS port Zmax ("") mode 2
! Touchstone port 3 = CST MWS port Zmin ("") mode 1
! Touchstone port 4 = CST MWS port Zmin ("") mode 2
! S-Parameters are not renormalized. Each port impedance will be approximated by the real part at minimum frequency. The values are described via the [Reference] keyword.
! Default impedance is overridden by [Reference]
[Version] 2.0
# GHz S RI R 376.73
[Number of Ports] 4
[Reference]
376.73 376.73 376.73 376.73 
[Number of Frequencies] 1001
[Network Data]
281700                 -0.249674       -0.445951      -0.00039475      0.00108622         -0.81765      -0.0780402      -0.00016059    -0.000940868
                    -0.000225829      0.00113674        -0.123097        0.238802      0.000239806      -0.0009816        -0.769038       -0.569446
                       -0.817626      -0.0778254      0.000382304     -0.00106323         0.256947       -0.425458      -0.00011964      0.00166884
                     0.000121697    -0.000470818        -0.768805       -0.569381     -0.000100993      0.00129316        -0.197648        0.180373
281700.1                -0.24971       -0.445972     -0.000394666       0.0010863        -0.817629      -0.0779807       -0.0001607     -0.00094096
                    -0.000287671      0.00116252        -0.123088          0.2388      0.000239721    -0.000981674        -0.769058       -0.569424
                       -0.817603      -0.0777663      0.000382223     -0.00106333         0.256921       -0.425517     -0.000119518      0.00166897
                    -1.06845e-05    -0.000599759        -0.768824       -0.569358     -0.000100919      0.00129322        -0.197637        0.180375
281700.2               -0.249747       -0.445994     -0.000394582      0.00108638        -0.817608      -0.0779213      -0.00016081    -0.000941053
                    -0.000331623      0.00114837        -0.123078        0.238798      0.000239635    -0.000981749        -0.769077       -0.569401
                       -0.817581      -0.0777072      0.000382142     -0.00106343         0.256894       -0.425576     -0.000119396       0.0016691
                    -6.05713e-05    -0.000579186        -0.768843       -0.569335     -0.000100845      0.00129329        -0.197626        0.180377
281700.3               -0.249783       -0.446016     -0.000394497      0.00108646        -0.817587      -0.0778618     -0.000160919    -0.000941145
                    -0.000352406      0.00112795        -0.123068        0.238795       0.00023955    -0.000981824        -0.769096       -0.569378
                       -0.817559      -0.0776481      0.000382062     -0.00106353         0.256867       -0.425635     -0.000119274      0.00166924
                    -7.66652e-05     -0.00056512        -0.768862       -0.569313      -0.00010077      0.00129335        -0.197616        0.180379
281700.4               -0.249819       -0.446037     -0.000394413      0.00108654        -0.817566      -0.0778024     -0.000161029    -0.000941237
                    -0.000361419      0.00111136        -0.123058        0.238793      0.000239465    -0.000981898        -0.769115       -0.569356
                       -0.817536       -0.077589      0.000381981     -0.00106363          0.25684       -0.425695     -0.000119152      0.00166937
                    -8.40137e-05    -0.000556627        -0.768881        -0.56929     -0.000100696      0.00129342        -0.197605        0.180381
281700.5               -0.249856       -0.446059     -0.000394329      0.00108662        -0.817545      -0.0777429     -0.000161139     -0.00094133
                    -0.000365234      0.00109905        -0.123048        0.238791       0.00023938    -0.000981973        -0.769134       -0.569333
                       -0.817514      -0.0775299        0.0003819     -0.00106373         0.256813       -0.425754      -0.00011903      0.00166951
                    -8.81146e-05     -0.00055109          -0.7689       -0.569268     -0.000100622      0.00129348        -0.197594        0.180384
281700.6               -0.249892       -0.446081     -0.000394244       0.0010867        -0.817524      -0.0776834     -0.000161248    -0.000941422
                    -0.000366723      0.00108993        -0.123038        0.238788      0.000239294    -0.000982047        -0.769153        -0.56931
                       -0.817492      -0.0774707      0.000381819     -0.00106383         0.256786       -0.425813     -0.000118908      0.00166964
                    -9.07054e-05    -0.000547229        -0.768919       -0.569245     -0.000100547      0.00129354        -0.197584        0.180386
281700.7               -0.249929       -0.446102      -0.00039416      0.00108678        -0.817503       -0.077624     -0.000161358    -0.000941514
                     -0.00036713      0.00108303        -0.123028        0.238786      0.000239209    -0.000982122        -0.769172       -0.569288
                       -0.817469      -0.0774116      0.000381738     -0.00106393         0.256759       -0.425872     -0.000118786      0.00166977
                    -9.24843e-05    -0.000544394        -0.768938       -0.569222     -0.000100473      0.00129361        -0.197573        0.180388
281700.8               -0.249965       -0.446124     -0.000394076      0.00108686        -0.817482      -0.0775645     -0.000161468    -0.000941607
                     -0.00036702      0.00107769        -0.123018        0.238784      0.000239124    -0.000982196        -0.769191       -0.569265
                       -0.817447      -0.0773525      0.000381658     -0.00106403         0.256733       -0.425931     -0.000118663      0.00166991
                    -9.37808e-05     -0.00054223        -0.768957         -0.5692     -0.000100399      0.00129367        -0.197562         0.18039
281700.9               -0.250002       -0.446146     -0.000393991      0.00108694        -0.817461      -0.0775051     -0.000161578    -0.000941699
                    -0.000366662      0.00107347        -0.123009        0.238781      0.000239038    -0.000982271         -0.76921       -0.569242
                       -0.817425      -0.0772934      0.000381577     -0.00106413         0.256706        -0.42599     -0.000118541      0.00167004
                     -9.4769e-05    -0.000540526        -0.768976       -0.569177     -0.000100324      0.00129374        -0.197551        0.180392
281701                 -0.250038       -0.446167     -0.000393907      0.00108702         -0.81744      -0.0774456     -0.000161687    -0.000941791
                    -0.000366191      0.00107007        -0.122999        0.238779      0.000238953    -0.000982345         -0.76923        -0.56922
                       -0.817402      -0.0772342      0.000381496     -0.00106424         0.256679        -0.42605     -0.000118419      0.00167018
                    -9.55488e-05    -0.000539153        -0.768996       -0.569154      -0.00010025       0.0012938        -0.197541        0.180394
281701.1               -0.250075       -0.446189     -0.000393823       0.0010871        -0.817419      -0.0773861     -0.000161797    -0.000941883
                    -0.000365675      0.00106727        -0.122989        0.238777      0.000238868     -0.00098242        -0.769249       -0.569197
                        -0.81738      -0.0771751      0.000381415     -0.00106434         0.256652       -0.426109     -0.000118297      0.00167031
                    -9.61817e-05    -0.000538023        -0.769015       -0.569132     -0.000100176      0.00129386         -0.19753        0.180396
281701.2               -0.250111       -0.446211     -0.000393738      0.00108718        -0.817397      -0.0773267     -0.000161907    -0.000941976
                     -0.00036515      0.00106494        -0.122979        0.238774      0.000238782    -0.000982495        -0.769268       -0.569174
                       -0.817358       -0.077116      0.000381334     -0.00106444         0.256625       -0.426168     -0.000118174      0.00167044
                    -9.67071e-05    -0.000537078        -0.769034       -0.569109     -0.000100101      0.00129393        -0.197519        0.180398
281701.3               -0.250148       -0.446232     -0.000393654      0.00108727        -0.817376      -0.0772672     -0.000162017    -0.000942068
                    -0.000364635      0.00106297        -0.122969        0.238772      0.000238697    -0.000982569        -0.769287       -0.569152
                       -0.817335      -0.0770569      0.000381253     -0.00106454         0.256598       -0.426227     -0.000118052      0.00167058
                    -9.71517e-05    -0.000536278        -0.769053       -0.569086     -0.000100027      0.00129399        -0.197509          0.1804
281701.4               -0.250185       -0.446254     -0.000393569      0.00108735        -0.817355      -0.0772078     -0.000162127     -0.00094216
                    -0.000364138       0.0010613        -0.122959         0.23877      0.000238611    -0.000982644        -0.769306       -0.569129
                       -0.817313      -0.0769977      0.000381172     -0.00106464         0.256571       -0.426286     -0.000117929      0.00167071
                    -9.75342e-05    -0.000535591        -0.769072       -0.569064     -9.99522e-05      0.00129406        -0.197498        0.180402
281701.5               -0.250221       -0.446275     -0.000393485      0.00108743        -0.817334      -0.0771483     -0.000162237    -0.000942253
                    -0.000363663      0.00105985        -0.122949        0.238767      0.000238526    -0.000982718        -0.769325       -0.569107
                        -0.81729      -0.0769386      0.000381091     -0.00106474         0.256544       -0.426345     -0.000117807      0.00167085
                    -9.78677e-05    -0.000534997        -0.769091       -0.569041     -9.98777e-05      0.00129412        -0.197487        0.180404
281701.6               -0.250258       -0.446297       -0.0003934      0.00108751        -0.817313      -0.0770889     -0.000162347    -0.000942345
                    -0.000363213       0.0010586         -0.12294        0.238765       0.00023844    -0.000982793        -0.769344       -0.569084
                       -0.817268      -0.0768794       0.00038101     -0.00106484         0.256517       -0.426405     -0.000117685      0.00167098
                    -9.81621e-05    -0.000534478         -0.76911       -0.569019     -9.98033e-05      0.00129418        -0.197477        0.180406
281701.7               -0.250294       -0.446319     -0.000393316      0.00108759        -0.817292      -0.0770294     -0.000162457    -0.000942437
                    -0.000362786       0.0010575         -0.12293        0.238763      0.000238355    -0.000982867        -0.769363       -0.569061
                       -0.817246      -0.0768203      0.000380929     -0.00106494          0.25649       -0.426464     -0.000117562      0.00167112
                    -9.84247e-05    -0.000534021        -0.769129       -0.568996     -9.97288e-05      0.00129425        -0.197466        0.180408
281701.8               -0.250331        -0.44634     -0.000393231      0.00108767        -0.817271      -0.0769699     -0.000162567    -0.000942529
                    -0.000362382      0.00105653         -0.12292         0.23876      0.000238269    -0.000982942        -0.769382       -0.569039
                       -0.817223      -0.0767612      0.000380848     -0.00106504         0.256463       -0.426523     -0.000117439      0.00167125
                    -9.86612e-05    -0.000533617        -0.769148       -0.568973     -9.96543e-05      0.00129431        -0.197455         0.18041
281701.9               -0.250367       -0.446362     -0.000393147      0.00108775        -0.817249      -0.0769105     -0.000162677    -0.000942622
                       -0.000362      0.00105567         -0.12291        0.238758      0.000238184    -0.000983016        -0.769402       -0.569016
                       -0.817201       -0.076702      0.000380767     -0.00106514         0.256436       -0.426582     -0.000117317      0.00167138
                    -9.88759e-05    -0.000533256        -0.769167       -0.568951     -9.95798e-05      0.00129437        -0.197444        0.180412
281702                 -0.250404       -0.446384     -0.000393062      0.00108783        -0.817228       -0.076851     -0.000162787    -0.000942714
                    -0.000361637       0.0010549          -0.1229        0.238756      0.000238098    -0.000983091        -0.769421       -0.568993
                       -0.817179      -0.0766429      0.000380686     -0.00106525         0.256409       -0.426641     -0.000117194      0.00167152
                    -9.90723e-05    -0.000532933        -0.769186       -0.568928     -9.95053e-05      0.00129444        -0.197434        0.180415
281702.1               -0.250441       -0.446405     -0.000392978      0.00108791        -0.817207      -0.0767916     -0.000162897    -0.000942806
                    -0.000361294      0.00105422         -0.12289        0.238754      0.000238013    -0.000983165         -0.76944       -0.568971
                       -0.817156      -0.0765837      0.000380605     -0.00106535         0.256382       -0.426701     -0.000117071      0.00167165
                    -9.92531e-05    -0.000532642        -0.769206       -0.568905     -9.94307e-05       0.0012945        -0.197423        0.180417
281702.2               -0.250477       -0.446427     -0.000392893      0.00108799        -0.817186      -0.0767321     -0.000163007    -0.000942898
                    -0.000360967       0.0010536         -0.12288        0.238751      0.000237927     -0.00098324        -0.769459       -0.568948
                       -0.817134      -0.0765246      0.000380524     -0.00106545         0.256355        -0.42676     -0.000116949      0.00167179
                    -9.94207e-05     -0.00053238        -0.769225       -0.568883     -9.93562e-05      0.00129457        -0.197412        0.180419
281702.3               -0.250514       -0.446449     -0.000392809      0.00108807        -0.817165      -0.0766727     -0.000163118    -0.000942991
                    -0.000360656      0.00105305         -0.12287        0.238749      0.000237842    -0.000983314        -0.769478       -0.568925
                       -0.817111      -0.0764654      0.000380443     -0.00106555         0.256328       -0.426819     -0.000116826      0.00167192
                    -9.95768e-05    -0.000532141        -0.769244        -0.56886     -9.92816e-05      0.00129463        -0.197402        0.180421
281702.4                -0.25055        -0.44647     -0.000392724      0.00108815        -0.817143      -0.0766132     -0.000163228    -0.000943083
                    -0.000360359      0.00105254        -0.122861        0.238747      0.000237756    -0.000983389        -0.769497       -0.568903
                       -0.817089      -0.0764063      0.000380362     -0.00106565         0.256301       -0.426878     -0.000116703      0.00167206
                    -9.97229e-05    -0.000531924        -0.769263       -0.568837      -9.9207e-05      0.00129469        -0.197391        0.180423
281702.5               -0.250587       -0.446492     -0.000392639      0.00108823        -0.817122      -0.0765538     -0.000163338    -0.000943175
                    -0.000360076      0.00105209        -0.122851        0.238744       0.00023767    -0.000983463        -0.769516        -0.56888
                       -0.817067      -0.0763471      0.000380281     -0.00106575         0.256274       -0.426937      -0.00011658      0.00167219
                    -9.98603e-05    -0.000531726        -0.769282       -0.568815     -9.91325e-05      0.00129476         -0.19738        0.180425
281702.6               -0.250624       -0.446513     -0.000392555      0.00108831        -0.817101      -0.0764943     -0.000163448    -0.000943267
                    -0.000359805      0.00105167        -0.122841        0.238742      0.000237585    -0.000983537        -0.769535       -0.568857
                       -0.817044       -0.076288        0.0003802     -0.00106585         0.256247       -0.426997     -0.000116458      0.00167232
                      -9.999e-05    -0.000531545        -0.769301       -0.568792     -9.90579e-05      0.00129482         -0.19737        0.180427
281702.7                -0.25066       -0.446535      -0.00039247       0.0010884         -0.81708      -0.0764348     -0.000163559    -0.000943359
                    -0.000359545      0.00105129        -0.122831         0.23874      0.000237499    -0.000983612        -0.769554       -0.568835
                       -0.817022      -0.0762288      0.000380118     -0.00106595          0.25622       -0.427056     -0.000116335      0.00167246
                    -0.000100113    -0.000531378         -0.76932       -0.568769     -9.89832e-05      0.00129489        -0.197359        0.180429
281702.8               -0.250697       -0.446557     -0.000392386      0.00108848        -0.817059      -0.0763754     -0.000163669    -0.000943451
                    -0.000359295      0.00105094        -0.122821        0.238737      0.000237414    -0.000983686        -0.769574       -0.568812
                       -0.816999      -0.0761696      0.000380037     -0.00106605         0.256193       -0.427115     -0.000116212      0.00167259
                     -0.00010023    -0.000531225        -0.769339       -0.568747     -9.89086e-05      0.00129495        -0.197348        0.180431
281702.9               -0.250734       -0.446578     -0.000392301      0.00108856        -0.817037      -0.0763159     -0.000163779    -0.000943544
                    -0.000359054      0.00105063        -0.122811        0.238735      0.000237328    -0.000983761        -0.769593       -0.568789
                       -0.816977      -0.0761105      0.000379956     -0.00106615         0.256166       -0.427174     -0.000116089      0.00167273
                    -0.000100342    -0.000531084        -0.769358       -0.568724      -9.8834e-05      0.00129501        -0.197337        0.180433
281703                  -0.25077         -0.4466     -0.000392216      0.00108864        -0.817016      -0.0762565      -0.00016389    -0.000943636
                    -0.000358823      0.00105033        -0.122801        0.238733      0.000237242    -0.000983835        -0.769612       -0.568767
                       -0.816954      -0.0760513      0.000379875     -0.00106626         0.256139       -0.427233     -0.000115966      0.00167286
                    -0.000100448    -0.000530954        -0.769377       -0.568702     -9.87593e-05      0.00129508        -0.197327        0.180435
281703.1               -0.250807       -0.446621     -0.000392131      0.00108872        -0.816995       -0.076197        -0.000164    -0.000943728
                    -0.000358599      0.00105007        -0.122792         0.23873      0.000237157     -0.00098391        -0.769631       -0.568744
                       -0.816932      -0.0759921      0.000379793     -0.00106636         0.256112       -0.427293     -0.000115843        0.001673
