! TOUCHSTONE file generated by CST MICROWAVE STUDIO
! Date and time: Wed Oct  8 06:56:07 2025
! Project name: Teste_Macro_Metasurface_Nanopilar.cst
! Parameters = {H=600; L_x=115; L_y=115; Lambda=1064; Max_L=200; Min_L=70; PathPara=1; Phi=0; Step_L=10; Theta=0; p=520; phaseX=180; phaseY=0}
! Header version: 2018
! Port assignment regex: !\s*Touchstone port\s*([0-9]+)\s*=\s*(CST MWS port|CST DS port)\s*([0-9]+|Zmin|Zmax)\s*\(\"(.*)\"\)(\s*mode\s*([0-9]+))?.*
! Touchstone port assignment:
! Touchstone port 1 = CST MWS port Zmax ("") mode 1
! Touchstone port 2 = CST MWS port Zmax ("") mode 2
! Touchstone port 3 = CST MWS port Zmin ("") mode 1
! Touchstone port 4 = CST MWS port Zmin ("") mode 2
! S-Parameters are not renormalized. Each port impedance will be approximated by the real part at minimum frequency. The values are described via the [Reference] keyword.
! Default impedance is overridden by [Reference]
[Version] 2.0
# GHz S RI R 376.73
[Number of Ports] 4
[Reference]
376.73 376.73 376.73 376.73 
[Number of Frequencies] 1001
[Network Data]
281700                -0.0842188        0.166468     -4.03914e-05    -0.000374474         0.826507        0.513839      0.000320741    -0.000373691
                    -0.000193297    -0.000149981       -0.0848361        0.166838      9.66312e-05    -0.000459031         0.826236        0.514045
                        0.826607        0.513808      0.000125497    -0.000557525        -0.115925         0.14848      0.000419943     0.000194444
                     0.000381426    -0.000312608         0.826526         0.51409       0.00040273     0.000194305        -0.116141        0.149062
281700.1              -0.0842096        0.166467     -4.03948e-05    -0.000374527         0.826526        0.513811      0.000320732    -0.000373692
                    -0.000193305    -0.000149988       -0.0848269        0.166837      9.66158e-05    -0.000459037         0.826255        0.514017
                        0.826626         0.51378      0.000125472     -0.00055754        -0.115918        0.148479      0.000419961     0.000194422
                     0.000381421    -0.000312621         0.826544        0.514062      0.000402744     0.000194292        -0.116134        0.149061
281700.2              -0.0842004        0.166465     -4.03982e-05     -0.00037458         0.826544        0.513783      0.000320723    -0.000373693
                    -0.000193313    -0.000149996       -0.0848177        0.166836      9.66003e-05    -0.000459044         0.826273         0.51399
                        0.826644        0.513753      0.000125447    -0.000557556        -0.115911        0.148478      0.000419979       0.0001944
                     0.000381415    -0.000312634         0.826563        0.514035      0.000402758     0.000194279        -0.116127         0.14906
281700.3              -0.0841912        0.166464     -4.04016e-05    -0.000374633         0.826563        0.513755      0.000320714    -0.000373694
                    -0.000193321    -0.000150003       -0.0848085        0.166835      9.65849e-05    -0.000459051         0.826292        0.513962
                        0.826663        0.513725      0.000125422    -0.000557571        -0.115903        0.148477      0.000419997     0.000194377
                      0.00038141    -0.000312648         0.826581        0.514007      0.000402773     0.000194266        -0.116119        0.149059
281700.4               -0.084182        0.166463      -4.0405e-05    -0.000374686         0.826581        0.513727      0.000320705    -0.000373695
                    -0.000193329     -0.00015001       -0.0847993        0.166834      9.65695e-05    -0.000459057          0.82631        0.513934
                        0.826681        0.513697      0.000125398    -0.000557587        -0.115896        0.148476      0.000420015     0.000194355
                     0.000381404    -0.000312661           0.8266        0.513979      0.000402787     0.000194253        -0.116112        0.149058
281700.5              -0.0841728        0.166462     -4.04084e-05    -0.000374739           0.8266        0.513699      0.000320696    -0.000373695
                    -0.000193337    -0.000150017       -0.0847901        0.166832      9.65541e-05    -0.000459064         0.826329        0.513906
                          0.8267        0.513669      0.000125373    -0.000557602        -0.115889        0.148475      0.000420033     0.000194333
                     0.000381399    -0.000312674         0.826618        0.513951      0.000402802      0.00019424        -0.116105        0.149057
281700.6              -0.0841636        0.166461     -4.04118e-05    -0.000374792         0.826618        0.513672      0.000320687    -0.000373696
                    -0.000193345    -0.000150024       -0.0847809        0.166831      9.65386e-05    -0.000459071         0.826347        0.513878
                        0.826718        0.513641      0.000125348    -0.000557618        -0.115882        0.148474      0.000420051      0.00019431
                     0.000381393    -0.000312687         0.826637        0.513923      0.000402816     0.000194227        -0.116098        0.149056
281700.7              -0.0841544         0.16646     -4.04152e-05    -0.000374845         0.826636        0.513644      0.000320678    -0.000373697
                    -0.000193353    -0.000150032       -0.0847716         0.16683      9.65232e-05    -0.000459077         0.826366         0.51385
                        0.826737        0.513613      0.000125323    -0.000557633        -0.115875        0.148473      0.000420068     0.000194288
                     0.000381387      -0.0003127         0.826655        0.513895       0.00040283     0.000194214        -0.116091        0.149055
281700.8              -0.0841452        0.166458     -4.04186e-05    -0.000374898         0.826655        0.513616      0.000320669    -0.000373698
                    -0.000193361    -0.000150039       -0.0847624        0.166829      9.65078e-05    -0.000459084         0.826384        0.513822
                        0.826755        0.513585      0.000125299    -0.000557649        -0.115868        0.148472      0.000420086     0.000194266
                     0.000381382    -0.000312713         0.826674        0.513867      0.000402845     0.000194201        -0.116083        0.149054
281700.9               -0.084136        0.166457      -4.0422e-05    -0.000374951         0.826673        0.513588       0.00032066    -0.000373698
                    -0.000193369    -0.000150046       -0.0847532        0.166828      9.64924e-05    -0.000459091         0.826402        0.513794
                        0.826774        0.513557      0.000125274    -0.000557664         -0.11586        0.148471      0.000420104     0.000194243
                     0.000381376    -0.000312726         0.826692         0.51384      0.000402859     0.000194188        -0.116076        0.149053
281701                -0.0841268        0.166456     -4.04254e-05    -0.000375004         0.826692         0.51356      0.000320651    -0.000373699
                    -0.000193377    -0.000150053        -0.084744        0.166827      9.64769e-05    -0.000459097         0.826421        0.513766
                        0.826792        0.513529      0.000125249     -0.00055768        -0.115853         0.14847      0.000420122     0.000194221
                     0.000381371    -0.000312739         0.826711        0.513812      0.000402874     0.000194175        -0.116069        0.149052
281701.1              -0.0841176        0.166455     -4.04288e-05    -0.000375058          0.82671        0.513532      0.000320642      -0.0003737
                    -0.000193385     -0.00015006       -0.0847348        0.166825      9.64615e-05    -0.000459104         0.826439        0.513739
                        0.826811        0.513502      0.000125224    -0.000557695        -0.115846        0.148469       0.00042014     0.000194199
                     0.000381365    -0.000312752         0.826729        0.513784      0.000402888     0.000194162        -0.116062        0.149051
281701.2              -0.0841084        0.166454     -4.04323e-05    -0.000375111         0.826729        0.513504      0.000320633    -0.000373701
                    -0.000193393    -0.000150068       -0.0847256        0.166824      9.64461e-05     -0.00045911         0.826458        0.513711
                        0.826829        0.513474      0.000125199     -0.00055771        -0.115839        0.148468      0.000420158     0.000194177
                     0.000381359    -0.000312765         0.826748        0.513756      0.000402903     0.000194149        -0.116055         0.14905
281701.3              -0.0840992        0.166453     -4.04357e-05    -0.000375164         0.826747        0.513476      0.000320624    -0.000373701
                    -0.000193401    -0.000150075       -0.0847164        0.166823      9.64307e-05    -0.000459117         0.826476        0.513683
                        0.826847        0.513446      0.000125175    -0.000557726        -0.115832        0.148467      0.000420176     0.000194154
                     0.000381354    -0.000312778         0.826766        0.513728      0.000402917     0.000194136        -0.116047        0.149049
281701.4                -0.08409        0.166451     -4.04391e-05    -0.000375217         0.826766        0.513448      0.000320615    -0.000373702
                    -0.000193409    -0.000150082       -0.0847072        0.166822      9.64152e-05    -0.000459124         0.826495        0.513655
                        0.826866        0.513418       0.00012515    -0.000557741        -0.115825        0.148466      0.000420194     0.000194132
                     0.000381348    -0.000312792         0.826785          0.5137      0.000402931     0.000194123         -0.11604        0.149048
281701.5              -0.0840809         0.16645     -4.04425e-05    -0.000375271         0.826784         0.51342      0.000320606    -0.000373703
                    -0.000193417    -0.000150089        -0.084698        0.166821      9.63998e-05     -0.00045913         0.826513        0.513627
                        0.826884         0.51339      0.000125125    -0.000557757        -0.115818        0.148465      0.000420212      0.00019411
                     0.000381343    -0.000312805         0.826803        0.513672      0.000402946      0.00019411        -0.116033        0.149047
281701.6              -0.0840717        0.166449     -4.04459e-05    -0.000375324         0.826802        0.513393      0.000320597    -0.000373704
                    -0.000193425    -0.000150096       -0.0846888         0.16682      9.63844e-05    -0.000459137         0.826532        0.513599
                        0.826903        0.513362        0.0001251    -0.000557772         -0.11581        0.148464       0.00042023     0.000194087
                     0.000381337    -0.000312818         0.826822        0.513644       0.00040296     0.000194097        -0.116026        0.149046
281701.7              -0.0840625        0.166448     -4.04493e-05    -0.000375377         0.826821        0.513365      0.000320588    -0.000373705
                    -0.000193433    -0.000150104       -0.0846795        0.166818       9.6369e-05    -0.000459144          0.82655        0.513571
                        0.826921        0.513334      0.000125075    -0.000557787        -0.115803        0.148463      0.000420248     0.000194065
                     0.000381331    -0.000312831          0.82684        0.513617      0.000402975     0.000194084        -0.116019        0.149045
281701.8              -0.0840533        0.166447     -4.04528e-05     -0.00037543         0.826839        0.513337       0.00032058    -0.000373705
                    -0.000193441    -0.000150111       -0.0846703        0.166817      9.63536e-05     -0.00045915         0.826569        0.513543
                         0.82694        0.513306      0.000125051    -0.000557803        -0.115796        0.148462      0.000420266     0.000194043
                     0.000381326    -0.000312844         0.826859        0.513589      0.000402989     0.000194071        -0.116012        0.149044
281701.9              -0.0840441        0.166446     -4.04562e-05    -0.000375484         0.826858        0.513309      0.000320571    -0.000373706
                    -0.000193449    -0.000150118       -0.0846611        0.166816      9.63381e-05    -0.000459157         0.826587        0.513516
                        0.826958        0.513278      0.000125026    -0.000557818        -0.115789        0.148461      0.000420284      0.00019402
                      0.00038132    -0.000312857         0.826877        0.513561      0.000403003     0.000194058        -0.116004        0.149043
281702                -0.0840349        0.166444     -4.04596e-05    -0.000375537         0.826876        0.513281      0.000320562    -0.000373707
                    -0.000193457    -0.000150125       -0.0846519        0.166815      9.63227e-05    -0.000459164         0.826606        0.513488
                        0.826977        0.513251      0.000125001    -0.000557834        -0.115782         0.14846      0.000420302     0.000193998
                     0.000381315     -0.00031287         0.826896        0.513533      0.000403018     0.000194045        -0.115997        0.149042
281702.1              -0.0840257        0.166443      -4.0463e-05     -0.00037559         0.826895        0.513253      0.000320553    -0.000373708
                    -0.000193465    -0.000150132       -0.0846427        0.166814      9.63073e-05     -0.00045917         0.826624         0.51346
                        0.826995        0.513223      0.000124976    -0.000557849        -0.115775        0.148459      0.000420319     0.000193976
                     0.000381309    -0.000312883         0.826914        0.513505      0.000403032     0.000194032         -0.11599        0.149041
281702.2              -0.0840165        0.166442     -4.04665e-05    -0.000375644         0.826913        0.513225      0.000320544    -0.000373708
                    -0.000193473     -0.00015014       -0.0846335        0.166813      9.62919e-05    -0.000459177         0.826643        0.513432
                        0.827014        0.513195      0.000124951    -0.000557864        -0.115768        0.148458      0.000420337     0.000193953
                     0.000381303    -0.000312896         0.826933        0.513477      0.000403047     0.000194019        -0.115983         0.14904
281702.3              -0.0840073        0.166441     -4.04699e-05    -0.000375697         0.826932        0.513197      0.000320535    -0.000373709
                    -0.000193481    -0.000150147       -0.0846243        0.166811      9.62764e-05    -0.000459184         0.826661        0.513404
                        0.827032        0.513167      0.000124927     -0.00055788         -0.11576        0.148457      0.000420355     0.000193931
                     0.000381298    -0.000312909         0.826951        0.513449      0.000403061     0.000194005        -0.115976        0.149039
281702.4              -0.0839981         0.16644     -4.04733e-05    -0.000375751          0.82695        0.513169      0.000320526     -0.00037371
                    -0.000193489    -0.000150154       -0.0846151         0.16681       9.6261e-05     -0.00045919         0.826679        0.513376
                         0.82705        0.513139      0.000124902    -0.000557895        -0.115753        0.148456      0.000420373     0.000193909
                     0.000381292    -0.000312923          0.82697        0.513421      0.000403076     0.000193992        -0.115968        0.149038
281702.5              -0.0839889        0.166438     -4.04768e-05    -0.000375804         0.826968        0.513141      0.000320517    -0.000373711
                    -0.000193497    -0.000150161       -0.0846059        0.166809      9.62456e-05    -0.000459197         0.826698        0.513348
                        0.827069        0.513111      0.000124877    -0.000557911        -0.115746        0.148455      0.000420391     0.000193886
                     0.000381287    -0.000312936         0.826988        0.513394       0.00040309     0.000193979        -0.115961        0.149037
281702.6              -0.0839797        0.166437     -4.04802e-05    -0.000375858         0.826987        0.513113      0.000320508    -0.000373711
                    -0.000193505    -0.000150169       -0.0845967        0.166808      9.62302e-05    -0.000459204         0.826716         0.51332
                        0.827087        0.513083      0.000124852    -0.000557926        -0.115739        0.148454      0.000420409     0.000193864
                     0.000381281    -0.000312949         0.827007        0.513366      0.000403104     0.000193966        -0.115954        0.149036
281702.7              -0.0839705        0.166436     -4.04836e-05    -0.000375911         0.827005        0.513086      0.000320499    -0.000373712
                    -0.000193513    -0.000150176       -0.0845875        0.166807      9.62148e-05     -0.00045921         0.826735        0.513292
                        0.827106        0.513055      0.000124827    -0.000557941        -0.115732        0.148453      0.000420427     0.000193842
                     0.000381275    -0.000312962         0.827025        0.513338      0.000403119     0.000193953        -0.115947        0.149035
281702.8              -0.0839613        0.166435     -4.04871e-05    -0.000375965         0.827024        0.513058       0.00032049    -0.000373713
                    -0.000193521    -0.000150183       -0.0845783        0.166806      9.61993e-05    -0.000459217         0.826753        0.513264
                        0.827124        0.513027      0.000124802    -0.000557957        -0.115725        0.148452      0.000420445     0.000193819
                      0.00038127    -0.000312975         0.827044         0.51331      0.000403133      0.00019394         -0.11594        0.149034
281702.9              -0.0839521        0.166434     -4.04905e-05    -0.000376018         0.827042         0.51303      0.000320481    -0.000373714
                    -0.000193529     -0.00015019        -0.084569        0.166804      9.61839e-05    -0.000459224         0.826772        0.513237
                        0.827143        0.512999      0.000124777    -0.000557972        -0.115718        0.148451      0.000420463     0.000193797
                     0.000381264    -0.000312988         0.827062        0.513282      0.000403148     0.000193927        -0.115932        0.149033
281703                -0.0839429        0.166433     -4.04939e-05    -0.000376072         0.827061        0.513002      0.000320472    -0.000373714
                    -0.000193537    -0.000150197       -0.0845598        0.166803      9.61685e-05     -0.00045923          0.82679        0.513209
                        0.827161        0.512972      0.000124753    -0.000557987         -0.11571         0.14845      0.000420481     0.000193775
                     0.000381258    -0.000313001         0.827081        0.513254      0.000403162     0.000193914        -0.115925        0.149032
281703.1              -0.0839337        0.166431     -4.04974e-05    -0.000376125         0.827079        0.512974      0.000320463    -0.000373715
                    -0.000193545    -0.000150205       -0.0845506        0.166802      9.61531e-05    -0.000459237         0.826809        0.513181
                        0.827179        0.512944      0.000124728    -0.000558003        -0.115703        0.148449      0.000420499     0.000193752
