! TOUCHSTONE file generated by CST MICROWAVE STUDIO
! Date and time: Wed Oct  8 06:51:30 2025
! Project name: Teste_Macro_Metasurface_Nanopilar.cst
! Parameters = {H=600; L_x=75; L_y=145; Lambda=1064; Max_L=200; Min_L=70; PathPara=1; Phi=0; Step_L=10; Theta=0; p=520; phaseX=180; phaseY=0}
! Header version: 2018
! Port assignment regex: !\s*Touchstone port\s*([0-9]+)\s*=\s*(CST MWS port|CST DS port)\s*([0-9]+|Zmin|Zmax)\s*\(\"(.*)\"\)(\s*mode\s*([0-9]+))?.*
! Touchstone port assignment:
! Touchstone port 1 = CST MWS port Zmax ("") mode 1
! Touchstone port 2 = CST MWS port Zmax ("") mode 2
! Touchstone port 3 = CST MWS port Zmin ("") mode 1
! Touchstone port 4 = CST MWS port Zmin ("") mode 2
! S-Parameters are not renormalized. Each port impedance will be approximated by the real part at minimum frequency. The values are described via the [Reference] keyword.
! Default impedance is overridden by [Reference]
[Version] 2.0
# GHz S RI R 376.73
[Number of Ports] 4
[Reference]
376.73 376.73 376.73 376.73 
[Number of Frequencies] 1001
[Network Data]
281700                 0.0990468        0.193687     -0.000660637    -6.13142e-05         0.959244        0.116315      0.000364948    -5.61261e-05
                    -0.000687625    -0.000340273         0.104347      -0.0475766       0.00045524    -1.91343e-05        -0.901665         0.41503
                        0.959135         0.11611      0.000150147     -5.9959e-05        -0.147699        0.164837     -0.000264504     0.000629261
                     0.000131359    -0.000188466        -0.901863        0.414991     -0.000328333     0.000494852        -0.104221       0.0484667
281700.1               0.0990532        0.193678     -0.000660629    -6.12923e-05         0.959249        0.116282      0.000364941    -5.61331e-05
                    -0.000687628    -0.000340246         0.104343      -0.0475813      0.000455232    -1.91509e-05        -0.901654        0.415055
                         0.95914        0.116077      0.000150151    -5.99488e-05        -0.147692        0.164837     -0.000264494     0.000629264
                     0.000131361    -0.000188463        -0.901852        0.415015     -0.000328322     0.000494866        -0.104219       0.0484663
281700.2               0.0990595        0.193669     -0.000660622    -6.12703e-05         0.959254        0.116249      0.000364935    -5.61402e-05
                    -0.000687631    -0.000340218          0.10434       -0.047586      0.000455224    -1.91676e-05        -0.901643        0.415079
                        0.959145        0.116044      0.000150155    -5.99386e-05        -0.147685        0.164837     -0.000264484     0.000629267
                     0.000131363    -0.000188459        -0.901841        0.415039     -0.000328311     0.000494881        -0.104217       0.0484658
281700.3               0.0990659         0.19366     -0.000660614    -6.12484e-05         0.959259        0.116216      0.000364928    -5.61472e-05
                    -0.000687634    -0.000340191         0.104336      -0.0475907      0.000455215    -1.91842e-05        -0.901632        0.415103
                         0.95915        0.116011      0.000150158    -5.99284e-05        -0.147678        0.164837     -0.000264473     0.000629271
                     0.000131365    -0.000188455         -0.90183        0.415063     -0.000328299     0.000494895        -0.104216       0.0484654
281700.4               0.0990723        0.193652     -0.000660606    -6.12265e-05         0.959265        0.116183      0.000364922    -5.61542e-05
                    -0.000687637    -0.000340163         0.104332      -0.0475953      0.000455207    -1.92008e-05        -0.901621        0.415127
                        0.959155        0.115978      0.000150162    -5.99183e-05         -0.14767        0.164837     -0.000264463     0.000629274
                     0.000131367    -0.000188451        -0.901819        0.415087     -0.000328288     0.000494909        -0.104214       0.0484649
281700.5               0.0990786        0.193643     -0.000660599    -6.12046e-05          0.95927         0.11615      0.000364915    -5.61613e-05
                    -0.000687641    -0.000340135         0.104328         -0.0476      0.000455199    -1.92175e-05         -0.90161        0.415152
                         0.95916        0.115945      0.000150166    -5.99081e-05        -0.147663        0.164837     -0.000264453     0.000629277
                     0.000131369    -0.000188447        -0.901808        0.415112     -0.000328277     0.000494923        -0.104213       0.0484645
281700.6                0.099085        0.193634     -0.000660591    -6.11827e-05         0.959275        0.116117      0.000364909    -5.61683e-05
                    -0.000687644    -0.000340108         0.104324      -0.0476047      0.000455191    -1.92341e-05        -0.901599        0.415176
                        0.959165        0.115912      0.000150169    -5.98979e-05        -0.147656        0.164836     -0.000264442      0.00062928
                     0.000131371    -0.000188443        -0.901797        0.415136     -0.000328265     0.000494938        -0.104211        0.048464
281700.7               0.0990914        0.193625     -0.000660584    -6.11608e-05          0.95928        0.116084      0.000364902    -5.61753e-05
                    -0.000687647     -0.00034008          0.10432      -0.0476094      0.000455183    -1.92507e-05        -0.901588          0.4152
                         0.95917        0.115879      0.000150173    -5.98877e-05        -0.147649        0.164836     -0.000264432     0.000629283
                     0.000131373    -0.000188439        -0.901787         0.41516     -0.000328254     0.000494952         -0.10421       0.0484636
281700.8               0.0990977        0.193616     -0.000660576    -6.11388e-05         0.959285        0.116051      0.000364896    -5.61824e-05
                     -0.00068765    -0.000340053         0.104316      -0.0476141      0.000455175    -1.92674e-05        -0.901578        0.415224
                        0.959175        0.115846      0.000150177    -5.98775e-05        -0.147641        0.164836     -0.000264422     0.000629287
                     0.000131375    -0.000188435        -0.901776        0.415184     -0.000328243     0.000494966        -0.104208       0.0484631
281700.9               0.0991041        0.193608     -0.000660569    -6.11169e-05          0.95929        0.116018      0.000364889    -5.61894e-05
                    -0.000687653    -0.000340025         0.104312      -0.0476188      0.000455167     -1.9284e-05        -0.901567        0.415248
                         0.95918        0.115813       0.00015018    -5.98673e-05        -0.147634        0.164836     -0.000264411      0.00062929
                     0.000131377    -0.000188431        -0.901765        0.415208     -0.000328231     0.000494981        -0.104206       0.0484627
281701                 0.0991105        0.193599     -0.000660561     -6.1095e-05         0.959295        0.115985      0.000364883    -5.61964e-05
                    -0.000687656    -0.000339997         0.104308      -0.0476235      0.000455159    -1.93006e-05        -0.901556        0.415273
                        0.959185         0.11578      0.000150184    -5.98571e-05        -0.147627        0.164836     -0.000264401     0.000629293
                     0.000131379    -0.000188427        -0.901754        0.415233      -0.00032822     0.000494995        -0.104205       0.0484622
281701.1               0.0991168         0.19359     -0.000660553    -6.10731e-05           0.9593        0.115952      0.000364876    -5.62035e-05
                    -0.000687659     -0.00033997         0.104304      -0.0476282      0.000455151    -1.93173e-05        -0.901545        0.415297
                        0.959191        0.115747      0.000150188    -5.98469e-05        -0.147619        0.164836     -0.000264391     0.000629296
                     0.000131381    -0.000188423        -0.901743        0.415257     -0.000328209     0.000495009        -0.104203       0.0484618
281701.2               0.0991232        0.193581     -0.000660546    -6.10512e-05         0.959305        0.115919      0.000364869    -5.62105e-05
                    -0.000687662    -0.000339942         0.104301      -0.0476329      0.000455142    -1.93339e-05        -0.901534        0.415321
                        0.959196        0.115714      0.000150191    -5.98367e-05        -0.147612        0.164836      -0.00026438       0.0006293
                     0.000131383    -0.000188419        -0.901732        0.415281     -0.000328197     0.000495023        -0.104202       0.0484613
281701.3               0.0991296        0.193572     -0.000660538    -6.10293e-05          0.95931        0.115886      0.000364863    -5.62175e-05
                    -0.000687665    -0.000339915         0.104297      -0.0476376      0.000455134    -1.93505e-05        -0.901523        0.415345
                        0.959201        0.115681      0.000150195    -5.98266e-05        -0.147605        0.164836      -0.00026437     0.000629303
                     0.000131385    -0.000188415        -0.901721        0.415305     -0.000328186     0.000495038          -0.1042       0.0484609
281701.4               0.0991359        0.193564     -0.000660531    -6.10074e-05         0.959315        0.115853      0.000364856    -5.62246e-05
                    -0.000687669    -0.000339887         0.104293      -0.0476423      0.000455126    -1.93671e-05        -0.901512        0.415369
                        0.959206        0.115648      0.000150199    -5.98164e-05        -0.147598        0.164836      -0.00026436     0.000629306
                     0.000131387    -0.000188411         -0.90171        0.415329     -0.000328175     0.000495052        -0.104199       0.0484604
281701.5               0.0991423        0.193555     -0.000660523    -6.09855e-05          0.95932         0.11582       0.00036485    -5.62316e-05
                    -0.000687672     -0.00033986         0.104289       -0.047647      0.000455118    -1.93838e-05        -0.901501        0.415394
                        0.959211        0.115615      0.000150202    -5.98062e-05         -0.14759        0.164836      -0.00026435     0.000629309
                     0.000131389    -0.000188407        -0.901699        0.415354     -0.000328163     0.000495066        -0.104197         0.04846
281701.6               0.0991487        0.193546     -0.000660516    -6.09636e-05         0.959326        0.115787      0.000364843    -5.62386e-05
                    -0.000687675    -0.000339832         0.104285      -0.0476517       0.00045511    -1.94004e-05         -0.90149        0.415418
                        0.959216        0.115582      0.000150206     -5.9796e-05        -0.147583        0.164836     -0.000264339     0.000629312
                     0.000131391    -0.000188403        -0.901688        0.415378     -0.000328152      0.00049508        -0.104196       0.0484595
281701.7                0.099155        0.193537     -0.000660508    -6.09417e-05         0.959331        0.115754      0.000364837    -5.62457e-05
                    -0.000687678    -0.000339804         0.104281      -0.0476564      0.000455102     -1.9417e-05        -0.901479        0.415442
                        0.959221        0.115549       0.00015021    -5.97858e-05        -0.147576        0.164836     -0.000264329     0.000629316
                     0.000131393      -0.0001884        -0.901677        0.415402     -0.000328141     0.000495095        -0.104194       0.0484591
281701.8               0.0991614        0.193528     -0.000660501    -6.09198e-05         0.959336        0.115721       0.00036483    -5.62527e-05
                    -0.000687681    -0.000339777         0.104277      -0.0476611      0.000455094    -1.94336e-05        -0.901468        0.415466
                        0.959226        0.115516      0.000150213    -5.97756e-05        -0.147569        0.164836     -0.000264319     0.000629319
                     0.000131395    -0.000188396        -0.901666        0.415426     -0.000328129     0.000495109        -0.104192       0.0484586
281701.9               0.0991678         0.19352     -0.000660493    -6.08979e-05         0.959341        0.115688      0.000364824    -5.62597e-05
                    -0.000687684    -0.000339749         0.104273      -0.0476658      0.000455086    -1.94503e-05        -0.901457        0.415491
                        0.959231        0.115483      0.000150217    -5.97654e-05        -0.147561        0.164836     -0.000264308     0.000629322
                     0.000131397    -0.000188392        -0.901655         0.41545     -0.000328118     0.000495123        -0.104191       0.0484582
281702                 0.0991741        0.193511     -0.000660485     -6.0876e-05         0.959346        0.115655      0.000364817    -5.62668e-05
                    -0.000687687    -0.000339722         0.104269      -0.0476705      0.000455078    -1.94669e-05        -0.901446        0.415515
                        0.959236         0.11545      0.000150221    -5.97553e-05        -0.147554        0.164836     -0.000264298     0.000629325
                     0.000131399    -0.000188388        -0.901644        0.415475     -0.000328107     0.000495137        -0.104189       0.0484577
281702.1               0.0991805        0.193502     -0.000660478    -6.08541e-05         0.959351        0.115622       0.00036481    -5.62738e-05
                     -0.00068769    -0.000339694         0.104265      -0.0476752      0.000455069    -1.94835e-05        -0.901435        0.415539
                        0.959241        0.115417      0.000150225    -5.97451e-05        -0.147547        0.164835     -0.000264288     0.000629328
                     0.000131401    -0.000188384        -0.901633        0.415499     -0.000328095     0.000495152        -0.104188       0.0484573
281702.2               0.0991868        0.193493      -0.00066047    -6.08322e-05         0.959356        0.115589      0.000364804    -5.62809e-05
                    -0.000687693    -0.000339666         0.104262      -0.0476798      0.000455061    -1.95001e-05        -0.901424        0.415563
                        0.959246        0.115384      0.000150228    -5.97349e-05         -0.14754        0.164835     -0.000264277     0.000629332
                     0.000131403     -0.00018838        -0.901622        0.415523     -0.000328084     0.000495166        -0.104186       0.0484569
281702.3               0.0991932        0.193484     -0.000660463    -6.08103e-05         0.959361        0.115556      0.000364797    -5.62879e-05
                    -0.000687696    -0.000339639         0.104258      -0.0476845      0.000455053    -1.95167e-05        -0.901413        0.415587
                        0.959251        0.115351      0.000150232    -5.97247e-05        -0.147532        0.164835     -0.000264267     0.000629335
                     0.000131405    -0.000188376        -0.901611        0.415547     -0.000328073      0.00049518        -0.104185       0.0484564
281702.4               0.0991996        0.193476     -0.000660455    -6.07884e-05         0.959366        0.115523      0.000364791    -5.62949e-05
                    -0.000687699    -0.000339611         0.104254      -0.0476892      0.000455045    -1.95334e-05        -0.901402        0.415612
                        0.959257        0.115318      0.000150236    -5.97145e-05        -0.147525        0.164835     -0.000264257     0.000629338
                     0.000131407    -0.000188372          -0.9016        0.415571     -0.000328061     0.000495194        -0.104183        0.048456
281702.5               0.0992059        0.193467     -0.000660448    -6.07665e-05         0.959371         0.11549      0.000364784     -5.6302e-05
                    -0.000687703    -0.000339584          0.10425      -0.0476939      0.000455037      -1.955e-05        -0.901391        0.415636
                        0.959262        0.115285      0.000150239    -5.97044e-05        -0.147518        0.164835     -0.000264246     0.000629341
                     0.000131409    -0.000188368        -0.901589        0.415596      -0.00032805     0.000495209        -0.104181       0.0484555
281702.6               0.0992123        0.193458      -0.00066044    -6.07446e-05         0.959376        0.115457      0.000364778     -5.6309e-05
                    -0.000687706    -0.000339556         0.104246      -0.0476986      0.000455029    -1.95666e-05         -0.90138         0.41566
                        0.959267        0.115252      0.000150243    -5.96942e-05         -0.14751        0.164835     -0.000264236     0.000629345
                     0.000131411    -0.000188364        -0.901578         0.41562     -0.000328039     0.000495223         -0.10418       0.0484551
281702.7               0.0992186        0.193449     -0.000660432    -6.07227e-05         0.959381        0.115424      0.000364771    -5.63161e-05
                    -0.000687709    -0.000339529         0.104242      -0.0477033      0.000455021    -1.95832e-05        -0.901369        0.415684
                        0.959272        0.115219      0.000150247     -5.9684e-05        -0.147503        0.164835     -0.000264226     0.000629348
                     0.000131413     -0.00018836        -0.901567        0.415644     -0.000328027     0.000495237        -0.104178       0.0484546
281702.8                0.099225         0.19344     -0.000660425    -6.07009e-05         0.959386        0.115391      0.000364765    -5.63231e-05
                    -0.000687712    -0.000339501         0.104238       -0.047708      0.000455013    -1.95998e-05        -0.901358        0.415708
                        0.959277        0.115186      0.000150251    -5.96738e-05        -0.147496        0.164835     -0.000264215     0.000629351
                     0.000131415    -0.000188356        -0.901556        0.415668     -0.000328016     0.000495252        -0.104177       0.0484542
281702.9               0.0992314        0.193432     -0.000660417     -6.0679e-05         0.959391        0.115358      0.000364758    -5.63301e-05
                    -0.000687715    -0.000339473         0.104234      -0.0477127      0.000455004    -1.96164e-05        -0.901347        0.415733
                        0.959282        0.115153      0.000150254    -5.96636e-05        -0.147489        0.164835     -0.000264205     0.000629354
                     0.000131417    -0.000188352        -0.901546        0.415692     -0.000328005     0.000495266        -0.104175       0.0484537
281703                 0.0992377        0.193423      -0.00066041    -6.06571e-05         0.959396        0.115325      0.000364752    -5.63372e-05
                    -0.000687718    -0.000339446          0.10423      -0.0477174      0.000454996     -1.9633e-05        -0.901336        0.415757
                        0.959287         0.11512      0.000150258    -5.96535e-05        -0.147481        0.164835     -0.000264195     0.000629357
                     0.000131419    -0.000188348        -0.901535        0.415717     -0.000327993      0.00049528        -0.104174       0.0484533
281703.1               0.0992441        0.193414     -0.000660402    -6.06352e-05         0.959401        0.115292      0.000364745    -5.63442e-05
                    -0.000687721    -0.000339418         0.104226      -0.0477221      0.000454988    -1.96497e-05        -0.901325        0.415781
                        0.959292        0.115087      0.000150262    -5.96433e-05        -0.147474        0.164835     -0.000264184     0.000629361
