! TOUCHSTONE file generated by CST MICROWAVE STUDIO
! Date and time: Wed Oct  8 06:54:03 2025
! Project name: Teste_Macro_Metasurface_Nanopilar.cst
! Parameters = {H=600; L_x=95; L_y=185; Lambda=1064; Max_L=200; Min_L=70; PathPara=1; Phi=0; Step_L=10; Theta=0; p=520; phaseX=180; phaseY=0}
! Header version: 2018
! Port assignment regex: !\s*Touchstone port\s*([0-9]+)\s*=\s*(CST MWS port|CST DS port)\s*([0-9]+|Zmin|Zmax)\s*\(\"(.*)\"\)(\s*mode\s*([0-9]+))?.*
! Touchstone port assignment:
! Touchstone port 1 = CST MWS port Zmax ("") mode 1
! Touchstone port 2 = CST MWS port Zmax ("") mode 2
! Touchstone port 3 = CST MWS port Zmin ("") mode 1
! Touchstone port 4 = CST MWS port Zmin ("") mode 2
! S-Parameters are not renormalized. Each port impedance will be approximated by the real part at minimum frequency. The values are described via the [Reference] keyword.
! Default impedance is overridden by [Reference]
[Version] 2.0
# GHz S RI R 376.73
[Number of Ports] 4
[Reference]
376.73 376.73 376.73 376.73 
[Number of Frequencies] 1001
[Network Data]
281700                 -0.601429       -0.511943      0.000404513    -2.86649e-05        -0.548931        0.192145     -0.000121286     7.96453e-06
                     0.000146247     3.94693e-05         -0.19885     -0.00656554     -0.000300707    -0.000141012         0.429193        0.874401
                       -0.548689          0.1926     -0.000821048    -0.000133322        0.0880628       -0.779233      0.000230315    -0.000159029
                    -0.000315794     1.03808e-05         0.429261        0.874699      0.000313568    -0.000123446        -0.117525        0.160274
281700.1                -0.60146       -0.511931      0.000404556     -2.8721e-05          -0.5489        0.192166     -0.000121282     7.93918e-06
                     0.000146258     3.94296e-05        -0.198846     -0.00655922     -0.000300741    -0.000140965         0.429221        0.874388
                       -0.548658        0.192621     -0.000821117    -0.000133256        0.0880096       -0.779255      0.000230313    -0.000158991
                      -0.0003158     1.03855e-05         0.429289        0.874686      0.000313581    -0.000123426        -0.117518        0.160274
281700.2               -0.601491       -0.511919      0.000404599    -2.87771e-05        -0.548869        0.192187     -0.000121279     7.91382e-06
                      0.00014627     3.93899e-05        -0.198842      -0.0065529     -0.000300775    -0.000140917          0.42925        0.874375
                       -0.548628        0.192643     -0.000821186     -0.00013319        0.0879564       -0.779277      0.000230312    -0.000158954
                    -0.000315806     1.03903e-05         0.429317        0.874673      0.000313593    -0.000123406         -0.11751        0.160274
281700.3               -0.601522       -0.511907      0.000404642    -2.88331e-05        -0.548839        0.192209     -0.000121276     7.88846e-06
                     0.000146282     3.93502e-05        -0.198838     -0.00654658     -0.000300809    -0.000140869         0.429278        0.874362
                       -0.548597        0.192664     -0.000821255    -0.000133125        0.0879032       -0.779299       0.00023031    -0.000158916
                    -0.000315811     1.03951e-05         0.429345         0.87466      0.000313606    -0.000123386        -0.117502        0.160275
281700.4               -0.601553       -0.511895      0.000404685    -2.88892e-05        -0.548808         0.19223     -0.000121273     7.86309e-06
                     0.000146293     3.93105e-05        -0.198834     -0.00654026     -0.000300842    -0.000140821         0.429306        0.874349
                       -0.548566        0.192685     -0.000821324    -0.000133059        0.0878501       -0.779321      0.000230308    -0.000158878
                    -0.000315817     1.03998e-05         0.429374        0.874647      0.000313618    -0.000123366        -0.117495        0.160275
281700.5               -0.601584       -0.511883      0.000404729    -2.89453e-05        -0.548777        0.192251      -0.00012127     7.83773e-06
                     0.000146305     3.92708e-05        -0.198831     -0.00653395     -0.000300876    -0.000140774         0.429334        0.874336
                       -0.548535        0.192707     -0.000821393    -0.000132993        0.0877969       -0.779343      0.000230306    -0.000158841
                    -0.000315823     1.04046e-05         0.429402        0.874634      0.000313631    -0.000123346        -0.117487        0.160276
281700.6               -0.601615       -0.511871      0.000404772    -2.90014e-05        -0.548746        0.192273     -0.000121267     7.81237e-06
                     0.000146316     3.92311e-05        -0.198827     -0.00652763      -0.00030091    -0.000140726         0.429362        0.874323
                       -0.548504        0.192728     -0.000821462    -0.000132928        0.0877437       -0.779365      0.000230304    -0.000158803
                    -0.000315829     1.04094e-05          0.42943        0.874621      0.000313643    -0.000123326         -0.11748        0.160276
281700.7               -0.601646       -0.511858      0.000404815    -2.90575e-05        -0.548715        0.192294     -0.000121264     7.78701e-06
                     0.000146328     3.91914e-05        -0.198823     -0.00652131     -0.000300944    -0.000140678          0.42939         0.87431
                       -0.548473        0.192749     -0.000821531    -0.000132862        0.0876905       -0.779387      0.000230302    -0.000158765
                    -0.000315834     1.04141e-05         0.429458        0.874608      0.000313656    -0.000123306        -0.117472        0.160277
281700.8               -0.601677       -0.511846      0.000404858    -2.91136e-05        -0.548684        0.192315     -0.000121261     7.76164e-06
                      0.00014634     3.91517e-05        -0.198819     -0.00651499     -0.000300978    -0.000140631         0.429418        0.874297
                       -0.548442        0.192771       -0.0008216    -0.000132796        0.0876373       -0.779409      0.000230301    -0.000158728
                     -0.00031584     1.04189e-05         0.429486        0.874595      0.000313668    -0.000123286        -0.117464        0.160277
281700.9               -0.601708       -0.511834      0.000404901    -2.91698e-05        -0.548653        0.192337     -0.000121258     7.73628e-06
                     0.000146351      3.9112e-05        -0.198815     -0.00650868     -0.000301011    -0.000140583         0.429447        0.874284
                       -0.548411        0.192792     -0.000821669     -0.00013273        0.0875841       -0.779431      0.000230299     -0.00015869
                    -0.000315846     1.04237e-05         0.429515        0.874583      0.000313681    -0.000123266        -0.117457        0.160277
281701                 -0.601739       -0.511822      0.000404944    -2.92259e-05        -0.548623        0.192358     -0.000121255     7.71091e-06
                     0.000146363     3.90723e-05        -0.198811     -0.00650236     -0.000301045    -0.000140535         0.429475        0.874271
                       -0.548381        0.192813     -0.000821738    -0.000132665         0.087531       -0.779453      0.000230297    -0.000158652
                    -0.000315852     1.04284e-05         0.429543         0.87457      0.000313693    -0.000123246        -0.117449        0.160278
281701.1                -0.60177        -0.51181      0.000404987     -2.9282e-05        -0.548592        0.192379     -0.000121252     7.68555e-06
                     0.000146375     3.90326e-05        -0.198807     -0.00649605     -0.000301079    -0.000140487         0.429503        0.874259
                        -0.54835        0.192835     -0.000821807    -0.000132599        0.0874778       -0.779475      0.000230295    -0.000158615
                    -0.000315858     1.04332e-05         0.429571        0.874557      0.000313706    -0.000123225        -0.117442        0.160278
281701.2               -0.601801       -0.511798       0.00040503    -2.93381e-05        -0.548561        0.192401     -0.000121249     7.66018e-06
                     0.000146386     3.89929e-05        -0.198803     -0.00648973     -0.000301113     -0.00014044         0.429531        0.874246
                       -0.548319        0.192856     -0.000821876    -0.000132533        0.0874246       -0.779497      0.000230293    -0.000158577
                    -0.000315863      1.0438e-05         0.429599        0.874544      0.000313718    -0.000123205        -0.117434        0.160279
281701.3               -0.601832       -0.511786      0.000405074    -2.93942e-05         -0.54853        0.192422     -0.000121245     7.63481e-06
                     0.000146398     3.89532e-05        -0.198799     -0.00648341     -0.000301147    -0.000140392         0.429559        0.874233
                       -0.548288        0.192877     -0.000821945    -0.000132467        0.0873714       -0.779519      0.000230292    -0.000158539
                    -0.000315869     1.04427e-05         0.429628        0.874531      0.000313731    -0.000123185        -0.117426        0.160279
281701.4               -0.601863       -0.511773      0.000405117    -2.94503e-05        -0.548499        0.192443     -0.000121242     7.60945e-06
                     0.000146409     3.89135e-05        -0.198795      -0.0064771      -0.00030118    -0.000140344         0.429587         0.87422
                       -0.548257        0.192899     -0.000822014    -0.000132402        0.0873182       -0.779541       0.00023029    -0.000158502
                    -0.000315875     1.04475e-05         0.429656        0.874518      0.000313744    -0.000123165        -0.117419        0.160279
281701.5               -0.601894       -0.511761       0.00040516    -2.95065e-05        -0.548468        0.192465     -0.000121239     7.58408e-06
                     0.000146421     3.88738e-05        -0.198791     -0.00647078     -0.000301214    -0.000140297         0.429616        0.874207
                       -0.548226         0.19292     -0.000822083    -0.000132336         0.087265       -0.779563      0.000230288    -0.000158464
                    -0.000315881     1.04523e-05         0.429684        0.874505      0.000313756    -0.000123145        -0.117411         0.16028
281701.6               -0.601925       -0.511749      0.000405203    -2.95626e-05        -0.548437        0.192486     -0.000121236     7.55871e-06
                     0.000146432      3.8834e-05        -0.198787     -0.00646447     -0.000301248    -0.000140249         0.429644        0.874194
                       -0.548195        0.192941     -0.000822152     -0.00013227        0.0872118       -0.779585      0.000230286    -0.000158426
                    -0.000315886      1.0457e-05         0.429712        0.874492      0.000313769    -0.000123125        -0.117404         0.16028
281701.7               -0.601956       -0.511737      0.000405246    -2.96187e-05        -0.548407        0.192507     -0.000121233     7.53334e-06
                     0.000146444     3.87943e-05        -0.198783     -0.00645815     -0.000301282    -0.000140201         0.429672        0.874181
                       -0.548164        0.192963     -0.000822221    -0.000132204        0.0871586       -0.779607      0.000230284    -0.000158389
                    -0.000315892     1.04618e-05          0.42974        0.874479      0.000313781    -0.000123105        -0.117396        0.160281
281701.8               -0.601986       -0.511725      0.000405289    -2.96749e-05        -0.548376        0.192528      -0.00012123     7.50797e-06
                     0.000146456     3.87546e-05        -0.198779     -0.00645184     -0.000301315    -0.000140153           0.4297        0.874168
                       -0.548133        0.192984      -0.00082229    -0.000132139        0.0871053       -0.779629      0.000230283    -0.000158351
                    -0.000315898     1.04666e-05         0.429769        0.874467      0.000313794    -0.000123085        -0.117388        0.160281
281701.9               -0.602017       -0.511713      0.000405333     -2.9731e-05        -0.548345         0.19255     -0.000121227      7.4826e-06
                     0.000146467     3.87149e-05        -0.198776     -0.00644553     -0.000301349    -0.000140105         0.429728        0.874155
                       -0.548103        0.193005     -0.000822359    -0.000132073        0.0870521       -0.779651      0.000230281    -0.000158313
                    -0.000315904     1.04713e-05         0.429797        0.874454      0.000313806    -0.000123065        -0.117381        0.160281
281702                 -0.602048         -0.5117      0.000405376    -2.97872e-05        -0.548314        0.192571     -0.000121224     7.45723e-06
                     0.000146479     3.86751e-05        -0.198772     -0.00643921     -0.000301383    -0.000140058         0.429756        0.874142
                       -0.548072        0.193026     -0.000822428    -0.000132007        0.0869989       -0.779672      0.000230279    -0.000158276
                     -0.00031591     1.04761e-05         0.429825        0.874441      0.000313819    -0.000123045        -0.117373        0.160282
281702.1               -0.602079       -0.511688      0.000405419    -2.98433e-05        -0.548283        0.192592     -0.000121221     7.43185e-06
                      0.00014649     3.86354e-05        -0.198768      -0.0064329     -0.000301417     -0.00014001         0.429785        0.874129
                       -0.548041        0.193048     -0.000822497    -0.000131941        0.0869457       -0.779694      0.000230277    -0.000158238
                    -0.000315915     1.04809e-05         0.429853        0.874428      0.000313832    -0.000123025        -0.117366        0.160282
281702.2                -0.60211       -0.511676      0.000405462    -2.98994e-05        -0.548252        0.192614     -0.000121218     7.40648e-06
                     0.000146502     3.85957e-05        -0.198764     -0.00642659      -0.00030145    -0.000139962         0.429813        0.874116
                        -0.54801        0.193069     -0.000822566    -0.000131875        0.0868925       -0.779716      0.000230276      -0.0001582
                    -0.000315921     1.04857e-05         0.429881        0.874415      0.000313844    -0.000123005        -0.117358        0.160283
281702.3               -0.602141       -0.511664      0.000405505    -2.99556e-05        -0.548221        0.192635     -0.000121215     7.38111e-06
                     0.000146513     3.85559e-05         -0.19876     -0.00642027     -0.000301484    -0.000139914         0.429841        0.874103
                       -0.547979         0.19309     -0.000822634    -0.000131809        0.0868393       -0.779738      0.000230274    -0.000158163
                    -0.000315927     1.04904e-05          0.42991        0.874402      0.000313857    -0.000122985         -0.11735        0.160283
281702.4               -0.602172       -0.511652      0.000405548    -3.00118e-05         -0.54819        0.192656     -0.000121212     7.35573e-06
                     0.000146525     3.85162e-05        -0.198756     -0.00641396     -0.000301518    -0.000139867         0.429869         0.87409
                       -0.547948        0.193112     -0.000822703    -0.000131743         0.086786        -0.77976      0.000230272    -0.000158125
                    -0.000315933     1.04952e-05         0.429938        0.874389      0.000313869    -0.000122965        -0.117343        0.160283
281702.5               -0.602203        -0.51164      0.000405592    -3.00679e-05         -0.54816        0.192678     -0.000121209     7.33036e-06
                     0.000146536     3.84764e-05        -0.198752     -0.00640765     -0.000301552    -0.000139819         0.429897        0.874077
                       -0.547917        0.193133     -0.000822772    -0.000131678        0.0867328       -0.779782       0.00023027    -0.000158087
                    -0.000315938        1.05e-05         0.429966        0.874376      0.000313882    -0.000122945        -0.117335        0.160284
281702.6               -0.602234       -0.511627      0.000405635    -3.01241e-05        -0.548129        0.192699     -0.000121206     7.30498e-06
                     0.000146548     3.84367e-05        -0.198748     -0.00640134     -0.000301585    -0.000139771         0.429925        0.874064
                       -0.547886        0.193154     -0.000822841    -0.000131612        0.0866796       -0.779804      0.000230269     -0.00015805
                    -0.000315944     1.05047e-05         0.429994        0.874363      0.000313894    -0.000122925        -0.117328        0.160284
281702.7               -0.602265       -0.511615      0.000405678    -3.01802e-05        -0.548098         0.19272     -0.000121203     7.27961e-06
                     0.000146559      3.8397e-05        -0.198744     -0.00639503     -0.000301619    -0.000139723         0.429953        0.874051
                       -0.547855        0.193175      -0.00082291    -0.000131546        0.0866263       -0.779826      0.000230267    -0.000158012
                     -0.00031595     1.05095e-05         0.430023         0.87435      0.000313907    -0.000122905         -0.11732        0.160285
281702.8               -0.602296       -0.511603      0.000405721    -3.02364e-05        -0.548067        0.192741       -0.0001212     7.25423e-06
                     0.000146571     3.83572e-05         -0.19874     -0.00638871     -0.000301653    -0.000139675         0.429982        0.874039
                       -0.547824        0.193197     -0.000822979     -0.00013148        0.0865731       -0.779848      0.000230265    -0.000157974
                    -0.000315956     1.05143e-05         0.430051        0.874337       0.00031392    -0.000122885        -0.117312        0.160285
281702.9               -0.602327       -0.511591      0.000405764    -3.02926e-05        -0.548036        0.192763     -0.000121197     7.22885e-06
                     0.000146582     3.83174e-05        -0.198736      -0.0063824     -0.000301686    -0.000139628          0.43001        0.874026
                       -0.547794        0.193218     -0.000823048    -0.000131414        0.0865199        -0.77987      0.000230264    -0.000157937
                    -0.000315962     1.05191e-05         0.430079        0.874325      0.000313932    -0.000122865        -0.117305        0.160285
281703                 -0.602358       -0.511579      0.000405807    -3.03487e-05        -0.548005        0.192784     -0.000121194     7.20347e-06
                     0.000146594     3.82777e-05        -0.198732     -0.00637609      -0.00030172     -0.00013958         0.430038        0.874013
                       -0.547763        0.193239     -0.000823117    -0.000131348        0.0864666       -0.779892      0.000230262    -0.000157899
                    -0.000315967     1.05238e-05         0.430107        0.874312      0.000313945    -0.000122845        -0.117297        0.160286
281703.1               -0.602389       -0.511566      0.000405851    -3.04049e-05        -0.547974        0.192805     -0.000121191      7.1781e-06
                     0.000146605     3.82379e-05        -0.198728     -0.00636978     -0.000301754    -0.000139532         0.430066           0.874
                       -0.547732         0.19326     -0.000823186    -0.000131282        0.0864134       -0.779914       0.00023026    -0.000157861
