! TOUCHSTONE file generated by CST MICROWAVE STUDIO
! Date and time: Wed Oct  8 06:58:38 2025
! Project name: Teste_Macro_Metasurface_Nanopilar.cst
! Parameters = {H=600; L_x=135; L_y=145; Lambda=1064; Max_L=200; Min_L=70; PathPara=1; Phi=0; Step_L=10; Theta=0; p=520; phaseX=180; phaseY=0}
! Header version: 2018
! Port assignment regex: !\s*Touchstone port\s*([0-9]+)\s*=\s*(CST MWS port|CST DS port)\s*([0-9]+|Zmin|Zmax)\s*\(\"(.*)\"\)(\s*mode\s*([0-9]+))?.*
! Touchstone port assignment:
! Touchstone port 1 = CST MWS port Zmax ("") mode 1
! Touchstone port 2 = CST MWS port Zmax ("") mode 2
! Touchstone port 3 = CST MWS port Zmin ("") mode 1
! Touchstone port 4 = CST MWS port Zmin ("") mode 2
! S-Parameters are not renormalized. Each port impedance will be approximated by the real part at minimum frequency. The values are described via the [Reference] keyword.
! Default impedance is overridden by [Reference]
[Version] 2.0
# GHz S RI R 376.73
[Number of Ports] 4
[Reference]
376.73 376.73 376.73 376.73 
[Number of Frequencies] 1001
[Network Data]
281700                 -0.106085      -0.0477352      8.36746e-05    -0.000322771        -0.741914       -0.651888      0.000596539    -0.000642473
                    -0.000153768    -0.000338309        -0.179793       0.0153465      0.000602669    -0.000471464        -0.507983       -0.836811
                       -0.742324       -0.652115      0.000711807    -0.000520724         0.057799       0.0952002      4.09962e-05     0.000156494
                     0.000628923    -0.000567184        -0.508129        -0.83684      6.16456e-05     9.14607e-05       -0.0977838        0.151001
281700.1                -0.10608      -0.0477372      8.36619e-05    -0.000322767        -0.741936       -0.651864      0.000596524    -0.000642491
                    -0.000153776    -0.000338303        -0.179787       0.0153508      0.000602657    -0.000471472        -0.508009       -0.836796
                       -0.742346       -0.652091      0.000711796    -0.000520748        0.0578066        0.095191      4.09903e-05     0.000156504
                      0.00062891    -0.000567197        -0.508155       -0.836826      6.16468e-05     9.14598e-05        -0.097776           0.151
281700.2               -0.106075      -0.0477392      8.36492e-05    -0.000322763        -0.741958        -0.65184      0.000596509     -0.00064251
                    -0.000153784    -0.000338296        -0.179782       0.0153551      0.000602646     -0.00047148        -0.508035       -0.836781
                       -0.742368       -0.652067      0.000711785    -0.000520772        0.0578143       0.0951818      4.09844e-05     0.000156514
                     0.000628897    -0.000567211        -0.508181       -0.836811       6.1648e-05      9.1459e-05       -0.0977682           0.151
281700.3                -0.10607      -0.0477412      8.36365e-05     -0.00032276        -0.741979       -0.651815      0.000596494    -0.000642528
                    -0.000153792    -0.000338289        -0.179777       0.0153595      0.000602634    -0.000471488        -0.508061       -0.836766
                       -0.742389       -0.652042      0.000711774    -0.000520796        0.0578219       0.0951726      4.09785e-05     0.000156524
                     0.000628885    -0.000567224        -0.508207       -0.836796      6.16491e-05     9.14581e-05       -0.0977603        0.150999
281700.4               -0.106065      -0.0477432      8.36239e-05    -0.000322756        -0.742001       -0.651791      0.000596479    -0.000642547
                      -0.0001538    -0.000338282        -0.179772       0.0153638      0.000602622    -0.000471496        -0.508087       -0.836752
                       -0.742411       -0.652018      0.000711763    -0.000520821        0.0578296       0.0951634      4.09726e-05     0.000156533
                     0.000628872    -0.000567238        -0.508233       -0.836781      6.16503e-05     9.14573e-05       -0.0977525        0.150998
281700.5                -0.10606      -0.0477452      8.36112e-05    -0.000322752        -0.742023       -0.651767      0.000596464    -0.000642566
                    -0.000153808    -0.000338276        -0.179767       0.0153681       0.00060261    -0.000471504        -0.508113       -0.836737
                       -0.742433       -0.651994      0.000711752    -0.000520845        0.0578373       0.0951542      4.09667e-05     0.000156543
                      0.00062886    -0.000567251        -0.508259       -0.836767      6.16515e-05     9.14564e-05       -0.0977447        0.150998
281700.6               -0.106055      -0.0477472      8.35985e-05    -0.000322749        -0.742045       -0.651742      0.000596449    -0.000642584
                    -0.000153816    -0.000338269        -0.179762       0.0153724      0.000602598    -0.000471512        -0.508139       -0.836722
                       -0.742455       -0.651969      0.000711741    -0.000520869        0.0578449        0.095145      4.09608e-05     0.000156553
                     0.000628847    -0.000567265        -0.508285       -0.836752      6.16527e-05     9.14556e-05       -0.0977369        0.150997
281700.7                -0.10605      -0.0477491      8.35858e-05    -0.000322745        -0.742067       -0.651718      0.000596434    -0.000642603
                    -0.000153824    -0.000338262        -0.179756       0.0153768      0.000602586     -0.00047152        -0.508165       -0.836707
                       -0.742477       -0.651945       0.00071173    -0.000520894        0.0578526       0.0951358      4.09549e-05     0.000156563
                     0.000628834    -0.000567278        -0.508311       -0.836737      6.16538e-05     9.14547e-05       -0.0977291        0.150996
281700.8               -0.106046      -0.0477511      8.35732e-05    -0.000322741        -0.742089       -0.651694      0.000596419    -0.000642621
                    -0.000153832    -0.000338255        -0.179751       0.0153811      0.000602575    -0.000471528        -0.508191       -0.836692
                       -0.742499       -0.651921      0.000711719    -0.000520918        0.0578602       0.0951265      4.09491e-05     0.000156573
                     0.000628822    -0.000567292        -0.508337       -0.836722       6.1655e-05     9.14539e-05       -0.0977213        0.150995
281700.9               -0.106041      -0.0477531      8.35605e-05    -0.000322738         -0.74211       -0.651669      0.000596404     -0.00064264
                     -0.00015384    -0.000338249        -0.179746       0.0153854      0.000602563    -0.000471536        -0.508217       -0.836678
                       -0.742521       -0.651896      0.000711708    -0.000520942        0.0578679       0.0951173      4.09432e-05     0.000156583
                     0.000628809    -0.000567305        -0.508363       -0.836707      6.16562e-05      9.1453e-05       -0.0977135        0.150995
281701                 -0.106036      -0.0477551      8.35478e-05    -0.000322734        -0.742132       -0.651645      0.000596388    -0.000642658
                    -0.000153848    -0.000338242        -0.179741       0.0153897      0.000602551    -0.000471544        -0.508243       -0.836663
                       -0.742542       -0.651872      0.000711697    -0.000520967        0.0578755       0.0951081      4.09373e-05     0.000156592
                     0.000628797    -0.000567319        -0.508389       -0.836693      6.16573e-05     9.14522e-05       -0.0977056        0.150994
281701.1               -0.106031      -0.0477571      8.35351e-05     -0.00032273        -0.742154       -0.651621      0.000596373    -0.000642677
                    -0.000153856    -0.000338235        -0.179736        0.015394      0.000602539    -0.000471552        -0.508269       -0.836648
                       -0.742564       -0.651848      0.000711686    -0.000520991        0.0578832       0.0950989      4.09314e-05     0.000156602
                     0.000628784    -0.000567332        -0.508416       -0.836678      6.16585e-05     9.14513e-05       -0.0976978        0.150993
281701.2               -0.106026      -0.0477591      8.35224e-05    -0.000322726        -0.742176       -0.651596      0.000596358    -0.000642695
                    -0.000153864    -0.000338229         -0.17973       0.0153984      0.000602527     -0.00047156        -0.508295       -0.836633
                       -0.742586       -0.651823      0.000711675    -0.000521015        0.0578908       0.0950897      4.09255e-05     0.000156612
                     0.000628771    -0.000567346        -0.508442       -0.836663      6.16596e-05     9.14505e-05         -0.09769        0.150993
281701.3               -0.106021      -0.0477611      8.35098e-05    -0.000322723        -0.742198       -0.651572      0.000596343    -0.000642714
                    -0.000153872    -0.000338222        -0.179725       0.0154027      0.000602516    -0.000471568        -0.508321       -0.836618
                       -0.742608       -0.651799      0.000711664     -0.00052104        0.0578985       0.0950805      4.09196e-05     0.000156622
                     0.000628759    -0.000567359        -0.508468       -0.836648      6.16608e-05     9.14496e-05       -0.0976822        0.150992
281701.4               -0.106016      -0.0477631      8.34971e-05    -0.000322719        -0.742219       -0.651548      0.000596328    -0.000642732
                     -0.00015388    -0.000338215         -0.17972        0.015407      0.000602504    -0.000471576        -0.508347       -0.836604
                        -0.74263       -0.651775      0.000711653    -0.000521064        0.0579061       0.0950713      4.09138e-05     0.000156632
                     0.000628746    -0.000567373        -0.508494       -0.836633      6.16619e-05     9.14488e-05       -0.0976744        0.150991
281701.5               -0.106011      -0.0477651      8.34844e-05    -0.000322715        -0.742241       -0.651523      0.000596313    -0.000642751
                    -0.000153888    -0.000338209        -0.179715       0.0154113      0.000602492    -0.000471584        -0.508373       -0.836589
                       -0.742652        -0.65175      0.000711642    -0.000521088        0.0579138       0.0950621      4.09079e-05     0.000156641
                     0.000628734    -0.000567386         -0.50852       -0.836619       6.1663e-05     9.14479e-05       -0.0976666         0.15099
281701.6               -0.106006      -0.0477671      8.34717e-05    -0.000322712        -0.742263       -0.651499      0.000596298    -0.000642769
                    -0.000153896    -0.000338202         -0.17971       0.0154156       0.00060248    -0.000471592        -0.508399       -0.836574
                       -0.742673       -0.651726      0.000711631    -0.000521113        0.0579214       0.0950529       4.0902e-05     0.000156651
                     0.000628721    -0.000567399        -0.508546       -0.836604      6.16642e-05     9.14471e-05       -0.0976588         0.15099
281701.7               -0.106001      -0.0477691      8.34591e-05    -0.000322708        -0.742285       -0.651475      0.000596283    -0.000642788
                    -0.000153904    -0.000338195        -0.179704         0.01542      0.000602468      -0.0004716        -0.508425       -0.836559
                       -0.742695       -0.651702       0.00071162    -0.000521137        0.0579291       0.0950437      4.08962e-05     0.000156661
                     0.000628709    -0.000567413        -0.508572       -0.836589      6.16653e-05     9.14463e-05        -0.097651        0.150989
281701.8               -0.105996      -0.0477711      8.34464e-05    -0.000322704        -0.742307        -0.65145      0.000596267    -0.000642806
                    -0.000153912    -0.000338189        -0.179699       0.0154243      0.000602457    -0.000471608        -0.508451       -0.836544
                       -0.742717       -0.651677      0.000711609    -0.000521161        0.0579367       0.0950344      4.08903e-05     0.000156671
                     0.000628696    -0.000567426        -0.508598       -0.836574      6.16664e-05     9.14454e-05       -0.0976431        0.150988
281701.9               -0.105992      -0.0477731      8.34337e-05      -0.0003227        -0.742329       -0.651426      0.000596252    -0.000642825
                     -0.00015392    -0.000338182        -0.179694       0.0154286      0.000602445    -0.000471616        -0.508477        -0.83653
                       -0.742739       -0.651653      0.000711598    -0.000521186        0.0579444       0.0950252      4.08844e-05      0.00015668
                     0.000628683     -0.00056744        -0.508624        -0.83656      6.16676e-05     9.14446e-05       -0.0976353        0.150988
281702                 -0.105987      -0.0477751       8.3421e-05    -0.000322697         -0.74235       -0.651402      0.000596237    -0.000642844
                    -0.000153928    -0.000338175        -0.179689       0.0154329      0.000602433    -0.000471624        -0.508503       -0.836515
                       -0.742761       -0.651628      0.000711587     -0.00052121         0.057952        0.095016      4.08786e-05      0.00015669
                     0.000628671    -0.000567453         -0.50865       -0.836545      6.16687e-05     9.14438e-05       -0.0976275        0.150987
281702.1               -0.105982      -0.0477772      8.34083e-05    -0.000322693        -0.742372       -0.651377      0.000596222    -0.000642862
                    -0.000153936    -0.000338169        -0.179684       0.0154372      0.000602421    -0.000471632        -0.508529         -0.8365
                       -0.742783       -0.651604      0.000711576    -0.000521234        0.0579597       0.0950068      4.08727e-05       0.0001567
                     0.000628658    -0.000567467        -0.508676        -0.83653      6.16698e-05     9.14429e-05       -0.0976197        0.150986
281702.2               -0.105977      -0.0477792      8.33957e-05    -0.000322689        -0.742394       -0.651353      0.000596207    -0.000642881
                    -0.000153944    -0.000338162        -0.179678       0.0154416      0.000602409     -0.00047164        -0.508555       -0.836485
                       -0.742804        -0.65158      0.000711565    -0.000521259        0.0579673       0.0949976      4.08669e-05      0.00015671
                     0.000628646     -0.00056748        -0.508702       -0.836515      6.16709e-05     9.14421e-05       -0.0976119        0.150985
281702.3               -0.105972      -0.0477812       8.3383e-05    -0.000322685        -0.742416       -0.651328      0.000596192    -0.000642899
                    -0.000153952    -0.000338155        -0.179673       0.0154459      0.000602398    -0.000471648        -0.508581        -0.83647
                       -0.742826       -0.651555      0.000711554    -0.000521283         0.057975       0.0949884       4.0861e-05      0.00015672
                     0.000628633    -0.000567493        -0.508728         -0.8365       6.1672e-05     9.14413e-05       -0.0976041        0.150985
281702.4               -0.105967      -0.0477832      8.33703e-05    -0.000322682        -0.742438       -0.651304      0.000596176    -0.000642918
                     -0.00015396    -0.000338149        -0.179668       0.0154502      0.000602386    -0.000471656        -0.508607       -0.836456
                       -0.742848       -0.651531      0.000711543    -0.000521307        0.0579826       0.0949792      4.08551e-05     0.000156729
                     0.000628621    -0.000567507        -0.508754       -0.836486      6.16731e-05     9.14404e-05       -0.0975963        0.150984
281702.5               -0.105962      -0.0477852      8.33576e-05    -0.000322678        -0.742459        -0.65128      0.000596161    -0.000642936
                    -0.000153968    -0.000338142        -0.179663       0.0154545      0.000602374    -0.000471664        -0.508633       -0.836441
                        -0.74287       -0.651507      0.000711532    -0.000521331        0.0579902       0.0949699      4.08493e-05     0.000156739
                     0.000628608     -0.00056752         -0.50878       -0.836471      6.16742e-05     9.14396e-05       -0.0975884        0.150983
281702.6               -0.105957      -0.0477872      8.33449e-05    -0.000322674        -0.742481       -0.651255      0.000596146    -0.000642955
                    -0.000153976    -0.000338136        -0.179658       0.0154588      0.000602362    -0.000471672        -0.508659       -0.836426
                       -0.742892       -0.651482      0.000711521    -0.000521356        0.0579979       0.0949607      4.08435e-05     0.000156749
                     0.000628595    -0.000567534        -0.508806       -0.836456      6.16753e-05     9.14388e-05       -0.0975806        0.150983
281702.7               -0.105952      -0.0477892      8.33323e-05    -0.000322671        -0.742503       -0.651231      0.000596131    -0.000642973
                    -0.000153984    -0.000338129        -0.179653       0.0154631      0.000602351     -0.00047168        -0.508685       -0.836411
                       -0.742914       -0.651458       0.00071151     -0.00052138        0.0580055       0.0949515      4.08376e-05     0.000156758
                     0.000628583    -0.000567547        -0.508832       -0.836441      6.16764e-05     9.14379e-05       -0.0975728        0.150982
281702.8               -0.105947      -0.0477912      8.33196e-05    -0.000322667        -0.742525       -0.651207      0.000596116    -0.000642992
                    -0.000153992    -0.000338122        -0.179647       0.0154675      0.000602339    -0.000471688        -0.508711       -0.836396
                       -0.742935       -0.651434      0.000711499    -0.000521404        0.0580132       0.0949423      4.08318e-05     0.000156768
                      0.00062857     -0.00056756        -0.508858       -0.836426      6.16775e-05     9.14371e-05        -0.097565        0.150981
281702.9               -0.105943      -0.0477932      8.33069e-05    -0.000322663        -0.742547       -0.651182        0.0005961     -0.00064301
                       -0.000154    -0.000338116        -0.179642       0.0154718      0.000602327    -0.000471696        -0.508737       -0.836382
                       -0.742957       -0.651409      0.000711488    -0.000521429        0.0580208       0.0949331      4.08259e-05     0.000156778
                     0.000628558    -0.000567574        -0.508884       -0.836412      6.16786e-05     9.14363e-05       -0.0975572         0.15098
281703                 -0.105938      -0.0477952      8.32942e-05    -0.000322659        -0.742569       -0.651158      0.000596085    -0.000643029
                    -0.000154008    -0.000338109        -0.179637       0.0154761      0.000602315    -0.000471704        -0.508763       -0.836367
                       -0.742979       -0.651385      0.000711477    -0.000521453        0.0580285       0.0949238      4.08201e-05     0.000156788
                     0.000628545    -0.000567587         -0.50891       -0.836397      6.16797e-05     9.14355e-05       -0.0975494         0.15098
281703.1               -0.105933      -0.0477972      8.32815e-05    -0.000322656         -0.74259       -0.651134       0.00059607    -0.000643047
                    -0.000154016    -0.000338103        -0.179632       0.0154804      0.000602304    -0.000471712        -0.508789       -0.836352
                       -0.743001        -0.65136      0.000711466    -0.000521477        0.0580361       0.0949146      4.08143e-05     0.000156797
