! TOUCHSTONE file generated by CST MICROWAVE STUDIO
! Date and time: Wed Oct  8 07:04:38 2025
! Project name: Teste_Macro_Metasurface_Nanopilar.cst
! Parameters = {H=600; L_x=185; L_y=150; Lambda=1064; Max_L=200; Min_L=70; PathPara=1; Phi=0; Step_L=10; Theta=0; p=520; phaseX=180; phaseY=0}
! Header version: 2018
! Port assignment regex: !\s*Touchstone port\s*([0-9]+)\s*=\s*(CST MWS port|CST DS port)\s*([0-9]+|Zmin|Zmax)\s*\(\"(.*)\"\)(\s*mode\s*([0-9]+))?.*
! Touchstone port assignment:
! Touchstone port 1 = CST MWS port Zmax ("") mode 1
! Touchstone port 2 = CST MWS port Zmax ("") mode 2
! Touchstone port 3 = CST MWS port Zmin ("") mode 1
! Touchstone port 4 = CST MWS port Zmin ("") mode 2
! S-Parameters are not renormalized. Each port impedance will be approximated by the real part at minimum frequency. The values are described via the [Reference] keyword.
! Default impedance is overridden by [Reference]
[Version] 2.0
# GHz S RI R 376.73
[Number of Ports] 4
[Reference]
376.73 376.73 376.73 376.73 
[Number of Frequencies] 1001
[Network Data]
281700                -0.0618043        0.128057      0.000121837     0.000236662        -0.876925       -0.449962      0.000148741     -0.00027637
                     0.000186424     0.000261994       -0.0191582      -0.0463487     -1.04609e-05    -0.000360213         -0.99304       -0.056048
                       -0.876496       -0.449998     -5.18688e-05    -0.000282567       -0.0719523        0.122068     -0.000285306     0.000103994
                     9.51656e-05    -0.000276101        -0.993003      -0.0559836     -0.000260346     0.000153934        0.0197096      -0.0450857
281700.1              -0.0617977        0.128054      0.000121853     0.000236654        -0.876939       -0.449936      0.000148735    -0.000276374
                     0.000186445     0.000261995       -0.0191589      -0.0463549     -1.04752e-05    -0.000360204        -0.993042      -0.0560182
                        -0.87651       -0.449972     -5.18827e-05    -0.000282569       -0.0719459        0.122065     -0.000285309     0.000104005
                     9.51551e-05    -0.000276102        -0.993005      -0.0559538      -0.00026035     0.000153939        0.0197083      -0.0450931
281700.2              -0.0617911         0.12805      0.000121869     0.000236646        -0.876954       -0.449911      0.000148729    -0.000276379
                     0.000186467     0.000261996       -0.0191595      -0.0463612     -1.04894e-05    -0.000360196        -0.993043      -0.0559885
                       -0.876524       -0.449946     -5.18966e-05     -0.00028257       -0.0719395        0.122062     -0.000285312     0.000104015
                     9.51446e-05    -0.000276104        -0.993006       -0.055924     -0.000260353     0.000153943         0.019707      -0.0451005
281700.3              -0.0617846        0.128047      0.000121885     0.000236638        -0.876968       -0.449885      0.000148723    -0.000276384
                     0.000186489     0.000261997       -0.0191601      -0.0463674     -1.05036e-05    -0.000360187        -0.993044      -0.0559587
                       -0.876538        -0.44992     -5.19105e-05    -0.000282572       -0.0719332        0.122059     -0.000285315     0.000104025
                     9.51341e-05    -0.000276106        -0.993008      -0.0558943     -0.000260357     0.000153948        0.0197056      -0.0451079
281700.4               -0.061778        0.128043      0.000121901      0.00023663        -0.876982       -0.449859      0.000148717    -0.000276388
                     0.000186511     0.000261998       -0.0191608      -0.0463737     -1.05178e-05    -0.000360179        -0.993046      -0.0559289
                       -0.876553       -0.449894     -5.19243e-05    -0.000282573       -0.0719268        0.122056     -0.000285318     0.000104036
                     9.51235e-05    -0.000276108        -0.993009      -0.0558645      -0.00026036     0.000153953        0.0197043      -0.0451153
281700.5              -0.0617715         0.12804      0.000121916     0.000236622        -0.876996       -0.449833      0.000148711    -0.000276393
                     0.000186532     0.000261999       -0.0191614      -0.0463799      -1.0532e-05     -0.00036017        -0.993047      -0.0558992
                       -0.876567       -0.449868     -5.19382e-05    -0.000282575       -0.0719204        0.122053     -0.000285321     0.000104046
                      9.5113e-05     -0.00027611         -0.99301      -0.0558348     -0.000260364     0.000153958         0.019703      -0.0451228
281700.6              -0.0617649        0.128036      0.000121932     0.000236614         -0.87701       -0.449807      0.000148706    -0.000276398
                     0.000186554        0.000262        -0.019162      -0.0463862     -1.05463e-05    -0.000360162        -0.993049      -0.0558694
                       -0.876581       -0.449843     -5.19521e-05    -0.000282576        -0.071914         0.12205     -0.000285324     0.000104056
                     9.51025e-05    -0.000276112        -0.993012       -0.055805     -0.000260367     0.000153962        0.0197016      -0.0451302
281700.7              -0.0617584        0.128033      0.000121948     0.000236606        -0.877024       -0.449782        0.0001487    -0.000276402
                     0.000186576     0.000262001       -0.0191627      -0.0463924     -1.05605e-05    -0.000360153         -0.99305      -0.0558396
                       -0.876595       -0.449817      -5.1966e-05    -0.000282578       -0.0719076        0.122046     -0.000285327     0.000104067
                      9.5092e-05    -0.000276113        -0.993013      -0.0557752     -0.000260371     0.000153967        0.0197003      -0.0451376
281700.8              -0.0617518        0.128029      0.000121964     0.000236598        -0.877039       -0.449756      0.000148694    -0.000276407
                     0.000186598     0.000262002       -0.0191633      -0.0463987     -1.05747e-05    -0.000360145        -0.993051      -0.0558099
                       -0.876609       -0.449791     -5.19799e-05    -0.000282579       -0.0719012        0.122043      -0.00028533     0.000104077
                     9.50814e-05    -0.000276115        -0.993015      -0.0557455     -0.000260374     0.000153972         0.019699       -0.045145
281700.9              -0.0617452        0.128026       0.00012198      0.00023659        -0.877053        -0.44973      0.000148688    -0.000276412
                     0.000186619     0.000262003       -0.0191639      -0.0464049      -1.0589e-05    -0.000360136        -0.993053      -0.0557801
                       -0.876624       -0.449765     -5.19938e-05    -0.000282581       -0.0718949         0.12204     -0.000285333     0.000104087
                     9.50709e-05    -0.000276117        -0.993016      -0.0557157     -0.000260378     0.000153977        0.0196976      -0.0451525
281701                -0.0617387        0.128022      0.000121995     0.000236583        -0.877067       -0.449704      0.000148682    -0.000276416
                     0.000186641     0.000262004       -0.0191646      -0.0464112     -1.06032e-05    -0.000360128        -0.993054      -0.0557503
                       -0.876638       -0.449739     -5.20077e-05    -0.000282582       -0.0718885        0.122037     -0.000285336     0.000104097
                     9.50604e-05    -0.000276119        -0.993017      -0.0556859     -0.000260381     0.000153981        0.0196963      -0.0451599
281701.1              -0.0617321        0.128019      0.000122011     0.000236575        -0.877081       -0.449678      0.000148676    -0.000276421
                     0.000186663     0.000262005       -0.0191652      -0.0464174     -1.06175e-05    -0.000360119        -0.993055      -0.0557205
                       -0.876652       -0.449714     -5.20216e-05    -0.000282584       -0.0718821        0.122034     -0.000285339     0.000104108
                     9.50499e-05    -0.000276121        -0.993019      -0.0556562     -0.000260385     0.000153986         0.019695      -0.0451673
281701.2              -0.0617256        0.128016      0.000122027     0.000236567        -0.877095       -0.449653      0.000148671    -0.000276426
                     0.000186685     0.000262006       -0.0191658      -0.0464237     -1.06317e-05    -0.000360111        -0.993057      -0.0556908
                       -0.876666       -0.449688     -5.20354e-05    -0.000282585       -0.0718757        0.122031     -0.000285342     0.000104118
                     9.50394e-05    -0.000276123         -0.99302      -0.0556264     -0.000260388     0.000153991        0.0196936      -0.0451747
281701.3               -0.061719        0.128012      0.000122043     0.000236559         -0.87711       -0.449627      0.000148665     -0.00027643
                     0.000186706     0.000262007       -0.0191665      -0.0464299      -1.0646e-05    -0.000360102        -0.993058       -0.055661
                       -0.876681       -0.449662     -5.20493e-05    -0.000282587       -0.0718693        0.122028     -0.000285345     0.000104128
                     9.50289e-05    -0.000276125        -0.993021      -0.0555967     -0.000260392     0.000153996        0.0196923      -0.0451821
281701.4              -0.0617125        0.128009      0.000122058     0.000236551        -0.877124       -0.449601      0.000148659    -0.000276435
                     0.000186728     0.000262008       -0.0191671      -0.0464362     -1.06603e-05    -0.000360094         -0.99306      -0.0556312
                       -0.876695       -0.449636     -5.20632e-05    -0.000282588        -0.071863        0.122025     -0.000285348     0.000104139
                     9.50183e-05    -0.000276126        -0.993023      -0.0555669     -0.000260395        0.000154         0.019691      -0.0451896
281701.5              -0.0617059        0.128005      0.000122074     0.000236543        -0.877138       -0.449575      0.000148653     -0.00027644
                      0.00018675     0.000262009       -0.0191678      -0.0464424     -1.06745e-05    -0.000360085        -0.993061      -0.0556015
                       -0.876709        -0.44961     -5.20771e-05     -0.00028259       -0.0718566        0.122021     -0.000285351     0.000104149
                     9.50078e-05    -0.000276128        -0.993024      -0.0555371     -0.000260399     0.000154005        0.0196896       -0.045197
281701.6              -0.0616993        0.128002       0.00012209     0.000236535        -0.877152        -0.44955      0.000148647    -0.000276444
                     0.000186771      0.00026201       -0.0191684      -0.0464487     -1.06888e-05    -0.000360077        -0.993062      -0.0555717
                       -0.876723       -0.449585      -5.2091e-05    -0.000282591       -0.0718502        0.122018     -0.000285354     0.000104159
                     9.49973e-05     -0.00027613        -0.993025      -0.0555074     -0.000260402      0.00015401        0.0196883      -0.0452044
281701.7              -0.0616928        0.127998      0.000122106     0.000236527        -0.877166       -0.449524      0.000148641    -0.000276449
                     0.000186793     0.000262011        -0.019169      -0.0464549     -1.07031e-05    -0.000360069        -0.993064      -0.0555419
                       -0.876737       -0.449559     -5.21048e-05    -0.000282593       -0.0718438        0.122015     -0.000285357      0.00010417
                     9.49868e-05    -0.000276132        -0.993027      -0.0554776     -0.000260406     0.000154015        0.0196869      -0.0452118
281701.8              -0.0616862        0.127995      0.000122122     0.000236519         -0.87718       -0.449498      0.000148636    -0.000276454
                     0.000186815     0.000262012       -0.0191697      -0.0464612     -1.07173e-05     -0.00036006        -0.993065      -0.0555121
                       -0.876752       -0.449533     -5.21187e-05    -0.000282594       -0.0718374        0.122012      -0.00028536      0.00010418
                     9.49763e-05    -0.000276134        -0.993028      -0.0554478     -0.000260409     0.000154019        0.0196856      -0.0452193
281701.9              -0.0616797        0.127991      0.000122137     0.000236511        -0.877195       -0.449472       0.00014863    -0.000276458
                     0.000186837     0.000262014       -0.0191703      -0.0464674     -1.07316e-05    -0.000360052        -0.993066      -0.0554824
                       -0.876766       -0.449507     -5.21326e-05    -0.000282596       -0.0718311        0.122009     -0.000285363      0.00010419
                     9.49658e-05    -0.000276136         -0.99303      -0.0554181     -0.000260413     0.000154024        0.0196843      -0.0452267
281702                -0.0616731        0.127988      0.000122153     0.000236503        -0.877209       -0.449446      0.000148624    -0.000276463
                     0.000186858     0.000262015       -0.0191709      -0.0464737     -1.07459e-05    -0.000360043        -0.993068      -0.0554526
                        -0.87678       -0.449481     -5.21465e-05    -0.000282597       -0.0718247        0.122006     -0.000285366     0.000104201
                     9.49553e-05    -0.000276137        -0.993031      -0.0553883     -0.000260416     0.000154029        0.0196829      -0.0452341
281702.1              -0.0616666        0.127984      0.000122169     0.000236495        -0.877223       -0.449421      0.000148618    -0.000276468
                      0.00018688     0.000262016       -0.0191716      -0.0464799     -1.07602e-05    -0.000360035        -0.993069      -0.0554228
                       -0.876794       -0.449456     -5.21603e-05    -0.000282599       -0.0718183        0.122003     -0.000285369     0.000104211
                     9.49448e-05    -0.000276139        -0.993032      -0.0553585      -0.00026042     0.000154034        0.0196816      -0.0452415
281702.2                -0.06166        0.127981      0.000122185     0.000236487        -0.877237       -0.449395      0.000148612    -0.000276472
                     0.000186902     0.000262017       -0.0191722      -0.0464862     -1.07745e-05    -0.000360026         -0.99307      -0.0553931
                       -0.876809        -0.44943     -5.21742e-05      -0.0002826       -0.0718119           0.122     -0.000285372     0.000104221
                     9.49342e-05    -0.000276141        -0.993034      -0.0553288     -0.000260423     0.000154038        0.0196802      -0.0452489
281702.3              -0.0616535        0.127977      0.000122201     0.000236479        -0.877251       -0.449369      0.000148606    -0.000276477
                     0.000186923     0.000262018       -0.0191729      -0.0464924     -1.07888e-05    -0.000360018        -0.993072      -0.0553633
                       -0.876823       -0.449404     -5.21881e-05    -0.000282602       -0.0718055        0.121996     -0.000285375     0.000104232
                     9.49237e-05    -0.000276143        -0.993035       -0.055299     -0.000260427     0.000154043        0.0196789      -0.0452564
281702.4              -0.0616469        0.127974      0.000122216     0.000236471        -0.877266       -0.449343      0.000148601    -0.000276481
                     0.000186945     0.000262019       -0.0191735      -0.0464987     -1.08031e-05     -0.00036001        -0.993073      -0.0553335
                       -0.876837       -0.449378      -5.2202e-05    -0.000282603       -0.0717992        0.121993     -0.000285378     0.000104242
                     9.49132e-05    -0.000276145        -0.993036      -0.0552693      -0.00026043     0.000154048        0.0196776      -0.0452638
281702.5              -0.0616404         0.12797      0.000122232     0.000236463         -0.87728       -0.449317      0.000148595    -0.000276486
                     0.000186967      0.00026202       -0.0191742      -0.0465049     -1.08174e-05    -0.000360001        -0.993074      -0.0553037
                       -0.876851       -0.449352     -5.22158e-05    -0.000282605       -0.0717928         0.12199     -0.000285381     0.000104252
                     9.49027e-05    -0.000276147        -0.993038      -0.0552395     -0.000260433     0.000154053        0.0196762      -0.0452712
281702.6              -0.0616338        0.127967      0.000122248     0.000236455        -0.877294       -0.449292      0.000148589    -0.000276491
                     0.000186989     0.000262021       -0.0191748      -0.0465112     -1.08317e-05    -0.000359993        -0.993076       -0.055274
                       -0.876865       -0.449327     -5.22297e-05    -0.000282606       -0.0717864        0.121987     -0.000285384     0.000104263
                     9.48922e-05    -0.000276149        -0.993039      -0.0552097     -0.000260437     0.000154057        0.0196749      -0.0452786
281702.7              -0.0616272        0.127963      0.000122264     0.000236447        -0.877308       -0.449266      0.000148583    -0.000276495
                      0.00018701     0.000262022       -0.0191754      -0.0465174      -1.0846e-05    -0.000359984        -0.993077      -0.0552442
                        -0.87688       -0.449301     -5.22436e-05    -0.000282608         -0.07178        0.121984     -0.000285387     0.000104273
                     9.48817e-05    -0.000276151         -0.99304        -0.05518      -0.00026044     0.000154062        0.0196735       -0.045286
281702.8              -0.0616207         0.12796       0.00012228     0.000236439        -0.877322        -0.44924      0.000148577      -0.0002765
                     0.000187032     0.000262023       -0.0191761      -0.0465236     -1.08603e-05    -0.000359976        -0.993079      -0.0552144
                       -0.876894       -0.449275     -5.22574e-05    -0.000282609       -0.0717736        0.121981      -0.00028539     0.000104283
                     9.48712e-05    -0.000276152        -0.993042      -0.0551502     -0.000260444     0.000154067        0.0196722      -0.0452935
281702.9              -0.0616141        0.127956      0.000122295     0.000236432        -0.877336       -0.449214      0.000148571    -0.000276505
                     0.000187054     0.000262024       -0.0191767      -0.0465299     -1.08746e-05    -0.000359967         -0.99308      -0.0551847
                       -0.876908       -0.449249     -5.22713e-05    -0.000282611       -0.0717673        0.121978     -0.000285393     0.000104294
                     9.48607e-05    -0.000276154        -0.993043      -0.0551204     -0.000260447     0.000154072        0.0196709      -0.0453009
281703                -0.0616076        0.127953      0.000122311     0.000236424        -0.877351       -0.449188      0.000148565    -0.000276509
                     0.000187075     0.000262025       -0.0191774      -0.0465361      -1.0889e-05    -0.000359959        -0.993081      -0.0551549
                       -0.876922       -0.449223     -5.22852e-05    -0.000282612       -0.0717609        0.121975     -0.000285396     0.000104304
                     9.48502e-05    -0.000276156        -0.993044      -0.0550907     -0.000260451     0.000154076        0.0196695      -0.0453083
281703.1               -0.061601        0.127949      0.000122327     0.000236416        -0.877365       -0.449163       0.00014856    -0.000276514
                     0.000187097     0.000262026        -0.019178      -0.0465424     -1.09033e-05    -0.000359951        -0.993083      -0.0551251
                       -0.876936       -0.449197      -5.2299e-05    -0.000282614       -0.0717545        0.121971     -0.000285399     0.000104314
