! TOUCHSTONE file generated by CST MICROWAVE STUDIO
! Date and time: Wed Oct  8 06:54:42 2025
! Project name: Teste_Macro_Metasurface_Nanopilar.cst
! Parameters = {H=600; L_x=100; L_y=200; Lambda=1064; Max_L=200; Min_L=70; PathPara=1; Phi=0; Step_L=10; Theta=0; p=520; phaseX=180; phaseY=0}
! Header version: 2018
! Port assignment regex: !\s*Touchstone port\s*([0-9]+)\s*=\s*(CST MWS port|CST DS port)\s*([0-9]+|Zmin|Zmax)\s*\(\"(.*)\"\)(\s*mode\s*([0-9]+))?.*
! Touchstone port assignment:
! Touchstone port 1 = CST MWS port Zmax ("") mode 1
! Touchstone port 2 = CST MWS port Zmax ("") mode 2
! Touchstone port 3 = CST MWS port Zmin ("") mode 1
! Touchstone port 4 = CST MWS port Zmin ("") mode 2
! S-Parameters are not renormalized. Each port impedance will be approximated by the real part at minimum frequency. The values are described via the [Reference] keyword.
! Default impedance is overridden by [Reference]
[Version] 2.0
# GHz S RI R 376.73
[Number of Ports] 4
[Reference]
376.73 376.73 376.73 376.73 
[Number of Frequencies] 1001
[Network Data]
281700                 -0.301919        0.457739     -0.000197369     0.000130411        -0.507247       -0.651089     -0.000418908     0.000241755
                    -0.000473966     5.23639e-05       -0.0243753      -0.0241241     -0.000110239    -0.000411793         0.987752       0.0754751
                       -0.507342       -0.650905     -7.18512e-05    -0.000791916        -0.522396        0.164459     -0.000158495    -0.000180218
                    -0.000505265     0.000170915         0.987613       0.0757284     -0.000150629    -3.31875e-05        0.0231687      -0.0192829
281700.1               -0.301902        0.457742     -0.000197569     0.000130301        -0.507271       -0.651076     -0.000418937      0.00024178
                      -0.0004721     5.26307e-05       -0.0243745      -0.0241303     -0.000110279    -0.000411803         0.987755       0.0754406
                       -0.507366       -0.650891     -7.35961e-05    -0.000791112        -0.522384        0.164477     -0.000158457    -0.000180211
                    -0.000505278     0.000171018         0.987614        0.075697     -0.000150582    -3.31898e-05        0.0231672      -0.0192909
281700.2               -0.301885        0.457744     -0.000197772     0.000130191        -0.507295       -0.651063     -0.000418966     0.000241806
                    -0.000470241     5.28974e-05       -0.0243738      -0.0241364     -0.000110319    -0.000411813         0.987758       0.0754061
                        -0.50739       -0.650878     -7.53565e-05    -0.000790286        -0.522371        0.164494     -0.000158419    -0.000180204
                     -0.00050529     0.000171122         0.987616       0.0756655     -0.000150534    -3.31923e-05        0.0231657      -0.0192989
281700.3               -0.301869        0.457747     -0.000197978      0.00013008        -0.507319        -0.65105     -0.000418995     0.000241831
                    -0.000468391     5.31639e-05        -0.024373      -0.0241426     -0.000110359    -0.000411823          0.98776       0.0753716
                       -0.507414       -0.650865     -7.71326e-05    -0.000789437        -0.522359        0.164512     -0.000158381    -0.000180197
                    -0.000505301     0.000171227         0.987618        0.075634     -0.000150486    -3.31951e-05        0.0231642      -0.0193068
281700.4               -0.301852         0.45775     -0.000198185      0.00012997        -0.507343       -0.651038     -0.000419024     0.000241856
                    -0.000466548     5.34304e-05       -0.0243723      -0.0241488     -0.000110399    -0.000411833         0.987763       0.0753371
                       -0.507438       -0.650852     -7.89246e-05    -0.000788564        -0.522346        0.164529     -0.000158342    -0.000180191
                    -0.000505312     0.000171331         0.987619       0.0756025     -0.000150438    -3.31982e-05        0.0231626      -0.0193148
281700.5               -0.301836        0.457753     -0.000198396     0.000129859        -0.507367       -0.651025     -0.000419053     0.000241881
                    -0.000464713     5.36968e-05       -0.0243715       -0.024155     -0.000110439    -0.000411843         0.987766       0.0753026
                       -0.507462       -0.650839     -8.07327e-05    -0.000787666        -0.522333        0.164547     -0.000158303    -0.000180184
                    -0.000505323     0.000171436         0.987621       0.0755709      -0.00015039    -3.32016e-05        0.0231611      -0.0193228
281700.6               -0.301819        0.457755     -0.000198609     0.000129749        -0.507391       -0.651012     -0.000419082     0.000241905
                    -0.000462885     5.39632e-05       -0.0243708      -0.0241612     -0.000110479    -0.000411853         0.987769       0.0752681
                       -0.507486       -0.650826      -8.2557e-05    -0.000786743        -0.522321        0.164564     -0.000158264    -0.000180178
                    -0.000505333     0.000171541         0.987622       0.0755392     -0.000150341    -3.32053e-05        0.0231596      -0.0193308
281700.7               -0.301802        0.457758     -0.000198824     0.000129638        -0.507415       -0.650999     -0.000419111      0.00024193
                    -0.000461065     5.42296e-05         -0.02437      -0.0241673     -0.000110519    -0.000411863         0.987772       0.0752335
                        -0.50751       -0.650813     -8.43978e-05    -0.000785795        -0.522308        0.164582     -0.000158225    -0.000180173
                    -0.000505343     0.000171647         0.987624       0.0755075     -0.000150293    -3.32094e-05        0.0231581      -0.0193388
281700.8               -0.301786        0.457761     -0.000199043     0.000129527        -0.507439       -0.650987      -0.00041914     0.000241954
                    -0.000459253     5.44959e-05       -0.0243692      -0.0241735     -0.000110559    -0.000411873         0.987774        0.075199
                       -0.507534         -0.6508      -8.6255e-05    -0.000784819        -0.522295        0.164599     -0.000158185    -0.000180167
                    -0.000505352     0.000171753         0.987625       0.0754758     -0.000150244    -3.32137e-05        0.0231566      -0.0193468
281700.9               -0.301769        0.457764     -0.000199263     0.000129417        -0.507463       -0.650974     -0.000419169     0.000241979
                    -0.000457447     5.47623e-05       -0.0243685      -0.0241797     -0.000110598    -0.000411884         0.987777       0.0751645
                       -0.507558       -0.650787      -8.8129e-05    -0.000783817        -0.522283        0.164617     -0.000158145    -0.000180162
                    -0.000505361     0.000171859         0.987626        0.075444     -0.000150194    -3.32184e-05        0.0231551      -0.0193548
281701                 -0.301752        0.457766     -0.000199487     0.000129306        -0.507487       -0.650961     -0.000419198     0.000242003
                     -0.00045565     5.50288e-05       -0.0243677      -0.0241859     -0.000110638    -0.000411894          0.98778         0.07513
                       -0.507582       -0.650774     -9.00199e-05    -0.000782785         -0.52227        0.164634     -0.000158105    -0.000180157
                    -0.000505369     0.000171966         0.987628       0.0754122     -0.000150145    -3.32234e-05        0.0231536      -0.0193627
281701.1               -0.301736        0.457769     -0.000199714     0.000129196        -0.507511       -0.650948     -0.000419227     0.000242027
                    -0.000453859     5.52953e-05        -0.024367      -0.0241921     -0.000110678    -0.000411904         0.987783       0.0750954
                       -0.507606       -0.650761     -9.19278e-05    -0.000781725        -0.522257        0.164652     -0.000158065    -0.000180152
                    -0.000505377     0.000172072         0.987629       0.0753803     -0.000150095    -3.32288e-05        0.0231521      -0.0193707
281701.2               -0.301719        0.457772     -0.000199943     0.000129085        -0.507535       -0.650936     -0.000419256     0.000242051
                    -0.000452076      5.5562e-05       -0.0243662      -0.0241982     -0.000110718    -0.000411915         0.987785       0.0750609
                        -0.50763       -0.650748     -9.38528e-05    -0.000780634        -0.522245        0.164669     -0.000158025    -0.000180147
                    -0.000505384      0.00017218         0.987631       0.0753484     -0.000150045    -3.32346e-05        0.0231506      -0.0193787
281701.3               -0.301702        0.457775     -0.000200175     0.000128975        -0.507559       -0.650923     -0.000419285     0.000242074
                    -0.000450299     5.58287e-05       -0.0243655      -0.0242044     -0.000110758    -0.000411925         0.987788       0.0750264
                       -0.507654       -0.650735      -9.5795e-05    -0.000779512        -0.522232        0.164687     -0.000157984    -0.000180143
                    -0.000505391     0.000172287         0.987632       0.0753164     -0.000149995    -3.32407e-05        0.0231492      -0.0193867
281701.4               -0.301686        0.457777     -0.000200411     0.000128864        -0.507583        -0.65091     -0.000419314     0.000242098
                     -0.00044853     5.60956e-05       -0.0243647      -0.0242106     -0.000110798    -0.000411936         0.987791       0.0749918
                       -0.507678       -0.650722     -9.77547e-05    -0.000778359        -0.522219        0.164704     -0.000157944    -0.000180139
                    -0.000505397     0.000172395         0.987634       0.0752844     -0.000149945    -3.32471e-05        0.0231477      -0.0193947
281701.5               -0.301669         0.45778     -0.000200649     0.000128754        -0.507607       -0.650897     -0.000419343     0.000242121
                    -0.000446768     5.63626e-05        -0.024364      -0.0242168     -0.000110838    -0.000411947         0.987794       0.0749573
                       -0.507702       -0.650709     -9.97319e-05    -0.000777172        -0.522207        0.164722     -0.000157903    -0.000180135
                    -0.000505402     0.000172504         0.987635       0.0752524     -0.000149894     -3.3254e-05        0.0231462      -0.0194026
281701.6               -0.301653        0.457783     -0.000200891     0.000128644        -0.507631       -0.650884     -0.000419372     0.000242144
                    -0.000445013     5.66298e-05       -0.0243632      -0.0242229     -0.000110878    -0.000411957         0.987796       0.0749227
                       -0.507726       -0.650696     -0.000101727    -0.000775951        -0.522194        0.164739     -0.000157861    -0.000180131
                    -0.000505407     0.000172612         0.987636       0.0752203     -0.000149843    -3.32613e-05        0.0231447      -0.0194106
281701.7               -0.301636        0.457785     -0.000201135     0.000128534        -0.507655       -0.650872     -0.000419401     0.000242167
                    -0.000443265     5.68972e-05       -0.0243625      -0.0242291     -0.000110918    -0.000411968         0.987799       0.0748882
                        -0.50775       -0.650683     -0.000103739    -0.000774694        -0.522181        0.164757      -0.00015782    -0.000180128
                    -0.000505412     0.000172721         0.987638       0.0751882     -0.000149792     -3.3269e-05        0.0231432      -0.0194186
281701.8               -0.301619        0.457788     -0.000201383     0.000128424        -0.507679       -0.650859     -0.000419431      0.00024219
                    -0.000441524     5.71649e-05       -0.0243617      -0.0242353     -0.000110958    -0.000411979         0.987802       0.0748536
                       -0.507774        -0.65067     -0.000105769    -0.000773402        -0.522169        0.164774     -0.000157778    -0.000180125
                    -0.000505416     0.000172831         0.987639        0.075156     -0.000149741    -3.32771e-05        0.0231417      -0.0194266
281701.9               -0.301603        0.457791     -0.000201635     0.000128314        -0.507703       -0.650846      -0.00041946     0.000242213
                    -0.000439789     5.74327e-05       -0.0243609      -0.0242415     -0.000110997     -0.00041199         0.987805       0.0748191
                       -0.507798       -0.650657     -0.000107817    -0.000772072        -0.522156        0.164792     -0.000157736    -0.000180122
                    -0.000505419      0.00017294         0.987641       0.0751238      -0.00014969    -3.32856e-05        0.0231402      -0.0194345
281702                 -0.301586        0.457794     -0.000201889     0.000128205        -0.507727       -0.650833     -0.000419489     0.000242235
                    -0.000438062     5.77009e-05       -0.0243602      -0.0242476     -0.000111037    -0.000412001         0.987807       0.0747845
                       -0.507822       -0.650644     -0.000109883    -0.000770703        -0.522143        0.164809     -0.000157694    -0.000180119
                    -0.000505421      0.00017305         0.987642       0.0750915     -0.000149638    -3.32946e-05        0.0231387      -0.0194425
281702.1                -0.30157        0.457796     -0.000202147     0.000128096        -0.507751       -0.650821     -0.000419518     0.000242257
                    -0.000436341     5.79693e-05       -0.0243594      -0.0242538     -0.000111077    -0.000412012          0.98781       0.0747499
                       -0.507846       -0.650631     -0.000111967    -0.000769294        -0.522131        0.164827     -0.000157652    -0.000180117
                    -0.000505423     0.000173161         0.987643       0.0750593     -0.000149586    -3.33041e-05        0.0231372      -0.0194505
281702.2               -0.301553        0.457799     -0.000202409     0.000127987        -0.507775       -0.650808     -0.000419547     0.000242279
                    -0.000434626      5.8238e-05       -0.0243587        -0.02426     -0.000111117    -0.000412023         0.987813       0.0747154
                        -0.50787       -0.650618     -0.000114069    -0.000767844        -0.522118        0.164844     -0.000157609    -0.000180115
                    -0.000505424     0.000173272         0.987645       0.0750269     -0.000149533     -3.3314e-05        0.0231357      -0.0194584
281702.3               -0.301536        0.457802     -0.000202674     0.000127878        -0.507799       -0.650795     -0.000419576     0.000242301
                    -0.000432919      5.8507e-05       -0.0243579      -0.0242662     -0.000111157    -0.000412034         0.987815       0.0746808
                       -0.507894       -0.650605     -0.000116188    -0.000766352        -0.522106        0.164862     -0.000157566    -0.000180113
                    -0.000505425     0.000173383         0.987646       0.0749946     -0.000149481    -3.33244e-05        0.0231342      -0.0194664
281702.4                -0.30152        0.457804     -0.000202943      0.00012777        -0.507823       -0.650782     -0.000419605     0.000242323
                    -0.000431217     5.87764e-05       -0.0243572      -0.0242723     -0.000111197    -0.000412045         0.987818       0.0746462
                       -0.507918       -0.650592     -0.000118326    -0.000764815        -0.522093        0.164879     -0.000157523    -0.000180112
                    -0.000505425     0.000173494         0.987648       0.0749622     -0.000149428    -3.33353e-05        0.0231327      -0.0194744
281702.5               -0.301503        0.457807     -0.000203216     0.000127662        -0.507847       -0.650769     -0.000419634     0.000242344
                    -0.000429523     5.90461e-05       -0.0243564      -0.0242785     -0.000111237    -0.000412057         0.987821       0.0746117
                       -0.507942       -0.650579     -0.000120481    -0.000763234         -0.52208        0.164897      -0.00015748    -0.000180111
                    -0.000505424     0.000173606         0.987649       0.0749297     -0.000149375    -3.33467e-05        0.0231313      -0.0194823
281702.6               -0.301486         0.45781     -0.000203492     0.000127555        -0.507871       -0.650757     -0.000419663     0.000242365
                    -0.000427835     5.93162e-05       -0.0243557      -0.0242847     -0.000111277    -0.000412068         0.987823       0.0745771
                       -0.507966       -0.650566     -0.000122654    -0.000761605        -0.522068        0.164914     -0.000157436     -0.00018011
                    -0.000505422     0.000173719          0.98765       0.0748972     -0.000149321    -3.33587e-05        0.0231298      -0.0194903
281702.7                -0.30147        0.457813     -0.000203773     0.000127448        -0.507896       -0.650744     -0.000419693     0.000242386
                    -0.000426153     5.95867e-05       -0.0243549      -0.0242908     -0.000111316     -0.00041208         0.987826       0.0745425
                        -0.50799       -0.650552     -0.000124845    -0.000759927        -0.522055        0.164932     -0.000157392    -0.000180109
                     -0.00050542     0.000173831         0.987652       0.0748647     -0.000149268    -3.33712e-05        0.0231283      -0.0194982
281702.8               -0.301453        0.457815     -0.000204057     0.000127341         -0.50792       -0.650731     -0.000419722     0.000242407
                    -0.000424477     5.98576e-05       -0.0243542       -0.024297     -0.000111356    -0.000412091         0.987829       0.0745079
                       -0.508014       -0.650539     -0.000127053      -0.0007582        -0.522042        0.164949     -0.000157348    -0.000180109
                    -0.000505417     0.000173944         0.987653       0.0748322     -0.000149214    -3.33843e-05        0.0231268      -0.0195062
281702.9               -0.301437        0.457818     -0.000204346     0.000127236        -0.507944       -0.650718     -0.000419751     0.000242428
                    -0.000422808     6.01289e-05       -0.0243534      -0.0243032     -0.000111396    -0.000412103         0.987831       0.0744733
                       -0.508038       -0.650526     -0.000129278    -0.000756421         -0.52203        0.164967     -0.000157303    -0.000180109
                    -0.000505413     0.000174058         0.987655       0.0747996      -0.00014916     -3.3398e-05        0.0231253      -0.0195142
281703                  -0.30142        0.457821     -0.000204638      0.00012713        -0.507968       -0.650705      -0.00041978     0.000242448
                    -0.000421145     6.04007e-05       -0.0243527      -0.0243094     -0.000111436    -0.000412114         0.987834       0.0744387
                       -0.508062       -0.650513      -0.00013152    -0.000754588        -0.522017        0.164984     -0.000157259     -0.00018011
                    -0.000505408     0.000174172         0.987656        0.074767     -0.000149105    -3.34122e-05        0.0231238      -0.0195221
281703.1               -0.301403        0.457823     -0.000204935     0.000127026        -0.507992       -0.650693     -0.000419809     0.000242468
                    -0.000419488      6.0673e-05       -0.0243519      -0.0243155     -0.000111476    -0.000412126         0.987837       0.0744041
                       -0.508085         -0.6505     -0.000133779      -0.0007527        -0.522004        0.165002     -0.000157214     -0.00018011
