! TOUCHSTONE file generated by CST MICROWAVE STUDIO
! Date and time: Wed Oct  8 06:56:59 2025
! Project name: Teste_Macro_Metasurface_Nanopilar.cst
! Parameters = {H=600; L_x=120; L_y=175; Lambda=1064; Max_L=200; Min_L=70; PathPara=1; Phi=0; Step_L=10; Theta=0; p=520; phaseX=180; phaseY=0}
! Header version: 2018
! Port assignment regex: !\s*Touchstone port\s*([0-9]+)\s*=\s*(CST MWS port|CST DS port)\s*([0-9]+|Zmin|Zmax)\s*\(\"(.*)\"\)(\s*mode\s*([0-9]+))?.*
! Touchstone port assignment:
! Touchstone port 1 = CST MWS port Zmax ("") mode 1
! Touchstone port 2 = CST MWS port Zmax ("") mode 2
! Touchstone port 3 = CST MWS port Zmin ("") mode 1
! Touchstone port 4 = CST MWS port Zmin ("") mode 2
! S-Parameters are not renormalized. Each port impedance will be approximated by the real part at minimum frequency. The values are described via the [Reference] keyword.
! Default impedance is overridden by [Reference]
[Version] 2.0
# GHz S RI R 376.73
[Number of Ports] 4
[Reference]
376.73 376.73 376.73 376.73 
[Number of Frequencies] 1001
[Network Data]
281700                 -0.251442        0.370913      0.000146432    -0.000500705        -0.578579       -0.667582     -0.000177783    -0.000178655
                     0.000124085    -0.000399268        -0.239778       -0.034244      1.73772e-06     0.000152648        -0.138956       -0.953969
                       -0.578877       -0.667804     -0.000160789     0.000166795        -0.408645        0.180268      0.000311109     0.000188694
                     -7.1739e-05    -0.000419926        -0.139323       -0.954415      0.000410235     0.000188322        -0.220369        0.100958
281700.1               -0.251426        0.370914      0.000146411    -0.000500726        -0.578604       -0.667566     -0.000177743    -0.000178612
                     0.000124105    -0.000399245        -0.239777      -0.0342357      1.82014e-06     0.000152574        -0.138985       -0.953965
                       -0.578902       -0.667788     -0.000160811     0.000166811         -0.40863         0.18028      0.000311151     0.000188685
                    -7.17163e-05    -0.000419904        -0.139352       -0.954411      0.000410255     0.000188294        -0.220364        0.100963
281700.2               -0.251411        0.370915      0.000146391    -0.000500746        -0.578629        -0.66755     -0.000177717    -0.000178537
                     0.000124125    -0.000399222        -0.239776      -0.0342275      1.88786e-06     0.000152523        -0.139015       -0.953963
                       -0.578927       -0.667772     -0.000160833     0.000166828        -0.408616        0.180293      0.000311102     0.000188764
                    -7.16937e-05    -0.000419882        -0.139381       -0.954408      0.000410267     0.000188271        -0.220359        0.100968
281700.3               -0.251396        0.370915      0.000146371    -0.000500766        -0.578654       -0.667534     -0.000177709    -0.000178465
                     0.000124145    -0.000399199        -0.239775      -0.0342193      1.94062e-06     0.000152495        -0.139044       -0.953957
                       -0.578952       -0.667756     -0.000160856     0.000166844        -0.408602        0.180305      0.000311031     0.000188735
                     -7.1671e-05    -0.000419859         -0.13941       -0.954404      0.000410273     0.000188254        -0.220355        0.100973
281700.4               -0.251381        0.370916      0.000146351    -0.000500787        -0.578679       -0.667517     -0.000177706      -0.0001784
                     0.000124165    -0.000399176        -0.239774       -0.034211      1.97815e-06      0.00015249        -0.139073       -0.953954
                       -0.578977       -0.667739     -0.000160878     0.000166861        -0.408588        0.180318      0.000310995     0.000188704
                    -7.16483e-05    -0.000419837        -0.139439         -0.9544      0.000410271     0.000188243         -0.22035        0.100978
281700.5               -0.251366        0.370916      0.000146331    -0.000500807        -0.578704       -0.667501     -0.000177702    -0.000178338
                     0.000124185    -0.000399153        -0.239773      -0.0342028      2.00016e-06     0.000152509        -0.139102        -0.95395
                       -0.579002       -0.667723       -0.0001609     0.000166877        -0.408574         0.18033      0.000310968     0.000188678
                    -7.16257e-05    -0.000419814        -0.139468       -0.954396      0.000410262     0.000188238        -0.220345        0.100984
281700.6                -0.25135        0.370917       0.00014631    -0.000500827         -0.57873       -0.667485     -0.000177699    -0.000178278
                     0.000124206     -0.00039913        -0.239772      -0.0341945      2.00637e-06     0.000152553        -0.139131       -0.953946
                       -0.579027       -0.667707     -0.000160923     0.000166893        -0.408559        0.180342      0.000310942     0.000188655
                     -7.1603e-05    -0.000419792        -0.139497       -0.954393      0.000410245      0.00018824        -0.220341        0.100989
281700.7               -0.251335        0.370917       0.00014629    -0.000500848        -0.578755       -0.667469     -0.000177695    -0.000178219
                     0.000124226    -0.000399107        -0.239771      -0.0341863      1.99645e-06     0.000152621         -0.13916       -0.953942
                       -0.579052       -0.667691     -0.000160945      0.00016691        -0.408545        0.180355      0.000310918     0.000188633
                    -7.15803e-05     -0.00041977        -0.139526       -0.954389       0.00041022     0.000188248        -0.220336        0.100994
281700.8                -0.25132        0.370918       0.00014627    -0.000500868         -0.57878       -0.667453      -0.00017769     -0.00017816
                     0.000124246    -0.000399084         -0.23977      -0.0341781      1.97009e-06     0.000152715        -0.139189       -0.953938
                       -0.579077       -0.667675     -0.000160967     0.000166926        -0.408531        0.180367      0.000310894     0.000188612
                    -7.15576e-05    -0.000419747        -0.139555       -0.954385      0.000410187     0.000188263        -0.220331        0.100999
281700.9               -0.251305        0.370918       0.00014625    -0.000500888        -0.578805       -0.667436     -0.000177686    -0.000178101
                     0.000124266    -0.000399061        -0.239769      -0.0341698      1.92695e-06     0.000152836        -0.139218       -0.953935
                       -0.579103       -0.667658     -0.000160989     0.000166943        -0.408517         0.18038       0.00031087     0.000188592
                    -7.15349e-05    -0.000419725        -0.139584       -0.954382      0.000410146     0.000188285        -0.220326        0.101004
281701                  -0.25129        0.370919      0.000146229    -0.000500909         -0.57883        -0.66742     -0.000177681    -0.000178043
                     0.000124286    -0.000399038        -0.239768      -0.0341616      1.86668e-06     0.000152984        -0.139247       -0.953931
                       -0.579128       -0.667642     -0.000161012     0.000166959        -0.408503        0.180392      0.000310847     0.000188572
                    -7.15122e-05    -0.000419702        -0.139613       -0.954378      0.000410096     0.000188313        -0.220322        0.101009
281701.1               -0.251274        0.370919      0.000146209    -0.000500929        -0.578855       -0.667404     -0.000177677    -0.000177985
                     0.000124306    -0.000399015        -0.239767      -0.0341534      1.78893e-06      0.00015316        -0.139276       -0.953927
                       -0.579153       -0.667626     -0.000161034     0.000166975        -0.408489        0.180405      0.000310823     0.000188553
                    -7.14895e-05     -0.00041968        -0.139642       -0.954374      0.000410037     0.000188349        -0.220317        0.101014
281701.2               -0.251259         0.37092      0.000146189     -0.00050095         -0.57888       -0.667388     -0.000177672    -0.000177927
                     0.000124326    -0.000398992        -0.239766      -0.0341451       1.6933e-06     0.000153365        -0.139305       -0.953923
                       -0.579178        -0.66761     -0.000161056     0.000166992        -0.408474        0.180417        0.0003108     0.000188534
                    -7.14668e-05    -0.000419658        -0.139671        -0.95437       0.00040997     0.000188392        -0.220312         0.10102
281701.3               -0.251244         0.37092      0.000146168     -0.00050097        -0.578906       -0.667372     -0.000177667    -0.000177869
                     0.000124346    -0.000398969        -0.239765      -0.0341369      1.57942e-06       0.0001536        -0.139334        -0.95392
                       -0.579203       -0.667594     -0.000161079     0.000167008         -0.40846         0.18043      0.000310776     0.000188515
                    -7.14441e-05    -0.000419635        -0.139701       -0.954367      0.000409893     0.000188443        -0.220308        0.101025
281701.4               -0.251229        0.370921      0.000146148     -0.00050099        -0.578931       -0.667355     -0.000177662    -0.000177811
                     0.000124366    -0.000398946        -0.239764      -0.0341286      1.44687e-06     0.000153867        -0.139363       -0.953916
                       -0.579228       -0.667577     -0.000161101     0.000167025        -0.408446        0.180442      0.000310753     0.000188496
                    -7.14214e-05    -0.000419613         -0.13973       -0.954363      0.000409807     0.000188502        -0.220303         0.10103
281701.5               -0.251214        0.370922      0.000146128    -0.000501011        -0.578956       -0.667339     -0.000177657    -0.000177753
                     0.000124386    -0.000398923        -0.239763      -0.0341204      1.29524e-06     0.000154166        -0.139392       -0.953912
                       -0.579253       -0.667561     -0.000161124     0.000167041        -0.408432        0.180454      0.000310729     0.000188477
                    -7.13987e-05    -0.000419591        -0.139759       -0.954359      0.000409711     0.000188568        -0.220298        0.101035
281701.6               -0.251198        0.370922      0.000146107    -0.000501031        -0.578981       -0.667323     -0.000177652    -0.000177696
                     0.000124407      -0.0003989        -0.239762      -0.0341122       1.1241e-06     0.000154498        -0.139421       -0.953908
                       -0.579278       -0.667545     -0.000161146     0.000167058        -0.408418        0.180467      0.000310706     0.000188458
                     -7.1376e-05    -0.000419568        -0.139788       -0.954356      0.000409605     0.000188644        -0.220293         0.10104
281701.7               -0.251183        0.370923      0.000146087    -0.000501052        -0.579006       -0.667307     -0.000177647    -0.000177638
                     0.000124427    -0.000398877        -0.239761      -0.0341039      9.32998e-07     0.000154866         -0.13945       -0.953905
                       -0.579303       -0.667529     -0.000161168     0.000167074        -0.408403        0.180479      0.000310682     0.000188439
                    -7.13533e-05    -0.000419546        -0.139817       -0.954352      0.000409488     0.000188727        -0.220289        0.101045
281701.8               -0.251168        0.370923      0.000146067    -0.000501072        -0.579031       -0.667291     -0.000177642     -0.00017758
                     0.000124447    -0.000398854         -0.23976      -0.0340957      7.21491e-07     0.000155271        -0.139479       -0.953901
                       -0.579328       -0.667512     -0.000161191     0.000167091        -0.408389        0.180492      0.000310659     0.000188421
                    -7.13306e-05    -0.000419524        -0.139846       -0.954348      0.000409361      0.00018882        -0.220284        0.101051
281701.9               -0.251153        0.370924      0.000146046    -0.000501092        -0.579056       -0.667275     -0.000177637    -0.000177522
                     0.000124467    -0.000398831        -0.239759      -0.0340875      4.89114e-07     0.000155715        -0.139508       -0.953897
                       -0.579354       -0.667496     -0.000161213     0.000167107        -0.408375        0.180504      0.000310635     0.000188402
                    -7.13079e-05    -0.000419501        -0.139875       -0.954344      0.000409222     0.000188922        -0.220279        0.101056
281702                 -0.251138        0.370924      0.000146026    -0.000501113        -0.579082       -0.667258     -0.000177632    -0.000177464
                     0.000124487    -0.000398808        -0.239758      -0.0340792      2.35396e-07     0.000156199        -0.139537       -0.953893
                       -0.579379        -0.66748     -0.000161235     0.000167124        -0.408361        0.180517      0.000310612     0.000188383
                    -7.12851e-05    -0.000419479        -0.139904       -0.954341      0.000409072     0.000189034        -0.220275        0.101061
281702.1               -0.251122        0.370925      0.000146005    -0.000501133        -0.579107       -0.667242     -0.000177627    -0.000177406
                     0.000124507    -0.000398785        -0.239757       -0.034071     -4.01336e-08     0.000156726        -0.139566        -0.95389
                       -0.579404       -0.667464     -0.000161258     0.000167141        -0.408347        0.180529      0.000310588     0.000188365
                    -7.12624e-05    -0.000419457        -0.139933       -0.954337      0.000408909     0.000189156         -0.22027        0.101066
281702.2               -0.251107        0.370925      0.000145985    -0.000501154        -0.579132       -0.667226     -0.000177622    -0.000177349
                     0.000124528    -0.000398762        -0.239756      -0.0340628     -3.37949e-07     0.000157298        -0.139595       -0.953886
                       -0.579429       -0.667448      -0.00016128     0.000167157        -0.408332        0.180541      0.000310565     0.000188346
                    -7.12397e-05    -0.000419434        -0.139962       -0.954333      0.000408733     0.000189288        -0.220265        0.101071
281702.3               -0.251092        0.370926      0.000145964    -0.000501174        -0.579157        -0.66721     -0.000177616    -0.000177291
                     0.000124548    -0.000398739        -0.239755      -0.0340545     -6.58518e-07     0.000157917        -0.139624       -0.953882
                       -0.579454       -0.667431     -0.000161303     0.000167174        -0.408318        0.180554      0.000310541     0.000188328
                    -7.12169e-05    -0.000419412        -0.139991       -0.954329      0.000408545     0.000189431         -0.22026        0.101076
281702.4               -0.251077        0.370926      0.000145944    -0.000501195        -0.579182       -0.667194     -0.000177611    -0.000177233
                     0.000124568    -0.000398716        -0.239754      -0.0340463      -1.0023e-06     0.000158587        -0.139653       -0.953878
                       -0.579479       -0.667415     -0.000161325      0.00016719        -0.408304        0.180566      0.000310518     0.000188309
                    -7.11942e-05     -0.00041939         -0.14002       -0.954326      0.000408342     0.000189586        -0.220256        0.101081
281702.5               -0.251062        0.370927      0.000145923    -0.000501215        -0.579207       -0.667178     -0.000177606    -0.000177175
                     0.000124588    -0.000398693        -0.239753       -0.034038     -1.36974e-06     0.000159309        -0.139682       -0.953874
                       -0.579504       -0.667399     -0.000161347     0.000167207         -0.40829        0.180579      0.000310494     0.000188291
                    -7.11714e-05    -0.000419367        -0.140049       -0.954322      0.000408125     0.000189752        -0.220251        0.101087
281702.6               -0.251046        0.370927      0.000145903    -0.000501235        -0.579232       -0.667162     -0.000177601    -0.000177117
                     0.000124608     -0.00039867        -0.239752      -0.0340298     -1.76125e-06     0.000160089        -0.139711       -0.953871
                       -0.579529       -0.667383      -0.00016137     0.000167223        -0.408275        0.180591      0.000310471     0.000188272
                    -7.11487e-05    -0.000419345        -0.140078       -0.954318      0.000407893     0.000189931        -0.220246        0.101092
281702.7               -0.251031        0.370928      0.000145882    -0.000501256        -0.579258       -0.667145     -0.000177596    -0.000177059
                     0.000124629    -0.000398647        -0.239751      -0.0340216      -2.1772e-06     0.000160928         -0.13974       -0.953867
                       -0.579554       -0.667367     -0.000161392      0.00016724        -0.408261        0.180603      0.000310447     0.000188254
                    -7.11259e-05    -0.000419323        -0.140107       -0.954315      0.000407645     0.000190123        -0.220242        0.101097
281702.8               -0.251016        0.370928      0.000145862    -0.000501276        -0.579283       -0.667129     -0.000177591    -0.000177002
                     0.000124649    -0.000398625         -0.23975      -0.0340133     -2.61794e-06     0.000161831        -0.139769       -0.953863
                       -0.579579        -0.66735     -0.000161415     0.000167257        -0.408247        0.180616      0.000310424     0.000188235
                    -7.11032e-05      -0.0004193        -0.140136       -0.954311       0.00040738     0.000190328        -0.220237        0.101102
281702.9               -0.251001        0.370929      0.000145841    -0.000501297        -0.579308       -0.667113     -0.000177585    -0.000176944
                     0.000124669    -0.000398602        -0.239749      -0.0340051     -3.08372e-06     0.000162803        -0.139798       -0.953859
                       -0.579605       -0.667334     -0.000161437     0.000167273        -0.408233        0.180628        0.0003104     0.000188217
                    -7.10804e-05    -0.000419278        -0.140165       -0.954307      0.000407098     0.000190547        -0.220232        0.101107
281703                 -0.250986         0.37093       0.00014582    -0.000501317        -0.579333       -0.667097      -0.00017758    -0.000176886
                     0.000124689    -0.000398579        -0.239748      -0.0339969     -3.57472e-06     0.000163847        -0.139827       -0.953856
                        -0.57963       -0.667318     -0.000161459      0.00016729        -0.408219        0.180641      0.000310377     0.000188199
                    -7.10576e-05    -0.000419256        -0.140195       -0.954303      0.000406797     0.000190782        -0.220228        0.101112
281703.1                -0.25097         0.37093        0.0001458    -0.000501338        -0.579358       -0.667081     -0.000177575    -0.000176828
                     0.000124709    -0.000398556        -0.239747      -0.0339886     -4.09101e-06      0.00016497        -0.139856       -0.953852
                       -0.579655       -0.667302     -0.000161482     0.000167307        -0.408204        0.180653      0.000310353      0.00018818
