! TOUCHSTONE file generated by CST MICROWAVE STUDIO
! Date and time: Wed Oct  8 07:05:42 2025
! Project name: Teste_Macro_Metasurface_Nanopilar.cst
! Parameters = {H=600; L_x=195; L_y=120; Lambda=1064; Max_L=200; Min_L=70; PathPara=1; Phi=0; Step_L=10; Theta=0; p=520; phaseX=180; phaseY=0}
! Header version: 2018
! Port assignment regex: !\s*Touchstone port\s*([0-9]+)\s*=\s*(CST MWS port|CST DS port)\s*([0-9]+|Zmin|Zmax)\s*\(\"(.*)\"\)(\s*mode\s*([0-9]+))?.*
! Touchstone port assignment:
! Touchstone port 1 = CST MWS port Zmax ("") mode 1
! Touchstone port 2 = CST MWS port Zmax ("") mode 2
! Touchstone port 3 = CST MWS port Zmin ("") mode 1
! Touchstone port 4 = CST MWS port Zmin ("") mode 2
! S-Parameters are not renormalized. Each port impedance will be approximated by the real part at minimum frequency. The values are described via the [Reference] keyword.
! Default impedance is overridden by [Reference]
[Version] 2.0
# GHz S RI R 376.73
[Number of Ports] 4
[Reference]
376.73 376.73 376.73 376.73 
[Number of Frequencies] 1001
[Network Data]
281700                 -0.218118       0.0142432      -0.00062367    -7.54494e-05        -0.346577       -0.907979      0.000285256    -8.42658e-05
                    -0.000632863    -6.59337e-05       -0.0108285        0.157296      8.05534e-05    -0.000128712        -0.922242        -0.33645
                       -0.346289       -0.906992      0.000222726    -0.000184098        -0.172854        0.133581      0.000151733    -9.39001e-05
                     0.000250393    -0.000125036        -0.922424       -0.336482     -0.000107756      0.00057772       -0.0990779         0.12265
281700.1               -0.218114       0.0142498     -0.000623691    -7.54181e-05        -0.346605       -0.907969      0.000285255     -8.4283e-05
                    -0.000632866     -6.5907e-05       -0.0108225         0.15729      8.05742e-05    -0.000128725        -0.922253       -0.336422
                       -0.346316       -0.906983       0.00022271    -0.000184123        -0.172848        0.133584      0.000151782    -9.38876e-05
                     0.000250401    -0.000125053        -0.922436       -0.336454     -0.000107732     0.000577746       -0.0990706        0.122647
281700.2                -0.21811       0.0142564     -0.000623712    -7.53868e-05        -0.346633       -0.907959      0.000285253    -8.43003e-05
                    -0.000632869    -6.58803e-05       -0.0108166        0.157283      8.05951e-05    -0.000128738        -0.922264       -0.336394
                       -0.346344       -0.906973      0.000222694    -0.000184148        -0.172841        0.133587       0.00015183    -9.38751e-05
                      0.00025041     -0.00012507        -0.922447       -0.336426     -0.000107708     0.000577772       -0.0990633        0.122644
281700.3               -0.218106        0.014263     -0.000623734    -7.53555e-05        -0.346661       -0.907949      0.000285252    -8.43175e-05
                    -0.000632871    -6.58536e-05       -0.0108106        0.157276      8.06159e-05    -0.000128751        -0.922276       -0.336366
                       -0.346372       -0.906963      0.000222679    -0.000184174        -0.172834         0.13359      0.000151879    -9.38627e-05
                     0.000250418    -0.000125087        -0.922458       -0.336398     -0.000107684     0.000577797        -0.099056        0.122641
281700.4               -0.218102       0.0142696     -0.000623755    -7.53241e-05        -0.346688        -0.90794      0.000285251    -8.43348e-05
                    -0.000632874    -6.58269e-05       -0.0108047         0.15727      8.06368e-05    -0.000128764        -0.922287       -0.336338
                       -0.346399       -0.906954      0.000222663    -0.000184199        -0.172828        0.133593      0.000151928    -9.38502e-05
                     0.000250427    -0.000125104         -0.92247        -0.33637     -0.000107659     0.000577823       -0.0990487        0.122638
281700.5               -0.218098       0.0142762     -0.000623776    -7.52928e-05        -0.346716        -0.90793      0.000285249     -8.4352e-05
                    -0.000632877    -6.58001e-05       -0.0107987        0.157263      8.06576e-05    -0.000128776        -0.922298        -0.33631
                       -0.346427       -0.906944      0.000222647    -0.000184224        -0.172821        0.133595      0.000151976    -9.38377e-05
                     0.000250435    -0.000125121        -0.922481       -0.336342     -0.000107635     0.000577849       -0.0990414        0.122635
281700.6               -0.218094       0.0142828     -0.000623797    -7.52615e-05        -0.346744        -0.90792      0.000285248    -8.43693e-05
                     -0.00063288    -6.57734e-05       -0.0107928        0.157257      8.06785e-05    -0.000128789         -0.92231       -0.336282
                       -0.346455       -0.906934      0.000222631     -0.00018425        -0.172814        0.133598      0.000152025    -9.38252e-05
                     0.000250444    -0.000125138        -0.922493       -0.336314     -0.000107611     0.000577875        -0.099034        0.122632
281700.7                -0.21809       0.0142894     -0.000623818    -7.52302e-05        -0.346771        -0.90791      0.000285247    -8.43866e-05
                    -0.000632883    -6.57467e-05       -0.0107868         0.15725      8.06993e-05    -0.000128802        -0.922321       -0.336254
                       -0.346482       -0.906925      0.000222616    -0.000184275        -0.172808        0.133601      0.000152073    -9.38127e-05
                     0.000250452    -0.000125155        -0.922504       -0.336286     -0.000107587     0.000577901       -0.0990267        0.122629
281700.8               -0.218086       0.0142959     -0.000623839    -7.51989e-05        -0.346799       -0.907901      0.000285246    -8.44038e-05
                    -0.000632886      -6.572e-05       -0.0107809        0.157244      8.07202e-05    -0.000128815        -0.922333       -0.336227
                        -0.34651       -0.906915        0.0002226      -0.0001843        -0.172801        0.133604      0.000152122    -9.38002e-05
                     0.000250461    -0.000125172        -0.922515       -0.336258     -0.000107563     0.000577927       -0.0990194        0.122627
281700.9               -0.218082       0.0143025      -0.00062386    -7.51676e-05        -0.346827       -0.907891      0.000285244    -8.44211e-05
                    -0.000632889    -6.56933e-05       -0.0107749        0.157237      8.07411e-05    -0.000128827        -0.922344       -0.336199
                       -0.346537       -0.906905      0.000222584    -0.000184326        -0.172795        0.133607       0.00015217    -9.37877e-05
                     0.000250469    -0.000125189        -0.922527        -0.33623     -0.000107538     0.000577953       -0.0990121        0.122624
281701                 -0.218078       0.0143091     -0.000623881    -7.51362e-05        -0.346855       -0.907881      0.000285243    -8.44384e-05
                    -0.000632892    -6.56666e-05        -0.010769        0.157231       8.0762e-05     -0.00012884        -0.922355       -0.336171
                       -0.346565       -0.906895      0.000222569    -0.000184351        -0.172788        0.133609      0.000152219    -9.37752e-05
                     0.000250478    -0.000125206        -0.922538       -0.336202     -0.000107514     0.000577979       -0.0990048        0.122621
281701.1               -0.218074       0.0143157     -0.000623902    -7.51049e-05        -0.346882       -0.907871      0.000285242    -8.44557e-05
                    -0.000632894    -6.56399e-05        -0.010763        0.157224      8.07829e-05    -0.000128853        -0.922367       -0.336143
                       -0.346593       -0.906886      0.000222553    -0.000184376        -0.172781        0.133612      0.000152267    -9.37627e-05
                     0.000250486    -0.000125223        -0.922549       -0.336174      -0.00010749     0.000578005       -0.0989975        0.122618
281701.2                -0.21807       0.0143223     -0.000623923    -7.50736e-05         -0.34691       -0.907861       0.00028524     -8.4473e-05
                    -0.000632897    -6.56132e-05       -0.0107571        0.157218      8.08038e-05    -0.000128866        -0.922378       -0.336115
                        -0.34662       -0.906876      0.000222537    -0.000184402        -0.172775        0.133615      0.000152316    -9.37501e-05
                     0.000250495     -0.00012524        -0.922561       -0.336146     -0.000107466     0.000578031       -0.0989902        0.122615
281701.3               -0.218067       0.0143289     -0.000623944    -7.50423e-05        -0.346938       -0.907852      0.000285239    -8.44903e-05
                      -0.0006329    -6.55865e-05       -0.0107512        0.157211      8.08247e-05    -0.000128879         -0.92239       -0.336087
                       -0.346648       -0.906866      0.000222521    -0.000184427        -0.172768        0.133618      0.000152364    -9.37376e-05
                     0.000250503    -0.000125257        -0.922572       -0.336118     -0.000107441     0.000578057       -0.0989829        0.122612
281701.4               -0.218063       0.0143354     -0.000623965     -7.5011e-05        -0.346965       -0.907842      0.000285238    -8.45076e-05
                    -0.000632903    -6.55597e-05       -0.0107452        0.157205      8.08456e-05    -0.000128891        -0.922401       -0.336059
                       -0.346676       -0.906857      0.000222506    -0.000184452        -0.172761        0.133621      0.000152413     -9.3725e-05
                     0.000250511    -0.000125274        -0.922584        -0.33609     -0.000107417     0.000578083       -0.0989756        0.122609
281701.5               -0.218059        0.014342     -0.000623986    -7.49797e-05        -0.346993       -0.907832      0.000285236    -8.45249e-05
                    -0.000632906     -6.5533e-05       -0.0107393        0.157198      8.08665e-05    -0.000128904        -0.922412       -0.336031
                       -0.346703       -0.906847       0.00022249    -0.000184477        -0.172755        0.133623      0.000152461    -9.37125e-05
                      0.00025052    -0.000125292        -0.922595       -0.336062     -0.000107393     0.000578109       -0.0989683        0.122606
281701.6               -0.218055       0.0143486     -0.000624007    -7.49483e-05        -0.347021       -0.907822      0.000285235    -8.45422e-05
                    -0.000632909    -6.55063e-05       -0.0107333        0.157192      8.08874e-05    -0.000128917        -0.922424       -0.336003
                       -0.346731       -0.906837      0.000222474    -0.000184503        -0.172748        0.133626      0.000152509    -9.36999e-05
                     0.000250528    -0.000125309        -0.922606       -0.336034     -0.000107369     0.000578135        -0.098961        0.122603
281701.7               -0.218051       0.0143552     -0.000624028     -7.4917e-05        -0.347049       -0.907813      0.000285234    -8.45595e-05
                    -0.000632912    -6.54796e-05       -0.0107274        0.157185      8.09084e-05     -0.00012893        -0.922435       -0.335975
                       -0.346759       -0.906827      0.000222459    -0.000184528        -0.172741        0.133629      0.000152558    -9.36873e-05
                     0.000250537    -0.000125326        -0.922618       -0.336006     -0.000107344     0.000578161       -0.0989537        0.122601
281701.8               -0.218047       0.0143618     -0.000624049    -7.48857e-05        -0.347076       -0.907803      0.000285232    -8.45769e-05
                    -0.000632915    -6.54529e-05       -0.0107214        0.157178      8.09293e-05    -0.000128943        -0.922446       -0.335947
                       -0.346786       -0.906818      0.000222443    -0.000184553        -0.172735        0.133632      0.000152606    -9.36748e-05
                     0.000250545    -0.000125343        -0.922629       -0.335978      -0.00010732     0.000578187       -0.0989464        0.122598
281701.9               -0.218043       0.0143684      -0.00062407    -7.48544e-05        -0.347104       -0.907793      0.000285231    -8.45942e-05
                    -0.000632917    -6.54262e-05       -0.0107155        0.157172      8.09503e-05    -0.000128955        -0.922458       -0.335919
                       -0.346814       -0.906808      0.000222427    -0.000184578        -0.172728        0.133635      0.000152654    -9.36622e-05
                     0.000250554     -0.00012536        -0.922641       -0.335951     -0.000107296     0.000578213       -0.0989391        0.122595
281702                 -0.218039       0.0143749     -0.000624091    -7.48231e-05        -0.347132       -0.907783      0.000285229    -8.46115e-05
                     -0.00063292    -6.53995e-05       -0.0107095        0.157165      8.09712e-05    -0.000128968        -0.922469       -0.335892
                       -0.346841       -0.906798      0.000222412    -0.000184604        -0.172722        0.133637      0.000152702    -9.36496e-05
                     0.000250562    -0.000125377        -0.922652       -0.335923     -0.000107271     0.000578239       -0.0989318        0.122592
281702.1               -0.218035       0.0143815     -0.000624112    -7.47918e-05        -0.347159       -0.907774      0.000285228    -8.46289e-05
                    -0.000632923    -6.53728e-05       -0.0107036        0.157159      8.09922e-05    -0.000128981        -0.922481       -0.335864
                       -0.346869       -0.906789      0.000222396    -0.000184629        -0.172715         0.13364      0.000152751     -9.3637e-05
                     0.000250571    -0.000125394        -0.922663       -0.335895     -0.000107247     0.000578266       -0.0989245        0.122589
281702.2               -0.218031       0.0143881     -0.000624133    -7.47605e-05        -0.347187       -0.907764      0.000285227    -8.46462e-05
                    -0.000632926    -6.53461e-05       -0.0106977        0.157152      8.10132e-05    -0.000128994        -0.922492       -0.335836
                       -0.346897       -0.906779       0.00022238    -0.000184654        -0.172708        0.133643      0.000152799    -9.36243e-05
                     0.000250579    -0.000125411        -0.922675       -0.335867     -0.000107223     0.000578292       -0.0989172        0.122586
281702.3               -0.218027       0.0143947     -0.000624154    -7.47292e-05        -0.347215       -0.907754      0.000285225    -8.46636e-05
                    -0.000632929    -6.53194e-05       -0.0106917        0.157146      8.10341e-05    -0.000129007        -0.922503       -0.335808
                       -0.346924       -0.906769      0.000222365    -0.000184679        -0.172702        0.133646      0.000152847    -9.36117e-05
                     0.000250588    -0.000125428        -0.922686       -0.335839     -0.000107198     0.000578318       -0.0989099        0.122583
281702.4               -0.218023       0.0144013     -0.000624175    -7.46978e-05        -0.347243       -0.907744      0.000285224    -8.46809e-05
                    -0.000632932    -6.52927e-05       -0.0106858        0.157139      8.10551e-05    -0.000129019        -0.922515        -0.33578
                       -0.346952       -0.906759      0.000222349    -0.000184705        -0.172695        0.133648      0.000152895    -9.35991e-05
                     0.000250596    -0.000125445        -0.922697       -0.335811     -0.000107174     0.000578344       -0.0989026         0.12258
281702.5               -0.218019       0.0144078     -0.000624196    -7.46665e-05         -0.34727       -0.907735      0.000285223    -8.46983e-05
                    -0.000632935     -6.5266e-05       -0.0106798        0.157133      8.10761e-05    -0.000129032        -0.922526       -0.335752
                        -0.34698        -0.90675      0.000222333     -0.00018473        -0.172688        0.133651      0.000152943    -9.35865e-05
                     0.000250604    -0.000125462        -0.922709       -0.335783      -0.00010715      0.00057837       -0.0988953        0.122577
281702.6               -0.218015       0.0144144     -0.000624217    -7.46352e-05        -0.347298       -0.907725      0.000285221    -8.47157e-05
                    -0.000632937    -6.52393e-05       -0.0106739        0.157126      8.10971e-05    -0.000129045        -0.922537       -0.335724
                       -0.347007        -0.90674      0.000222318    -0.000184755        -0.172682        0.133654      0.000152991    -9.35738e-05
                     0.000250613    -0.000125479         -0.92272       -0.335755     -0.000107125     0.000578397        -0.098888        0.122575
281702.7               -0.218011        0.014421     -0.000624238    -7.46039e-05        -0.347326       -0.907715       0.00028522     -8.4733e-05
                     -0.00063294    -6.52126e-05        -0.010668         0.15712      8.11181e-05    -0.000129058        -0.922549       -0.335696
                       -0.347035        -0.90673      0.000222302     -0.00018478        -0.172675        0.133657      0.000153039    -9.35612e-05
                     0.000250621    -0.000125496        -0.922732       -0.335727     -0.000107101     0.000578423       -0.0988807        0.122572
281702.8               -0.218007       0.0144276     -0.000624259    -7.45726e-05        -0.347353       -0.907705      0.000285219    -8.47504e-05
                    -0.000632943    -6.51859e-05        -0.010662        0.157113      8.11391e-05    -0.000129071         -0.92256       -0.335668
                       -0.347062       -0.906721      0.000222286    -0.000184805        -0.172668         0.13366      0.000153087    -9.35485e-05
                      0.00025063    -0.000125513        -0.922743       -0.335699     -0.000107077     0.000578449       -0.0988734        0.122569
281702.9               -0.218003       0.0144342      -0.00062428    -7.45413e-05        -0.347381       -0.907695      0.000285217    -8.47678e-05
                    -0.000632946    -6.51592e-05       -0.0106561        0.157107      8.11602e-05    -0.000129084        -0.922572        -0.33564
                        -0.34709       -0.906711      0.000222271    -0.000184831        -0.172662        0.133662      0.000153135    -9.35358e-05
                     0.000250638     -0.00012553        -0.922754       -0.335671     -0.000107052     0.000578476       -0.0988661        0.122566
281703                 -0.217999       0.0144407     -0.000624301      -7.451e-05        -0.347409       -0.907686      0.000285216    -8.47852e-05
                    -0.000632949    -6.51325e-05       -0.0106501          0.1571      8.11812e-05    -0.000129096        -0.922583       -0.335612
                       -0.347118       -0.906701      0.000222255    -0.000184856        -0.172655        0.133665      0.000153183    -9.35231e-05
                     0.000250647    -0.000125548        -0.922766       -0.335643     -0.000107028     0.000578502       -0.0988588        0.122563
281703.1               -0.217995       0.0144473     -0.000624322    -7.44787e-05        -0.347437       -0.907676      0.000285214    -8.48026e-05
                    -0.000632952    -6.51058e-05       -0.0106442        0.157093      8.12022e-05    -0.000129109        -0.922594       -0.335584
                       -0.347145       -0.906691      0.000222239    -0.000184881        -0.172648        0.133668      0.000153231    -9.35105e-05
