! TOUCHSTONE file generated by CST MICROWAVE STUDIO
! Date and time: Wed Oct  8 06:53:39 2025
! Project name: Teste_Macro_Metasurface_Nanopilar.cst
! Parameters = {H=600; L_x=95; L_y=95; Lambda=1064; Max_L=200; Min_L=70; PathPara=1; Phi=0; Step_L=10; Theta=0; p=520; phaseX=180; phaseY=0}
! Header version: 2018
! Port assignment regex: !\s*Touchstone port\s*([0-9]+)\s*=\s*(CST MWS port|CST DS port)\s*([0-9]+|Zmin|Zmax)\s*\(\"(.*)\"\)(\s*mode\s*([0-9]+))?.*
! Touchstone port assignment:
! Touchstone port 1 = CST MWS port Zmax ("") mode 1
! Touchstone port 2 = CST MWS port Zmax ("") mode 2
! Touchstone port 3 = CST MWS port Zmin ("") mode 1
! Touchstone port 4 = CST MWS port Zmin ("") mode 2
! S-Parameters are not renormalized. Each port impedance will be approximated by the real part at minimum frequency. The values are described via the [Reference] keyword.
! Default impedance is overridden by [Reference]
[Version] 2.0
# GHz S RI R 376.73
[Number of Ports] 4
[Reference]
376.73 376.73 376.73 376.73 
[Number of Frequencies] 1001
[Network Data]
281700                 0.0498054       -0.123215       4.2614e-05     0.000438293        -0.788687        0.598114      2.16491e-05    -2.00284e-05
                     0.000208694     0.000340175        0.0495862       -0.121944     -0.000183622     5.91886e-05        -0.788737        0.598428
                       -0.788919        0.598211      -0.00011454     4.69419e-05        -0.132483       0.0150957      0.000368974     0.000133202
                     -4.2127e-05     0.000360026         -0.78847         0.59923       0.00036638      0.00015752        -0.131185       0.0153264
281700.1               0.0497992       -0.123218      4.26224e-05      0.00043829         -0.78867        0.598135      2.16497e-05    -2.00274e-05
                     0.000208695     0.000340175        0.0495801       -0.121946     -0.000183612     5.91933e-05        -0.788721         0.59845
                       -0.788902        0.598233     -0.000114544     4.69445e-05        -0.132482       0.0150963      0.000368976     0.000133189
                    -4.21013e-05      0.00036003        -0.788454        0.599252      0.000366379     0.000157513        -0.131185        0.015327
281700.2               0.0497931        -0.12322      4.26308e-05     0.000438288        -0.788654        0.598157      2.16502e-05    -2.00265e-05
                     0.000208696     0.000340175         0.049574       -0.121949     -0.000183601      5.9198e-05        -0.788704        0.598471
                       -0.788886        0.598254     -0.000114547     4.69471e-05        -0.132482        0.015097      0.000368979     0.000133177
                    -4.20755e-05     0.000360034        -0.788437        0.599273      0.000366378     0.000157506        -0.131185       0.0153277
281700.3                0.049787       -0.123223      4.26391e-05     0.000438285        -0.788638        0.598178      2.16507e-05    -2.00255e-05
                     0.000208697     0.000340175        0.0495679       -0.121951     -0.000183591     5.92026e-05        -0.788688        0.598493
                        -0.78887        0.598276     -0.000114551     4.69496e-05        -0.132482       0.0150976      0.000368981     0.000133164
                    -4.20497e-05     0.000360038        -0.788421        0.599295      0.000366377     0.000157499        -0.131184       0.0153283
281700.4               0.0497808       -0.123225      4.26475e-05     0.000438282        -0.788622          0.5982      2.16513e-05    -2.00246e-05
                     0.000208698     0.000340175        0.0495618       -0.121953      -0.00018358     5.92073e-05        -0.788672        0.598514
                       -0.788854        0.598297     -0.000114555     4.69522e-05        -0.132482       0.0150983      0.000368984     0.000133151
                    -4.20239e-05     0.000360042        -0.788405        0.599316      0.000366377     0.000157492        -0.131184       0.0153289
281700.5               0.0497747       -0.123227      4.26558e-05      0.00043828        -0.788605        0.598221      2.16518e-05    -2.00236e-05
                     0.000208699     0.000340175        0.0495557       -0.121956      -0.00018357      5.9212e-05        -0.788655        0.598536
                       -0.788837        0.598319     -0.000114558     4.69548e-05        -0.132482       0.0150989      0.000368986     0.000133139
                    -4.19981e-05     0.000360045        -0.788388        0.599338      0.000366376     0.000157485        -0.131184       0.0153295
281700.6               0.0497686        -0.12323      4.26642e-05     0.000438277        -0.788589        0.598243      2.16523e-05    -2.00227e-05
                       0.0002087     0.000340175        0.0495496       -0.121958     -0.000183559     5.92167e-05        -0.788639        0.598557
                       -0.788821         0.59834     -0.000114562     4.69573e-05        -0.132482       0.0150996      0.000368989     0.000133126
                    -4.19723e-05     0.000360049        -0.788372        0.599359      0.000366375     0.000157478        -0.131184       0.0153302
281700.7               0.0497624       -0.123232      4.26725e-05     0.000438275        -0.788573        0.598264      2.16529e-05    -2.00217e-05
                     0.000208701     0.000340175        0.0495435        -0.12196     -0.000183549     5.92214e-05        -0.788623        0.598579
                       -0.788805        0.598362     -0.000114566     4.69599e-05        -0.132481       0.0151002      0.000368991     0.000133114
                    -4.19465e-05     0.000360053        -0.788356        0.599381      0.000366374     0.000157471        -0.131184       0.0153308
281700.8               0.0497563       -0.123234      4.26809e-05     0.000438272        -0.788556        0.598286      2.16534e-05    -2.00208e-05
                     0.000208701     0.000340175        0.0495374       -0.121963     -0.000183539     5.92261e-05        -0.788607          0.5986
                       -0.788788        0.598383      -0.00011457     4.69625e-05        -0.132481       0.0151009      0.000368993     0.000133101
                    -4.19207e-05     0.000360057        -0.788339        0.599402      0.000366373     0.000157464        -0.131184       0.0153314
281700.9               0.0497502       -0.123237      4.26892e-05     0.000438269         -0.78854        0.598307       2.1654e-05    -2.00198e-05
                     0.000208702     0.000340175        0.0495313       -0.121965     -0.000183528     5.92308e-05         -0.78859        0.598622
                       -0.788772        0.598405     -0.000114573     4.69651e-05        -0.132481       0.0151015      0.000368996     0.000133088
                    -4.18949e-05      0.00036006        -0.788323        0.599424      0.000366373     0.000157457        -0.131183        0.015332
281701                 0.0497441       -0.123239      4.26976e-05     0.000438267        -0.788524        0.598329      2.16545e-05    -2.00189e-05
                     0.000208703     0.000340175        0.0495252       -0.121968     -0.000183518     5.92355e-05        -0.788574        0.598643
                       -0.788756        0.598426     -0.000114577     4.69676e-05        -0.132481       0.0151022      0.000368998     0.000133076
                    -4.18691e-05     0.000360064        -0.788307        0.599445      0.000366372      0.00015745        -0.131183       0.0153326
281701.1               0.0497379       -0.123242      4.27059e-05     0.000438264        -0.788508         0.59835       2.1655e-05    -2.00179e-05
                     0.000208704     0.000340175        0.0495191        -0.12197     -0.000183507     5.92402e-05        -0.788558        0.598665
                        -0.78874        0.598448     -0.000114581     4.69702e-05        -0.132481       0.0151028      0.000369001     0.000133063
                    -4.18433e-05     0.000360068         -0.78829        0.599467      0.000366371     0.000157443        -0.131183       0.0153333
281701.2               0.0497318       -0.123244      4.27143e-05     0.000438261        -0.788491        0.598371      2.16556e-05     -2.0017e-05
                     0.000208705     0.000340175         0.049513       -0.121972     -0.000183497     5.92449e-05        -0.788541        0.598686
                       -0.788723        0.598469     -0.000114584     4.69728e-05        -0.132481       0.0151035      0.000369003     0.000133051
                    -4.18176e-05     0.000360072        -0.788274        0.599488       0.00036637     0.000157436        -0.131183       0.0153339
281701.3               0.0497257       -0.123246      4.27226e-05     0.000438259        -0.788475        0.598393      2.16561e-05     -2.0016e-05
                     0.000208706     0.000340175        0.0495069       -0.121975     -0.000183486     5.92495e-05        -0.788525        0.598707
                       -0.788707        0.598491     -0.000114588     4.69754e-05         -0.13248       0.0151041      0.000369006     0.000133038
                    -4.17918e-05     0.000360075        -0.788258         0.59951      0.000366369     0.000157429        -0.131183       0.0153345
281701.4               0.0497195       -0.123249       4.2731e-05     0.000438256        -0.788459        0.598414      2.16566e-05    -2.00151e-05
                     0.000208707     0.000340175        0.0495008       -0.121977     -0.000183476     5.92542e-05        -0.788509        0.598729
                       -0.788691        0.598512     -0.000114592      4.6978e-05         -0.13248       0.0151048      0.000369008     0.000133025
                     -4.1766e-05     0.000360079        -0.788241        0.599531      0.000366369     0.000157422        -0.131183       0.0153351
281701.5               0.0497134       -0.123251      4.27393e-05     0.000438254        -0.788443        0.598436      2.16572e-05    -2.00141e-05
                     0.000208708     0.000340176        0.0494947       -0.121979     -0.000183465     5.92589e-05        -0.788492         0.59875
                       -0.788674        0.598534     -0.000114595     4.69805e-05         -0.13248       0.0151054      0.000369011     0.000133013
                    -4.17402e-05     0.000360083        -0.788225        0.599553      0.000366368     0.000157415        -0.131182       0.0153358
281701.6               0.0497073       -0.123254      4.27477e-05     0.000438251        -0.788426        0.598457      2.16577e-05    -2.00132e-05
                     0.000208709     0.000340176        0.0494886       -0.121982     -0.000183455     5.92636e-05        -0.788476        0.598772
                       -0.788658        0.598555     -0.000114599     4.69831e-05         -0.13248       0.0151061      0.000369013        0.000133
                    -4.17144e-05     0.000360087        -0.788209        0.599574      0.000366367     0.000157407        -0.131182       0.0153364
281701.7               0.0497011       -0.123256       4.2756e-05     0.000438248         -0.78841        0.598479      2.16582e-05    -2.00123e-05
                      0.00020871     0.000340176        0.0494825       -0.121984     -0.000183444     5.92683e-05         -0.78846        0.598793
                       -0.788642        0.598577     -0.000114603     4.69857e-05         -0.13248       0.0151067      0.000369016     0.000132987
                    -4.16886e-05      0.00036009        -0.788193        0.599596      0.000366366       0.0001574        -0.131182        0.015337
281701.8                0.049695       -0.123258      4.27644e-05     0.000438246        -0.788394          0.5985      2.16588e-05    -2.00113e-05
                     0.000208711     0.000340176        0.0494765       -0.121987     -0.000183434      5.9273e-05        -0.788444        0.598815
                       -0.788626        0.598598     -0.000114607     4.69883e-05         -0.13248       0.0151074      0.000369018     0.000132975
                    -4.16628e-05     0.000360094        -0.788176        0.599617      0.000366366     0.000157393        -0.131182       0.0153376
281701.9               0.0496889       -0.123261      4.27727e-05     0.000438243        -0.788377        0.598522      2.16593e-05    -2.00104e-05
                     0.000208712     0.000340176        0.0494704       -0.121989     -0.000183423     5.92777e-05        -0.788427        0.598836
                       -0.788609         0.59862      -0.00011461     4.69908e-05        -0.132479        0.015108       0.00036902     0.000132962
                     -4.1637e-05     0.000360098         -0.78816        0.599639      0.000366365     0.000157386        -0.131182       0.0153382
281702                 0.0496827       -0.123263      4.27811e-05      0.00043824        -0.788361        0.598543      2.16599e-05    -2.00094e-05
                     0.000208713     0.000340176        0.0494643       -0.121991     -0.000183413     5.92824e-05        -0.788411        0.598858
                       -0.788593        0.598641     -0.000114614     4.69934e-05        -0.132479       0.0151087      0.000369023      0.00013295
                    -4.16112e-05     0.000360102        -0.788144         0.59966      0.000366364     0.000157379        -0.131181       0.0153389
281702.1               0.0496766       -0.123265      4.27894e-05     0.000438238        -0.788345        0.598565      2.16604e-05    -2.00085e-05
                     0.000208714     0.000340176        0.0494582       -0.121994     -0.000183402     5.92871e-05        -0.788395        0.598879
                       -0.788577        0.598663     -0.000114618      4.6996e-05        -0.132479       0.0151093      0.000369025     0.000132937
                    -4.15854e-05     0.000360105        -0.788127        0.599681      0.000366363     0.000157372        -0.131181       0.0153395
281702.2               0.0496705       -0.123268      4.27978e-05     0.000438235        -0.788329        0.598586      2.16609e-05    -2.00075e-05
                     0.000208715     0.000340176        0.0494521       -0.121996     -0.000183392     5.92918e-05        -0.788378        0.598901
                        -0.78856        0.598684     -0.000114621     4.69986e-05        -0.132479         0.01511      0.000369028     0.000132924
                    -4.15596e-05     0.000360109        -0.788111        0.599703      0.000366362     0.000157365        -0.131181       0.0153401
281702.3               0.0496643        -0.12327      4.28062e-05     0.000438232        -0.788312        0.598608      2.16615e-05    -2.00066e-05
                     0.000208716     0.000340176         0.049446       -0.121998     -0.000183381     5.92965e-05        -0.788362        0.598922
                       -0.788544        0.598706     -0.000114625     4.70012e-05        -0.132479       0.0151106       0.00036903     0.000132912
                    -4.15338e-05     0.000360113        -0.788095        0.599724      0.000366362     0.000157358        -0.131181       0.0153407
281702.4               0.0496582       -0.123273      4.28145e-05      0.00043823        -0.788296        0.598629       2.1662e-05    -2.00056e-05
                     0.000208717     0.000340176        0.0494399       -0.122001     -0.000183371     5.93012e-05        -0.788346        0.598944
                       -0.788528        0.598727     -0.000114629     4.70037e-05        -0.132479       0.0151113      0.000369033     0.000132899
                     -4.1508e-05     0.000360117        -0.788078        0.599746      0.000366361     0.000157351        -0.131181       0.0153414
281702.5               0.0496521       -0.123275      4.28229e-05     0.000438227         -0.78828        0.598651      2.16625e-05    -2.00047e-05
                     0.000208718     0.000340176        0.0494338       -0.122003      -0.00018336     5.93059e-05        -0.788329        0.598965
                       -0.788511        0.598749     -0.000114633     4.70063e-05        -0.132478       0.0151119      0.000369035     0.000132887
                    -4.14822e-05      0.00036012        -0.788062        0.599767       0.00036636     0.000157344        -0.131181        0.015342
281702.6               0.0496459       -0.123277      4.28312e-05     0.000438225        -0.788263        0.598672      2.16631e-05    -2.00037e-05
                     0.000208719     0.000340176        0.0494277       -0.122006      -0.00018335     5.93106e-05        -0.788313        0.598987
                       -0.788495         0.59877     -0.000114636     4.70089e-05        -0.132478       0.0151126      0.000369038     0.000132874
                    -4.14564e-05     0.000360124        -0.788046        0.599789      0.000366359     0.000157337         -0.13118       0.0153426
281702.7               0.0496398        -0.12328      4.28396e-05     0.000438222        -0.788247        0.598694      2.16636e-05    -2.00028e-05
                      0.00020872     0.000340176        0.0494216       -0.122008      -0.00018334     5.93153e-05        -0.788297        0.599008
                       -0.788479        0.598792      -0.00011464     4.70115e-05        -0.132478       0.0151132       0.00036904     0.000132861
                    -4.14306e-05     0.000360128        -0.788029         0.59981      0.000366358      0.00015733         -0.13118       0.0153432
281702.8               0.0496337       -0.123282      4.28479e-05     0.000438219        -0.788231        0.598715      2.16641e-05    -2.00018e-05
                      0.00020872     0.000340176        0.0494155        -0.12201     -0.000183329       5.932e-05        -0.788281         0.59903
                       -0.788463        0.598813     -0.000114644     4.70141e-05        -0.132478       0.0151139      0.000369042     0.000132849
                    -4.14048e-05     0.000360131        -0.788013        0.599832      0.000366358     0.000157323         -0.13118       0.0153438
281702.9               0.0496275       -0.123285      4.28563e-05     0.000438217        -0.788215        0.598737      2.16647e-05    -2.00009e-05
                     0.000208721     0.000340176        0.0494094       -0.122013     -0.000183319     5.93247e-05        -0.788264        0.599051
                       -0.788446        0.598834     -0.000114647     4.70166e-05        -0.132478       0.0151145      0.000369045     0.000132836
                     -4.1379e-05     0.000360135        -0.787997        0.599853      0.000366357     0.000157316         -0.13118       0.0153445
281703                 0.0496214       -0.123287      4.28646e-05     0.000438214        -0.788198        0.598758      2.16652e-05    -1.99999e-05
                     0.000208722     0.000340176        0.0494033       -0.122015     -0.000183308     5.93294e-05        -0.788248        0.599073
                        -0.78843        0.598856     -0.000114651     4.70192e-05        -0.132478       0.0151152      0.000369047     0.000132824
                    -4.13532e-05     0.000360139         -0.78798        0.599875      0.000366356     0.000157309         -0.13118       0.0153451
281703.1               0.0496153       -0.123289       4.2873e-05     0.000438211        -0.788182        0.598779      2.16658e-05     -1.9999e-05
                     0.000208723     0.000340176        0.0493972       -0.122017     -0.000183298     5.93341e-05        -0.788232        0.599094
                       -0.788414        0.598877     -0.000114655     4.70218e-05        -0.132477       0.0151158       0.00036905     0.000132811
