! TOUCHSTONE file generated by CST MICROWAVE STUDIO
! Date and time: Wed Oct  8 07:02:03 2025
! Project name: Teste_Macro_Metasurface_Nanopilar.cst
! Parameters = {H=600; L_x=165; L_y=100; Lambda=1064; Max_L=200; Min_L=70; PathPara=1; Phi=0; Step_L=10; Theta=0; p=520; phaseX=180; phaseY=0}
! Header version: 2018
! Port assignment regex: !\s*Touchstone port\s*([0-9]+)\s*=\s*(CST MWS port|CST DS port)\s*([0-9]+|Zmin|Zmax)\s*\(\"(.*)\"\)(\s*mode\s*([0-9]+))?.*
! Touchstone port assignment:
! Touchstone port 1 = CST MWS port Zmax ("") mode 1
! Touchstone port 2 = CST MWS port Zmax ("") mode 2
! Touchstone port 3 = CST MWS port Zmin ("") mode 1
! Touchstone port 4 = CST MWS port Zmin ("") mode 2
! S-Parameters are not renormalized. Each port impedance will be approximated by the real part at minimum frequency. The values are described via the [Reference] keyword.
! Default impedance is overridden by [Reference]
[Version] 2.0
# GHz S RI R 376.73
[Number of Ports] 4
[Reference]
376.73 376.73 376.73 376.73 
[Number of Frequencies] 1001
[Network Data]
281700                 -0.166936       0.0566792     -0.000397292       0.0011109         0.629841        0.746915      0.000641528     -0.00123551
                    -0.000323933      0.00097499        -0.114151      -0.0807279      -0.00138576     0.000739961        -0.710455       -0.682472
                         0.63024        0.746506      -0.00123503     0.000429342       -0.0861741        0.153784        0.0015096    -0.000260058
                     0.000573459     -0.00121049        -0.709965       -0.682411       0.00147296    -0.000191419        0.0824223        0.107478
281700.1               -0.166929       0.0566829     -0.000397249      0.00111093         0.629867        0.746895      0.000641493     -0.00123555
                    -0.000323901     0.000975017        -0.114147       -0.080729      -0.00138576     0.000739982        -0.710478       -0.682448
                        0.630265        0.746486      -0.00123502      0.00042939       -0.0861664        0.153782        0.0015096    -0.000260113
                     0.000573414     -0.00121052        -0.709988       -0.682388       0.00147296    -0.000191471        0.0824304        0.107468
281700.2               -0.166923       0.0566866     -0.000397206      0.00111097         0.629892        0.746875      0.000641458     -0.00123558
                     -0.00032387     0.000975044        -0.114143      -0.0807301      -0.00138576     0.000740003        -0.710501       -0.682425
                        0.630291        0.746466      -0.00123501     0.000429438       -0.0861588         0.15378        0.0015096    -0.000260169
                      0.00057337     -0.00121055        -0.710011       -0.682365       0.00147296    -0.000191523        0.0824384        0.107458
281700.3               -0.166916       0.0566903     -0.000397163        0.001111         0.629917        0.746854      0.000641423     -0.00123562
                    -0.000323839      0.00097507        -0.114139      -0.0807312      -0.00138576     0.000740025        -0.710524       -0.682402
                        0.630316        0.746445      -0.00123501     0.000429486       -0.0861511        0.153779       0.00150959    -0.000260224
                     0.000573325     -0.00121058        -0.710034       -0.682342       0.00147295    -0.000191576        0.0824465        0.107448
281700.4               -0.166909        0.056694      -0.00039712      0.00111103         0.629943        0.746834      0.000641388     -0.00123565
                    -0.000323808     0.000975097        -0.114135      -0.0807322      -0.00138576     0.000740046        -0.710546       -0.682378
                        0.630341        0.746425        -0.001235     0.000429534       -0.0861435        0.153777       0.00150959     -0.00026028
                      0.00057328     -0.00121062        -0.710057       -0.682318       0.00147295    -0.000191628        0.0824545        0.107438
281700.5               -0.166903       0.0566977     -0.000397077      0.00111107         0.629968        0.746814      0.000641353     -0.00123569
                    -0.000323776     0.000975124         -0.11413      -0.0807333      -0.00138576     0.000740067        -0.710569       -0.682355
                        0.630366        0.746405        -0.001235     0.000429582       -0.0861358        0.153776       0.00150959    -0.000260336
                     0.000573235     -0.00121065         -0.71008       -0.682295       0.00147295     -0.00019168        0.0824626        0.107428
281700.6               -0.166896       0.0567014     -0.000397034       0.0011111         0.629993        0.746794      0.000641318     -0.00123572
                    -0.000323745     0.000975151        -0.114126      -0.0807344      -0.00138576     0.000740089        -0.710592       -0.682332
                        0.630392        0.746385      -0.00123499      0.00042963       -0.0861282        0.153774       0.00150958    -0.000260391
                     0.000573191     -0.00121068        -0.710103       -0.682272       0.00147295    -0.000191733        0.0824707        0.107418
281700.7                -0.16689        0.056705     -0.000396991      0.00111113         0.630018        0.746774      0.000641283     -0.00123576
                    -0.000323714     0.000975178        -0.114122      -0.0807355      -0.00138576      0.00074011        -0.710615       -0.682308
                        0.630417        0.746365      -0.00123499     0.000429678       -0.0861205        0.153773       0.00150958    -0.000260447
                     0.000573146     -0.00121071        -0.710125       -0.682249       0.00147295    -0.000191785        0.0824787        0.107408
281700.8               -0.166883       0.0567087     -0.000396949      0.00111116         0.630044        0.746754      0.000641248     -0.00123579
                    -0.000323682     0.000975205        -0.114118      -0.0807365      -0.00138576     0.000740132        -0.710638       -0.682285
                        0.630442        0.746344      -0.00123498     0.000429726       -0.0861129        0.153771       0.00150958    -0.000260502
                     0.000573101     -0.00121075        -0.710148       -0.682225       0.00147295    -0.000191837        0.0824868        0.107399
281700.9               -0.166876       0.0567124     -0.000396906       0.0011112         0.630069        0.746734      0.000641213     -0.00123583
                    -0.000323651     0.000975231        -0.114114      -0.0807376      -0.00138576     0.000740153        -0.710661       -0.682262
                        0.630467        0.746324      -0.00123498     0.000429774       -0.0861052        0.153769       0.00150957    -0.000260558
                     0.000573057     -0.00121078        -0.710171       -0.682202       0.00147295     -0.00019189        0.0824948        0.107389
281701                  -0.16687       0.0567161     -0.000396863      0.00111123         0.630094        0.746713      0.000641178     -0.00123586
                     -0.00032362     0.000975258        -0.114109      -0.0807387      -0.00138576     0.000740174        -0.710684       -0.682239
                        0.630493        0.746304      -0.00123497     0.000429822       -0.0860976        0.153768       0.00150957    -0.000260613
                     0.000573012     -0.00121081        -0.710194       -0.682179       0.00147295    -0.000191942        0.0825029        0.107379
281701.1               -0.166863       0.0567198      -0.00039682      0.00111126          0.63012        0.746693      0.000641143      -0.0012359
                    -0.000323589     0.000975285        -0.114105      -0.0807398      -0.00138576     0.000740196        -0.710707       -0.682215
                        0.630518        0.746284      -0.00123496      0.00042987         -0.08609        0.153766       0.00150957    -0.000260669
                     0.000572967     -0.00121084        -0.710217       -0.682155       0.00147295    -0.000191994        0.0825109        0.107369
281701.2               -0.166856       0.0567235     -0.000396777       0.0011113         0.630145        0.746673      0.000641108     -0.00123593
                    -0.000323557     0.000975312        -0.114101      -0.0807408      -0.00138576     0.000740217        -0.710729       -0.682192
                        0.630543        0.746264      -0.00123496     0.000429918       -0.0860823        0.153765       0.00150956    -0.000260725
                     0.000572923     -0.00121088         -0.71024       -0.682132       0.00147295    -0.000192047         0.082519        0.107359
281701.3                -0.16685       0.0567272     -0.000396734      0.00111133          0.63017        0.746653      0.000641073     -0.00123597
                    -0.000323526     0.000975339        -0.114097      -0.0807419      -0.00138576     0.000740238        -0.710752       -0.682169
                        0.630568        0.746244      -0.00123495     0.000429966       -0.0860747        0.153763       0.00150956     -0.00026078
                     0.000572878     -0.00121091        -0.710263       -0.682109       0.00147294    -0.000192099        0.0825271        0.107349
281701.4               -0.166843       0.0567309     -0.000396691      0.00111136         0.630195        0.746633      0.000641037       -0.001236
                    -0.000323495     0.000975366        -0.114093       -0.080743      -0.00138576      0.00074026        -0.710775       -0.682145
                        0.630594        0.746223      -0.00123495     0.000430014        -0.086067        0.153761       0.00150956    -0.000260836
                     0.000572833     -0.00121094        -0.710285       -0.682086       0.00147294    -0.000192151        0.0825351        0.107339
281701.5               -0.166836       0.0567346     -0.000396648       0.0011114         0.630221        0.746613      0.000641002     -0.00123604
                    -0.000323463     0.000975392        -0.114088      -0.0807441      -0.00138575     0.000740281        -0.710798       -0.682122
                        0.630619        0.746203      -0.00123494     0.000430062       -0.0860594         0.15376       0.00150955    -0.000260891
                     0.000572788     -0.00121097        -0.710308       -0.682062       0.00147294    -0.000192204        0.0825432        0.107329
281701.6                -0.16683       0.0567382     -0.000396605      0.00111143         0.630246        0.746592      0.000640967     -0.00123607
                    -0.000323432     0.000975419        -0.114084      -0.0807452      -0.00138575     0.000740302        -0.710821       -0.682099
                        0.630644        0.746183      -0.00123494      0.00043011       -0.0860517        0.153758       0.00150955    -0.000260947
                     0.000572744     -0.00121101        -0.710331       -0.682039       0.00147294    -0.000192256        0.0825512        0.107319
281701.7               -0.166823       0.0567419     -0.000396562      0.00111146         0.630271        0.746572      0.000640932      -0.0012361
                    -0.000323401     0.000975446         -0.11408      -0.0807462      -0.00138575     0.000740324        -0.710844       -0.682075
                        0.630669        0.746163      -0.00123493     0.000430158       -0.0860441        0.153757       0.00150955    -0.000261003
                     0.000572699     -0.00121104        -0.710354       -0.682016       0.00147294    -0.000192308        0.0825593        0.107309
281701.8               -0.166817       0.0567456     -0.000396519       0.0011115         0.630296        0.746552      0.000640897     -0.00123614
                    -0.000323369     0.000975473        -0.114076      -0.0807473      -0.00138575     0.000740345        -0.710866       -0.682052
                        0.630695        0.746143      -0.00123493     0.000430206       -0.0860364        0.153755       0.00150954    -0.000261058
                     0.000572654     -0.00121107        -0.710377       -0.681992       0.00147294    -0.000192361        0.0825673          0.1073
281701.9                -0.16681       0.0567493     -0.000396476      0.00111153         0.630322        0.746532      0.000640862     -0.00123617
                    -0.000323338       0.0009755        -0.114072      -0.0807484      -0.00138575     0.000740366        -0.710889       -0.682029
                         0.63072        0.746122      -0.00123492     0.000430254       -0.0860288        0.153753       0.00150954    -0.000261114
                     0.000572609      -0.0012111          -0.7104       -0.681969       0.00147294    -0.000192413        0.0825754         0.10729
281702                 -0.166803        0.056753     -0.000396433      0.00111156         0.630347        0.746512      0.000640827     -0.00123621
                    -0.000323307     0.000975527        -0.114067      -0.0807495      -0.00138575     0.000740388        -0.710912       -0.682006
                        0.630745        0.746102      -0.00123492     0.000430302       -0.0860211        0.153752       0.00150954    -0.000261169
                     0.000572565     -0.00121114        -0.710423       -0.681946       0.00147294    -0.000192465        0.0825834         0.10728
281702.1               -0.166797       0.0567567     -0.000396391       0.0011116         0.630372        0.746492      0.000640792     -0.00123624
                    -0.000323275     0.000975553        -0.114063      -0.0807506      -0.00138575     0.000740409        -0.710935       -0.681982
                         0.63077        0.746082      -0.00123491      0.00043035       -0.0860135         0.15375       0.00150953    -0.000261225
                      0.00057252     -0.00121117        -0.710445       -0.681923       0.00147294    -0.000192518        0.0825915         0.10727
281702.2                -0.16679       0.0567604     -0.000396348      0.00111163         0.630398        0.746471      0.000640757     -0.00123628
                    -0.000323244      0.00097558        -0.114059      -0.0807516      -0.00138575     0.000740431        -0.710958       -0.681959
                        0.630796        0.746062       -0.0012349     0.000430398       -0.0860059        0.153749       0.00150953     -0.00026128
                     0.000572475      -0.0012112        -0.710468       -0.681899       0.00147293     -0.00019257        0.0825995         0.10726
281702.3               -0.166783        0.056764     -0.000396305      0.00111166         0.630423        0.746451      0.000640722     -0.00123631
                    -0.000323213     0.000975607        -0.114055      -0.0807527      -0.00138575     0.000740452        -0.710981       -0.681936
                        0.630821        0.746042       -0.0012349     0.000430446       -0.0859982        0.153747       0.00150953    -0.000261336
                     0.000572431     -0.00121123        -0.710491       -0.681876       0.00147293    -0.000192622        0.0826076         0.10725
281702.4               -0.166777       0.0567677     -0.000396262       0.0011117         0.630448        0.746431      0.000640687     -0.00123635
                    -0.000323182     0.000975634        -0.114051      -0.0807538      -0.00138575     0.000740473        -0.711004       -0.681912
                        0.630846        0.746021      -0.00123489     0.000430494       -0.0859906        0.153745       0.00150952    -0.000261392
                     0.000572386     -0.00121127        -0.710514       -0.681853       0.00147293    -0.000192675        0.0826156         0.10724
281702.5                -0.16677       0.0567714     -0.000396219      0.00111173         0.630473        0.746411      0.000640651     -0.00123638
                     -0.00032315     0.000975661        -0.114046      -0.0807549      -0.00138575     0.000740495        -0.711026       -0.681889
                        0.630871        0.746001      -0.00123489     0.000430542       -0.0859829        0.153744       0.00150952    -0.000261447
                     0.000572341      -0.0012113        -0.710537       -0.681829       0.00147293    -0.000192727        0.0826237         0.10723
281702.6               -0.166763       0.0567751     -0.000396176      0.00111176         0.630499        0.746391      0.000640616     -0.00123642
                    -0.000323119     0.000975688        -0.114042       -0.080756      -0.00138575     0.000740516        -0.711049       -0.681866
                        0.630897        0.745981      -0.00123488      0.00043059       -0.0859753        0.153742       0.00150952    -0.000261503
                     0.000572296     -0.00121133         -0.71056       -0.681806       0.00147293    -0.000192779        0.0826317         0.10722
281702.7               -0.166757       0.0567788     -0.000396133       0.0011118         0.630524        0.746371      0.000640581     -0.00123645
                    -0.000323088     0.000975714        -0.114038       -0.080757      -0.00138575     0.000740537        -0.711072       -0.681842
                        0.630922        0.745961      -0.00123488     0.000430638       -0.0859676        0.153741       0.00150951    -0.000261558
                     0.000572252     -0.00121136        -0.710582       -0.681783       0.00147293    -0.000192832        0.0826398         0.10721
281702.8                -0.16675       0.0567825      -0.00039609      0.00111183         0.630549         0.74635      0.000640546     -0.00123649
                    -0.000323056     0.000975741        -0.114034      -0.0807581      -0.00138575     0.000740559        -0.711095       -0.681819
                        0.630947        0.745941      -0.00123487     0.000430686         -0.08596        0.153739       0.00150951    -0.000261614
                     0.000572207      -0.0012114        -0.710605        -0.68176       0.00147293    -0.000192884        0.0826478        0.107201
281702.9               -0.166744       0.0567861     -0.000396047      0.00111186         0.630574         0.74633      0.000640511     -0.00123652
                    -0.000323025     0.000975768         -0.11403      -0.0807592      -0.00138575      0.00074058        -0.711118       -0.681796
                        0.630972         0.74592      -0.00123487     0.000430734       -0.0859523        0.153738       0.00150951     -0.00026167
                     0.000572162     -0.00121143        -0.710628       -0.681736       0.00147293    -0.000192936        0.0826559        0.107191
281703                 -0.166737       0.0567898     -0.000396004       0.0011119           0.6306         0.74631      0.000640476     -0.00123656
                    -0.000322994     0.000975795        -0.114025      -0.0807603      -0.00138575     0.000740601        -0.711141       -0.681772
                        0.630997          0.7459      -0.00123486     0.000430782       -0.0859447        0.153736        0.0015095    -0.000261725
                     0.000572117     -0.00121146        -0.710651       -0.681713       0.00147293    -0.000192989        0.0826639        0.107181
281703.1                -0.16673       0.0567935     -0.000395961      0.00111193         0.630625         0.74629      0.000640441     -0.00123659
                    -0.000322962     0.000975822        -0.114021      -0.0807614      -0.00138575     0.000740623        -0.711164       -0.681749
                        0.631023         0.74588      -0.00123486     0.000430829       -0.0859371        0.153734        0.0015095    -0.000261781
