! TOUCHSTONE file generated by CST MICROWAVE STUDIO
! Date and time: Wed Oct  8 06:54:30 2025
! Project name: Teste_Macro_Metasurface_Nanopilar.cst
! Parameters = {H=600; L_x=100; L_y=155; Lambda=1064; Max_L=200; Min_L=70; PathPara=1; Phi=0; Step_L=10; Theta=0; p=520; phaseX=180; phaseY=0}
! Header version: 2018
! Port assignment regex: !\s*Touchstone port\s*([0-9]+)\s*=\s*(CST MWS port|CST DS port)\s*([0-9]+|Zmin|Zmax)\s*\(\"(.*)\"\)(\s*mode\s*([0-9]+))?.*
! Touchstone port assignment:
! Touchstone port 1 = CST MWS port Zmax ("") mode 1
! Touchstone port 2 = CST MWS port Zmax ("") mode 2
! Touchstone port 3 = CST MWS port Zmin ("") mode 1
! Touchstone port 4 = CST MWS port Zmin ("") mode 2
! S-Parameters are not renormalized. Each port impedance will be approximated by the real part at minimum frequency. The values are described via the [Reference] keyword.
! Default impedance is overridden by [Reference]
[Version] 2.0
# GHz S RI R 376.73
[Number of Ports] 4
[Reference]
376.73 376.73 376.73 376.73 
[Number of Frequencies] 1001
[Network Data]
281700                   -0.1915      -0.0295811      7.96459e-05     -0.00029127        -0.393592       -0.892847      8.83533e-05     0.000244625
                    -6.02834e-05    -0.000306742        -0.214477       0.0243523      0.000191727     0.000325094         0.435887        0.866483
                       -0.393319       -0.892978      0.000304993     0.000295272        -0.108429         0.16019     -0.000445706    -0.000531073
                      0.00029885     0.000398328         0.436106        0.866921     -0.000309884     -5.7094e-05        -0.148632        0.156767
281700.1               -0.191496      -0.0295753      7.96425e-05    -0.000291276         -0.39362       -0.892836      8.83475e-05     0.000244646
                    -6.03007e-05    -0.000306731        -0.214473        0.024359      0.000191739     0.000325085         0.435915         0.86647
                       -0.393347       -0.892967      0.000305017     0.000295266        -0.108421         0.16019     -0.000445755    -0.000531069
                     0.000298876     0.000398321         0.436134        0.866907     -0.000309892    -5.70927e-05        -0.148624        0.156769
281700.2               -0.191493      -0.0295695      7.96391e-05    -0.000291283        -0.393648       -0.892824      8.83418e-05     0.000244668
                    -6.03181e-05     -0.00030672        -0.214468       0.0243657      0.000191751     0.000325077         0.435943        0.866457
                       -0.393375       -0.892955      0.000305041      0.00029526        -0.108413         0.16019     -0.000445804    -0.000531066
                     0.000298901     0.000398313         0.436162        0.866894     -0.000309899    -5.70914e-05        -0.148617        0.156771
281700.3               -0.191489      -0.0295637      7.96357e-05    -0.000291289        -0.393676       -0.892813      8.83361e-05     0.000244689
                    -6.03355e-05     -0.00030671        -0.214463       0.0243724      0.000191763     0.000325068         0.435971        0.866444
                       -0.393403       -0.892944      0.000305064     0.000295253        -0.108404        0.160191     -0.000445853    -0.000531062
                     0.000298926     0.000398306          0.43619        0.866881     -0.000309907      -5.709e-05         -0.14861        0.156773
281700.4               -0.191486      -0.0295579      7.96323e-05    -0.000291295        -0.393704       -0.892802      8.83304e-05      0.00024471
                    -6.03528e-05    -0.000306699        -0.214459       0.0243791      0.000191775      0.00032506         0.435999         0.86643
                       -0.393431       -0.892933      0.000305088     0.000295247        -0.108396        0.160191     -0.000445902    -0.000531058
                     0.000298951     0.000398299         0.436218        0.866868     -0.000309914    -5.70887e-05        -0.148602        0.156774
281700.5               -0.191482      -0.0295521      7.96289e-05    -0.000291301        -0.393732        -0.89279      8.83247e-05     0.000244731
                    -6.03702e-05    -0.000306688        -0.214454       0.0243858      0.000191787     0.000325051         0.436028        0.866417
                       -0.393459       -0.892921      0.000305112     0.000295241        -0.108388        0.160191      -0.00044595    -0.000531055
                     0.000298976     0.000398291         0.436246        0.866855     -0.000309922    -5.70873e-05        -0.148595        0.156776
281700.6               -0.191479      -0.0295464      7.96255e-05    -0.000291307         -0.39376       -0.892779       8.8319e-05     0.000244752
                    -6.03875e-05    -0.000306678         -0.21445       0.0243925      0.000191799     0.000325042         0.436056        0.866404
                       -0.393487        -0.89291      0.000305136     0.000295235         -0.10838        0.160191     -0.000445999    -0.000531051
                     0.000299002     0.000398284         0.436274        0.866841      -0.00030993     -5.7086e-05        -0.148587        0.156778
281700.7               -0.191475      -0.0295406       7.9622e-05    -0.000291313        -0.393788       -0.892767      8.83133e-05     0.000244773
                    -6.04049e-05    -0.000306667        -0.214445       0.0243992      0.000191811     0.000325034         0.436084        0.866391
                       -0.393515       -0.892898       0.00030516     0.000295228        -0.108372        0.160191     -0.000446048    -0.000531048
                     0.000299027     0.000398276         0.436302        0.866828     -0.000309937    -5.70847e-05         -0.14858        0.156779
281700.8               -0.191472      -0.0295348      7.96186e-05    -0.000291319        -0.393816       -0.892756      8.83076e-05     0.000244795
                    -6.04223e-05    -0.000306656         -0.21444       0.0244059      0.000191823     0.000325025         0.436112        0.866378
                       -0.393543       -0.892887      0.000305184     0.000295222        -0.108364        0.160191     -0.000446097    -0.000531044
                     0.000299052     0.000398269          0.43633        0.866815     -0.000309945    -5.70833e-05        -0.148573        0.156781
281700.9               -0.191468       -0.029529      7.96152e-05    -0.000291325        -0.393844       -0.892745      8.83019e-05     0.000244816
                    -6.04396e-05    -0.000306646        -0.214436       0.0244126      0.000191835     0.000325017          0.43614        0.866364
                       -0.393571       -0.892876      0.000305208     0.000295216        -0.108356        0.160191     -0.000446145    -0.000531041
                     0.000299077     0.000398261         0.436359        0.866802     -0.000309952     -5.7082e-05        -0.148565        0.156783
281701                 -0.191465      -0.0295232      7.96118e-05    -0.000291331        -0.393872       -0.892733      8.82962e-05     0.000244837
                     -6.0457e-05    -0.000306635        -0.214431       0.0244192      0.000191847     0.000325008         0.436168        0.866351
                       -0.393599       -0.892864      0.000305232     0.000295209        -0.108348        0.160191     -0.000446194    -0.000531037
                     0.000299102     0.000398254         0.436387        0.866789      -0.00030996    -5.70806e-05        -0.148558        0.156785
281701.1               -0.191461      -0.0295175      7.96084e-05    -0.000291337          -0.3939       -0.892722      8.82905e-05     0.000244858
                    -6.04743e-05    -0.000306624        -0.214426       0.0244259      0.000191859        0.000325         0.436196        0.866338
                       -0.393627       -0.892853      0.000305256     0.000295203         -0.10834        0.160192     -0.000446243    -0.000531033
                     0.000299128     0.000398246         0.436415        0.866775     -0.000309967    -5.70793e-05         -0.14855        0.156786
281701.2               -0.191458      -0.0295117      7.96049e-05    -0.000291343        -0.393928       -0.892711      8.82848e-05     0.000244879
                    -6.04916e-05    -0.000306614        -0.214422       0.0244326      0.000191871     0.000324991         0.436224        0.866325
                       -0.393655       -0.892841       0.00030528     0.000295197        -0.108332        0.160192     -0.000446292     -0.00053103
                     0.000299153     0.000398239         0.436443        0.866762     -0.000309975    -5.70779e-05        -0.148543        0.156788
281701.3               -0.191454      -0.0295059      7.96015e-05    -0.000291349        -0.393956       -0.892699      8.82791e-05     0.000244901
                     -6.0509e-05    -0.000306603        -0.214417       0.0244393      0.000191883     0.000324983         0.436252        0.866312
                       -0.393683        -0.89283      0.000305304     0.000295191        -0.108324        0.160192     -0.000446341    -0.000531026
                     0.000299178     0.000398231         0.436471        0.866749     -0.000309982    -5.70766e-05        -0.148536         0.15679
281701.4               -0.191451      -0.0295001      7.95981e-05    -0.000291355        -0.393984       -0.892688      8.82734e-05     0.000244922
                    -6.05263e-05    -0.000306592        -0.214413        0.024446      0.000191895     0.000324974          0.43628        0.866298
                       -0.393711       -0.892819      0.000305328     0.000295184        -0.108316        0.160192     -0.000446389    -0.000531023
                     0.000299203     0.000398224         0.436499        0.866736      -0.00030999    -5.70752e-05        -0.148528        0.156791
281701.5               -0.191447      -0.0294943      7.95946e-05    -0.000291362        -0.394012       -0.892676      8.82677e-05     0.000244943
                    -6.05437e-05    -0.000306582        -0.214408       0.0244527      0.000191907     0.000324965         0.436308        0.866285
                       -0.393739       -0.892807      0.000305352     0.000295178        -0.108308        0.160192     -0.000446438    -0.000531019
                     0.000299228     0.000398216         0.436527        0.866722     -0.000309998    -5.70739e-05        -0.148521        0.156793
281701.6               -0.191444      -0.0294886      7.95912e-05    -0.000291368         -0.39404       -0.892665       8.8262e-05     0.000244964
                     -6.0561e-05    -0.000306571        -0.214403       0.0244594      0.000191919     0.000324957         0.436337        0.866272
                       -0.393767       -0.892796      0.000305376     0.000295172          -0.1083        0.160192     -0.000446487    -0.000531015
                     0.000299254     0.000398209         0.436555        0.866709     -0.000310005    -5.70725e-05        -0.148513        0.156795
281701.7                -0.19144      -0.0294828      7.95878e-05    -0.000291374        -0.394068       -0.892654      8.82563e-05     0.000244985
                    -6.05783e-05    -0.000306561        -0.214399       0.0244661      0.000191931     0.000324948         0.436365        0.866259
                       -0.393795       -0.892784        0.0003054     0.000295165        -0.108292        0.160192     -0.000446536    -0.000531012
                     0.000299279     0.000398201         0.436583        0.866696     -0.000310013    -5.70712e-05        -0.148506        0.156796
281701.8               -0.191437       -0.029477      7.95843e-05     -0.00029138        -0.394096       -0.892642      8.82506e-05     0.000245006
                    -6.05957e-05     -0.00030655        -0.214394       0.0244727      0.000191943      0.00032494         0.436393        0.866246
                       -0.393823       -0.892773      0.000305424     0.000295159        -0.108284        0.160192     -0.000446584    -0.000531008
                     0.000299304     0.000398194         0.436611        0.866683      -0.00031002    -5.70698e-05        -0.148499        0.156798
281701.9               -0.191433      -0.0294712      7.95809e-05    -0.000291386        -0.394124       -0.892631      8.82449e-05     0.000245028
                     -6.0613e-05    -0.000306539        -0.214389       0.0244794      0.000191955     0.000324931         0.436421        0.866232
                       -0.393851       -0.892762      0.000305448     0.000295153        -0.108276        0.160193     -0.000446633    -0.000531004
                     0.000299329     0.000398186         0.436639         0.86667     -0.000310028    -5.70685e-05        -0.148491          0.1568
281702                  -0.19143      -0.0294654      7.95774e-05    -0.000291392        -0.394152       -0.892619      8.82393e-05     0.000245049
                    -6.06303e-05    -0.000306529        -0.214385       0.0244861      0.000191967     0.000324923         0.436449        0.866219
                       -0.393879        -0.89275      0.000305472     0.000295146        -0.108268        0.160193     -0.000446682    -0.000531001
                     0.000299354     0.000398179         0.436667        0.866656     -0.000310035    -5.70671e-05        -0.148484        0.156802
281702.1               -0.191426      -0.0294597       7.9574e-05    -0.000291398         -0.39418       -0.892608      8.82336e-05      0.00024507
                    -6.06476e-05    -0.000306518         -0.21438       0.0244928      0.000191979     0.000324914         0.436477        0.866206
                       -0.393907       -0.892739      0.000305496      0.00029514         -0.10826        0.160193      -0.00044673    -0.000530997
                      0.00029938     0.000398171         0.436695        0.866643     -0.000310043    -5.70657e-05        -0.148476        0.156803
281702.2               -0.191423      -0.0294539      7.95705e-05    -0.000291405        -0.394208       -0.892597      8.82279e-05     0.000245091
                     -6.0665e-05    -0.000306507        -0.214376       0.0244995      0.000191991     0.000324906         0.436505        0.866193
                       -0.393935       -0.892727       0.00030552     0.000295134        -0.108252        0.160193     -0.000446779    -0.000530994
                     0.000299405     0.000398164         0.436723         0.86663     -0.000310051    -5.70644e-05        -0.148469        0.156805
281702.3               -0.191419      -0.0294481      7.95671e-05    -0.000291411        -0.394236       -0.892585      8.82222e-05     0.000245112
                    -6.06823e-05    -0.000306497        -0.214371       0.0245062      0.000192003     0.000324897         0.436533        0.866179
                       -0.393963       -0.892716      0.000305544     0.000295128        -0.108244        0.160193     -0.000446828     -0.00053099
                      0.00029943     0.000398156         0.436752        0.866617     -0.000310058     -5.7063e-05        -0.148462        0.156807
281702.4               -0.191416      -0.0294423      7.95636e-05    -0.000291417        -0.394264       -0.892574      8.82166e-05     0.000245134
                    -6.06996e-05    -0.000306486        -0.214366       0.0245129      0.000192015     0.000324888         0.436561        0.866166
                       -0.393991       -0.892704      0.000305568     0.000295121        -0.108235        0.160193     -0.000446877    -0.000530986
                     0.000299455     0.000398149          0.43678        0.866603     -0.000310066    -5.70617e-05        -0.148454        0.156808
281702.5               -0.191412      -0.0294366      7.95601e-05    -0.000291423        -0.394292       -0.892562      8.82109e-05     0.000245155
                    -6.07169e-05    -0.000306475        -0.214362       0.0245195      0.000192027      0.00032488         0.436589        0.866153
                       -0.394019       -0.892693      0.000305592     0.000295115        -0.108227        0.160193     -0.000446925    -0.000530983
                      0.00029948     0.000398141         0.436808         0.86659     -0.000310073    -5.70603e-05        -0.148447         0.15681
281702.6               -0.191409      -0.0294308      7.95567e-05    -0.000291429         -0.39432       -0.892551      8.82052e-05     0.000245176
                    -6.07342e-05    -0.000306465        -0.214357       0.0245262      0.000192039     0.000324871         0.436617         0.86614
                       -0.394047       -0.892682      0.000305616     0.000295109        -0.108219        0.160193     -0.000446974    -0.000530979
                     0.000299505     0.000398134         0.436836        0.866577     -0.000310081    -5.70589e-05        -0.148439        0.156812
281702.7               -0.191405       -0.029425      7.95532e-05    -0.000291435        -0.394348       -0.892539      8.81995e-05     0.000245197
                    -6.07515e-05    -0.000306454        -0.214352       0.0245329      0.000192051     0.000324863         0.436645        0.866127
                       -0.394075        -0.89267       0.00030564     0.000295102        -0.108211        0.160194     -0.000447023    -0.000530975
                     0.000299531     0.000398126         0.436864        0.866564     -0.000310088    -5.70576e-05        -0.148432        0.156813
281702.8               -0.191402      -0.0294192      7.95497e-05    -0.000291442        -0.394376       -0.892528      8.81939e-05     0.000245218
                    -6.07688e-05    -0.000306444        -0.214348       0.0245396      0.000192063     0.000324854         0.436674        0.866113
                       -0.394103       -0.892659      0.000305664     0.000295096        -0.108203        0.160194     -0.000447071    -0.000530972
                     0.000299556     0.000398119         0.436892         0.86655     -0.000310096    -5.70562e-05        -0.148424        0.156815
281702.9               -0.191398      -0.0294135      7.95463e-05    -0.000291448        -0.394404       -0.892517      8.81882e-05      0.00024524
                    -6.07862e-05    -0.000306433        -0.214343       0.0245463      0.000192075     0.000324846         0.436702          0.8661
                       -0.394131       -0.892647      0.000305688      0.00029509        -0.108195        0.160194      -0.00044712    -0.000530968
                     0.000299581     0.000398111          0.43692        0.866537     -0.000310103    -5.70548e-05        -0.148417        0.156817
281703                 -0.191395      -0.0294077      7.95428e-05    -0.000291454        -0.394432       -0.892505      8.81826e-05     0.000245261
                    -6.08035e-05    -0.000306422        -0.214339        0.024553      0.000192087     0.000324837          0.43673        0.866087
                       -0.394159       -0.892636      0.000305712     0.000295083        -0.108187        0.160194     -0.000447169    -0.000530964
                     0.000299606     0.000398104         0.436948        0.866524     -0.000310111    -5.70535e-05         -0.14841        0.156819
281703.1               -0.191391      -0.0294019      7.95393e-05     -0.00029146         -0.39446       -0.892494      8.81769e-05     0.000245282
                    -6.08208e-05    -0.000306412        -0.214334       0.0245596      0.000192099     0.000324828         0.436758        0.866074
                       -0.394187       -0.892625      0.000305736     0.000295077        -0.108179        0.160194     -0.000447218    -0.000530961
