! TOUCHSTONE file generated by CST MICROWAVE STUDIO
! Date and time: Wed Oct  8 06:55:14 2025
! Project name: Teste_Macro_Metasurface_Nanopilar.cst
! Parameters = {H=600; L_x=105; L_y=185; Lambda=1064; Max_L=200; Min_L=70; PathPara=1; Phi=0; Step_L=10; Theta=0; p=520; phaseX=180; phaseY=0}
! Header version: 2018
! Port assignment regex: !\s*Touchstone port\s*([0-9]+)\s*=\s*(CST MWS port|CST DS port)\s*([0-9]+|Zmin|Zmax)\s*\(\"(.*)\"\)(\s*mode\s*([0-9]+))?.*
! Touchstone port assignment:
! Touchstone port 1 = CST MWS port Zmax ("") mode 1
! Touchstone port 2 = CST MWS port Zmax ("") mode 2
! Touchstone port 3 = CST MWS port Zmin ("") mode 1
! Touchstone port 4 = CST MWS port Zmin ("") mode 2
! S-Parameters are not renormalized. Each port impedance will be approximated by the real part at minimum frequency. The values are described via the [Reference] keyword.
! Default impedance is overridden by [Reference]
[Version] 2.0
# GHz S RI R 376.73
[Number of Ports] 4
[Reference]
376.73 376.73 376.73 376.73 
[Number of Frequencies] 1001
[Network Data]
281700                  -0.55009        0.444354      0.000173566     3.22787e-05        -0.244438       -0.641036       0.00010337    -6.15417e-05
                    -2.69016e-06    -4.82629e-07       -0.0238307       -0.116848      5.09191e-05     3.63482e-05         0.913758       -0.364476
                       -0.243994       -0.640888      0.000151898     9.87532e-05        -0.705095      -0.0030542      4.20364e-05    -8.75398e-05
                    -5.77452e-05    -9.52624e-05         0.913459        -0.36496      0.000144262    -2.52723e-05       -0.0670828      -0.0985874
281700.1               -0.550068        0.444366      0.000173572     3.22635e-05        -0.244466       -0.641036      0.000103368    -6.15589e-05
                    -2.69037e-06    -4.80047e-07       -0.0238366       -0.116853      5.09023e-05     3.63545e-05         0.913744       -0.364507
                       -0.244022       -0.640888      0.000151889     9.87547e-05        -0.705085     -0.00302154      4.20208e-05    -8.75304e-05
                    -5.77374e-05    -9.52688e-05         0.913446       -0.364992      0.000144247    -2.52728e-05       -0.0670886      -0.0985904
281700.2               -0.550046        0.444377      0.000173578     3.22484e-05        -0.244495       -0.641036      0.000103367    -6.15762e-05
                    -2.69057e-06    -4.77464e-07       -0.0238425       -0.116858      5.08854e-05     3.63608e-05         0.913731       -0.364539
                        -0.24405       -0.640888      0.000151881     9.87562e-05        -0.705076     -0.00298887      4.20052e-05     -8.7521e-05
                    -5.77296e-05    -9.52752e-05         0.913433       -0.365023      0.000144232    -2.52734e-05       -0.0670945      -0.0985935
281700.3               -0.550025        0.444389      0.000173583     3.22332e-05        -0.244523       -0.641036      0.000103366    -6.15935e-05
                    -2.69078e-06     -4.7488e-07       -0.0238485       -0.116863      5.08686e-05     3.63671e-05         0.913718        -0.36457
                       -0.244079       -0.640888      0.000151873     9.87577e-05        -0.705067     -0.00295621      4.19896e-05    -8.75116e-05
                    -5.77219e-05    -9.52815e-05          0.91342       -0.365055      0.000144217     -2.5274e-05       -0.0671004      -0.0985966
281700.4               -0.550003          0.4444      0.000173589     3.22181e-05        -0.244551       -0.641037      0.000103365    -6.16108e-05
                    -2.69098e-06    -4.72295e-07       -0.0238544       -0.116867      5.08518e-05     3.63734e-05         0.913705       -0.364602
                       -0.244107       -0.640889      0.000151864     9.87592e-05        -0.705057     -0.00292355       4.1974e-05    -8.75022e-05
                    -5.77141e-05    -9.52879e-05         0.913406       -0.365086      0.000144201    -2.52745e-05       -0.0671063      -0.0985996
281700.5               -0.549981        0.444412      0.000173595     3.22029e-05         -0.24458       -0.641037      0.000103364    -6.16281e-05
                    -2.69118e-06    -4.69708e-07       -0.0238603       -0.116872      5.08349e-05     3.63797e-05         0.913691       -0.364633
                       -0.244135       -0.640889      0.000151856     9.87607e-05        -0.705048     -0.00289089      4.19584e-05    -8.74928e-05
                    -5.77063e-05    -9.52942e-05         0.913393       -0.365117      0.000144186    -2.52751e-05       -0.0671122      -0.0986027
281700.6                -0.54996        0.444423      0.000173601     3.21877e-05        -0.244608       -0.641037      0.000103363    -6.16454e-05
                    -2.69137e-06    -4.67121e-07       -0.0238662       -0.116877      5.08181e-05      3.6386e-05         0.913678       -0.364665
                       -0.244164       -0.640889      0.000151847     9.87622e-05        -0.705038     -0.00285823      4.19428e-05    -8.74833e-05
                    -5.76985e-05    -9.53006e-05          0.91338       -0.365149      0.000144171    -2.52757e-05        -0.067118      -0.0986057
281700.7               -0.549938        0.444434      0.000173607     3.21726e-05        -0.244636       -0.641037      0.000103361    -6.16627e-05
                    -2.69157e-06    -4.64532e-07       -0.0238722       -0.116882      5.08013e-05     3.63923e-05         0.913665       -0.364696
                       -0.244192       -0.640889      0.000151839     9.87637e-05        -0.705029     -0.00282557      4.19272e-05    -8.74739e-05
                    -5.76908e-05     -9.5307e-05         0.913366        -0.36518      0.000144156    -2.52763e-05       -0.0671239      -0.0986088
281700.8               -0.549916        0.444446      0.000173612     3.21574e-05        -0.244665       -0.641038       0.00010336      -6.168e-05
                    -2.69176e-06    -4.61942e-07       -0.0238781       -0.116886      5.07846e-05     3.63986e-05         0.913652       -0.364728
                       -0.244221       -0.640889      0.000151831     9.87652e-05         -0.70502     -0.00279291      4.19116e-05    -8.74645e-05
                     -5.7683e-05    -9.53133e-05         0.913353       -0.365212      0.000144141    -2.52768e-05       -0.0671298      -0.0986119
281700.9               -0.549894        0.444457      0.000173618     3.21423e-05        -0.244693       -0.641038      0.000103359    -6.16973e-05
                    -2.69195e-06    -4.59351e-07        -0.023884       -0.116891      5.07678e-05      3.6405e-05         0.913638       -0.364759
                       -0.244249        -0.64089      0.000151822     9.87667e-05         -0.70501     -0.00276025      4.18961e-05     -8.7455e-05
                    -5.76752e-05    -9.53197e-05          0.91334       -0.365243      0.000144125    -2.52774e-05       -0.0671357      -0.0986149
281701                 -0.549873        0.444469      0.000173624     3.21271e-05        -0.244721       -0.641038      0.000103358    -6.17146e-05
                    -2.69213e-06    -4.56758e-07       -0.0238899       -0.116896       5.0751e-05     3.64113e-05         0.913625        -0.36479
                       -0.244277        -0.64089      0.000151814     9.87682e-05        -0.705001      -0.0027276      4.18805e-05    -8.74456e-05
                    -5.76675e-05     -9.5326e-05         0.913326       -0.365275       0.00014411    -2.52779e-05       -0.0671416       -0.098618
281701.1               -0.549851         0.44448       0.00017363      3.2112e-05         -0.24475       -0.641038      0.000103357    -6.17319e-05
                    -2.69232e-06    -4.54165e-07       -0.0238959       -0.116901      5.07343e-05     3.64176e-05         0.913612       -0.364822
                       -0.244306        -0.64089      0.000151806     9.87697e-05        -0.704991     -0.00269495       4.1865e-05    -8.74362e-05
                    -5.76597e-05    -9.53324e-05         0.913313       -0.365306      0.000144095    -2.52785e-05       -0.0671474      -0.0986211
281701.2               -0.549829        0.444492      0.000173635     3.20968e-05        -0.244778       -0.641038      0.000103356    -6.17492e-05
                     -2.6925e-06     -4.5157e-07       -0.0239018       -0.116905      5.07175e-05      3.6424e-05         0.913599       -0.364853
                       -0.244334        -0.64089      0.000151797     9.87712e-05        -0.704982     -0.00266229      4.18494e-05    -8.74267e-05
                    -5.76519e-05    -9.53387e-05           0.9133       -0.365337       0.00014408    -2.52791e-05       -0.0671533      -0.0986241
281701.3               -0.549807        0.444503      0.000173641     3.20816e-05        -0.244806       -0.641038      0.000103354    -6.17665e-05
                    -2.69268e-06    -4.48974e-07       -0.0239077        -0.11691      5.07008e-05     3.64303e-05         0.913585       -0.364885
                       -0.244362        -0.64089      0.000151789     9.87727e-05        -0.704972     -0.00262964      4.18339e-05    -8.74173e-05
                    -5.76442e-05    -9.53451e-05         0.913286       -0.365369      0.000144065    -2.52796e-05       -0.0671592      -0.0986272
281701.4               -0.549786        0.444515      0.000173647     3.20665e-05        -0.244835       -0.641039      0.000103353    -6.17838e-05
                    -2.69286e-06    -4.46377e-07       -0.0239136       -0.116915      5.06841e-05     3.64367e-05         0.913572       -0.364916
                       -0.244391       -0.640891      0.000151781     9.87742e-05        -0.704963     -0.00259699      4.18184e-05    -8.74078e-05
                    -5.76364e-05    -9.53514e-05         0.913273         -0.3654       0.00014405    -2.52802e-05       -0.0671651      -0.0986303
281701.5               -0.549764        0.444526      0.000173653     3.20513e-05        -0.244863       -0.641039      0.000103352    -6.18011e-05
                    -2.69303e-06    -4.43779e-07       -0.0239196        -0.11692      5.06674e-05      3.6443e-05         0.913559       -0.364948
                       -0.244419       -0.640891      0.000151772     9.87757e-05        -0.704954     -0.00256434      4.18028e-05    -8.73983e-05
                    -5.76286e-05    -9.53578e-05          0.91326       -0.365432      0.000144034    -2.52808e-05        -0.067171      -0.0986333
281701.6               -0.549742        0.444537      0.000173659     3.20361e-05        -0.244892       -0.641039      0.000103351    -6.18184e-05
                     -2.6932e-06     -4.4118e-07       -0.0239255       -0.116924      5.06507e-05     3.64494e-05         0.913546       -0.364979
                       -0.244448       -0.640891      0.000151764     9.87772e-05        -0.704944      -0.0025317      4.17873e-05    -8.73889e-05
                    -5.76209e-05    -9.53641e-05         0.913247       -0.365463      0.000144019    -2.52813e-05       -0.0671769      -0.0986364
281701.7                -0.54972        0.444549      0.000173664      3.2021e-05         -0.24492       -0.641039       0.00010335    -6.18357e-05
                    -2.69337e-06    -4.38579e-07       -0.0239314       -0.116929       5.0634e-05     3.64558e-05         0.913532       -0.365011
                       -0.244476       -0.640891      0.000151755     9.87787e-05        -0.704935     -0.00249905      4.17718e-05    -8.73794e-05
                    -5.76131e-05    -9.53705e-05         0.913233       -0.365495      0.000144004    -2.52819e-05       -0.0671827      -0.0986394
281701.8               -0.549699         0.44456       0.00017367     3.20058e-05        -0.244948       -0.641039      0.000103348     -6.1853e-05
                    -2.69354e-06    -4.35978e-07       -0.0239374       -0.116934      5.06173e-05     3.64621e-05         0.913519       -0.365042
                       -0.244504       -0.640891      0.000151747     9.87802e-05        -0.704925      -0.0024664      4.17563e-05      -8.737e-05
                    -5.76054e-05    -9.53768e-05          0.91322       -0.365526      0.000143989    -2.52824e-05       -0.0671886      -0.0986425
281701.9               -0.549677        0.444572      0.000173676     3.19906e-05        -0.244977        -0.64104      0.000103347    -6.18704e-05
                     -2.6937e-06    -4.33375e-07       -0.0239433       -0.116939      5.06006e-05     3.64685e-05         0.913506       -0.365073
                       -0.244533       -0.640891      0.000151739     9.87817e-05        -0.704916     -0.00243376      4.17408e-05    -8.73605e-05
                    -5.75976e-05    -9.53832e-05         0.913207       -0.365557      0.000143974     -2.5283e-05       -0.0671945      -0.0986456
281702                 -0.549655        0.444583      0.000173682     3.19755e-05        -0.245005        -0.64104      0.000103346    -6.18877e-05
                    -2.69387e-06    -4.30771e-07       -0.0239492       -0.116943       5.0584e-05     3.64749e-05         0.913493       -0.365105
                       -0.244561       -0.640892       0.00015173     9.87832e-05        -0.704906     -0.00240112      4.17254e-05     -8.7351e-05
                    -5.75898e-05    -9.53895e-05         0.913193       -0.365589      0.000143959    -2.52836e-05       -0.0672004      -0.0986486
281702.1               -0.549634        0.444595      0.000173687     3.19603e-05        -0.245033        -0.64104      0.000103345     -6.1905e-05
                    -2.69403e-06    -4.28166e-07       -0.0239551       -0.116948      5.05673e-05     3.64813e-05         0.913479       -0.365136
                       -0.244589       -0.640892      0.000151722     9.87847e-05        -0.704897     -0.00236848      4.17099e-05    -8.73415e-05
                    -5.75821e-05    -9.53959e-05          0.91318        -0.36562      0.000143944    -2.52841e-05       -0.0672063      -0.0986517
281702.2               -0.549612        0.444606      0.000173693     3.19451e-05        -0.245062        -0.64104      0.000103344    -6.19223e-05
                    -2.69418e-06     -4.2556e-07       -0.0239611       -0.116953      5.05507e-05     3.64877e-05         0.913466       -0.365168
                       -0.244618       -0.640892      0.000151714     9.87862e-05        -0.704887     -0.00233584      4.16944e-05     -8.7332e-05
                    -5.75743e-05    -9.54022e-05         0.913167       -0.365652      0.000143928    -2.52847e-05       -0.0672122      -0.0986547
281702.3                -0.54959        0.444617      0.000173699       3.193e-05         -0.24509        -0.64104      0.000103343    -6.19396e-05
                    -2.69434e-06    -4.22952e-07        -0.023967       -0.116958      5.05341e-05     3.64941e-05         0.913453       -0.365199
                       -0.244646       -0.640892      0.000151705     9.87877e-05        -0.704878      -0.0023032       4.1679e-05    -8.73226e-05
                    -5.75665e-05    -9.54086e-05         0.913153       -0.365683      0.000143913    -2.52852e-05        -0.067218      -0.0986578
281702.4               -0.549568        0.444629      0.000173705     3.19148e-05        -0.245118       -0.641041      0.000103341     -6.1957e-05
                    -2.69449e-06    -4.20344e-07       -0.0239729       -0.116963      5.05174e-05     3.65005e-05          0.91344       -0.365231
                       -0.244675       -0.640892      0.000151697     9.87892e-05        -0.704869     -0.00227056      4.16635e-05    -8.73131e-05
                    -5.75588e-05    -9.54149e-05          0.91314       -0.365715      0.000143898    -2.52858e-05       -0.0672239      -0.0986609
281702.5               -0.549547         0.44464       0.00017371     3.18996e-05        -0.245147       -0.641041       0.00010334    -6.19743e-05
                    -2.69464e-06    -4.17734e-07       -0.0239789       -0.116967      5.05008e-05     3.65069e-05         0.913426       -0.365262
                       -0.244703       -0.640892      0.000151689     9.87907e-05        -0.704859     -0.00223792      4.16481e-05    -8.73036e-05
                     -5.7551e-05    -9.54213e-05         0.913127       -0.365746      0.000143883    -2.52863e-05       -0.0672298      -0.0986639
281702.6               -0.549525        0.444652      0.000173716     3.18844e-05        -0.245175       -0.641041      0.000103339    -6.19916e-05
                    -2.69479e-06    -4.15124e-07       -0.0239848       -0.116972      5.04842e-05     3.65133e-05         0.913413       -0.365293
                       -0.244731       -0.640893       0.00015168     9.87922e-05         -0.70485     -0.00220529      4.16326e-05    -8.72941e-05
                    -5.75433e-05    -9.54276e-05         0.913113       -0.365777      0.000143868    -2.52869e-05       -0.0672357       -0.098667
281702.7               -0.549503        0.444663      0.000173722     3.18693e-05        -0.245203       -0.641041      0.000103338     -6.2009e-05
                    -2.69493e-06    -4.12512e-07       -0.0239907       -0.116977      5.04677e-05     3.65198e-05           0.9134       -0.365325
                        -0.24476       -0.640893      0.000151672     9.87937e-05         -0.70484     -0.00217265      4.16172e-05    -8.72846e-05
                    -5.75355e-05    -9.54339e-05           0.9131       -0.365809      0.000143853    -2.52874e-05       -0.0672416        -0.09867
281702.8               -0.549481        0.444675      0.000173727     3.18541e-05        -0.245232       -0.641041      0.000103337    -6.20263e-05
                    -2.69508e-06    -4.09899e-07       -0.0239966       -0.116982      5.04511e-05     3.65262e-05         0.913387       -0.365356
                       -0.244788       -0.640893      0.000151664     9.87952e-05        -0.704831     -0.00214002      4.16018e-05    -8.72751e-05
                    -5.75277e-05    -9.54403e-05         0.913087        -0.36584      0.000143838     -2.5288e-05       -0.0672475      -0.0986731
281702.9                -0.54946        0.444686      0.000173733     3.18389e-05         -0.24526       -0.641041      0.000103335    -6.20436e-05
                    -2.69522e-06    -4.07284e-07       -0.0240026       -0.116986      5.04345e-05     3.65326e-05         0.913373       -0.365388
                       -0.244816       -0.640893      0.000151655     9.87967e-05        -0.704821     -0.00210739      4.15864e-05    -8.72656e-05
                      -5.752e-05    -9.54466e-05         0.913073       -0.365872      0.000143823    -2.52885e-05       -0.0672533      -0.0986761
281703                 -0.549438        0.444697      0.000173739     3.18237e-05        -0.245289       -0.641042      0.000103334     -6.2061e-05
                    -2.69535e-06    -4.04669e-07       -0.0240085       -0.116991       5.0418e-05     3.65391e-05          0.91336       -0.365419
                       -0.244845       -0.640893      0.000151647     9.87982e-05        -0.704812     -0.00207476      4.15709e-05    -8.72561e-05
                    -5.75122e-05    -9.54529e-05          0.91306       -0.365903      0.000143808    -2.52891e-05       -0.0672592      -0.0986792
281703.1               -0.549416        0.444709      0.000173745     3.18086e-05        -0.245317       -0.641042      0.000103333    -6.20783e-05
                    -2.69549e-06    -4.02053e-07       -0.0240144       -0.116996      5.04014e-05     3.65455e-05         0.913347       -0.365451
                       -0.244873       -0.640893      0.000151639     9.87997e-05        -0.704802     -0.00204213      4.15555e-05    -8.72465e-05
