! TOUCHSTONE file generated by CST MICROWAVE STUDIO
! Date and time: Wed Oct  8 06:56:47 2025
! Project name: Teste_Macro_Metasurface_Nanopilar.cst
! Parameters = {H=600; L_x=120; L_y=130; Lambda=1064; Max_L=200; Min_L=70; PathPara=1; Phi=0; Step_L=10; Theta=0; p=520; phaseX=180; phaseY=0}
! Header version: 2018
! Port assignment regex: !\s*Touchstone port\s*([0-9]+)\s*=\s*(CST MWS port|CST DS port)\s*([0-9]+|Zmin|Zmax)\s*\(\"(.*)\"\)(\s*mode\s*([0-9]+))?.*
! Touchstone port assignment:
! Touchstone port 1 = CST MWS port Zmax ("") mode 1
! Touchstone port 2 = CST MWS port Zmax ("") mode 2
! Touchstone port 3 = CST MWS port Zmin ("") mode 1
! Touchstone port 4 = CST MWS port Zmin ("") mode 2
! S-Parameters are not renormalized. Each port impedance will be approximated by the real part at minimum frequency. The values are described via the [Reference] keyword.
! Default impedance is overridden by [Reference]
[Version] 2.0
# GHz S RI R 376.73
[Number of Ports] 4
[Reference]
376.73 376.73 376.73 376.73 
[Number of Frequencies] 1001
[Network Data]
281700                 -0.182518       -0.148804     -5.83056e-05    -1.83858e-06         0.245675       -0.932644      0.000268378     0.000257594
                     6.99381e-05     9.35512e-05       -0.0307558        -0.16177      0.000443115    -4.38943e-05         0.716048       -0.664922
                        0.245701       -0.932748      0.000265517     9.20373e-05        -0.233132       0.0410437      0.000238135     -0.00029297
                     0.000351276     0.000345091         0.716054       -0.664776      0.000259372    -0.000182328        -0.161978      -0.0397004
281700.1               -0.182524       -0.148797     -5.83136e-05     -1.8392e-06         0.245645       -0.932652      0.000268381     0.000257585
                     6.99259e-05     9.35429e-05       -0.0307647       -0.161771      0.000443101    -4.39135e-05         0.716025       -0.664946
                        0.245671       -0.932756      0.000265488     9.20266e-05        -0.233131       0.0410493      0.000238123    -0.000292985
                     0.000351277     0.000345075         0.716031         -0.6648      0.000259364    -0.000182344        -0.161982      -0.0396986
281700.2                -0.18253       -0.148789     -5.83217e-05    -1.83981e-06         0.245616        -0.93266      0.000268383     0.000257576
                     6.99136e-05     9.35345e-05       -0.0307737       -0.161772      0.000443088    -4.39326e-05         0.716002        -0.66497
                        0.245642       -0.932764      0.000265459     9.20158e-05         -0.23313        0.041055      0.000238112       -0.000293
                     0.000351279     0.000345059         0.716008       -0.664824      0.000259355    -0.000182359        -0.161985      -0.0396967
281700.3               -0.182535       -0.148782     -5.83297e-05    -1.84043e-06         0.245586       -0.932668      0.000268386     0.000257567
                     6.99013e-05     9.35261e-05       -0.0307827       -0.161773      0.000443074    -4.39518e-05         0.715979       -0.664994
                        0.245612       -0.932772       0.00026543     9.20051e-05        -0.233129       0.0410607        0.0002381    -0.000293015
                     0.000351281     0.000345043         0.715985       -0.664848      0.000259347    -0.000182375        -0.161988      -0.0396949
281700.4               -0.182541       -0.148775     -5.83377e-05    -1.84104e-06         0.245556       -0.932676      0.000268388     0.000257558
                      6.9889e-05     9.35177e-05       -0.0307916       -0.161775       0.00044306     -4.3971e-05         0.715956       -0.665018
                        0.245582       -0.932779      0.000265401     9.19944e-05        -0.233127       0.0410663      0.000238088     -0.00029303
                     0.000351282     0.000345027         0.715962       -0.664872      0.000259339    -0.000182391        -0.161991      -0.0396931
281700.5               -0.182547       -0.148768     -5.83458e-05    -1.84165e-06         0.245527       -0.932684       0.00026839     0.000257549
                     6.98768e-05     9.35094e-05       -0.0308006       -0.161776      0.000443046    -4.39901e-05         0.715933       -0.665042
                        0.245553       -0.932787      0.000265372     9.19837e-05        -0.233126        0.041072      0.000238076    -0.000293045
                     0.000351284     0.000345011         0.715939       -0.664896       0.00025933    -0.000182407        -0.161994      -0.0396913
281700.6               -0.182552       -0.148761     -5.83538e-05    -1.84226e-06         0.245497       -0.932691      0.000268393      0.00025754
                     6.98645e-05      9.3501e-05       -0.0308095       -0.161777      0.000443033    -4.40093e-05          0.71591       -0.665066
                        0.245523       -0.932795      0.000265343      9.1973e-05        -0.233125       0.0410776      0.000238064     -0.00029306
                     0.000351286     0.000344995         0.715916        -0.66492      0.000259322    -0.000182422        -0.161998      -0.0396895
281700.7               -0.182558       -0.148753     -5.83618e-05    -1.84287e-06         0.245467       -0.932699      0.000268395     0.000257531
                     6.98522e-05     9.34927e-05       -0.0308185       -0.161778      0.000443019    -4.40285e-05         0.715887        -0.66509
                        0.245493       -0.932803      0.000265314     9.19623e-05        -0.233124       0.0410833      0.000238052    -0.000293076
                     0.000351287     0.000344979         0.715893       -0.664945      0.000259313    -0.000182438        -0.162001      -0.0396877
281700.8               -0.182564       -0.148746     -5.83699e-05    -1.84348e-06         0.245438       -0.932707      0.000268398     0.000257522
                     6.98399e-05     9.34843e-05       -0.0308275       -0.161779      0.000443005    -4.40476e-05         0.715864       -0.665114
                        0.245464       -0.932811      0.000265285     9.19516e-05        -0.233123       0.0410889       0.00023804    -0.000293091
                     0.000351289     0.000344963         0.715871       -0.664969      0.000259305    -0.000182454        -0.162004      -0.0396858
281700.9               -0.182569       -0.148739     -5.83779e-05    -1.84408e-06         0.245408       -0.932715        0.0002684     0.000257513
                     6.98276e-05     9.34759e-05       -0.0308364        -0.16178      0.000442991    -4.40668e-05         0.715841       -0.665138
                        0.245434       -0.932819      0.000265256     9.19409e-05        -0.233121       0.0410946      0.000238029    -0.000293106
                     0.000351291     0.000344947         0.715848       -0.664993      0.000259297     -0.00018247        -0.162007       -0.039684
281701                 -0.182575       -0.148732     -5.83859e-05    -1.84469e-06         0.245378       -0.932723      0.000268403     0.000257504
                     6.98154e-05     9.34676e-05       -0.0308454       -0.161781      0.000442978     -4.4086e-05         0.715818       -0.665162
                        0.245404       -0.932827      0.000265227     9.19302e-05         -0.23312       0.0411002      0.000238017    -0.000293121
                     0.000351292     0.000344931         0.715825       -0.665017      0.000259288    -0.000182485        -0.162011      -0.0396822
281701.1               -0.182581       -0.148724      -5.8394e-05    -1.84529e-06         0.245348       -0.932731      0.000268405     0.000257495
                     6.98031e-05     9.34592e-05       -0.0308544       -0.161782      0.000442964    -4.41051e-05         0.715795       -0.665186
                        0.245375       -0.932835      0.000265198     9.19195e-05        -0.233119       0.0411059      0.000238005    -0.000293136
                     0.000351294     0.000344915         0.715802       -0.665041       0.00025928    -0.000182501        -0.162014      -0.0396804
281701.2               -0.182586       -0.148717      -5.8402e-05    -1.84589e-06         0.245319       -0.932739      0.000268408     0.000257486
                     6.97908e-05     9.34509e-05       -0.0308633       -0.161784       0.00044295    -4.41243e-05         0.715772        -0.66521
                        0.245345       -0.932843      0.000265169     9.19088e-05        -0.233118       0.0411116      0.000237993    -0.000293151
                     0.000351296     0.000344899         0.715779       -0.665065      0.000259272    -0.000182517        -0.162017      -0.0396786
281701.3               -0.182592        -0.14871       -5.841e-05    -1.84649e-06         0.245289       -0.932747       0.00026841     0.000257477
                     6.97785e-05     9.34425e-05       -0.0308723       -0.161785      0.000442936    -4.41435e-05         0.715749       -0.665234
                        0.245315        -0.93285       0.00026514     9.18981e-05        -0.233117       0.0411172      0.000237981    -0.000293166
                     0.000351297     0.000344883         0.715756       -0.665089      0.000259263    -0.000182533         -0.16202      -0.0396768
281701.4               -0.182598       -0.148703     -5.84181e-05    -1.84709e-06         0.245259       -0.932754      0.000268413     0.000257468
                     6.97662e-05     9.34342e-05       -0.0308812       -0.161786      0.000442923    -4.41626e-05         0.715727       -0.665258
                        0.245286       -0.932858      0.000265111     9.18874e-05        -0.233115       0.0411229      0.000237969    -0.000293181
                     0.000351299     0.000344868         0.715733       -0.665113      0.000259255    -0.000182549        -0.162023      -0.0396749
281701.5               -0.182603       -0.148696     -5.84261e-05    -1.84769e-06          0.24523       -0.932762      0.000268415     0.000257458
                     6.97539e-05     9.34259e-05       -0.0308902       -0.161787      0.000442909    -4.41818e-05         0.715704       -0.665282
                        0.245256       -0.932866      0.000265082     9.18767e-05        -0.233114       0.0411285      0.000237957    -0.000293196
                       0.0003513     0.000344852          0.71571       -0.665137      0.000259246    -0.000182565        -0.162027      -0.0396731
281701.6               -0.182609       -0.148688     -5.84341e-05    -1.84829e-06           0.2452        -0.93277      0.000268418     0.000257449
                     6.97417e-05     9.34175e-05       -0.0308992       -0.161788      0.000442895     -4.4201e-05         0.715681       -0.665306
                        0.245226       -0.932874      0.000265053      9.1866e-05        -0.233113       0.0411342      0.000237946    -0.000293211
                     0.000351302     0.000344835         0.715687       -0.665161      0.000259238     -0.00018258         -0.16203      -0.0396713
281701.7               -0.182615       -0.148681     -5.84422e-05    -1.84888e-06          0.24517       -0.932778       0.00026842      0.00025744
                     6.97294e-05     9.34092e-05       -0.0309081       -0.161789      0.000442881    -4.42201e-05         0.715658        -0.66533
                        0.245196       -0.932882      0.000265025     9.18553e-05        -0.233112       0.0411398      0.000237934    -0.000293226
                     0.000351304     0.000344819         0.715664       -0.665185       0.00025923    -0.000182596        -0.162033      -0.0396695
281701.8                -0.18262       -0.148674     -5.84502e-05    -1.84947e-06         0.245141       -0.932786      0.000268423     0.000257431
                     6.97171e-05     9.34009e-05       -0.0309171        -0.16179      0.000442868    -4.42393e-05         0.715635       -0.665354
                        0.245167        -0.93289      0.000264996     9.18447e-05         -0.23311       0.0411455      0.000237922    -0.000293242
                     0.000351305     0.000344803         0.715641       -0.665209      0.000259221    -0.000182612        -0.162036      -0.0396677
281701.9               -0.182626       -0.148667     -5.84582e-05    -1.85006e-06         0.245111       -0.932794      0.000268425     0.000257422
                     6.97048e-05     9.33925e-05       -0.0309261       -0.161792      0.000442854    -4.42584e-05         0.715612       -0.665378
                        0.245137       -0.932898      0.000264967      9.1834e-05        -0.233109       0.0411512       0.00023791    -0.000293257
                     0.000351307     0.000344787         0.715618       -0.665233      0.000259213    -0.000182628         -0.16204      -0.0396658
281702                 -0.182632       -0.148659     -5.84663e-05    -1.85065e-06         0.245081       -0.932802      0.000268428     0.000257413
                     6.96925e-05     9.33842e-05        -0.030935       -0.161793       0.00044284    -4.42776e-05         0.715589       -0.665402
                        0.245107       -0.932906      0.000264938     9.18233e-05        -0.233108       0.0411568      0.000237898    -0.000293272
                     0.000351309     0.000344771         0.715595       -0.665257      0.000259204    -0.000182644        -0.162043       -0.039664
281702.1               -0.182637       -0.148652     -5.84743e-05    -1.85124e-06         0.245051        -0.93281       0.00026843     0.000257404
                     6.96802e-05     9.33759e-05        -0.030944       -0.161794      0.000442826    -4.42968e-05         0.715566       -0.665426
                        0.245078       -0.932914      0.000264909     9.18126e-05        -0.233107       0.0411625      0.000237886    -0.000293287
                      0.00035131     0.000344755         0.715573       -0.665281      0.000259196     -0.00018266        -0.162046      -0.0396622
281702.2               -0.182643       -0.148645     -5.84823e-05    -1.85183e-06         0.245022       -0.932817      0.000268433     0.000257395
                      6.9668e-05     9.33676e-05       -0.0309529       -0.161795      0.000442813    -4.43159e-05         0.715543        -0.66545
                        0.245048       -0.932921       0.00026488      9.1802e-05        -0.233106       0.0411681      0.000237874    -0.000293302
                     0.000351312     0.000344739          0.71555       -0.665305      0.000259187    -0.000182676        -0.162049      -0.0396604
281702.3               -0.182649       -0.148638     -5.84904e-05    -1.85242e-06         0.244992       -0.932825      0.000268435     0.000257386
                     6.96557e-05     9.33592e-05       -0.0309619       -0.161796      0.000442799    -4.43351e-05          0.71552       -0.665474
                        0.245018       -0.932929      0.000264851     9.17913e-05        -0.233104       0.0411738      0.000237863    -0.000293317
                     0.000351314     0.000344723         0.715527       -0.665329      0.000259179    -0.000182692        -0.162052      -0.0396586
281702.4               -0.182654       -0.148631     -5.84984e-05      -1.853e-06         0.244962       -0.932833      0.000268438     0.000257377
                     6.96434e-05     9.33509e-05       -0.0309709       -0.161797      0.000442785    -4.43542e-05         0.715497       -0.665498
                        0.244989       -0.932937      0.000264822     9.17806e-05        -0.233103       0.0411794      0.000237851    -0.000293332
                     0.000351315     0.000344707         0.715504       -0.665353       0.00025917    -0.000182708        -0.162056      -0.0396567
281702.5                -0.18266       -0.148623     -5.85064e-05    -1.85359e-06         0.244933       -0.932841       0.00026844     0.000257368
                     6.96311e-05     9.33426e-05       -0.0309798       -0.161798      0.000442771    -4.43734e-05         0.715474       -0.665522
                        0.244959       -0.932945      0.000264793       9.177e-05        -0.233102       0.0411851      0.000237839    -0.000293347
                     0.000351317     0.000344691         0.715481       -0.665377      0.000259162    -0.000182724        -0.162059      -0.0396549
281702.6               -0.182666       -0.148616     -5.85144e-05    -1.85417e-06         0.244903       -0.932849      0.000268443     0.000257359
                     6.96188e-05     9.33343e-05       -0.0309888         -0.1618      0.000442757    -4.43925e-05         0.715451       -0.665546
                        0.244929       -0.932953      0.000264764     9.17593e-05        -0.233101       0.0411908      0.000237827    -0.000293362
                     0.000351318     0.000344675         0.715458       -0.665401      0.000259154     -0.00018274        -0.162062      -0.0396531
281702.7               -0.182671       -0.148609     -5.85225e-05    -1.85475e-06         0.244873       -0.932857      0.000268445      0.00025735
                     6.96065e-05      9.3326e-05       -0.0309978       -0.161801      0.000442744    -4.44117e-05         0.715428        -0.66557
                          0.2449       -0.932961      0.000264735     9.17486e-05        -0.233099       0.0411964      0.000237815    -0.000293377
                      0.00035132     0.000344659         0.715435       -0.665425      0.000259145    -0.000182756        -0.162065      -0.0396513
281702.8               -0.182677       -0.148602     -5.85305e-05    -1.85533e-06         0.244844       -0.932865      0.000268448     0.000257341
                     6.95942e-05     9.33177e-05       -0.0310067       -0.161802       0.00044273    -4.44308e-05         0.715405       -0.665595
                         0.24487       -0.932969      0.000264706      9.1738e-05        -0.233098       0.0412021      0.000237803    -0.000293392
                     0.000351322     0.000344643         0.715412       -0.665449      0.000259137    -0.000182772        -0.162069      -0.0396495
281702.9               -0.182683       -0.148594     -5.85385e-05     -1.8559e-06         0.244814       -0.932873       0.00026845     0.000257332
                     6.95819e-05     9.33094e-05       -0.0310157       -0.161803      0.000442716      -4.445e-05         0.715382       -0.665619
                         0.24484       -0.932977      0.000264677     9.17273e-05        -0.233097       0.0412077      0.000237791    -0.000293407
                     0.000351323     0.000344627         0.715389       -0.665473      0.000259128    -0.000182788        -0.162072      -0.0396476
281703                 -0.182688       -0.148587     -5.85466e-05    -1.85648e-06         0.244784        -0.93288      0.000268453     0.000257323
                     6.95697e-05     9.33011e-05       -0.0310246       -0.161804      0.000442702    -4.44691e-05         0.715359       -0.665643
                        0.244811       -0.932984      0.000264648     9.17167e-05        -0.233096       0.0412134       0.00023778    -0.000293422
                     0.000351325     0.000344611         0.715366       -0.665497       0.00025912    -0.000182804        -0.162075      -0.0396458
281703.1               -0.182694        -0.14858     -5.85546e-05    -1.85705e-06         0.244755       -0.932888      0.000268455     0.000257314
                     6.95574e-05     9.32928e-05       -0.0310336       -0.161805      0.000442689    -4.44883e-05         0.715337       -0.665667
                        0.244781       -0.932992      0.000264619      9.1706e-05        -0.233095        0.041219      0.000237768    -0.000293437
