! TOUCHSTONE file generated by CST MICROWAVE STUDIO
! Date and time: Wed Oct  8 07:03:56 2025
! Project name: Teste_Macro_Metasurface_Nanopilar.cst
! Parameters = {H=600; L_x=180; L_y=125; Lambda=1064; Max_L=200; Min_L=70; PathPara=1; Phi=0; Step_L=10; Theta=0; p=520; phaseX=180; phaseY=0}
! Header version: 2018
! Port assignment regex: !\s*Touchstone port\s*([0-9]+)\s*=\s*(CST MWS port|CST DS port)\s*([0-9]+|Zmin|Zmax)\s*\(\"(.*)\"\)(\s*mode\s*([0-9]+))?.*
! Touchstone port assignment:
! Touchstone port 1 = CST MWS port Zmax ("") mode 1
! Touchstone port 2 = CST MWS port Zmax ("") mode 2
! Touchstone port 3 = CST MWS port Zmin ("") mode 1
! Touchstone port 4 = CST MWS port Zmin ("") mode 2
! S-Parameters are not renormalized. Each port impedance will be approximated by the real part at minimum frequency. The values are described via the [Reference] keyword.
! Default impedance is overridden by [Reference]
[Version] 2.0
# GHz S RI R 376.73
[Number of Ports] 4
[Reference]
376.73 376.73 376.73 376.73 
[Number of Frequencies] 1001
[Network Data]
281700                 -0.190371       0.0169572      0.000541276    -0.000191544        -0.461666       -0.861218     -0.000392333    -0.000159591
                     0.000551578    -0.000190664       -0.0832168        0.241216     -1.26047e-05     0.000363466        -0.816285       -0.506533
                       -0.461534       -0.860944     -3.42302e-05      0.00023136         -0.12057        0.147745      0.000386272    -0.000504857
                    -0.000467278    -0.000198839        -0.816191       -0.506385      0.000434847    -0.000376235         -0.18491        0.175023
281700.1               -0.190366       0.0169622      0.000541277    -0.000191569        -0.461692       -0.861204     -0.000392342    -0.000159575
                     0.000551581    -0.000190684       -0.0832074        0.241212      -1.2586e-05     0.000363471        -0.816303       -0.506509
                        -0.46156        -0.86093     -3.42216e-05     0.000231361        -0.120563        0.147746      0.000386252    -0.000504877
                    -0.000467294    -0.000198819        -0.816208       -0.506361      0.000434857    -0.000376266          -0.1849        0.175025
281700.2               -0.190361       0.0169671      0.000541278    -0.000191595        -0.461719       -0.861191      -0.00039235    -0.000159558
                     0.000551584    -0.000190704        -0.083198        0.241209     -1.25672e-05     0.000363475         -0.81632       -0.506484
                       -0.461587       -0.860917      -3.4213e-05     0.000231361        -0.120555        0.147746      0.000386232    -0.000504898
                     -0.00046731    -0.000198799        -0.816225       -0.506337      0.000434866    -0.000376298         -0.18489        0.175026
281700.3               -0.190356        0.016972      0.000541279    -0.000191621        -0.461745       -0.861178     -0.000392358    -0.000159542
                     0.000551587    -0.000190724       -0.0831887        0.241205     -1.25485e-05      0.00036348        -0.816337        -0.50646
                       -0.461613       -0.860904     -3.42044e-05     0.000231362        -0.120548        0.147747      0.000386212    -0.000504918
                    -0.000467326    -0.000198779        -0.816243       -0.506313      0.000434875     -0.00037633         -0.18488        0.175027
281700.4               -0.190352        0.016977       0.00054128    -0.000191647        -0.461772       -0.861165     -0.000392366    -0.000159526
                      0.00055159    -0.000190744       -0.0831793        0.241201     -1.25297e-05     0.000363485        -0.816354       -0.506436
                        -0.46164       -0.860891     -3.41958e-05     0.000231363         -0.12054        0.147747      0.000386191    -0.000504938
                    -0.000467342     -0.00019876         -0.81626       -0.506288      0.000434884    -0.000376361        -0.184869        0.175028
281700.5               -0.190347       0.0169819      0.000541281    -0.000191673        -0.461798       -0.861151     -0.000392374     -0.00015951
                     0.000551593    -0.000190763         -0.08317        0.241197      -1.2511e-05     0.000363489        -0.816371       -0.506412
                       -0.461666       -0.860877     -3.41872e-05     0.000231363        -0.120532        0.147748      0.000386171    -0.000504958
                    -0.000467358     -0.00019874        -0.816277       -0.506264      0.000434893    -0.000376393        -0.184859         0.17503
281700.6               -0.190342       0.0169868      0.000541282    -0.000191698        -0.461825       -0.861138     -0.000392383    -0.000159493
                     0.000551596    -0.000190783       -0.0831606        0.241193     -1.24922e-05     0.000363494        -0.816388       -0.506387
                       -0.461693       -0.860864     -3.41785e-05     0.000231364        -0.120525        0.147748      0.000386151    -0.000504978
                    -0.000467374     -0.00019872        -0.816294        -0.50624      0.000434902    -0.000376424        -0.184849        0.175031
281700.7               -0.190337       0.0169918      0.000541283    -0.000191724        -0.461852       -0.861125     -0.000392391    -0.000159477
                     0.000551599    -0.000190803       -0.0831512        0.241189     -1.24735e-05     0.000363499        -0.816406       -0.506363
                        -0.46172       -0.860851     -3.41699e-05     0.000231365        -0.120517        0.147749      0.000386131    -0.000504998
                     -0.00046739      -0.0001987        -0.816311       -0.506216      0.000434911    -0.000376456        -0.184839        0.175032
281700.8               -0.190332       0.0169967      0.000541284     -0.00019175        -0.461878       -0.861112     -0.000392399    -0.000159461
                     0.000551602    -0.000190823       -0.0831419        0.241186     -1.24547e-05     0.000363503        -0.816423       -0.506339
                       -0.461746       -0.860837     -3.41613e-05     0.000231365         -0.12051        0.147749       0.00038611    -0.000505018
                    -0.000467406    -0.000198681        -0.816328       -0.506191       0.00043492    -0.000376488        -0.184828        0.175033
281700.9               -0.190327       0.0170016      0.000541285    -0.000191776        -0.461905       -0.861098     -0.000392407    -0.000159445
                     0.000551605    -0.000190843       -0.0831325        0.241182      -1.2436e-05     0.000363508         -0.81644       -0.506314
                       -0.461773       -0.860824     -3.41527e-05     0.000231366        -0.120502         0.14775       0.00038609    -0.000505039
                    -0.000467422    -0.000198661        -0.816346       -0.506167      0.000434929    -0.000376519        -0.184818        0.175035
281701                 -0.190323       0.0170066      0.000541286    -0.000191802        -0.461931       -0.861085     -0.000392415    -0.000159428
                     0.000551608    -0.000190863       -0.0831232        0.241178     -1.24172e-05     0.000363513        -0.816457        -0.50629
                       -0.461799       -0.860811     -3.41441e-05     0.000231367        -0.120495         0.14775       0.00038607    -0.000505059
                    -0.000467437    -0.000198641        -0.816363       -0.506143      0.000434938    -0.000376551        -0.184808        0.175036
281701.1               -0.190318       0.0170115      0.000541287    -0.000191827        -0.461958       -0.861072     -0.000392424    -0.000159412
                     0.000551611    -0.000190883       -0.0831138        0.241174     -1.23985e-05     0.000363517        -0.816474       -0.506266
                       -0.461826       -0.860798     -3.41355e-05     0.000231368        -0.120487        0.147751       0.00038605    -0.000505079
                    -0.000467453    -0.000198621         -0.81638       -0.506119      0.000434947    -0.000376582        -0.184797        0.175037
281701.2               -0.190313       0.0170164      0.000541288    -0.000191853        -0.461984       -0.861059     -0.000392432    -0.000159396
                     0.000551613    -0.000190903       -0.0831045         0.24117     -1.23798e-05     0.000363522        -0.816491       -0.506242
                       -0.461852       -0.860784     -3.41268e-05     0.000231368         -0.12048        0.147751      0.000386029    -0.000505099
                    -0.000467469    -0.000198602        -0.816397       -0.506094      0.000434956    -0.000376614        -0.184787        0.175038
281701.3               -0.190308       0.0170214      0.000541289    -0.000191879        -0.462011       -0.861045      -0.00039244     -0.00015938
                     0.000551616    -0.000190923       -0.0830951        0.241166      -1.2361e-05     0.000363527        -0.816508       -0.506217
                       -0.461879       -0.860771     -3.41182e-05     0.000231369        -0.120472        0.147752      0.000386009    -0.000505119
                    -0.000467485    -0.000198582        -0.816414        -0.50607      0.000434965    -0.000376646        -0.184777         0.17504
281701.4               -0.190303       0.0170263       0.00054129    -0.000191905        -0.462037       -0.861032     -0.000392448    -0.000159363
                     0.000551619    -0.000190942       -0.0830858        0.241163     -1.23423e-05     0.000363531        -0.816526       -0.506193
                       -0.461905       -0.860758     -3.41096e-05      0.00023137        -0.120465        0.147752      0.000385989    -0.000505139
                    -0.000467501    -0.000198562        -0.816431       -0.506046      0.000434974    -0.000376677        -0.184767        0.175041
281701.5               -0.190298       0.0170312      0.000541291    -0.000191931        -0.462064       -0.861019     -0.000392456    -0.000159347
                     0.000551622    -0.000190962       -0.0830764        0.241159     -1.23235e-05     0.000363536        -0.816543       -0.506169
                       -0.461932       -0.860745      -3.4101e-05      0.00023137        -0.120457        0.147753      0.000385969    -0.000505159
                    -0.000467517    -0.000198542        -0.816449       -0.506021      0.000434983    -0.000376709        -0.184756        0.175042
281701.6               -0.190294       0.0170362      0.000541292    -0.000191957         -0.46209       -0.861005     -0.000392465    -0.000159331
                     0.000551625    -0.000190982       -0.0830671        0.241155     -1.23048e-05      0.00036354         -0.81656       -0.506145
                       -0.461958       -0.860731     -3.40924e-05     0.000231371         -0.12045        0.147753      0.000385948     -0.00050518
                    -0.000467533    -0.000198522        -0.816466       -0.505997      0.000434992    -0.000376741        -0.184746        0.175043
281701.7               -0.190289       0.0170411      0.000541294    -0.000191982        -0.462117       -0.860992     -0.000392473    -0.000159314
                     0.000551628    -0.000191002       -0.0830577        0.241151      -1.2286e-05     0.000363545        -0.816577        -0.50612
                       -0.461985       -0.860718     -3.40837e-05     0.000231372        -0.120442        0.147754      0.000385928      -0.0005052
                    -0.000467549    -0.000198503        -0.816483       -0.505973      0.000435001    -0.000376772        -0.184736        0.175045
281701.8               -0.190284        0.017046      0.000541295    -0.000192008        -0.462144       -0.860979     -0.000392481    -0.000159298
                     0.000551631    -0.000191022       -0.0830483        0.241147     -1.22673e-05      0.00036355        -0.816594       -0.506096
                       -0.462011       -0.860705     -3.40751e-05     0.000231372        -0.120434        0.147754      0.000385908     -0.00050522
                    -0.000467565    -0.000198483          -0.8165       -0.505949       0.00043501    -0.000376804        -0.184725        0.175046
281701.9               -0.190279        0.017051      0.000541296    -0.000192034         -0.46217       -0.860966     -0.000392489    -0.000159282
                     0.000551634    -0.000191042        -0.083039        0.241143     -1.22485e-05     0.000363554        -0.816611       -0.506072
                       -0.462038       -0.860692     -3.40665e-05     0.000231373        -0.120427        0.147754      0.000385888     -0.00050524
                     -0.00046758    -0.000198463        -0.816517       -0.505924      0.000435019    -0.000376836        -0.184715        0.175047
281702                 -0.190274       0.0170559      0.000541297     -0.00019206        -0.462197       -0.860952     -0.000392497    -0.000159266
                     0.000551637    -0.000191062       -0.0830296         0.24114     -1.22298e-05     0.000363559        -0.816628       -0.506048
                       -0.462064       -0.860678     -3.40579e-05     0.000231374        -0.120419        0.147755      0.000385867     -0.00050526
                    -0.000467596    -0.000198443        -0.816534         -0.5059      0.000435028    -0.000376867        -0.184705        0.175048
281702.1               -0.190269       0.0170608      0.000541298    -0.000192086        -0.462223       -0.860939     -0.000392506    -0.000159249
                      0.00055164    -0.000191082       -0.0830203        0.241136      -1.2211e-05     0.000363564        -0.816646       -0.506023
                       -0.462091       -0.860665     -3.40493e-05     0.000231375        -0.120412        0.147755      0.000385847     -0.00050528
                    -0.000467612    -0.000198424        -0.816551       -0.505876      0.000435037    -0.000376899        -0.184695         0.17505
281702.2               -0.190265       0.0170657      0.000541299    -0.000192111         -0.46225       -0.860926     -0.000392514    -0.000159233
                     0.000551643    -0.000191102       -0.0830109        0.241132     -1.21923e-05     0.000363568        -0.816663       -0.505999
                       -0.462117       -0.860652     -3.40406e-05     0.000231375        -0.120404        0.147756      0.000385827      -0.0005053
                    -0.000467628    -0.000198404        -0.816569       -0.505852      0.000435046    -0.000376931        -0.184684        0.175051
281702.3                -0.19026       0.0170707        0.0005413    -0.000192137        -0.462276       -0.860913     -0.000392522    -0.000159217
                     0.000551645    -0.000191122       -0.0830016        0.241128     -1.21735e-05     0.000363573         -0.81668       -0.505975
                       -0.462144       -0.860638      -3.4032e-05     0.000231376        -0.120397        0.147756      0.000385807     -0.00050532
                    -0.000467644    -0.000198384        -0.816586       -0.505827      0.000435055    -0.000376962        -0.184674        0.175052
281702.4               -0.190255       0.0170756      0.000541301    -0.000192163        -0.462303       -0.860899      -0.00039253    -0.000159201
                     0.000551648    -0.000191142       -0.0829922        0.241124     -1.21548e-05     0.000363577        -0.816697       -0.505951
                        -0.46217       -0.860625     -3.40234e-05     0.000231377        -0.120389        0.147757      0.000385786     -0.00050534
                     -0.00046766    -0.000198364        -0.816603       -0.505803      0.000435064    -0.000376994        -0.184664        0.175053
281702.5                -0.19025       0.0170805      0.000541302    -0.000192189        -0.462329       -0.860886     -0.000392538    -0.000159184
                     0.000551651    -0.000191161       -0.0829829         0.24112      -1.2136e-05     0.000363582        -0.816714       -0.505926
                       -0.462197       -0.860612     -3.40148e-05     0.000231377        -0.120382        0.147757      0.000385766    -0.000505361
                    -0.000467676    -0.000198344         -0.81662       -0.505779      0.000435073    -0.000377026        -0.184654        0.175054
281702.6               -0.190245       0.0170855      0.000541303    -0.000192215        -0.462356       -0.860873     -0.000392547    -0.000159168
                     0.000551654    -0.000191181       -0.0829735        0.241116     -1.21173e-05     0.000363587        -0.816731       -0.505902
                       -0.462223       -0.860599     -3.40062e-05     0.000231378        -0.120374        0.147758      0.000385746    -0.000505381
                    -0.000467692    -0.000198325        -0.816637       -0.505755      0.000435082    -0.000377057        -0.184643        0.175056
281702.7                -0.19024       0.0170904      0.000541304     -0.00019224        -0.462382       -0.860859     -0.000392555    -0.000159152
                     0.000551657    -0.000191201       -0.0829642        0.241113     -1.20985e-05     0.000363591        -0.816748       -0.505878
                        -0.46225       -0.860585     -3.39975e-05     0.000231379        -0.120367        0.147758      0.000385725    -0.000505401
                    -0.000467708    -0.000198305        -0.816654        -0.50573      0.000435091    -0.000377089        -0.184633        0.175057
281702.8               -0.190236       0.0170953      0.000541305    -0.000192266        -0.462409       -0.860846     -0.000392563    -0.000159136
                      0.00055166    -0.000191221       -0.0829548        0.241109     -1.20798e-05     0.000363596        -0.816766       -0.505853
                       -0.462276       -0.860572     -3.39889e-05     0.000231379        -0.120359        0.147759      0.000385705    -0.000505421
                    -0.000467723    -0.000198285        -0.816671       -0.505706        0.0004351    -0.000377121        -0.184623        0.175058
281702.9               -0.190231       0.0171003      0.000541306    -0.000192292        -0.462436       -0.860833     -0.000392571    -0.000159119
                     0.000551663    -0.000191241       -0.0829455        0.241105      -1.2061e-05       0.0003636        -0.816783       -0.505829
                       -0.462303       -0.860559     -3.39803e-05      0.00023138        -0.120351        0.147759      0.000385685    -0.000505441
                    -0.000467739    -0.000198265        -0.816689       -0.505682      0.000435109    -0.000377153        -0.184612        0.175059
281703                 -0.190226       0.0171052      0.000541307    -0.000192318        -0.462462        -0.86082     -0.000392579    -0.000159103
                     0.000551666    -0.000191261       -0.0829361        0.241101     -1.20423e-05     0.000363605          -0.8168       -0.505805
                       -0.462329       -0.860546     -3.39717e-05     0.000231381        -0.120344         0.14776      0.000385665    -0.000505461
                    -0.000467755    -0.000198245        -0.816706       -0.505657      0.000435118    -0.000377184        -0.184602        0.175061
281703.1               -0.190221       0.0171101      0.000541308    -0.000192344        -0.462489       -0.860806     -0.000392587    -0.000159087
                     0.000551668    -0.000191281       -0.0829268        0.241097     -1.20235e-05     0.000363609        -0.816817       -0.505781
                       -0.462356       -0.860532     -3.39631e-05     0.000231382        -0.120336         0.14776      0.000385644    -0.000505481
