! TOUCHSTONE file generated by CST MICROWAVE STUDIO
! Date and time: Wed Oct  8 07:00:18 2025
! Project name: Teste_Macro_Metasurface_Nanopilar.cst
! Parameters = {H=600; L_x=150; L_y=115; Lambda=1064; Max_L=200; Min_L=70; PathPara=1; Phi=0; Step_L=10; Theta=0; p=520; phaseX=180; phaseY=0}
! Header version: 2018
! Port assignment regex: !\s*Touchstone port\s*([0-9]+)\s*=\s*(CST MWS port|CST DS port)\s*([0-9]+|Zmin|Zmax)\s*\(\"(.*)\"\)(\s*mode\s*([0-9]+))?.*
! Touchstone port assignment:
! Touchstone port 1 = CST MWS port Zmax ("") mode 1
! Touchstone port 2 = CST MWS port Zmax ("") mode 2
! Touchstone port 3 = CST MWS port Zmin ("") mode 1
! Touchstone port 4 = CST MWS port Zmin ("") mode 2
! S-Parameters are not renormalized. Each port impedance will be approximated by the real part at minimum frequency. The values are described via the [Reference] keyword.
! Default impedance is overridden by [Reference]
[Version] 2.0
# GHz S RI R 376.73
[Number of Ports] 4
[Reference]
376.73 376.73 376.73 376.73 
[Number of Frequencies] 1001
[Network Data]
281700                -0.0739746       -0.167309     -0.000376738     0.000499757         0.669732       -0.707709      0.000434514    -0.000115959
                    -0.000416345     0.000462322        -0.152971      -0.0123612      0.000361846     1.73834e-05        -0.577725       -0.795749
                        0.669652       -0.707723      7.60985e-05    -0.000210031        -0.173386      -0.0618573     -0.000170344    -0.000549232
                     0.000220863      3.3624e-06        -0.577687        -0.79581     -0.000392283    -0.000497868        -0.037161        0.147388
281700.1              -0.0739835       -0.167309     -0.000376753     0.000499803         0.669708       -0.707731      0.000434532    -0.000115986
                     -0.00041634      0.00046236        -0.152966      -0.0123586      0.000361852     1.73825e-05        -0.577751       -0.795731
                        0.669628       -0.707745      7.61024e-05    -0.000210023         -0.17339      -0.0618547     -0.000170353    -0.000549231
                     0.000220865     3.35053e-06        -0.577713       -0.795792     -0.000392314    -0.000497875       -0.0371527        0.147384
281700.2              -0.0739924       -0.167308     -0.000376769     0.000499849         0.669684       -0.707753      0.000434551    -0.000116014
                    -0.000416335     0.000462398        -0.152961      -0.0123559      0.000361859     1.73816e-05        -0.577776       -0.795714
                        0.669604       -0.707767      7.61062e-05    -0.000210014        -0.173394      -0.0618521     -0.000170362     -0.00054923
                     0.000220867     3.33865e-06        -0.577738       -0.795775     -0.000392346    -0.000497882       -0.0371444        0.147381
281700.3              -0.0740013       -0.167308     -0.000376785     0.000499895          0.66966       -0.707775      0.000434569    -0.000116041
                     -0.00041633     0.000462436        -0.152956      -0.0123532      0.000361865     1.73807e-05        -0.577801       -0.795697
                         0.66958       -0.707789      7.61101e-05    -0.000210005        -0.173398      -0.0618496     -0.000170371    -0.000549229
                     0.000220869     3.32678e-06        -0.577764       -0.795757     -0.000392377    -0.000497888        -0.037136        0.147377
281700.4              -0.0740102       -0.167307       -0.0003768     0.000499942         0.669636       -0.707797      0.000434588    -0.000116069
                    -0.000416325     0.000462475        -0.152951      -0.0123506      0.000361872     1.73798e-05        -0.577827       -0.795679
                        0.669556       -0.707811       7.6114e-05    -0.000209997        -0.173403       -0.061847      -0.00017038    -0.000549228
                     0.000220872      3.3149e-06        -0.577789        -0.79574     -0.000392408    -0.000497895       -0.0371277        0.147374
281700.5              -0.0740191       -0.167307     -0.000376816     0.000499988         0.669612       -0.707819      0.000434606    -0.000116096
                     -0.00041632     0.000462513        -0.152946      -0.0123479      0.000361879     1.73789e-05        -0.577852       -0.795662
                        0.669532       -0.707833      7.61179e-05    -0.000209988        -0.173407      -0.0618444     -0.000170389    -0.000549227
                     0.000220874     3.30303e-06        -0.577814       -0.795722     -0.000392439    -0.000497902       -0.0371194         0.14737
281700.6               -0.074028       -0.167306     -0.000376831     0.000500034         0.669588       -0.707841      0.000434625    -0.000116124
                    -0.000416316     0.000462551         -0.15294      -0.0123452      0.000361885      1.7378e-05        -0.577878       -0.795644
                        0.669507       -0.707855      7.61218e-05    -0.000209979        -0.173411      -0.0618418     -0.000170398    -0.000549226
                     0.000220876     3.29115e-06         -0.57784       -0.795705      -0.00039247    -0.000497908       -0.0371111        0.147367
281700.7              -0.0740369       -0.167305     -0.000376847     0.000500081         0.669564       -0.707863      0.000434643    -0.000116151
                    -0.000416311      0.00046259        -0.152935      -0.0123426      0.000361892     1.73771e-05        -0.577903       -0.795627
                        0.669483       -0.707878      7.61257e-05    -0.000209971        -0.173415      -0.0618393     -0.000170407    -0.000549224
                     0.000220879     3.27928e-06        -0.577865       -0.795688     -0.000392501    -0.000497915       -0.0371028        0.147363
281700.8              -0.0740458       -0.167305     -0.000376862     0.000500127         0.669539       -0.707885      0.000434662    -0.000116179
                    -0.000416306     0.000462628         -0.15293      -0.0123399      0.000361898     1.73762e-05        -0.577928        -0.79561
                        0.669459         -0.7079      7.61297e-05    -0.000209962        -0.173419      -0.0618367     -0.000170416    -0.000549223
                     0.000220881      3.2674e-06         -0.57789        -0.79567     -0.000392532    -0.000497922       -0.0370945         0.14736
281700.9              -0.0740547       -0.167304     -0.000376877     0.000500174         0.669515       -0.707907       0.00043468    -0.000116207
                    -0.000416301     0.000462666        -0.152925      -0.0123372      0.000361905     1.73753e-05        -0.577954       -0.795592
                        0.669435       -0.707922      7.61336e-05    -0.000209953        -0.173423      -0.0618341     -0.000170425    -0.000549222
                     0.000220883     3.25553e-06        -0.577916       -0.795653     -0.000392564    -0.000497928       -0.0370862        0.147356
281701                -0.0740636       -0.167304     -0.000376892      0.00050022         0.669491        -0.70793      0.000434699    -0.000116234
                    -0.000416296     0.000462704         -0.15292      -0.0123346      0.000361912     1.73745e-05        -0.577979       -0.795575
                        0.669411       -0.707944      7.61376e-05    -0.000209945        -0.173427      -0.0618315     -0.000170434    -0.000549221
                     0.000220885     3.24365e-06        -0.577941       -0.795635     -0.000392595    -0.000497935       -0.0370779        0.147353
281701.1              -0.0740724       -0.167303     -0.000376908     0.000500266         0.669467       -0.707952      0.000434717    -0.000116262
                    -0.000416292     0.000462743        -0.152915      -0.0123319      0.000361918     1.73736e-05        -0.578005       -0.795557
                        0.669387       -0.707966      7.61415e-05    -0.000209936        -0.173431      -0.0618289     -0.000170443     -0.00054922
                     0.000220888     3.23177e-06        -0.577967       -0.795618     -0.000392626    -0.000497941       -0.0370696        0.147349
281701.2              -0.0740813       -0.167303     -0.000376923     0.000500313         0.669443       -0.707974      0.000434736    -0.000116289
                    -0.000416287     0.000462781         -0.15291      -0.0123292      0.000361925     1.73727e-05         -0.57803        -0.79554
                        0.669363       -0.707988      7.61455e-05    -0.000209927        -0.173436      -0.0618263     -0.000170453    -0.000549218
                      0.00022089      3.2199e-06        -0.577992         -0.7956     -0.000392657    -0.000497948       -0.0370613        0.147346
281701.3              -0.0740902       -0.167302     -0.000376938     0.000500359         0.669419       -0.707996      0.000434754    -0.000116317
                    -0.000416282     0.000462819        -0.152905      -0.0123266      0.000361931     1.73718e-05        -0.578055       -0.795522
                        0.669338        -0.70801      7.61495e-05    -0.000209919         -0.17344      -0.0618238     -0.000170462    -0.000549217
                     0.000220892     3.20802e-06        -0.578017       -0.795583     -0.000392688    -0.000497955        -0.037053        0.147342
281701.4              -0.0740991       -0.167301     -0.000376953     0.000500406         0.669395       -0.708018      0.000434773    -0.000116344
                    -0.000416277     0.000462858          -0.1529      -0.0123239      0.000361938     1.73709e-05        -0.578081       -0.795505
                        0.669314       -0.708032      7.61535e-05     -0.00020991        -0.173444      -0.0618212     -0.000170471    -0.000549216
                     0.000220895     3.19614e-06        -0.578043       -0.795565     -0.000392719    -0.000497961       -0.0370447        0.147339
281701.5               -0.074108       -0.167301     -0.000376968     0.000500452          0.66937        -0.70804      0.000434791    -0.000116372
                    -0.000416272     0.000462896        -0.152894      -0.0123212      0.000361945       1.737e-05        -0.578106       -0.795488
                         0.66929       -0.708054      7.61576e-05    -0.000209901        -0.173448      -0.0618186      -0.00017048    -0.000549215
                     0.000220897     3.18426e-06        -0.578068       -0.795548     -0.000392751    -0.000497968       -0.0370364        0.147335
281701.6              -0.0741169         -0.1673     -0.000376983     0.000500499         0.669346       -0.708062       0.00043481    -0.000116399
                    -0.000416267     0.000462934        -0.152889      -0.0123186      0.000361951     1.73691e-05        -0.578131        -0.79547
                        0.669266       -0.708076      7.61616e-05    -0.000209892        -0.173452       -0.061816     -0.000170488    -0.000549214
                     0.000220899     3.17238e-06        -0.578093       -0.795531     -0.000392782    -0.000497975       -0.0370281        0.147332
281701.7              -0.0741258         -0.1673     -0.000376997     0.000500545         0.669322       -0.708084      0.000434828    -0.000116427
                    -0.000416263     0.000462972        -0.152884      -0.0123159      0.000361958     1.73682e-05        -0.578157       -0.795453
                        0.669242       -0.708098      7.61657e-05    -0.000209884        -0.173456      -0.0618134     -0.000170497    -0.000549212
                     0.000220902     3.16051e-06        -0.578119       -0.795513     -0.000392813    -0.000497981       -0.0370198        0.147328
281701.8              -0.0741347       -0.167299     -0.000377012     0.000500591         0.669298       -0.708106      0.000434847    -0.000116454
                    -0.000416258     0.000463011        -0.152879      -0.0123133      0.000361964     1.73673e-05        -0.578182       -0.795435
                        0.669218        -0.70812      7.61697e-05    -0.000209875         -0.17346      -0.0618109     -0.000170506    -0.000549211
                     0.000220904     3.14863e-06        -0.578144       -0.795496     -0.000392844    -0.000497988       -0.0370115        0.147325
281701.9              -0.0741436       -0.167299     -0.000377027     0.000500638         0.669274       -0.708128      0.000434866    -0.000116482
                    -0.000416253     0.000463049        -0.152874      -0.0123106      0.000361971     1.73664e-05        -0.578208       -0.795418
                        0.669194       -0.708142      7.61738e-05    -0.000209866        -0.173464      -0.0618083     -0.000170515     -0.00054921
                     0.000220906     3.13675e-06        -0.578169       -0.795478     -0.000392875    -0.000497994       -0.0370032        0.147321
281702                -0.0741525       -0.167298     -0.000377042     0.000500685          0.66925        -0.70815      0.000434884    -0.000116509
                    -0.000416248     0.000463087        -0.152869      -0.0123079      0.000361977     1.73655e-05        -0.578233         -0.7954
                         0.66917       -0.708165      7.61779e-05    -0.000209857        -0.173469      -0.0618057     -0.000170524    -0.000549209
                     0.000220908     3.12487e-06        -0.578195       -0.795461     -0.000392907    -0.000498001       -0.0369949        0.147318
281702.1              -0.0741614       -0.167297     -0.000377056     0.000500731         0.669226       -0.708173      0.000434903    -0.000116537
                    -0.000416243     0.000463126        -0.152864      -0.0123053      0.000361984     1.73646e-05        -0.578258       -0.795383
                        0.669145       -0.708187       7.6182e-05    -0.000209849        -0.173473      -0.0618031     -0.000170533    -0.000549208
                     0.000220911     3.11299e-06         -0.57822       -0.795443     -0.000392938    -0.000498008       -0.0369866        0.147314
281702.2              -0.0741702       -0.167297     -0.000377071     0.000500778         0.669201       -0.708195      0.000434921    -0.000116564
                    -0.000416238     0.000463164        -0.152859      -0.0123026      0.000361991     1.73637e-05        -0.578284       -0.795366
                        0.669121       -0.708209      7.61861e-05     -0.00020984        -0.173477      -0.0618005     -0.000170542    -0.000549206
                     0.000220913     3.10111e-06        -0.578246       -0.795426     -0.000392969    -0.000498014       -0.0369783        0.147311
281702.3              -0.0741791       -0.167296     -0.000377085     0.000500824         0.669177       -0.708217       0.00043494    -0.000116592
                    -0.000416233     0.000463202        -0.152853         -0.0123      0.000361997     1.73629e-05        -0.578309       -0.795348
                        0.669097       -0.708231      7.61903e-05    -0.000209831        -0.173481      -0.0617979     -0.000170551    -0.000549205
                     0.000220915     3.08923e-06        -0.578271       -0.795408        -0.000393    -0.000498021         -0.03697        0.147307
281702.4               -0.074188       -0.167296       -0.0003771     0.000500871         0.669153       -0.708239      0.000434958    -0.000116619
                    -0.000416229      0.00046324        -0.152848      -0.0122973      0.000362004      1.7362e-05        -0.578335       -0.795331
                        0.669073       -0.708253      7.61944e-05    -0.000209822        -0.173485      -0.0617954      -0.00017056    -0.000549204
                     0.000220918     3.07735e-06        -0.578296       -0.795391     -0.000393031    -0.000498027       -0.0369617        0.147304
281702.5              -0.0741969       -0.167295     -0.000377114     0.000500917         0.669129       -0.708261      0.000434977    -0.000116647
                    -0.000416224     0.000463279        -0.152843      -0.0122946       0.00036201     1.73611e-05         -0.57836       -0.795313
                        0.669049       -0.708275      7.61986e-05    -0.000209814        -0.173489      -0.0617928     -0.000170569    -0.000549203
                      0.00022092     3.06547e-06        -0.578322       -0.795373     -0.000393062    -0.000498034       -0.0369534          0.1473
281702.6              -0.0742058       -0.167295     -0.000377129     0.000500964         0.669105       -0.708283      0.000434995    -0.000116674
                    -0.000416219     0.000463317        -0.152838       -0.012292      0.000362017     1.73602e-05        -0.578385       -0.795296
                        0.669025       -0.708297      7.62028e-05    -0.000209805        -0.173493      -0.0617902     -0.000170578    -0.000549202
                     0.000220922     3.05359e-06        -0.578347       -0.795356     -0.000393094    -0.000498041       -0.0369451        0.147297
281702.7              -0.0742147       -0.167294     -0.000377143      0.00050101         0.669081       -0.708305      0.000435014    -0.000116702
                    -0.000416214     0.000463355        -0.152833      -0.0122893      0.000362024     1.73593e-05        -0.578411       -0.795278
                           0.669       -0.708319      7.62069e-05    -0.000209796        -0.173497      -0.0617876     -0.000170587      -0.0005492
                     0.000220924     3.04171e-06        -0.578372       -0.795339     -0.000393125    -0.000498047       -0.0369368        0.147293
281702.8              -0.0742236       -0.167293     -0.000377157     0.000501057         0.669057       -0.708327      0.000435032    -0.000116729
                    -0.000416209     0.000463393        -0.152828      -0.0122867       0.00036203     1.73584e-05        -0.578436       -0.795261
                        0.668976       -0.708341      7.62111e-05    -0.000209787        -0.173502       -0.061785     -0.000170596    -0.000549199
                     0.000220927     3.02983e-06        -0.578398       -0.795321     -0.000393156    -0.000498054       -0.0369285         0.14729
281702.9              -0.0742325       -0.167293     -0.000377171     0.000501104         0.669032       -0.708349      0.000435051    -0.000116757
                    -0.000416204     0.000463432        -0.152823       -0.012284      0.000362037     1.73575e-05        -0.578461       -0.795243
                        0.668952       -0.708363      7.62154e-05    -0.000209779        -0.173506      -0.0617824     -0.000170605    -0.000549198
                     0.000220929     3.01794e-06        -0.578423       -0.795304     -0.000393187     -0.00049806       -0.0369202        0.147286
281703                -0.0742414       -0.167292     -0.000377185      0.00050115         0.669008       -0.708371      0.000435069    -0.000116784
                    -0.000416199      0.00046347        -0.152818      -0.0122814      0.000362043     1.73566e-05        -0.578487       -0.795226
                        0.668928       -0.708385      7.62196e-05     -0.00020977         -0.17351      -0.0617798     -0.000170614    -0.000549197
                     0.000220931     3.00606e-06        -0.578448       -0.795286     -0.000393218    -0.000498067       -0.0369119        0.147283
281703.1              -0.0742503       -0.167292       -0.0003772     0.000501197         0.668984       -0.708393      0.000435088    -0.000116812
                    -0.000416195     0.000463508        -0.152812      -0.0122787       0.00036205     1.73557e-05        -0.578512       -0.795209
                        0.668904       -0.708407      7.62238e-05    -0.000209761        -0.173514      -0.0617773     -0.000170623    -0.000549195
