! TOUCHSTONE file generated by CST MICROWAVE STUDIO
! Date and time: Wed Oct  8 06:52:49 2025
! Project name: Teste_Macro_Metasurface_Nanopilar.cst
! Parameters = {H=600; L_x=85; L_y=175; Lambda=1064; Max_L=200; Min_L=70; PathPara=1; Phi=0; Step_L=10; Theta=0; p=520; phaseX=180; phaseY=0}
! Header version: 2018
! Port assignment regex: !\s*Touchstone port\s*([0-9]+)\s*=\s*(CST MWS port|CST DS port)\s*([0-9]+|Zmin|Zmax)\s*\(\"(.*)\"\)(\s*mode\s*([0-9]+))?.*
! Touchstone port assignment:
! Touchstone port 1 = CST MWS port Zmax ("") mode 1
! Touchstone port 2 = CST MWS port Zmax ("") mode 2
! Touchstone port 3 = CST MWS port Zmin ("") mode 1
! Touchstone port 4 = CST MWS port Zmin ("") mode 2
! S-Parameters are not renormalized. Each port impedance will be approximated by the real part at minimum frequency. The values are described via the [Reference] keyword.
! Default impedance is overridden by [Reference]
[Version] 2.0
# GHz S RI R 376.73
[Number of Ports] 4
[Reference]
376.73 376.73 376.73 376.73 
[Number of Frequencies] 1001
[Network Data]
281700                 -0.152653      -0.0630599      -0.00034082     0.000149639        -0.534645       -0.822201     -0.000291539    -0.000159283
                     -0.00033837     4.69451e-05       -0.0527751       -0.176331      0.000208062    -0.000149014        -0.506359        0.840374
                       -0.534851       -0.822316      0.000249253    -0.000139348      -0.00586701        0.162867      0.000420754     0.000142178
                    -0.000188724    -0.000145012         -0.50598        0.840257      0.000378614     0.000132644        -0.180691       0.0362732
281700.1               -0.152649      -0.0630568     -0.000340817     0.000149659        -0.534672       -0.822185     -0.000291549    -0.000159282
                    -0.000338378     4.69666e-05       -0.0527819       -0.176328      0.000208056    -0.000149022        -0.506336        0.840388
                       -0.534878       -0.822299      0.000249249    -0.000139355       -0.0058576        0.162862      0.000420769     0.000142168
                    -0.000188725    -0.000145008        -0.505956        0.840271      0.000378629     0.000132639         -0.18069       0.0362761
281700.2               -0.152645      -0.0630538     -0.000340815     0.000149679        -0.534699       -0.822168     -0.000291558    -0.000159282
                    -0.000338386     4.69881e-05       -0.0527888       -0.176326       0.00020805    -0.000149031        -0.506313        0.840402
                       -0.534905       -0.822283      0.000249245    -0.000139361      -0.00584819        0.162857      0.000420784     0.000142158
                    -0.000188727    -0.000145004        -0.505933        0.840285      0.000378644     0.000132634        -0.180689       0.0362789
281700.3               -0.152641      -0.0630507     -0.000340813     0.000149698        -0.534726       -0.822151     -0.000291568    -0.000159281
                    -0.000338393     4.70095e-05       -0.0527957       -0.176323      0.000208044    -0.000149039        -0.506289        0.840417
                       -0.534932       -0.822266      0.000249241    -0.000139368      -0.00583878        0.162853      0.000420799     0.000142148
                    -0.000188729       -0.000145         -0.50591          0.8403      0.000378658     0.000132628        -0.180688       0.0362818
281700.4               -0.152637      -0.0630477     -0.000340811     0.000149718        -0.534753       -0.822135     -0.000291577     -0.00015928
                    -0.000338401      4.7031e-05       -0.0528026       -0.176321      0.000208038    -0.000149047        -0.506266        0.840431
                       -0.534958        -0.82225      0.000249238    -0.000139374      -0.00582937        0.162848      0.000420814     0.000142138
                     -0.00018873    -0.000144996        -0.505886        0.840314      0.000378673     0.000132623        -0.180687       0.0362846
281700.5               -0.152633      -0.0630446     -0.000340809     0.000149738         -0.53478       -0.822118     -0.000291586     -0.00015928
                    -0.000338409     4.70525e-05       -0.0528094       -0.176319      0.000208032    -0.000149056        -0.506242        0.840445
                       -0.534985       -0.822233      0.000249234    -0.000139381      -0.00581996        0.162843      0.000420829     0.000142128
                    -0.000188732    -0.000144992        -0.505863        0.840328      0.000378688     0.000132618        -0.180686       0.0362874
281700.6               -0.152629      -0.0630416     -0.000340807     0.000149758        -0.534807       -0.822102     -0.000291596    -0.000159279
                    -0.000338417     4.70739e-05       -0.0528163       -0.176316      0.000208025    -0.000149064        -0.506219        0.840459
                       -0.535012       -0.822216       0.00024923    -0.000139387      -0.00581055        0.162839      0.000420844     0.000142118
                    -0.000188734    -0.000144988        -0.505839        0.840342      0.000378702     0.000132612        -0.180685       0.0362903
281700.7               -0.152625      -0.0630386     -0.000340804     0.000149778        -0.534834       -0.822085     -0.000291605    -0.000159278
                    -0.000338424     4.70954e-05       -0.0528232       -0.176314      0.000208019    -0.000149072        -0.506196        0.840473
                       -0.535039         -0.8222      0.000249227    -0.000139394      -0.00580114        0.162834      0.000420858     0.000142108
                    -0.000188735    -0.000144984        -0.505816        0.840356      0.000378717     0.000132607        -0.180684       0.0362931
281700.8               -0.152621      -0.0630355     -0.000340802     0.000149797        -0.534861       -0.822068     -0.000291615    -0.000159278
                    -0.000338432     4.71169e-05       -0.0528301       -0.176311      0.000208013    -0.000149081        -0.506172        0.840487
                       -0.535066       -0.822183      0.000249223    -0.000139401      -0.00579173        0.162829      0.000420873     0.000142098
                    -0.000188737     -0.00014498        -0.505793         0.84037      0.000378732     0.000132602        -0.180683        0.036296
281700.9               -0.152617      -0.0630325       -0.0003408     0.000149817        -0.534888       -0.822052     -0.000291624    -0.000159277
                     -0.00033844     4.71384e-05       -0.0528369       -0.176309      0.000208007    -0.000149089        -0.506149        0.840501
                       -0.535093       -0.822167      0.000249219    -0.000139407      -0.00578232        0.162824      0.000420888     0.000142088
                    -0.000188739    -0.000144976        -0.505769        0.840384      0.000378746     0.000132596        -0.180682       0.0362988
281701                 -0.152613      -0.0630294     -0.000340798     0.000149837        -0.534915       -0.822035     -0.000291634    -0.000159276
                    -0.000338448     4.71598e-05       -0.0528438       -0.176306      0.000208001    -0.000149097        -0.506125        0.840516
                        -0.53512        -0.82215      0.000249215    -0.000139414      -0.00577291         0.16282      0.000420903     0.000142078
                     -0.00018874    -0.000144972        -0.505746        0.840399      0.000378761     0.000132591        -0.180681       0.0363017
281701.1               -0.152609      -0.0630264     -0.000340796     0.000149857        -0.534942       -0.822019     -0.000291643    -0.000159276
                    -0.000338456     4.71813e-05       -0.0528507       -0.176304      0.000207995    -0.000149105        -0.506102         0.84053
                       -0.535147       -0.822134      0.000249212     -0.00013942       -0.0057635        0.162815      0.000420918     0.000142068
                    -0.000188742    -0.000144968        -0.505722        0.840413      0.000378776     0.000132586         -0.18068       0.0363045
281701.2               -0.152605      -0.0630233     -0.000340793     0.000149877        -0.534969       -0.822002     -0.000291652    -0.000159275
                    -0.000338463     4.72028e-05       -0.0528576       -0.176302      0.000207989    -0.000149114        -0.506079        0.840544
                       -0.535174       -0.822117      0.000249208    -0.000139427      -0.00575409         0.16281      0.000420933     0.000142058
                    -0.000188743    -0.000144964        -0.505699        0.840427       0.00037879      0.00013258        -0.180679       0.0363073
281701.3               -0.152601      -0.0630203     -0.000340791     0.000149897        -0.534996       -0.821985     -0.000291662    -0.000159274
                    -0.000338471     4.72242e-05       -0.0528644       -0.176299      0.000207983    -0.000149122        -0.506055        0.840558
                       -0.535201         -0.8221      0.000249204    -0.000139433      -0.00574469        0.162806      0.000420948     0.000142048
                    -0.000188745     -0.00014496        -0.505676        0.840441      0.000378805     0.000132575        -0.180678       0.0363102
281701.4               -0.152596      -0.0630173     -0.000340789     0.000149916        -0.535023       -0.821969     -0.000291671    -0.000159274
                    -0.000338479     4.72457e-05       -0.0528713       -0.176297      0.000207977     -0.00014913        -0.506032        0.840572
                       -0.535228       -0.822084      0.000249201     -0.00013944      -0.00573528        0.162801      0.000420962     0.000142038
                    -0.000188747    -0.000144956        -0.505652        0.840455       0.00037882      0.00013257        -0.180677        0.036313
281701.5               -0.152592      -0.0630142     -0.000340787     0.000149936         -0.53505       -0.821952     -0.000291681    -0.000159273
                    -0.000338487     4.72672e-05       -0.0528782       -0.176294      0.000207971    -0.000149139        -0.506008        0.840586
                       -0.535255       -0.822067      0.000249197    -0.000139446      -0.00572587        0.162796      0.000420977     0.000142028
                    -0.000188748    -0.000144952        -0.505629        0.840469      0.000378834     0.000132564        -0.180676       0.0363159
281701.6               -0.152588      -0.0630112     -0.000340785     0.000149956        -0.535077       -0.821936      -0.00029169    -0.000159272
                    -0.000338494     4.72887e-05        -0.052885       -0.176292      0.000207965    -0.000149147        -0.505985        0.840601
                       -0.535282       -0.822051      0.000249193    -0.000139453      -0.00571646        0.162791      0.000420992     0.000142018
                     -0.00018875    -0.000144948        -0.505605        0.840483      0.000378849     0.000132559        -0.180676       0.0363187
281701.7               -0.152584      -0.0630081     -0.000340782     0.000149976        -0.535104       -0.821919     -0.000291699    -0.000159272
                    -0.000338502     4.73102e-05       -0.0528919       -0.176289      0.000207959    -0.000149155        -0.505962        0.840615
                       -0.535309       -0.822034      0.000249189     -0.00013946      -0.00570705        0.162787      0.000421007     0.000142008
                    -0.000188752    -0.000144944        -0.505582        0.840498      0.000378864     0.000132553        -0.180675       0.0363215
281701.8                -0.15258      -0.0630051      -0.00034078     0.000149996        -0.535131       -0.821903     -0.000291709    -0.000159271
                     -0.00033851     4.73316e-05       -0.0528988       -0.176287      0.000207952    -0.000149164        -0.505938        0.840629
                       -0.535336       -0.822017      0.000249186    -0.000139466      -0.00569765        0.162782      0.000421022     0.000141998
                    -0.000188753     -0.00014494        -0.505559        0.840512      0.000378878     0.000132548        -0.180674       0.0363244
281701.9               -0.152576      -0.0630021     -0.000340778     0.000150015        -0.535158       -0.821886     -0.000291718     -0.00015927
                    -0.000338518     4.73531e-05       -0.0529057       -0.176285      0.000207946    -0.000149172        -0.505915        0.840643
                       -0.535363       -0.822001      0.000249182    -0.000139473      -0.00568824        0.162777      0.000421037     0.000141988
                    -0.000188755    -0.000144936        -0.505535        0.840526      0.000378893     0.000132543        -0.180673       0.0363272
281702                 -0.152572       -0.062999     -0.000340776     0.000150035        -0.535185       -0.821869     -0.000291728     -0.00015927
                    -0.000338526     4.73746e-05       -0.0529125       -0.176282       0.00020794     -0.00014918        -0.505891        0.840657
                        -0.53539       -0.821984      0.000249178    -0.000139479      -0.00567883        0.162773      0.000421052     0.000141978
                    -0.000188756    -0.000144932        -0.505512         0.84054      0.000378908     0.000132537        -0.180672       0.0363301
281702.1               -0.152568       -0.062996     -0.000340774     0.000150055        -0.535212       -0.821853     -0.000291737    -0.000159269
                    -0.000338533     4.73961e-05       -0.0529194        -0.17628      0.000207934    -0.000149188        -0.505868        0.840671
                       -0.535417       -0.821968      0.000249174    -0.000139486      -0.00566943        0.162768      0.000421067     0.000141968
                    -0.000188758    -0.000144928        -0.505488        0.840554      0.000378922     0.000132532        -0.180671       0.0363329
281702.2               -0.152564      -0.0629929     -0.000340771     0.000150075        -0.535239       -0.821836     -0.000291746    -0.000159268
                    -0.000338541     4.74176e-05       -0.0529263       -0.176277      0.000207928    -0.000149197        -0.505845        0.840685
                       -0.535444       -0.821951      0.000249171    -0.000139492      -0.00566002        0.162763      0.000421081     0.000141958
                     -0.00018876    -0.000144924        -0.505465        0.840568      0.000378937     0.000132527         -0.18067       0.0363358
281702.3                -0.15256      -0.0629899     -0.000340769     0.000150095        -0.535266        -0.82182     -0.000291756    -0.000159268
                    -0.000338549      4.7439e-05       -0.0529332       -0.176275      0.000207922    -0.000149205        -0.505821          0.8407
                       -0.535471       -0.821934      0.000249167    -0.000139499      -0.00565062        0.162758      0.000421096     0.000141948
                    -0.000188761     -0.00014492        -0.505442        0.840582      0.000378952     0.000132521        -0.180669       0.0363386
281702.4               -0.152556      -0.0629869     -0.000340767     0.000150114        -0.535293       -0.821803     -0.000291765    -0.000159267
                    -0.000338557     4.74605e-05         -0.05294       -0.176273      0.000207916    -0.000149213        -0.505798        0.840714
                       -0.535498       -0.821918      0.000249163    -0.000139505      -0.00564121        0.162754      0.000421111     0.000141938
                    -0.000188763    -0.000144916        -0.505418        0.840597      0.000378966     0.000132516        -0.180668       0.0363414
281702.5               -0.152552      -0.0629838     -0.000340765     0.000150134         -0.53532       -0.821786     -0.000291775    -0.000159266
                    -0.000338564      4.7482e-05       -0.0529469        -0.17627       0.00020791    -0.000149221        -0.505774        0.840728
                       -0.535525       -0.821901       0.00024916    -0.000139512       -0.0056318        0.162749      0.000421126     0.000141928
                    -0.000188765    -0.000144912        -0.505395        0.840611      0.000378981     0.000132511        -0.180667       0.0363443
281702.6               -0.152548      -0.0629808     -0.000340763     0.000150154        -0.535347        -0.82177     -0.000291784    -0.000159266
                    -0.000338572     4.75035e-05       -0.0529538       -0.176268      0.000207904     -0.00014923        -0.505751        0.840742
                       -0.535552       -0.821885      0.000249156    -0.000139519       -0.0056224        0.162744      0.000421141     0.000141918
                    -0.000188766    -0.000144907        -0.505371        0.840625      0.000378996     0.000132505        -0.180666       0.0363471
281702.7               -0.152544      -0.0629778      -0.00034076     0.000150174        -0.535374       -0.821753     -0.000291794    -0.000159265
                     -0.00033858      4.7525e-05       -0.0529606       -0.176265      0.000207898    -0.000149238        -0.505728        0.840756
                       -0.535579       -0.821868      0.000249152    -0.000139525      -0.00561299         0.16274      0.000421156     0.000141908
                    -0.000188768    -0.000144903        -0.505348        0.840639       0.00037901       0.0001325        -0.180665         0.03635
281702.8                -0.15254      -0.0629747     -0.000340758     0.000150194        -0.535401       -0.821736     -0.000291803    -0.000159264
                    -0.000338588     4.75465e-05       -0.0529675       -0.176263      0.000207892    -0.000149246        -0.505704         0.84077
                       -0.535606       -0.821851      0.000249148    -0.000139532      -0.00560359        0.162735      0.000421171     0.000141898
                    -0.000188769    -0.000144899        -0.505325        0.840653      0.000379025     0.000132495        -0.180664       0.0363528
281702.9               -0.152535      -0.0629717     -0.000340756     0.000150213        -0.535428        -0.82172     -0.000291812    -0.000159264
                    -0.000338595      4.7568e-05       -0.0529744        -0.17626      0.000207886    -0.000149255        -0.505681        0.840784
                       -0.535633       -0.821835      0.000249145    -0.000139538      -0.00559418         0.16273      0.000421186     0.000141888
                    -0.000188771    -0.000144895        -0.505301        0.840667       0.00037904     0.000132489        -0.180663       0.0363556
281703                 -0.152531      -0.0629686     -0.000340754     0.000150233        -0.535455       -0.821703     -0.000291822    -0.000159263
                    -0.000338603     4.75894e-05       -0.0529813       -0.176258      0.000207879    -0.000149263        -0.505658        0.840799
                        -0.53566       -0.821818      0.000249141    -0.000139545      -0.00558478        0.162725        0.0004212     0.000141878
                    -0.000188773    -0.000144891        -0.505278        0.840681      0.000379054     0.000132484        -0.180662       0.0363585
281703.1               -0.152527      -0.0629656     -0.000340751     0.000150253        -0.535482       -0.821687     -0.000291831    -0.000159262
                    -0.000338611     4.76109e-05       -0.0529881       -0.176256      0.000207873    -0.000149271        -0.505634        0.840813
                       -0.535687       -0.821802      0.000249137    -0.000139551      -0.00557538        0.162721      0.000421215     0.000141868
