! TOUCHSTONE file generated by CST MICROWAVE STUDIO
! Date and time: Wed Oct  8 06:54:45 2025
! Project name: Teste_Macro_Metasurface_Nanopilar.cst
! Parameters = {H=600; L_x=105; L_y=75; Lambda=1064; Max_L=200; Min_L=70; PathPara=1; Phi=0; Step_L=10; Theta=0; p=520; phaseX=180; phaseY=0}
! Header version: 2018
! Port assignment regex: !\s*Touchstone port\s*([0-9]+)\s*=\s*(CST MWS port|CST DS port)\s*([0-9]+|Zmin|Zmax)\s*\(\"(.*)\"\)(\s*mode\s*([0-9]+))?.*
! Touchstone port assignment:
! Touchstone port 1 = CST MWS port Zmax ("") mode 1
! Touchstone port 2 = CST MWS port Zmax ("") mode 2
! Touchstone port 3 = CST MWS port Zmin ("") mode 1
! Touchstone port 4 = CST MWS port Zmin ("") mode 2
! S-Parameters are not renormalized. Each port impedance will be approximated by the real part at minimum frequency. The values are described via the [Reference] keyword.
! Default impedance is overridden by [Reference]
[Version] 2.0
# GHz S RI R 376.73
[Number of Ports] 4
[Reference]
376.73 376.73 376.73 376.73 
[Number of Frequencies] 1001
[Network Data]
281700                  0.121888       0.0239408     -0.000197929    -0.000303096        -0.960745         0.24801      0.000209568     0.000331193
                    -0.000235763    -0.000323578        0.0322157       -0.134445        0.0001526     0.000479824        -0.769405        0.621467
                       -0.960534        0.247848       0.00020351     0.000333733       -0.0952546       0.0800494     -7.49301e-05    -0.000208003
                     0.000173282     0.000401744         -0.76956         0.62128     -4.46918e-05    -0.000433594        -0.138688      0.00358338
281700.1                0.121886        0.023935     -0.000197931    -0.000303093        -0.960738        0.248036      0.000209587     0.000331193
                    -0.000235769    -0.000323575        0.0322093       -0.134447      0.000152616     0.000479812        -0.769388        0.621488
                       -0.960527        0.247874      0.000203517     0.000333728       -0.0952518       0.0800486     -7.49545e-05    -0.000207996
                     0.000173295     0.000401742        -0.769543        0.621301     -4.47085e-05    -0.000433579        -0.138688      0.00358423
281700.2                0.121885       0.0239291     -0.000197933    -0.000303089        -0.960732        0.248061      0.000209607     0.000331192
                    -0.000235775    -0.000323571        0.0322029       -0.134449      0.000152632     0.000479801        -0.769371        0.621508
                       -0.960521          0.2479      0.000203525     0.000333724        -0.095249       0.0800478     -7.49789e-05     -0.00020799
                     0.000173308     0.000401739        -0.769526        0.621322     -4.47251e-05    -0.000433564        -0.138688      0.00358508
281700.3                0.121883       0.0239232     -0.000197936    -0.000303086        -0.960726        0.248087      0.000209627     0.000331192
                     -0.00023578    -0.000323568        0.0321964        -0.13445      0.000152648     0.000479789        -0.769354        0.621529
                       -0.960515        0.247925      0.000203533      0.00033372       -0.0952463       0.0800469     -7.50033e-05    -0.000207983
                     0.000173321     0.000401737        -0.769509        0.621343     -4.47418e-05    -0.000433549        -0.138688      0.00358593
281700.4                0.121882       0.0239174     -0.000197938    -0.000303082         -0.96072        0.248113      0.000209646     0.000331192
                    -0.000235786    -0.000323565          0.03219       -0.134452      0.000152663     0.000479778        -0.769337         0.62155
                       -0.960509        0.247951      0.000203541     0.000333716       -0.0952435       0.0800461     -7.50277e-05    -0.000207977
                     0.000173334     0.000401735        -0.769492        0.621363     -4.47584e-05    -0.000433534        -0.138689      0.00358677
281700.5                 0.12188       0.0239115      -0.00019794    -0.000303079        -0.960713        0.248138      0.000209666     0.000331191
                    -0.000235792    -0.000323562        0.0321835       -0.134454      0.000152679     0.000479766         -0.76932        0.621571
                       -0.960502        0.247976      0.000203549     0.000333712       -0.0952407       0.0800453     -7.50521e-05     -0.00020797
                     0.000173347     0.000401733        -0.769475        0.621384     -4.47751e-05    -0.000433519        -0.138689      0.00358762
281700.6                0.121878       0.0239057     -0.000197943    -0.000303075        -0.960707        0.248164      0.000209686     0.000331191
                    -0.000235798    -0.000323559        0.0321771       -0.134456      0.000152695     0.000479755        -0.769303        0.621592
                       -0.960496        0.248002      0.000203557     0.000333708       -0.0952379       0.0800444     -7.50766e-05    -0.000207964
                      0.00017336     0.000401731        -0.769458        0.621405     -4.47917e-05    -0.000433504        -0.138689      0.00358847
281700.7                0.121877       0.0238998     -0.000197945    -0.000303072        -0.960701        0.248189      0.000209705      0.00033119
                    -0.000235804    -0.000323556        0.0321706       -0.134458      0.000152711     0.000479743        -0.769286        0.621613
                        -0.96049        0.248027      0.000203565     0.000333704       -0.0952351       0.0800436      -7.5101e-05    -0.000207957
                     0.000173373     0.000401729        -0.769441        0.621426     -4.48084e-05    -0.000433488         -0.13869      0.00358932
281700.8                0.121875       0.0238939     -0.000197948    -0.000303068        -0.960694        0.248215      0.000209725      0.00033119
                    -0.000235809    -0.000323553        0.0321642        -0.13446      0.000152726     0.000479732        -0.769269        0.621634
                       -0.960484        0.248053      0.000203573       0.0003337       -0.0952323       0.0800427     -7.51255e-05    -0.000207951
                     0.000173386     0.000401726        -0.769424        0.621447     -4.48251e-05    -0.000433473         -0.13869      0.00359017
281700.9                0.121874       0.0238881      -0.00019795    -0.000303065        -0.960688         0.24824      0.000209745     0.000331189
                    -0.000235815    -0.000323549        0.0321578       -0.134462      0.000152742     0.000479721        -0.769253        0.621655
                       -0.960477        0.248079      0.000203581     0.000333696       -0.0952296       0.0800419     -7.51499e-05    -0.000207944
                       0.0001734     0.000401724        -0.769407        0.621468     -4.48417e-05    -0.000433458         -0.13869      0.00359102
281701                  0.121872       0.0238822     -0.000197952    -0.000303061        -0.960682        0.248266      0.000209764     0.000331189
                    -0.000235821    -0.000323546        0.0321513       -0.134464      0.000152758     0.000479709        -0.769236        0.621676
                       -0.960471        0.248104      0.000203589     0.000333692       -0.0952268       0.0800411     -7.51744e-05    -0.000207938
                     0.000173413     0.000401722         -0.76939        0.621489     -4.48584e-05    -0.000433443         -0.13869      0.00359187
281701.1                0.121871       0.0238763     -0.000197955    -0.000303058        -0.960676        0.248292      0.000209784     0.000331188
                    -0.000235827    -0.000323543        0.0321449       -0.134465      0.000152773     0.000479698        -0.769219        0.621697
                       -0.960465         0.24813      0.000203597     0.000333687        -0.095224       0.0800402     -7.51989e-05    -0.000207931
                     0.000173426      0.00040172        -0.769374         0.62151     -4.48751e-05    -0.000433428        -0.138691      0.00359272
281701.2                0.121869       0.0238705     -0.000197957    -0.000303055        -0.960669        0.248317      0.000209804     0.000331188
                    -0.000235832     -0.00032354        0.0321384       -0.134467      0.000152789     0.000479686        -0.769202        0.621718
                       -0.960459        0.248155      0.000203605     0.000333683       -0.0952212       0.0800394     -7.52234e-05    -0.000207924
                     0.000173439     0.000401718        -0.769357        0.621531     -4.48917e-05    -0.000433413        -0.138691      0.00359356
281701.3                0.121867       0.0238646      -0.00019796    -0.000303051        -0.960663        0.248343      0.000209823     0.000331188
                    -0.000235838    -0.000323537         0.032132       -0.134469      0.000152805     0.000479675        -0.769185        0.621739
                       -0.960452        0.248181      0.000203613     0.000333679       -0.0952184       0.0800386     -7.52479e-05    -0.000207918
                     0.000173452     0.000401715         -0.76934        0.621552     -4.49084e-05    -0.000433398        -0.138691      0.00359441
281701.4                0.121866       0.0238587     -0.000197962    -0.000303048        -0.960657        0.248368      0.000209843     0.000331187
                    -0.000235844    -0.000323534        0.0321255       -0.134471      0.000152821     0.000479663        -0.769168         0.62176
                       -0.960446        0.248206      0.000203621     0.000333675       -0.0952157       0.0800377     -7.52725e-05    -0.000207911
                     0.000173465     0.000401713        -0.769323        0.621573      -4.4925e-05    -0.000433383        -0.138692      0.00359526
281701.5                0.121864       0.0238529     -0.000197964    -0.000303044         -0.96065        0.248394      0.000209863     0.000331187
                     -0.00023585    -0.000323531        0.0321191       -0.134473      0.000152836     0.000479652        -0.769151        0.621781
                        -0.96044        0.248232      0.000203629     0.000333671       -0.0952129       0.0800369      -7.5297e-05    -0.000207905
                     0.000173478     0.000401711        -0.769306        0.621594     -4.49417e-05    -0.000433368        -0.138692      0.00359611
281701.6                0.121863        0.023847     -0.000197967    -0.000303041        -0.960644         0.24842      0.000209883     0.000331186
                    -0.000235856    -0.000323527        0.0321126       -0.134475      0.000152852      0.00047964        -0.769134        0.621802
                       -0.960434        0.248258      0.000203637     0.000333667       -0.0952101        0.080036     -7.53216e-05    -0.000207898
                     0.000173491     0.000401709        -0.769289        0.621615     -4.49584e-05    -0.000433353        -0.138692      0.00359696
281701.7                0.121861       0.0238412     -0.000197969    -0.000303037        -0.960638        0.248445      0.000209902     0.000331186
                    -0.000235861    -0.000323524        0.0321062       -0.134477      0.000152868     0.000479629        -0.769117        0.621823
                       -0.960427        0.248283      0.000203645     0.000333663       -0.0952073       0.0800352     -7.53461e-05    -0.000207892
                     0.000173504     0.000401707        -0.769272        0.621636      -4.4975e-05    -0.000433338        -0.138692      0.00359781
281701.8                 0.12186       0.0238353     -0.000197971    -0.000303034        -0.960632        0.248471      0.000209922     0.000331185
                    -0.000235867    -0.000323521        0.0320998       -0.134479      0.000152884     0.000479617          -0.7691        0.621844
                       -0.960421        0.248309      0.000203653     0.000333659       -0.0952045       0.0800344     -7.53707e-05    -0.000207885
                     0.000173517     0.000401705        -0.769255        0.621657     -4.49917e-05    -0.000433322        -0.138693      0.00359866
281701.9                0.121858       0.0238294     -0.000197974     -0.00030303        -0.960625        0.248496      0.000209942     0.000331185
                    -0.000235873    -0.000323518        0.0320933        -0.13448      0.000152899     0.000479606        -0.769083        0.621865
                       -0.960415        0.248334      0.000203661     0.000333655       -0.0952017       0.0800335     -7.53953e-05    -0.000207878
                      0.00017353     0.000401702        -0.769238        0.621678     -4.50084e-05    -0.000433307        -0.138693      0.00359951
281702                  0.121856       0.0238236     -0.000197976    -0.000303027        -0.960619        0.248522      0.000209962     0.000331184
                    -0.000235879    -0.000323515        0.0320869       -0.134482      0.000152915     0.000479595        -0.769066        0.621886
                       -0.960409         0.24836      0.000203669     0.000333651        -0.095199       0.0800327     -7.54199e-05    -0.000207872
                     0.000173543       0.0004017        -0.769221        0.621699     -4.50251e-05    -0.000433292        -0.138693      0.00360036
281702.1                0.121855       0.0238177     -0.000197979    -0.000303023        -0.960613        0.248547      0.000209981     0.000331184
                    -0.000235885    -0.000323512        0.0320804       -0.134484      0.000152931     0.000479583        -0.769049        0.621907
                       -0.960402        0.248385      0.000203676     0.000333646       -0.0951962       0.0800318     -7.54445e-05    -0.000207865
                     0.000173556     0.000401698        -0.769204         0.62172     -4.50417e-05    -0.000433277        -0.138694      0.00360121
281702.2                0.121853       0.0238118     -0.000197981     -0.00030302        -0.960606        0.248573      0.000210001     0.000331184
                     -0.00023589    -0.000323508         0.032074       -0.134486      0.000152947     0.000479572        -0.769032        0.621928
                       -0.960396        0.248411      0.000203684     0.000333642       -0.0951934        0.080031     -7.54691e-05    -0.000207859
                     0.000173569     0.000401696        -0.769187         0.62174     -4.50584e-05    -0.000433262        -0.138694      0.00360206
281702.3                0.121852        0.023806     -0.000197983    -0.000303017          -0.9606        0.248599      0.000210021     0.000331183
                    -0.000235896    -0.000323505        0.0320675       -0.134488      0.000152962      0.00047956        -0.769015        0.621949
                        -0.96039        0.248437      0.000203692     0.000333638       -0.0951906       0.0800302     -7.54937e-05    -0.000207852
                     0.000173582     0.000401694         -0.76917        0.621761     -4.50751e-05    -0.000433247        -0.138694       0.0036029
281702.4                 0.12185       0.0238001     -0.000197986    -0.000303013        -0.960594        0.248624      0.000210041     0.000331183
                    -0.000235902    -0.000323502        0.0320611        -0.13449      0.000152978     0.000479549        -0.768998         0.62197
                       -0.960383        0.248462        0.0002037     0.000333634       -0.0951878       0.0800293     -7.55183e-05    -0.000207845
                     0.000173595     0.000401691        -0.769153        0.621782     -4.50917e-05    -0.000433232        -0.138694      0.00360375
281702.5                0.121849       0.0237943     -0.000197988     -0.00030301        -0.960587         0.24865       0.00021006     0.000331182
                    -0.000235908    -0.000323499        0.0320546       -0.134492      0.000152994     0.000479537        -0.768981        0.621991
                       -0.960377        0.248488      0.000203708      0.00033363       -0.0951851       0.0800285      -7.5543e-05    -0.000207839
                     0.000173608     0.000401689        -0.769136        0.621803     -4.51084e-05    -0.000433217        -0.138695       0.0036046
281702.6                0.121847       0.0237884     -0.000197991    -0.000303006        -0.960581        0.248675       0.00021008     0.000331182
                    -0.000235913    -0.000323496        0.0320482       -0.134493       0.00015301     0.000479526        -0.768964        0.622012
                       -0.960371        0.248513      0.000203716     0.000333626       -0.0951823       0.0800277     -7.55676e-05    -0.000207832
                     0.000173622     0.000401687        -0.769119        0.621824     -4.51251e-05    -0.000433202        -0.138695      0.00360545
281702.7                0.121845       0.0237825     -0.000197993    -0.000303003        -0.960575        0.248701        0.0002101     0.000331181
                    -0.000235919    -0.000323493        0.0320417       -0.134495      0.000153025     0.000479514        -0.768947        0.622033
                       -0.960365        0.248539      0.000203724     0.000333622       -0.0951795       0.0800268     -7.55923e-05    -0.000207826
                     0.000173635     0.000401685        -0.769102        0.621845     -4.51418e-05    -0.000433187        -0.138695       0.0036063
281702.8                0.121844       0.0237767     -0.000197995    -0.000302999        -0.960569        0.248726       0.00021012     0.000331181
                    -0.000235925     -0.00032349        0.0320353       -0.134497      0.000153041     0.000479503         -0.76893        0.622054
                       -0.960358        0.248564      0.000203732     0.000333618       -0.0951767        0.080026      -7.5617e-05    -0.000207819
                     0.000173648     0.000401683        -0.769085        0.621866     -4.51585e-05    -0.000433172        -0.138696      0.00360715
281702.9                0.121842       0.0237708     -0.000197998    -0.000302996        -0.960562        0.248752       0.00021014      0.00033118
                    -0.000235931    -0.000323486        0.0320289       -0.134499      0.000153057     0.000479491        -0.768913        0.622075
                       -0.960352         0.24859       0.00020374     0.000333614       -0.0951739       0.0800251     -7.56417e-05    -0.000207812
                     0.000173661      0.00040168        -0.769068        0.621887     -4.51751e-05    -0.000433156        -0.138696        0.003608
281703                  0.121841       0.0237649        -0.000198    -0.000302992        -0.960556        0.248778      0.000210159      0.00033118
                    -0.000235937    -0.000323483        0.0320224       -0.134501      0.000153072      0.00047948        -0.768896        0.622095
                       -0.960346        0.248616      0.000203748      0.00033361       -0.0951712       0.0800243     -7.56664e-05    -0.000207806
                     0.000173674     0.000401678        -0.769051        0.621908     -4.51918e-05    -0.000433141        -0.138696      0.00360885
281703.1                0.121839       0.0237591     -0.000198002    -0.000302989         -0.96055        0.248803      0.000210179      0.00033118
                    -0.000235942     -0.00032348         0.032016       -0.134503      0.000153088     0.000479468        -0.768879        0.622116
                        -0.96034        0.248641      0.000203756     0.000333606       -0.0951684       0.0800235     -7.56911e-05    -0.000207799
