! TOUCHSTONE file generated by CST MICROWAVE STUDIO
! Date and time: Wed Oct  8 06:57:57 2025
! Project name: Teste_Macro_Metasurface_Nanopilar.cst
! Parameters = {H=600; L_x=130; L_y=125; Lambda=1064; Max_L=200; Min_L=70; PathPara=1; Phi=0; Step_L=10; Theta=0; p=520; phaseX=180; phaseY=0}
! Header version: 2018
! Port assignment regex: !\s*Touchstone port\s*([0-9]+)\s*=\s*(CST MWS port|CST DS port)\s*([0-9]+|Zmin|Zmax)\s*\(\"(.*)\"\)(\s*mode\s*([0-9]+))?.*
! Touchstone port assignment:
! Touchstone port 1 = CST MWS port Zmax ("") mode 1
! Touchstone port 2 = CST MWS port Zmax ("") mode 2
! Touchstone port 3 = CST MWS port Zmin ("") mode 1
! Touchstone port 4 = CST MWS port Zmin ("") mode 2
! S-Parameters are not renormalized. Each port impedance will be approximated by the real part at minimum frequency. The values are described via the [Reference] keyword.
! Default impedance is overridden by [Reference]
[Version] 2.0
# GHz S RI R 376.73
[Number of Ports] 4
[Reference]
376.73 376.73 376.73 376.73 
[Number of Frequencies] 1001
[Network Data]
281700                 -0.169099        -0.15486     -0.000758921     -0.00048054         0.320211       -0.910738      0.000432641     0.000129558
                    -0.000734382    -0.000405367        -0.208722       -0.113183      0.000248257     0.000370172            0.103       -0.958632
                        0.320257       -0.911109      0.000393357     0.000444368        -0.229738       0.0166963     -0.000904186    -0.000135545
                     0.000485796     0.000142176         0.103192       -0.959011      -0.00121137      8.6944e-05         -0.22868       0.0670405
281700.1               -0.169105       -0.154853      -0.00075885    -0.000480429         0.320181       -0.910748      0.000432662     0.000129516
                    -0.000734386    -0.000405352        -0.208726       -0.113175      0.000248222     0.000370139          0.10297       -0.958636
                        0.320228       -0.911119      0.000393534     0.000444138        -0.229738        0.016702     -0.000904162    -0.000135363
                     0.000485809     0.000142161         0.103162       -0.959015      -0.00121148      8.7034e-05        -0.228677       0.0670463
281700.2               -0.169112       -0.154847     -0.000758779    -0.000480319         0.320152       -0.910758      0.000432684     0.000129473
                     -0.00073439    -0.000405337        -0.208729       -0.113167      0.000248187     0.000370106          0.10294       -0.958641
                        0.320199       -0.911129       0.00039371     0.000443908        -0.229738       0.0167076     -0.000904138    -0.000135179
                     0.000485822     0.000142145         0.103131       -0.959019      -0.00121159     8.71227e-05        -0.228675       0.0670521
281700.3               -0.169118       -0.154841     -0.000758708    -0.000480209         0.320123       -0.910769      0.000432705     0.000129431
                    -0.000734394    -0.000405323        -0.208733       -0.113159      0.000248152     0.000370073          0.10291       -0.958645
                         0.32017       -0.911139      0.000393885     0.000443678        -0.229738       0.0167132     -0.000904113    -0.000134993
                     0.000485835      0.00014213         0.103101       -0.959024       -0.0012117       8.721e-05        -0.228672       0.0670579
281700.4               -0.169125       -0.154834     -0.000758636    -0.000480099         0.320094       -0.910779      0.000432726     0.000129387
                    -0.000734398    -0.000405308        -0.208736       -0.113151      0.000248118     0.000370039         0.102881       -0.958649
                         0.32014        -0.91115       0.00039406     0.000443446        -0.229738       0.0167189     -0.000904087    -0.000134805
                     0.000485847     0.000142114         0.103071       -0.959028      -0.00121182     8.72959e-05         -0.22867       0.0670637
281700.5               -0.169131       -0.154828     -0.000758565    -0.000479989         0.320064       -0.910789      0.000432747     0.000129344
                    -0.000734402    -0.000405293         -0.20874       -0.113143      0.000248083     0.000370006         0.102851       -0.958654
                        0.320111        -0.91116      0.000394235     0.000443214        -0.229738       0.0167245      -0.00090406    -0.000134615
                      0.00048586     0.000142098          0.10304       -0.959032      -0.00121193     8.73804e-05        -0.228667       0.0670694
281700.6               -0.169138       -0.154822     -0.000758492    -0.000479879         0.320035       -0.910799      0.000432769       0.0001293
                    -0.000734406    -0.000405278        -0.208743       -0.113135      0.000248048     0.000369973         0.102821       -0.958658
                        0.320082        -0.91117       0.00039441     0.000442982        -0.229738       0.0167301     -0.000904033    -0.000134424
                     0.000485873     0.000142083          0.10301       -0.959036      -0.00121205     8.74636e-05        -0.228665       0.0670752
281700.7               -0.169144       -0.154815      -0.00075842    -0.000479769         0.320006       -0.910809       0.00043279     0.000129256
                     -0.00073441    -0.000405263        -0.208747       -0.113127      0.000248014      0.00036994         0.102791       -0.958662
                        0.320052        -0.91118      0.000394584     0.000442748        -0.229738       0.0167357     -0.000904004    -0.000134231
                     0.000485886     0.000142067          0.10298        -0.95904      -0.00121216     8.75453e-05        -0.228662        0.067081
281700.8               -0.169151       -0.154809     -0.000758348     -0.00047966         0.319977        -0.91082      0.000432811     0.000129212
                    -0.000734414    -0.000405248         -0.20875       -0.113119      0.000247979     0.000369906         0.102761       -0.958667
                        0.320023        -0.91119      0.000394757     0.000442514        -0.229738       0.0167414     -0.000903975    -0.000134036
                     0.000485899     0.000142052         0.102949       -0.959044      -0.00121228     8.76257e-05         -0.22866       0.0670868
281700.9               -0.169157       -0.154803     -0.000758275     -0.00047955         0.319947        -0.91083      0.000432832     0.000129167
                    -0.000734418    -0.000405233        -0.208754       -0.113111      0.000247944     0.000369873         0.102731       -0.958671
                        0.319994       -0.911201       0.00039493      0.00044228        -0.229738        0.016747     -0.000903945    -0.000133839
                     0.000485912     0.000142036         0.102919       -0.959048       -0.0012124     8.77046e-05        -0.228657       0.0670926
281701                 -0.169164       -0.154796     -0.000758202    -0.000479441         0.319918        -0.91084      0.000432853     0.000129122
                    -0.000734422    -0.000405218        -0.208757       -0.113103       0.00024791     0.000369839         0.102702       -0.958675
                        0.319965       -0.911211      0.000395103     0.000442045        -0.229738       0.0167526     -0.000903915    -0.000133639
                     0.000485925     0.000142021         0.102889       -0.959052      -0.00121252     8.77821e-05        -0.228655       0.0670984
281701.1                -0.16917        -0.15479     -0.000758128    -0.000479332         0.319889        -0.91085      0.000432875     0.000129076
                    -0.000734426    -0.000405203        -0.208761       -0.113095      0.000247876     0.000369806         0.102672        -0.95868
                        0.319935       -0.911221      0.000395275     0.000441809        -0.229738       0.0167583     -0.000903883    -0.000133438
                     0.000485938     0.000142005         0.102859       -0.959057      -0.00121263     8.78583e-05        -0.228653       0.0671041
281701.2               -0.169176       -0.154783     -0.000758055    -0.000479223         0.319859        -0.91086      0.000432896      0.00012903
                    -0.000734431    -0.000405188        -0.208764       -0.113087      0.000247841     0.000369772         0.102642       -0.958684
                        0.319906       -0.911231      0.000395447     0.000441572        -0.229738       0.0167639      -0.00090385    -0.000133235
                     0.000485951      0.00014199         0.102828       -0.959061      -0.00121275      8.7933e-05         -0.22865       0.0671099
281701.3               -0.169183       -0.154777     -0.000757981    -0.000479114          0.31983       -0.910871      0.000432917     0.000128984
                    -0.000734435    -0.000405173        -0.208768       -0.113079      0.000247807     0.000369739         0.102612       -0.958688
                        0.319877       -0.911241      0.000395618     0.000441335        -0.229738       0.0167695     -0.000903817     -0.00013303
                     0.000485964     0.000141974         0.102798       -0.959065      -0.00121287     8.80064e-05        -0.228648       0.0671157
281701.4               -0.169189       -0.154771     -0.000757907    -0.000479006         0.319801       -0.910881      0.000432938     0.000128937
                    -0.000734439    -0.000405158        -0.208771       -0.113071      0.000247773     0.000369705         0.102582       -0.958693
                        0.319847       -0.911252      0.000395789     0.000441097        -0.229738       0.0167751     -0.000903783    -0.000132823
                     0.000485976     0.000141958         0.102768       -0.959069      -0.00121299     8.80783e-05        -0.228645       0.0671215
281701.5               -0.169196       -0.154764     -0.000757832    -0.000478897         0.319772       -0.910891      0.000432959      0.00012889
                    -0.000734443    -0.000405143        -0.208775       -0.113063      0.000247738     0.000369671         0.102552       -0.958697
                        0.319818       -0.911262      0.000395959     0.000440858        -0.229738       0.0167808     -0.000903747    -0.000132614
                     0.000485989     0.000141943         0.102737       -0.959073      -0.00121311     8.81489e-05        -0.228643       0.0671273
281701.6               -0.169202       -0.154758     -0.000757758    -0.000478789         0.319742       -0.910901       0.00043298     0.000128843
                    -0.000734447    -0.000405128        -0.208778       -0.113055      0.000247704     0.000369638         0.102523       -0.958701
                        0.319789       -0.911272      0.000396129     0.000440619        -0.229738       0.0167864     -0.000903711    -0.000132402
                     0.000486002     0.000141927         0.102707       -0.959077      -0.00121323     8.82182e-05         -0.22864        0.067133
281701.7               -0.169209       -0.154752     -0.000757683     -0.00047868         0.319713       -0.910911      0.000433001     0.000128795
                    -0.000734451    -0.000405113        -0.208781       -0.113047       0.00024767     0.000369604         0.102493       -0.958705
                         0.31976       -0.911282      0.000396299     0.000440379        -0.229738        0.016792     -0.000903673    -0.000132188
                     0.000486015     0.000141912         0.102677       -0.959081      -0.00121335     8.82861e-05        -0.228638       0.0671388
281701.8               -0.169215       -0.154745     -0.000757608    -0.000478572         0.319684       -0.910921      0.000433022     0.000128746
                    -0.000734455    -0.000405098        -0.208785       -0.113039      0.000247636      0.00036957         0.102463        -0.95871
                         0.31973       -0.911292      0.000396468     0.000440139        -0.229739       0.0167977     -0.000903635    -0.000131972
                     0.000486028     0.000141896         0.102647       -0.959085      -0.00121347     8.83526e-05        -0.228635       0.0671446
281701.9               -0.169222       -0.154739     -0.000757532    -0.000478464         0.319655       -0.910932      0.000433043     0.000128698
                    -0.000734459    -0.000405084        -0.208788       -0.113031      0.000247602     0.000369536         0.102433       -0.958714
                        0.319701       -0.911303      0.000396636     0.000439898        -0.229739       0.0168033     -0.000903595    -0.000131754
                     0.000486041      0.00014188         0.102616        -0.95909      -0.00121359     8.84179e-05        -0.228633       0.0671504
281702                 -0.169228       -0.154733     -0.000757456    -0.000478356         0.319625       -0.910942      0.000433064     0.000128648
                    -0.000734463    -0.000405069        -0.208792       -0.113023      0.000247568     0.000369502         0.102403       -0.958718
                        0.319672       -0.911313      0.000396804     0.000439656        -0.229739       0.0168089     -0.000903554    -0.000131533
                     0.000486054     0.000141865         0.102586       -0.959094      -0.00121371     8.84818e-05         -0.22863       0.0671562
281702.1               -0.169235       -0.154726      -0.00075738    -0.000478248         0.319596       -0.910952      0.000433085     0.000128599
                    -0.000734467    -0.000405054        -0.208795       -0.113015      0.000247534     0.000369469         0.102373       -0.958723
                        0.319643       -0.911323      0.000396972     0.000439413        -0.229739       0.0168145     -0.000903512     -0.00013131
                     0.000486066     0.000141849         0.102556       -0.959098      -0.00121383     8.85445e-05        -0.228628        0.067162
281702.2               -0.169241        -0.15472     -0.000757304    -0.000478141         0.319567       -0.910962      0.000433106     0.000128549
                    -0.000734471    -0.000405039        -0.208799       -0.113007        0.0002475     0.000369435         0.102344       -0.958727
                        0.319613       -0.911333      0.000397139      0.00043917        -0.229739       0.0168202     -0.000903469    -0.000131085
                     0.000486079     0.000141834         0.102525       -0.959102      -0.00121396     8.86059e-05        -0.228625       0.0671677
281702.3               -0.169248       -0.154714     -0.000757228    -0.000478033         0.319537       -0.910972      0.000433127     0.000128498
                    -0.000734475    -0.000405024        -0.208802       -0.112999      0.000247466     0.000369401         0.102314       -0.958731
                        0.319584       -0.911343      0.000397306     0.000438926        -0.229739       0.0168258     -0.000903425    -0.000130857
                     0.000486092     0.000141818         0.102495       -0.959106      -0.00121408      8.8666e-05        -0.228623       0.0671735
281702.4               -0.169254       -0.154707     -0.000757151    -0.000477926         0.319508       -0.910983      0.000433148     0.000128447
                    -0.000734479    -0.000405009        -0.208806       -0.112991      0.000247432     0.000369366         0.102284       -0.958736
                        0.319555       -0.911353      0.000397472     0.000438682        -0.229739       0.0168314     -0.000903379    -0.000130627
                     0.000486105     0.000141802         0.102465        -0.95911       -0.0012142     8.87249e-05         -0.22862       0.0671793
281702.5               -0.169261       -0.154701     -0.000757074    -0.000477819         0.319479       -0.910993      0.000433169     0.000128396
                    -0.000734482    -0.000404994        -0.208809       -0.112983      0.000247399     0.000369332         0.102254        -0.95874
                        0.319525       -0.911364      0.000397637     0.000438436        -0.229739       0.0168371     -0.000903332    -0.000130394
                     0.000486118     0.000141787         0.102434       -0.959114      -0.00121432     8.87826e-05        -0.228618       0.0671851
281702.6               -0.169267       -0.154695     -0.000756997    -0.000477712          0.31945       -0.911003      0.000433189     0.000128344
                    -0.000734486    -0.000404979        -0.208813       -0.112975      0.000247365     0.000369298         0.102224       -0.958744
                        0.319496       -0.911374      0.000397803      0.00043819        -0.229739       0.0168427     -0.000903284    -0.000130159
                      0.00048613     0.000141771         0.102404       -0.959118      -0.00121444     8.88391e-05        -0.228615       0.0671909
281702.7               -0.169273       -0.154688     -0.000756919    -0.000477605          0.31942       -0.911013       0.00043321     0.000128291
                     -0.00073449    -0.000404964        -0.208816       -0.112967      0.000247331     0.000369264         0.102194       -0.958749
                        0.319467       -0.911384      0.000397967     0.000437944        -0.229739       0.0168483     -0.000903235    -0.000129921
                     0.000486143     0.000141755         0.102374       -0.959122      -0.00121456     8.88945e-05        -0.228613       0.0671966
281702.8                -0.16928       -0.154682     -0.000756841    -0.000477498         0.319391       -0.911023      0.000433231     0.000128238
                    -0.000734494    -0.000404949         -0.20882       -0.112959      0.000247298      0.00036923         0.102165       -0.958753
                        0.319438       -0.911394      0.000398131     0.000437697        -0.229739       0.0168539     -0.000903184    -0.000129681
                     0.000486156      0.00014174         0.102344       -0.959127      -0.00121468     8.89487e-05         -0.22861       0.0672024
281702.9               -0.169286       -0.154675     -0.000756763    -0.000477392         0.319362       -0.911033      0.000433252     0.000128185
                    -0.000734498    -0.000404935        -0.208823       -0.112951      0.000247264     0.000369196         0.102135       -0.958757
                        0.319408       -0.911404      0.000398295     0.000437449        -0.229739       0.0168596     -0.000903131    -0.000129437
                     0.000486169     0.000141724         0.102313       -0.959131       -0.0012148     8.90018e-05        -0.228608       0.0672082
281703                 -0.169293       -0.154669     -0.000756685    -0.000477286         0.319332       -0.911044      0.000433272     0.000128131
                    -0.000734502     -0.00040492        -0.208827       -0.112943      0.000247231     0.000369161         0.102105       -0.958761
                        0.319379       -0.911414      0.000398458       0.0004372        -0.229739       0.0168652     -0.000903078    -0.000129191
                     0.000486182     0.000141709         0.102283       -0.959135      -0.00121492     8.90537e-05        -0.228606        0.067214
281703.1               -0.169299       -0.154663     -0.000756606    -0.000477179         0.319303       -0.911054      0.000433293     0.000128076
                    -0.000734506    -0.000404905         -0.20883       -0.112935      0.000247197     0.000369127         0.102075       -0.958766
                         0.31935       -0.911425      0.000398621     0.000436951        -0.229739       0.0168708     -0.000903022    -0.000128943
