! TOUCHSTONE file generated by CST MICROWAVE STUDIO
! Date and time: Wed Oct  8 07:01:59 2025
! Project name: Teste_Macro_Metasurface_Nanopilar.cst
! Parameters = {H=600; L_x=165; L_y=85; Lambda=1064; Max_L=200; Min_L=70; PathPara=1; Phi=0; Step_L=10; Theta=0; p=520; phaseX=180; phaseY=0}
! Header version: 2018
! Port assignment regex: !\s*Touchstone port\s*([0-9]+)\s*=\s*(CST MWS port|CST DS port)\s*([0-9]+|Zmin|Zmax)\s*\(\"(.*)\"\)(\s*mode\s*([0-9]+))?.*
! Touchstone port assignment:
! Touchstone port 1 = CST MWS port Zmax ("") mode 1
! Touchstone port 2 = CST MWS port Zmax ("") mode 2
! Touchstone port 3 = CST MWS port Zmin ("") mode 1
! Touchstone port 4 = CST MWS port Zmin ("") mode 2
! S-Parameters are not renormalized. Each port impedance will be approximated by the real part at minimum frequency. The values are described via the [Reference] keyword.
! Default impedance is overridden by [Reference]
[Version] 2.0
# GHz S RI R 376.73
[Number of Ports] 4
[Reference]
376.73 376.73 376.73 376.73 
[Number of Frequencies] 1001
[Network Data]
281700                -0.0246825       -0.172324     -4.96148e-05    -0.000265749        -0.581116        0.792712     -6.76622e-06     0.000618365
                     1.15358e-05    -0.000242309         -0.19754      -0.0810947     -0.000244697     0.000401652        -0.209368       -0.948106
                       -0.580972        0.792719     -0.000181306     0.000473878        -0.171945       0.0288504      0.000276716    -5.83345e-05
                     2.95385e-05     0.000545679        -0.209296       -0.948203      8.69249e-05    -0.000122833        -0.145841        0.156342
281700.1              -0.0246895       -0.172323     -4.96139e-05    -0.000265749        -0.581094        0.792728     -6.74398e-06     0.000618372
                     1.15337e-05    -0.000242314        -0.197539      -0.0810873     -0.000244678     0.000401671        -0.209398         -0.9481
                        -0.58095        0.792735     -0.000181302     0.000473888        -0.171944       0.0288528      0.000276694    -5.83352e-05
                     2.95579e-05      0.00054568        -0.209326       -0.948197      8.69119e-05    -0.000122839        -0.145834        0.156344
281700.2              -0.0246966       -0.172321      -4.9613e-05    -0.000265749        -0.581072        0.792744     -6.72175e-06     0.000618379
                     1.15316e-05    -0.000242319        -0.197539      -0.0810799     -0.000244659      0.00040169        -0.209428       -0.948094
                       -0.580928        0.792751     -0.000181299     0.000473898        -0.171943       0.0288551      0.000276671    -5.83358e-05
                     2.95773e-05      0.00054568        -0.209356       -0.948191      8.68988e-05    -0.000122844        -0.145827        0.156346
281700.3              -0.0247036        -0.17232     -4.96121e-05    -0.000265749         -0.58105         0.79276     -6.69952e-06     0.000618387
                     1.15295e-05    -0.000242324        -0.197538      -0.0810724     -0.000244639     0.000401709        -0.209458       -0.948088
                       -0.580906        0.792767     -0.000181295     0.000473908        -0.171943       0.0288575      0.000276648    -5.83365e-05
                     2.95966e-05     0.000545681        -0.209386       -0.948186      8.68858e-05    -0.000122849        -0.145819        0.156348
281700.4              -0.0247107       -0.172319     -4.96111e-05    -0.000265749        -0.581028        0.792776     -6.67729e-06     0.000618394
                     1.15274e-05     -0.00024233        -0.197537       -0.081065      -0.00024462     0.000401728        -0.209487       -0.948083
                       -0.580884        0.792783     -0.000181292     0.000473917        -0.171942       0.0288599      0.000276625    -5.83372e-05
                      2.9616e-05     0.000545681        -0.209415        -0.94818      8.68728e-05    -0.000122855        -0.145812         0.15635
281700.5              -0.0247177       -0.172318     -4.96102e-05    -0.000265749        -0.581006        0.792793     -6.65506e-06     0.000618401
                     1.15253e-05    -0.000242335        -0.197536      -0.0810576       -0.0002446     0.000401747        -0.209517       -0.948077
                       -0.580862        0.792799     -0.000181289     0.000473927        -0.171941       0.0288623      0.000276602    -5.83378e-05
                     2.96354e-05     0.000545682        -0.209445       -0.948174      8.68597e-05     -0.00012286        -0.145804        0.156352
281700.6              -0.0247248       -0.172316     -4.96093e-05    -0.000265749        -0.580985        0.792809     -6.63283e-06     0.000618408
                     1.15232e-05     -0.00024234        -0.197535      -0.0810502     -0.000244581     0.000401766        -0.209547       -0.948071
                       -0.580841        0.792816     -0.000181285     0.000473937        -0.171941       0.0288647      0.000276579    -5.83385e-05
                     2.96547e-05     0.000545683        -0.209475       -0.948168      8.68467e-05    -0.000122865        -0.145797        0.156354
281700.7              -0.0247318       -0.172315     -4.96084e-05    -0.000265749        -0.580963        0.792825     -6.61061e-06     0.000618416
                     1.15212e-05    -0.000242345        -0.197535      -0.0810428     -0.000244561     0.000401785        -0.209577       -0.948065
                       -0.580819        0.792832     -0.000181282     0.000473946         -0.17194       0.0288671      0.000276556    -5.83391e-05
                     2.96741e-05     0.000545683        -0.209505       -0.948162      8.68336e-05    -0.000122871         -0.14579        0.156356
281700.8              -0.0247389       -0.172314     -4.96075e-05    -0.000265749        -0.580941        0.792841     -6.58839e-06     0.000618423
                     1.15191e-05     -0.00024235        -0.197534      -0.0810354     -0.000244542     0.000401804        -0.209607       -0.948059
                       -0.580797        0.792848     -0.000181278     0.000473956        -0.171939       0.0288695      0.000276533    -5.83398e-05
                     2.96935e-05     0.000545684        -0.209535       -0.948156      8.68205e-05    -0.000122876        -0.145782        0.156358
281700.9              -0.0247459       -0.172312     -4.96066e-05    -0.000265749        -0.580919        0.792857     -6.56617e-06      0.00061843
                      1.1517e-05    -0.000242355        -0.197533       -0.081028     -0.000244523     0.000401823        -0.209637       -0.948054
                       -0.580775        0.792864     -0.000181275     0.000473966        -0.171939       0.0288719       0.00027651    -5.83404e-05
                     2.97128e-05     0.000545684        -0.209565       -0.948151      8.68075e-05    -0.000122881        -0.145775         0.15636
281701                 -0.024753       -0.172311     -4.96057e-05    -0.000265749        -0.580897        0.792873     -6.54396e-06     0.000618437
                     1.15149e-05    -0.000242361        -0.197532      -0.0810206     -0.000244503     0.000401842        -0.209667       -0.948048
                       -0.580753         0.79288     -0.000181271     0.000473976        -0.171938       0.0288743      0.000276488     -5.8341e-05
                     2.97322e-05     0.000545685        -0.209595       -0.948145      8.67944e-05    -0.000122887        -0.145767        0.156362
281701.1                -0.02476        -0.17231     -4.96048e-05    -0.000265749        -0.580875        0.792889     -6.52174e-06     0.000618444
                     1.15128e-05    -0.000242366        -0.197532      -0.0810132     -0.000244484     0.000401861        -0.209697       -0.948042
                       -0.580731        0.792896     -0.000181268     0.000473985        -0.171937       0.0288767      0.000276465    -5.83417e-05
                     2.97515e-05     0.000545686        -0.209625       -0.948139      8.67813e-05    -0.000122892         -0.14576        0.156364
281701.2              -0.0247671       -0.172309     -4.96039e-05    -0.000265749        -0.580853        0.792906     -6.49953e-06     0.000618452
                     1.15107e-05    -0.000242371        -0.197531      -0.0810058     -0.000244464      0.00040188        -0.209727       -0.948036
                       -0.580709        0.792912     -0.000181265     0.000473995        -0.171936        0.028879      0.000276442    -5.83423e-05
                     2.97709e-05     0.000545686        -0.209655       -0.948133      8.67683e-05    -0.000122897        -0.145753        0.156367
281701.3              -0.0247741       -0.172307      -4.9603e-05    -0.000265749        -0.580831        0.792922     -6.47732e-06     0.000618459
                     1.15086e-05    -0.000242376         -0.19753      -0.0809984     -0.000244445     0.000401899        -0.209757        -0.94803
                       -0.580687        0.792928     -0.000181261     0.000474005        -0.171936       0.0288814      0.000276419    -5.83429e-05
                     2.97903e-05     0.000545687        -0.209685       -0.948127      8.67552e-05    -0.000122903        -0.145745        0.156369
281701.4              -0.0247812       -0.172306     -4.96021e-05    -0.000265749        -0.580809        0.792938     -6.45511e-06     0.000618466
                     1.15065e-05    -0.000242381        -0.197529       -0.080991     -0.000244426     0.000401918        -0.209787       -0.948025
                       -0.580665        0.792945     -0.000181258     0.000474015        -0.171935       0.0288838      0.000276396    -5.83436e-05
                     2.98096e-05     0.000545687        -0.209714       -0.948122      8.67421e-05    -0.000122908        -0.145738        0.156371
281701.5              -0.0247882       -0.172305     -4.96012e-05    -0.000265749        -0.580787        0.792954     -6.43291e-06     0.000618473
                     1.15044e-05    -0.000242386        -0.197528      -0.0809836     -0.000244406     0.000401937        -0.209816       -0.948019
                       -0.580643        0.792961     -0.000181254     0.000474024        -0.171934       0.0288862      0.000276373    -5.83442e-05
                      2.9829e-05     0.000545688        -0.209744       -0.948116       8.6729e-05    -0.000122913         -0.14573        0.156373
281701.6              -0.0247953       -0.172303     -4.96002e-05    -0.000265749        -0.580765         0.79297     -6.41071e-06     0.000618481
                     1.15023e-05    -0.000242392        -0.197528      -0.0809762     -0.000244387     0.000401956        -0.209846       -0.948013
                       -0.580621        0.792977     -0.000181251     0.000474034        -0.171934       0.0288886       0.00027635    -5.83448e-05
                     2.98483e-05     0.000545688        -0.209774        -0.94811       8.6716e-05    -0.000122919        -0.145723        0.156375
281701.7              -0.0248024       -0.172302     -4.95993e-05    -0.000265749        -0.580743        0.792986      -6.3885e-06     0.000618488
                     1.15003e-05    -0.000242397        -0.197527      -0.0809688     -0.000244367     0.000401975        -0.209876       -0.948007
                       -0.580599        0.792993     -0.000181247     0.000474044        -0.171933        0.028891      0.000276327    -5.83455e-05
                     2.98677e-05     0.000545689        -0.209804       -0.948104      8.67029e-05    -0.000122924        -0.145716        0.156377
281701.8              -0.0248094       -0.172301     -4.95984e-05    -0.000265749        -0.580721        0.793002     -6.36631e-06     0.000618495
                     1.14982e-05    -0.000242402        -0.197526      -0.0809614     -0.000244348     0.000401993        -0.209906       -0.948001
                       -0.580577        0.793009     -0.000181244     0.000474054        -0.171932       0.0288934      0.000276304    -5.83461e-05
                     2.98871e-05      0.00054569        -0.209834       -0.948098      8.66898e-05    -0.000122929        -0.145708        0.156379
281701.9              -0.0248165         -0.1723     -4.95975e-05    -0.000265749          -0.5807        0.793018     -6.34411e-06     0.000618502
                     1.14961e-05    -0.000242407        -0.197525       -0.080954     -0.000244328     0.000402012        -0.209936       -0.947995
                       -0.580555        0.793025     -0.000181241     0.000474063        -0.171932       0.0288958      0.000276281    -5.83467e-05
                     2.99064e-05      0.00054569        -0.209864       -0.948093      8.66767e-05    -0.000122934        -0.145701        0.156381
281702                -0.0248235       -0.172298     -4.95966e-05    -0.000265749        -0.580678        0.793035     -6.32192e-06      0.00061851
                      1.1494e-05    -0.000242412        -0.197525      -0.0809466     -0.000244309     0.000402031        -0.209966        -0.94799
                       -0.580533        0.793041     -0.000181237     0.000474073        -0.171931       0.0288982      0.000276258    -5.83473e-05
                     2.99258e-05     0.000545691        -0.209894       -0.948087      8.66636e-05     -0.00012294        -0.145693        0.156383
281702.1              -0.0248306       -0.172297     -4.95957e-05    -0.000265749        -0.580656        0.793051     -6.29973e-06     0.000618517
                     1.14919e-05    -0.000242418        -0.197524      -0.0809392      -0.00024429      0.00040205        -0.209996       -0.947984
                       -0.580512        0.793057     -0.000181234     0.000474083         -0.17193       0.0289006      0.000276236    -5.83479e-05
                     2.99451e-05     0.000545691        -0.209924       -0.948081      8.66505e-05    -0.000122945        -0.145686        0.156385
281702.2              -0.0248376       -0.172296     -4.95948e-05    -0.000265749        -0.580634        0.793067     -6.27754e-06     0.000618524
                     1.14898e-05    -0.000242423        -0.197523      -0.0809318      -0.00024427     0.000402069        -0.210026       -0.947978
                        -0.58049        0.793073      -0.00018123     0.000474093         -0.17193        0.028903      0.000276213    -5.83485e-05
                     2.99645e-05     0.000545692        -0.209954       -0.948075      8.66374e-05     -0.00012295        -0.145679        0.156387
281702.3              -0.0248447       -0.172294     -4.95939e-05    -0.000265749        -0.580612        0.793083     -6.25535e-06     0.000618531
                     1.14877e-05    -0.000242428        -0.197522      -0.0809244     -0.000244251     0.000402088        -0.210056       -0.947972
                       -0.580468         0.79309     -0.000181227     0.000474102        -0.171929       0.0289053       0.00027619    -5.83492e-05
                     2.99838e-05     0.000545692        -0.209984       -0.948069      8.66243e-05    -0.000122956        -0.145671        0.156389
281702.4              -0.0248517       -0.172293      -4.9593e-05    -0.000265749         -0.58059        0.793099     -6.23317e-06     0.000618538
                     1.14856e-05    -0.000242433        -0.197521       -0.080917     -0.000244231     0.000402107        -0.210086       -0.947966
                       -0.580446        0.793106     -0.000181223     0.000474112        -0.171928       0.0289077      0.000276167    -5.83498e-05
                     3.00032e-05     0.000545693        -0.210014       -0.948063      8.66112e-05    -0.000122961        -0.145664        0.156391
281702.5              -0.0248588       -0.172292     -4.95921e-05    -0.000265749        -0.580568        0.793115     -6.21098e-06     0.000618546
                     1.14835e-05    -0.000242438        -0.197521      -0.0809096     -0.000244212     0.000402126        -0.210115        -0.94796
                       -0.580424        0.793122      -0.00018122     0.000474122        -0.171928       0.0289101      0.000276144    -5.83504e-05
                     3.00226e-05     0.000545694        -0.210043       -0.948058      8.65981e-05    -0.000122966        -0.145656        0.156393
281702.6              -0.0248658       -0.172291     -4.95912e-05    -0.000265749        -0.580546        0.793131      -6.1888e-06     0.000618553
                     1.14814e-05    -0.000242443         -0.19752      -0.0809022     -0.000244192     0.000402145        -0.210145       -0.947955
                       -0.580402        0.793138     -0.000181216     0.000474132        -0.171927       0.0289125      0.000276121     -5.8351e-05
                     3.00419e-05     0.000545694        -0.210073       -0.948052       8.6585e-05    -0.000122972        -0.145649        0.156395
281702.7              -0.0248729       -0.172289     -4.95903e-05    -0.000265749        -0.580524        0.793147     -6.16663e-06      0.00061856
                     1.14793e-05    -0.000242449        -0.197519      -0.0808948     -0.000244173     0.000402164        -0.210175       -0.947949
                        -0.58038        0.793154     -0.000181213     0.000474141        -0.171926       0.0289149      0.000276098    -5.83516e-05
                     3.00613e-05     0.000545695        -0.210103       -0.948046      8.65719e-05    -0.000122977        -0.145642        0.156397
281702.8              -0.0248799       -0.172288     -4.95894e-05    -0.000265749        -0.580502        0.793163     -6.14445e-06     0.000618567
                     1.14772e-05    -0.000242454        -0.197518      -0.0808874     -0.000244153     0.000402183        -0.210205       -0.947943
                       -0.580358         0.79317      -0.00018121     0.000474151        -0.171925       0.0289173      0.000276075    -5.83522e-05
                     3.00806e-05     0.000545695        -0.210133        -0.94804      8.65587e-05    -0.000122982        -0.145634        0.156399
281702.9               -0.024887       -0.172287     -4.95885e-05    -0.000265749         -0.58048         0.79318     -6.12228e-06     0.000618575
                     1.14751e-05    -0.000242459        -0.197518        -0.08088     -0.000244134     0.000402202        -0.210235       -0.947937
                       -0.580336        0.793186     -0.000181206     0.000474161        -0.171925       0.0289197      0.000276052    -5.83528e-05
                        3.01e-05     0.000545696        -0.210163       -0.948034      8.65456e-05    -0.000122987        -0.145627        0.156401
281703                 -0.024894       -0.172285     -4.95876e-05    -0.000265749        -0.580458        0.793196     -6.10011e-06     0.000618582
                      1.1473e-05    -0.000242464        -0.197517      -0.0808726     -0.000244115     0.000402221        -0.210265       -0.947931
                       -0.580314        0.793202     -0.000181203     0.000474171        -0.171924       0.0289221      0.000276029    -5.83534e-05
                     3.01193e-05     0.000545696        -0.210193       -0.948028      8.65325e-05    -0.000122993        -0.145619        0.156403
281703.1              -0.0249011       -0.172284     -4.95867e-05    -0.000265749        -0.580436        0.793212     -6.07794e-06     0.000618589
                     1.14709e-05    -0.000242469        -0.197516      -0.0808652     -0.000244095      0.00040224        -0.210295       -0.947926
                       -0.580292        0.793218     -0.000181199      0.00047418        -0.171923       0.0289245      0.000276006     -5.8354e-05
