! TOUCHSTONE file generated by CST MICROWAVE STUDIO
! Date and time: Wed Oct  8 06:58:25 2025
! Project name: Teste_Macro_Metasurface_Nanopilar.cst
! Parameters = {H=600; L_x=135; L_y=95; Lambda=1064; Max_L=200; Min_L=70; PathPara=1; Phi=0; Step_L=10; Theta=0; p=520; phaseX=180; phaseY=0}
! Header version: 2018
! Port assignment regex: !\s*Touchstone port\s*([0-9]+)\s*=\s*(CST MWS port|CST DS port)\s*([0-9]+|Zmin|Zmax)\s*\(\"(.*)\"\)(\s*mode\s*([0-9]+))?.*
! Touchstone port assignment:
! Touchstone port 1 = CST MWS port Zmax ("") mode 1
! Touchstone port 2 = CST MWS port Zmax ("") mode 2
! Touchstone port 3 = CST MWS port Zmin ("") mode 1
! Touchstone port 4 = CST MWS port Zmin ("") mode 2
! S-Parameters are not renormalized. Each port impedance will be approximated by the real part at minimum frequency. The values are described via the [Reference] keyword.
! Default impedance is overridden by [Reference]
[Version] 2.0
# GHz S RI R 376.73
[Number of Ports] 4
[Reference]
376.73 376.73 376.73 376.73 
[Number of Frequencies] 1001
[Network Data]
281700                  -0.12323       -0.168161      0.000483777      0.00026744        -0.351106        0.909641      0.000163254    -0.000345984
                     0.000489774     0.000336338        0.0723687       -0.106325      0.000194768    -0.000281115         0.816114        -0.54621
                       -0.351086        0.909746      0.000230156    -0.000172876        -0.204465       0.0424367     -0.000182083    -0.000474792
                     0.000212084    -0.000301683         0.816027       -0.546143     -0.000368121    -0.000355263        -0.130098       0.0293198
281700.1               -0.123236       -0.168156      0.000483773     0.000267424         -0.35108        0.909651      0.000163249    -0.000345987
                     0.000489774     0.000336318        0.0723611        -0.10633      0.000194763    -0.000281128         0.816095       -0.546238
                        -0.35106        0.909756      0.000230157    -0.000172884        -0.204463       0.0424407     -0.000182102    -0.000474785
                     0.000212075    -0.000301694         0.816008       -0.546172     -0.000368134    -0.000355252        -0.130099       0.0293195
281700.2               -0.123242       -0.168151      0.000483768     0.000267408        -0.351054        0.909661      0.000163245    -0.000345989
                     0.000489774     0.000336299        0.0723536       -0.106336      0.000194758    -0.000281141         0.816076       -0.546267
                       -0.351034        0.909766      0.000230158    -0.000172892        -0.204462       0.0424447      -0.00018212    -0.000474778
                     0.000212066    -0.000301706         0.815989         -0.5462     -0.000368146    -0.000355241        -0.130099       0.0293193
281700.3               -0.123248       -0.168146      0.000483764     0.000267391        -0.351028        0.909671       0.00016324    -0.000345991
                     0.000489774     0.000336279        0.0723461       -0.106341      0.000194754    -0.000281153         0.816057       -0.546295
                       -0.351008        0.909776      0.000230159      -0.0001729        -0.204461       0.0424487     -0.000182139    -0.000474771
                     0.000212056    -0.000301717          0.81597       -0.546228     -0.000368158     -0.00035523        -0.130099       0.0293191
281700.4               -0.123254       -0.168141       0.00048376     0.000267375        -0.351002        0.909681      0.000163236    -0.000345993
                     0.000489774     0.000336259        0.0723386       -0.106347      0.000194749    -0.000281166         0.816038       -0.546323
                       -0.350982        0.909786       0.00023016    -0.000172908         -0.20446       0.0424527     -0.000182158    -0.000474764
                     0.000212047    -0.000301728         0.815951       -0.546257     -0.000368171    -0.000355219        -0.130099       0.0293188
281700.5                -0.12326       -0.168136      0.000483755     0.000267359        -0.350976        0.909691      0.000163231    -0.000345996
                     0.000489773      0.00033624         0.072331       -0.106352      0.000194744    -0.000281178         0.816019       -0.546352
                       -0.350956        0.909796      0.000230161    -0.000172916        -0.204458       0.0424566     -0.000182177    -0.000474757
                     0.000212037    -0.000301739         0.815932       -0.546285     -0.000368183    -0.000355208          -0.1301       0.0293186
281700.6               -0.123266       -0.168131      0.000483751     0.000267343         -0.35095        0.909701      0.000163227    -0.000345998
                     0.000489773      0.00033622        0.0723235       -0.106358       0.00019474    -0.000281191            0.816        -0.54638
                        -0.35093        0.909806      0.000230162    -0.000172924        -0.204457       0.0424606     -0.000182195     -0.00047475
                     0.000212028     -0.00030175         0.815913       -0.546313     -0.000368195    -0.000355197          -0.1301       0.0293184
281700.7               -0.123272       -0.168126      0.000483747     0.000267327        -0.350924        0.909711      0.000163222       -0.000346
                     0.000489773     0.000336201         0.072316       -0.106363      0.000194735    -0.000281203         0.815981       -0.546408
                       -0.350904        0.909816      0.000230164    -0.000172932        -0.204456       0.0424646     -0.000182214    -0.000474743
                     0.000212019    -0.000301761         0.815894       -0.546341     -0.000368208    -0.000355186          -0.1301       0.0293181
281700.8               -0.123278       -0.168121      0.000483743     0.000267311        -0.350898        0.909721      0.000163218    -0.000346003
                     0.000489773     0.000336181        0.0723084       -0.106369       0.00019473    -0.000281216         0.815962       -0.546436
                       -0.350878        0.909827      0.000230165     -0.00017294        -0.204454       0.0424686     -0.000182233    -0.000474736
                     0.000212009    -0.000301772         0.815875        -0.54637      -0.00036822    -0.000355175          -0.1301       0.0293179
281700.9               -0.123284       -0.168116      0.000483738     0.000267295        -0.350872        0.909731      0.000163213    -0.000346005
                     0.000489772     0.000336161        0.0723009       -0.106374      0.000194726    -0.000281229         0.815943       -0.546465
                       -0.350853        0.909837      0.000230166    -0.000172948        -0.204453       0.0424726     -0.000182251     -0.00047473
                        0.000212    -0.000301784         0.815856       -0.546398     -0.000368233    -0.000355165        -0.130101       0.0293176
281701                  -0.12329       -0.168111      0.000483734     0.000267279        -0.350847        0.909742      0.000163209    -0.000346007
                     0.000489772     0.000336142        0.0722934        -0.10638      0.000194721    -0.000281241         0.815924       -0.546493
                       -0.350827        0.909847      0.000230167    -0.000172955        -0.204452       0.0424765      -0.00018227    -0.000474723
                     0.000211991    -0.000301795         0.815837       -0.546426     -0.000368245    -0.000355154        -0.130101       0.0293174
281701.1               -0.123296       -0.168106       0.00048373     0.000267263        -0.350821        0.909752      0.000163204     -0.00034601
                     0.000489772     0.000336122        0.0722859       -0.106385      0.000194716    -0.000281254         0.815905       -0.546521
                       -0.350801        0.909857      0.000230168    -0.000172963         -0.20445       0.0424805     -0.000182289    -0.000474716
                     0.000211981    -0.000301806         0.815818       -0.546455     -0.000368257    -0.000355143        -0.130101       0.0293172
281701.2               -0.123302       -0.168102      0.000483725     0.000267247        -0.350795        0.909762        0.0001632    -0.000346012
                     0.000489772     0.000336103        0.0722783       -0.106391      0.000194712    -0.000281266         0.815886        -0.54655
                       -0.350775        0.909867      0.000230169    -0.000172971        -0.204449       0.0424845     -0.000182308    -0.000474709
                     0.000211972    -0.000301817         0.815799       -0.546483      -0.00036827    -0.000355132        -0.130101       0.0293169
281701.3               -0.123308       -0.168097      0.000483721     0.000267231        -0.350769        0.909772      0.000163195    -0.000346014
                     0.000489771     0.000336083        0.0722708       -0.106396      0.000194707    -0.000281279         0.815868       -0.546578
                       -0.350749        0.909877       0.00023017    -0.000172979        -0.204448       0.0424885     -0.000182326    -0.000474702
                     0.000211963    -0.000301828          0.81578       -0.546511     -0.000368282    -0.000355121        -0.130102       0.0293167
281701.4               -0.123314       -0.168092      0.000483717     0.000267215        -0.350743        0.909782      0.000163191    -0.000346017
                     0.000489771     0.000336063        0.0722633       -0.106402      0.000194702    -0.000281291         0.815849       -0.546606
                       -0.350723        0.909887      0.000230171    -0.000172987        -0.204447       0.0424925     -0.000182345    -0.000474695
                     0.000211953    -0.000301839         0.815762        -0.54654     -0.000368294     -0.00035511        -0.130102       0.0293165
281701.5                -0.12332       -0.168087      0.000483713     0.000267199        -0.350717        0.909792      0.000163186    -0.000346019
                     0.000489771     0.000336044        0.0722557       -0.106407      0.000194698    -0.000281304          0.81583       -0.546635
                       -0.350697        0.909897      0.000230172    -0.000172995        -0.204445       0.0424965     -0.000182364    -0.000474688
                     0.000211944     -0.00030185         0.815743       -0.546568     -0.000368307    -0.000355099        -0.130102       0.0293162
281701.6               -0.123326       -0.168082      0.000483708     0.000267183        -0.350691        0.909802      0.000163182    -0.000346021
                     0.000489771     0.000336024        0.0722482       -0.106413      0.000194693    -0.000281317         0.815811       -0.546663
                       -0.350671        0.909907      0.000230173    -0.000173003        -0.204444       0.0425004     -0.000182383    -0.000474681
                     0.000211935    -0.000301862         0.815724       -0.546596     -0.000368319    -0.000355088        -0.130102        0.029316
281701.7               -0.123332       -0.168077      0.000483704     0.000267167        -0.350665        0.909812      0.000163177    -0.000346024
                      0.00048977     0.000336004        0.0722407       -0.106418      0.000194688    -0.000281329         0.815792       -0.546691
                       -0.350645        0.909917      0.000230175    -0.000173011        -0.204443       0.0425044     -0.000182401    -0.000474674
                     0.000211925    -0.000301873         0.815705       -0.546624     -0.000368331    -0.000355077        -0.130103       0.0293158
281701.8               -0.123338       -0.168072        0.0004837     0.000267151        -0.350639        0.909822      0.000163173    -0.000346026
                      0.00048977     0.000335985        0.0722332       -0.106424      0.000194684    -0.000281342         0.815773       -0.546719
                       -0.350619        0.909927      0.000230176    -0.000173019        -0.204441       0.0425084      -0.00018242    -0.000474667
                     0.000211916    -0.000301884         0.815686       -0.546653     -0.000368344    -0.000355066        -0.130103       0.0293155
281701.9               -0.123344       -0.168067      0.000483695     0.000267135        -0.350613        0.909832      0.000163168    -0.000346028
                      0.00048977     0.000335965        0.0722256       -0.106429      0.000194679    -0.000281354         0.815754       -0.546748
                       -0.350593        0.909938      0.000230177    -0.000173027         -0.20444       0.0425124     -0.000182439     -0.00047466
                     0.000211907    -0.000301895         0.815667       -0.546681     -0.000368356    -0.000355055        -0.130103       0.0293153
281702                  -0.12335       -0.168062      0.000483691     0.000267119        -0.350587        0.909842      0.000163164     -0.00034603
                      0.00048977     0.000335946        0.0722181       -0.106435      0.000194674    -0.000281367         0.815735       -0.546776
                       -0.350567        0.909948      0.000230178    -0.000173035        -0.204439       0.0425164     -0.000182458    -0.000474653
                     0.000211897    -0.000301906         0.815648       -0.546709     -0.000368368    -0.000355045        -0.130103        0.029315
281702.1               -0.123356       -0.168057      0.000483687     0.000267103        -0.350561        0.909853      0.000163159    -0.000346033
                      0.00048977     0.000335926        0.0722106        -0.10644      0.000194669    -0.000281379         0.815716       -0.546804
                       -0.350541        0.909958      0.000230179    -0.000173043        -0.204437       0.0425204     -0.000182476    -0.000474647
                     0.000211888    -0.000301917         0.815629       -0.546738     -0.000368381    -0.000355034        -0.130104       0.0293148
281702.2               -0.123362       -0.168052      0.000483682     0.000267087        -0.350535        0.909863      0.000163155    -0.000346035
                     0.000489769     0.000335906         0.072203       -0.106446      0.000194665    -0.000281392         0.815697       -0.546833
                       -0.350515        0.909968       0.00023018    -0.000173051        -0.204436       0.0425243     -0.000182495     -0.00047464
                     0.000211879    -0.000301928          0.81561       -0.546766     -0.000368393    -0.000355023        -0.130104       0.0293146
281702.3               -0.123368       -0.168047      0.000483678     0.000267071        -0.350509        0.909873       0.00016315    -0.000346037
                     0.000489769     0.000335887        0.0721955       -0.106451       0.00019466    -0.000281405         0.815678       -0.546861
                       -0.350489        0.909978      0.000230181    -0.000173059        -0.204435       0.0425283     -0.000182514    -0.000474633
                     0.000211869     -0.00030194         0.815591       -0.546794     -0.000368406    -0.000355012        -0.130104       0.0293143
281702.4               -0.123374       -0.168042      0.000483674     0.000267055        -0.350483        0.909883      0.000163146     -0.00034604
                     0.000489769     0.000335867         0.072188       -0.106457      0.000194655    -0.000281417         0.815659       -0.546889
                       -0.350463        0.909988      0.000230182    -0.000173067        -0.204434       0.0425323     -0.000182533    -0.000474626
                      0.00021186    -0.000301951         0.815572       -0.546822     -0.000368418    -0.000355001        -0.130104       0.0293141
281702.5                -0.12338       -0.168037       0.00048367     0.000267039        -0.350457        0.909893      0.000163141    -0.000346042
                     0.000489769     0.000335847        0.0721804       -0.106462      0.000194651     -0.00028143          0.81564       -0.546918
                       -0.350437        0.909998      0.000230183    -0.000173075        -0.204432       0.0425363     -0.000182551    -0.000474619
                      0.00021185    -0.000301962         0.815553       -0.546851      -0.00036843     -0.00035499        -0.130105       0.0293139
281702.6               -0.123386       -0.168032      0.000483665     0.000267023        -0.350431        0.909903      0.000163137    -0.000346044
                     0.000489768     0.000335828        0.0721729       -0.106468      0.000194646    -0.000281442         0.815621       -0.546946
                       -0.350411        0.910008      0.000230185    -0.000173083        -0.204431       0.0425403      -0.00018257    -0.000474612
                     0.000211841    -0.000301973         0.815534       -0.546879     -0.000368443    -0.000354979        -0.130105       0.0293136
281702.7               -0.123391       -0.168027      0.000483661     0.000267007        -0.350405        0.909913      0.000163132    -0.000346047
                     0.000489768     0.000335808        0.0721654       -0.106473      0.000194641    -0.000281455         0.815602       -0.546974
                       -0.350385        0.910018      0.000230186    -0.000173091         -0.20443       0.0425442     -0.000182589    -0.000474605
                     0.000211832    -0.000301984         0.815515       -0.546907     -0.000368455    -0.000354968        -0.130105       0.0293134
281702.8               -0.123397       -0.168023      0.000483657     0.000266991        -0.350379        0.909923      0.000163128    -0.000346049
                     0.000489768     0.000335789        0.0721578       -0.106479      0.000194637    -0.000281467         0.815583       -0.547002
                        -0.35036        0.910028      0.000230187    -0.000173099        -0.204428       0.0425482     -0.000182607    -0.000474598
                     0.000211822    -0.000301995         0.815496       -0.546936     -0.000368467    -0.000354957        -0.130105       0.0293132
281702.9               -0.123403       -0.168018      0.000483652     0.000266975        -0.350353        0.909933      0.000163123    -0.000346051
                     0.000489767     0.000335769        0.0721503       -0.106484      0.000194632     -0.00028148         0.815564       -0.547031
                       -0.350334        0.910038      0.000230188    -0.000173107        -0.204427       0.0425522     -0.000182626    -0.000474591
                     0.000211813    -0.000302006         0.815477       -0.546964      -0.00036848    -0.000354946        -0.130106       0.0293129
281703                 -0.123409       -0.168013      0.000483648     0.000266959        -0.350327        0.909943      0.000163119    -0.000346054
                     0.000489767     0.000335749        0.0721428        -0.10649      0.000194627    -0.000281493         0.815545       -0.547059
                       -0.350308        0.910049      0.000230189    -0.000173115        -0.204426       0.0425562     -0.000182645    -0.000474584
                     0.000211804    -0.000302018         0.815458       -0.546992     -0.000368492    -0.000354935        -0.130106       0.0293127
281703.1               -0.123415       -0.168008      0.000483644     0.000266943        -0.350301        0.909953      0.000163114    -0.000346056
                     0.000489767      0.00033573        0.0721352       -0.106495      0.000194623    -0.000281505         0.815526       -0.547087
                       -0.350282        0.910059       0.00023019    -0.000173123        -0.204424       0.0425602     -0.000182664    -0.000474577
