! TOUCHSTONE file generated by CST MICROWAVE STUDIO
! Date and time: Wed Oct  8 06:53:20 2025
! Project name: Teste_Macro_Metasurface_Nanopilar.cst
! Parameters = {H=600; L_x=90; L_y=155; Lambda=1064; Max_L=200; Min_L=70; PathPara=1; Phi=0; Step_L=10; Theta=0; p=520; phaseX=180; phaseY=0}
! Header version: 2018
! Port assignment regex: !\s*Touchstone port\s*([0-9]+)\s*=\s*(CST MWS port|CST DS port)\s*([0-9]+|Zmin|Zmax)\s*\(\"(.*)\"\)(\s*mode\s*([0-9]+))?.*
! Touchstone port assignment:
! Touchstone port 1 = CST MWS port Zmax ("") mode 1
! Touchstone port 2 = CST MWS port Zmax ("") mode 2
! Touchstone port 3 = CST MWS port Zmin ("") mode 1
! Touchstone port 4 = CST MWS port Zmin ("") mode 2
! S-Parameters are not renormalized. Each port impedance will be approximated by the real part at minimum frequency. The values are described via the [Reference] keyword.
! Default impedance is overridden by [Reference]
[Version] 2.0
# GHz S RI R 376.73
[Number of Ports] 4
[Reference]
376.73 376.73 376.73 376.73 
[Number of Frequencies] 1001
[Network Data]
281700                 -0.195767       -0.111956      0.000203049     0.000943464        -0.036593       -0.966965      8.36162e-05     0.000363756
                     0.000262843     0.000667746       -0.0941089       -0.177041     -5.07672e-05     5.87331e-06        -0.413186        0.885493
                      -0.0366724       -0.966986     -4.92242e-06     5.48469e-05        -0.187559        0.126887     -0.000410444     0.000497277
                     1.76222e-05     0.000294443        -0.413349        0.884917     -0.000518121     0.000535846        -0.196364       0.0420404
281700.1               -0.195769       -0.111948      0.000203066     0.000943487       -0.0366234       -0.966965      8.36307e-05     0.000363749
                     0.000262858     0.000667746       -0.0941153       -0.177037       -5.077e-05     5.86844e-06        -0.413162        0.885505
                      -0.0367028       -0.966986     -4.92023e-06     5.48659e-05        -0.187553        0.126891     -0.000410422     0.000497289
                     1.76321e-05     0.000294432        -0.413324        0.884929     -0.000518106     0.000535878        -0.196363       0.0420439
281700.2               -0.195771        -0.11194      0.000203083      0.00094351       -0.0366537       -0.966964      8.36452e-05     0.000363742
                     0.000262873     0.000667747       -0.0941218       -0.177033     -5.07728e-05     5.86357e-06        -0.413137        0.885517
                      -0.0367332       -0.966985     -4.91805e-06     5.48848e-05        -0.187548        0.126894       -0.0004104     0.000497301
                      1.7642e-05     0.000294421        -0.413299        0.884941     -0.000518091      0.00053591        -0.196361       0.0420475
281700.3               -0.195773       -0.111932        0.0002031     0.000943532       -0.0366841       -0.966964      8.36598e-05     0.000363734
                     0.000262888     0.000667747       -0.0941283       -0.177029     -5.07756e-05     5.85869e-06        -0.413112        0.885529
                      -0.0367635       -0.966985     -4.91586e-06     5.49037e-05        -0.187542        0.126898     -0.000410378     0.000497313
                     1.76519e-05      0.00029441        -0.413274        0.884953     -0.000518076     0.000535942         -0.19636        0.042051
281700.4               -0.195775       -0.111924      0.000203118     0.000943555       -0.0367144       -0.966963      8.36743e-05     0.000363727
                     0.000262903     0.000667747       -0.0941348       -0.177025     -5.07784e-05     5.85381e-06        -0.413087         0.88554
                      -0.0367939       -0.966984     -4.91369e-06     5.49227e-05        -0.187537        0.126902     -0.000410356     0.000497324
                     1.76618e-05     0.000294399        -0.413249        0.884964      -0.00051806     0.000535974        -0.196359       0.0420546
281700.5               -0.195776       -0.111916      0.000203135     0.000943578       -0.0367448       -0.966963      8.36889e-05     0.000363719
                     0.000262918     0.000667748       -0.0941412       -0.177021     -5.07812e-05     5.84893e-06        -0.413062        0.885552
                      -0.0368242       -0.966983     -4.91151e-06     5.49416e-05        -0.187531        0.126906     -0.000410334     0.000497336
                     1.76717e-05     0.000294388        -0.413224        0.884976     -0.000518045     0.000536006        -0.196358       0.0420581
281700.6               -0.195778       -0.111908      0.000203152     0.000943601       -0.0367751       -0.966962      8.37034e-05     0.000363712
                     0.000262933     0.000667748       -0.0941477       -0.177017      -5.0784e-05     5.84404e-06        -0.413037        0.885564
                      -0.0368546       -0.966983     -4.90934e-06     5.49606e-05        -0.187526         0.12691     -0.000410311     0.000497348
                     1.76815e-05     0.000294377        -0.413199        0.884988      -0.00051803     0.000536038        -0.196356       0.0420617
281700.7                -0.19578         -0.1119      0.000203169     0.000943623       -0.0368055       -0.966961      8.37179e-05     0.000363705
                     0.000262948     0.000667749       -0.0941542       -0.177013     -5.07868e-05     5.83915e-06        -0.413012        0.885576
                       -0.036885       -0.966982     -4.90718e-06     5.49795e-05         -0.18752        0.126913     -0.000410289      0.00049736
                     1.76914e-05     0.000294366        -0.413174        0.884999     -0.000518015      0.00053607        -0.196355       0.0420652
281700.8               -0.195782       -0.111892      0.000203187     0.000943646       -0.0368358       -0.966961      8.37325e-05     0.000363697
                     0.000262963     0.000667749       -0.0941607       -0.177009     -5.07896e-05     5.83426e-06        -0.412987        0.885587
                      -0.0369153       -0.966982     -4.90501e-06     5.49985e-05        -0.187515        0.126917     -0.000410267     0.000497371
                     1.77013e-05     0.000294355        -0.413149        0.885011        -0.000518     0.000536102        -0.196354       0.0420688
281700.9               -0.195784       -0.111883      0.000203204     0.000943669       -0.0368662        -0.96696       8.3747e-05      0.00036369
                     0.000262978      0.00066775       -0.0941671       -0.177006     -5.07924e-05     5.82936e-06        -0.412962        0.885599
                      -0.0369457       -0.966981     -4.90286e-06     5.50174e-05        -0.187509        0.126921     -0.000410245     0.000497383
                     1.77112e-05     0.000294344        -0.413124        0.885023     -0.000517984     0.000536134        -0.196353       0.0420723
281701                 -0.195786       -0.111875      0.000203221     0.000943691       -0.0368965        -0.96696      8.37616e-05     0.000363683
                     0.000262993      0.00066775       -0.0941736       -0.177002     -5.07952e-05     5.82447e-06        -0.412937        0.885611
                       -0.036976        -0.96698      -4.9007e-06     5.50364e-05        -0.187504        0.126925     -0.000410223     0.000497395
                     1.77211e-05     0.000294333        -0.413099        0.885035     -0.000517969     0.000536166        -0.196351       0.0420759
281701.1               -0.195787       -0.111867      0.000203238     0.000943714       -0.0369269       -0.966959      8.37761e-05     0.000363675
                     0.000263008     0.000667751       -0.0941801       -0.176998      -5.0798e-05     5.81956e-06        -0.412912        0.885623
                      -0.0370064        -0.96698     -4.89855e-06     5.50554e-05        -0.187498        0.126928     -0.000410201     0.000497407
                      1.7731e-05     0.000294322        -0.413074        0.885046     -0.000517954     0.000536198         -0.19635       0.0420794
281701.2               -0.195789       -0.111859      0.000203256     0.000943737       -0.0369572       -0.966959      8.37906e-05     0.000363668
                     0.000263023     0.000667751       -0.0941866       -0.176994     -5.08007e-05     5.81466e-06        -0.412887        0.885634
                      -0.0370368       -0.966979     -4.89641e-06     5.50743e-05        -0.187493        0.126932     -0.000410179     0.000497418
                     1.77408e-05     0.000294311        -0.413049        0.885058     -0.000517939      0.00053623        -0.196349        0.042083
281701.3               -0.195791       -0.111851      0.000203273     0.000943759       -0.0369876       -0.966958      8.38052e-05     0.000363661
                     0.000263038     0.000667751        -0.094193        -0.17699     -5.08035e-05     5.80975e-06        -0.412862        0.885646
                      -0.0370671       -0.966979     -4.89427e-06     5.50933e-05        -0.187487        0.126936     -0.000410156      0.00049743
                     1.77507e-05       0.0002943        -0.413024         0.88507     -0.000517924     0.000536262        -0.196348       0.0420865
281701.4               -0.195793       -0.111843       0.00020329     0.000943782        -0.037018       -0.966957      8.38197e-05     0.000363653
                     0.000263053     0.000667752       -0.0941995       -0.176986     -5.08063e-05     5.80483e-06        -0.412837        0.885658
                      -0.0370975       -0.966978     -4.89213e-06     5.51123e-05        -0.187482         0.12694     -0.000410134     0.000497442
                     1.77606e-05     0.000294289        -0.412999        0.885081     -0.000517908     0.000536294        -0.196346       0.0420901
281701.5               -0.195795       -0.111835      0.000203307     0.000943805       -0.0370483       -0.966957      8.38342e-05     0.000363646
                     0.000263068     0.000667752        -0.094206       -0.176982     -5.08091e-05     5.79992e-06        -0.412812         0.88567
                      -0.0371279       -0.966978     -4.88999e-06     5.51312e-05        -0.187476        0.126944     -0.000410112     0.000497454
                     1.77705e-05     0.000294278        -0.412975        0.885093     -0.000517893     0.000536326        -0.196345       0.0420936
281701.6               -0.195797       -0.111827      0.000203324     0.000943827       -0.0370787       -0.966956      8.38488e-05     0.000363639
                     0.000263084     0.000667753       -0.0942125       -0.176978     -5.08119e-05       5.795e-06        -0.412787        0.885681
                      -0.0371582       -0.966977     -4.88786e-06     5.51502e-05        -0.187471        0.126947      -0.00041009     0.000497465
                     1.77804e-05     0.000294267         -0.41295        0.885105     -0.000517878     0.000536358        -0.196344       0.0420972
281701.7               -0.195798       -0.111819      0.000203342      0.00094385        -0.037109       -0.966956      8.38633e-05     0.000363631
                     0.000263099     0.000667753       -0.0942189       -0.176974     -5.08146e-05     5.79007e-06        -0.412762        0.885693
                      -0.0371886       -0.966976     -4.88574e-06     5.51692e-05        -0.187465        0.126951     -0.000410068     0.000497477
                     1.77902e-05     0.000294256        -0.412925        0.885117     -0.000517863      0.00053639        -0.196343       0.0421007
281701.8                 -0.1958       -0.111811      0.000203359     0.000943872       -0.0371394       -0.966955      8.38778e-05     0.000363624
                     0.000263114     0.000667754       -0.0942254        -0.17697     -5.08174e-05     5.78515e-06        -0.412737        0.885705
                      -0.0372189       -0.966976     -4.88362e-06     5.51882e-05         -0.18746        0.126955     -0.000410046     0.000497489
                     1.78001e-05     0.000294245          -0.4129        0.885128     -0.000517847     0.000536422        -0.196341       0.0421043
281701.9               -0.195802       -0.111803      0.000203376     0.000943895       -0.0371697       -0.966954      8.38924e-05     0.000363616
                     0.000263129     0.000667754       -0.0942319       -0.176966     -5.08202e-05     5.78022e-06        -0.412712        0.885717
                      -0.0372493       -0.966975      -4.8815e-06     5.52072e-05        -0.187454        0.126959     -0.000410024     0.000497501
                       1.781e-05     0.000294234        -0.412875         0.88514     -0.000517832     0.000536454         -0.19634       0.0421078
281702                 -0.195804       -0.111795      0.000203393     0.000943918       -0.0372001       -0.966954      8.39069e-05     0.000363609
                     0.000263144     0.000667755       -0.0942383       -0.176962     -5.08229e-05     5.77528e-06        -0.412687        0.885728
                      -0.0372797       -0.966975     -4.87939e-06     5.52262e-05        -0.187449        0.126962     -0.000410002     0.000497512
                     1.78199e-05     0.000294223         -0.41285        0.885152     -0.000517817     0.000536486        -0.196339       0.0421114
281702.1               -0.195806       -0.111787       0.00020341      0.00094394       -0.0372304       -0.966953      8.39214e-05     0.000363602
                     0.000263159     0.000667755       -0.0942448       -0.176958     -5.08257e-05     5.77035e-06        -0.412662         0.88574
                        -0.03731       -0.966974     -4.87728e-06     5.52451e-05        -0.187443        0.126966     -0.000409979     0.000497524
                     1.78298e-05     0.000294212        -0.412825        0.885163     -0.000517802     0.000536518        -0.196338       0.0421149
281702.2               -0.195808       -0.111779      0.000203427     0.000943963       -0.0372608       -0.966953      8.39359e-05     0.000363594
                     0.000263174     0.000667756       -0.0942513       -0.176954     -5.08285e-05     5.76541e-06        -0.412637        0.885752
                      -0.0373404       -0.966973     -4.87517e-06     5.52641e-05        -0.187438         0.12697     -0.000409957     0.000497536
                     1.78397e-05     0.000294201          -0.4128        0.885175     -0.000517786      0.00053655        -0.196336       0.0421185
281702.3               -0.195809       -0.111771      0.000203445     0.000943985       -0.0372911       -0.966952      8.39505e-05     0.000363587
                     0.000263189     0.000667756       -0.0942578        -0.17695     -5.08312e-05     5.76046e-06        -0.412612        0.885764
                      -0.0373708       -0.966973     -4.87307e-06     5.52831e-05        -0.187432        0.126974     -0.000409935     0.000497547
                     1.78496e-05      0.00029419        -0.412775        0.885187     -0.000517771     0.000536582        -0.196335        0.042122
281702.4               -0.195811       -0.111763      0.000203462     0.000944008       -0.0373215       -0.966952       8.3965e-05      0.00036358
                     0.000263204     0.000667757       -0.0942642       -0.176946      -5.0834e-05     5.75551e-06        -0.412587        0.885775
                      -0.0374011       -0.966972     -4.87097e-06     5.53021e-05        -0.187427        0.126978     -0.000409913     0.000497559
                     1.78594e-05     0.000294179         -0.41275        0.885199     -0.000517756     0.000536614        -0.196334       0.0421256
281702.5               -0.195813       -0.111755      0.000203479      0.00094403       -0.0373518       -0.966951      8.39795e-05     0.000363572
                     0.000263219     0.000667757       -0.0942707       -0.176942     -5.08368e-05     5.75056e-06        -0.412562        0.885787
                      -0.0374315       -0.966972     -4.86888e-06     5.53211e-05        -0.187421        0.126981     -0.000409891     0.000497571
                     1.78693e-05     0.000294168        -0.412725         0.88521     -0.000517741     0.000536646        -0.196333       0.0421291
281702.6               -0.195815       -0.111747      0.000203496     0.000944053       -0.0373822        -0.96695       8.3994e-05     0.000363565
                     0.000263234     0.000667758       -0.0942772       -0.176938     -5.08395e-05     5.74561e-06        -0.412537        0.885799
                      -0.0374618       -0.966971     -4.86679e-06     5.53402e-05        -0.187416        0.126985     -0.000409869     0.000497583
                     1.78792e-05     0.000294157          -0.4127        0.885222     -0.000517725     0.000536678        -0.196331       0.0421327
281702.7               -0.195817       -0.111739      0.000203513     0.000944075       -0.0374125        -0.96695      8.40086e-05     0.000363557
                     0.000263249     0.000667758       -0.0942836       -0.176934     -5.08423e-05     5.74065e-06        -0.412512        0.885811
                      -0.0374922        -0.96697      -4.8647e-06     5.53592e-05         -0.18741        0.126989     -0.000409846     0.000497594
                     1.78891e-05     0.000294145        -0.412675        0.885234      -0.00051771      0.00053671         -0.19633       0.0421362
281702.8               -0.195819       -0.111731       0.00020353     0.000944098       -0.0374429       -0.966949      8.40231e-05      0.00036355
                     0.000263264     0.000667759       -0.0942901        -0.17693      -5.0845e-05     5.73569e-06        -0.412487        0.885822
                      -0.0375226        -0.96697     -4.86262e-06     5.53782e-05        -0.187405        0.126993     -0.000409824     0.000497606
                      1.7899e-05     0.000294134         -0.41265        0.885245     -0.000517695     0.000536742        -0.196329       0.0421398
281702.9                -0.19582       -0.111723      0.000203548      0.00094412       -0.0374732       -0.966949      8.40376e-05     0.000363543
                     0.000263279     0.000667759       -0.0942966       -0.176926     -5.08478e-05     5.73072e-06        -0.412462        0.885834
                      -0.0375529       -0.966969     -4.86055e-06     5.53972e-05        -0.187399        0.126996     -0.000409802     0.000497618
                     1.79089e-05     0.000294123        -0.412625        0.885257     -0.000517679     0.000536774        -0.196328       0.0421433
281703                 -0.195822       -0.111715      0.000203565     0.000944143       -0.0375036       -0.966948      8.40521e-05     0.000363535
                     0.000263294      0.00066776       -0.0943031       -0.176922     -5.08505e-05     5.72576e-06        -0.412437        0.885846
                      -0.0375833       -0.966969     -4.85847e-06     5.54162e-05        -0.187394           0.127      -0.00040978     0.000497629
                     1.79187e-05     0.000294112          -0.4126        0.885269     -0.000517664     0.000536806        -0.196326       0.0421469
281703.1               -0.195824       -0.111707      0.000203582     0.000944165       -0.0375339       -0.966947      8.40667e-05     0.000363528
                      0.00026331      0.00066776       -0.0943095       -0.176918     -5.08533e-05     5.72078e-06        -0.412412        0.885858
                      -0.0376137       -0.966968      -4.8564e-06     5.54352e-05        -0.187388        0.127004     -0.000409758     0.000497641
