! TOUCHSTONE file generated by CST MICROWAVE STUDIO
! Date and time: Wed Oct  8 07:02:59 2025
! Project name: Teste_Macro_Metasurface_Nanopilar.cst
! Parameters = {H=600; L_x=170; L_y=180; Lambda=1064; Max_L=200; Min_L=70; PathPara=1; Phi=0; Step_L=10; Theta=0; p=520; phaseX=180; phaseY=0}
! Header version: 2018
! Port assignment regex: !\s*Touchstone port\s*([0-9]+)\s*=\s*(CST MWS port|CST DS port)\s*([0-9]+|Zmin|Zmax)\s*\(\"(.*)\"\)(\s*mode\s*([0-9]+))?.*
! Touchstone port assignment:
! Touchstone port 1 = CST MWS port Zmax ("") mode 1
! Touchstone port 2 = CST MWS port Zmax ("") mode 2
! Touchstone port 3 = CST MWS port Zmin ("") mode 1
! Touchstone port 4 = CST MWS port Zmin ("") mode 2
! S-Parameters are not renormalized. Each port impedance will be approximated by the real part at minimum frequency. The values are described via the [Reference] keyword.
! Default impedance is overridden by [Reference]
[Version] 2.0
# GHz S RI R 376.73
[Number of Ports] 4
[Reference]
376.73 376.73 376.73 376.73 
[Number of Frequencies] 1001
[Network Data]
281700                -0.0270559       -0.104107     -6.43361e-05    -0.000753152        -0.988672       0.0557393      2.25558e-05      0.00104577
                    -7.12135e-05    -0.000746596       0.00448898      -0.0474569       0.00011746      0.00106084        -0.993684      -0.0375418
                       -0.988603       0.0557484      0.000161876      0.00103651        0.0115445       -0.106359     -0.000115464    -0.000739158
                     2.69685e-06      0.00101821        -0.993612      -0.0374965     -7.18421e-05    -0.000745254      -0.00397365      -0.0467341
281700.1              -0.0270585       -0.104112     -6.43676e-05    -0.000753158         -0.98867       0.0557687      2.25917e-05      0.00104577
                    -7.12395e-05    -0.000746605       0.00448898       -0.047463        0.0001175      0.00106085        -0.993684      -0.0375118
                       -0.988601       0.0557778      0.000161915      0.00103651        0.0115401       -0.106365     -0.000115498    -0.000739162
                     2.72958e-06      0.00101821        -0.993613      -0.0374664     -7.18732e-05    -0.000745261      -0.00397602        -0.04674
281700.2               -0.027061       -0.104118     -6.43991e-05    -0.000753165        -0.988667       0.0557982      2.26276e-05      0.00104578
                    -7.12655e-05    -0.000746614       0.00448899       -0.047469      0.000117541      0.00106085        -0.993685      -0.0374817
                       -0.988598       0.0558073      0.000161954      0.00103651        0.0115356       -0.106372     -0.000115532    -0.000739165
                     2.76231e-06      0.00101822        -0.993614      -0.0374364     -7.19042e-05    -0.000745267      -0.00397838      -0.0467459
281700.3              -0.0270635       -0.104124     -6.44306e-05    -0.000753171        -0.988665       0.0558277      2.26636e-05      0.00104579
                    -7.12915e-05    -0.000746622         0.004489      -0.0474751      0.000117581      0.00106085        -0.993686      -0.0374517
                       -0.988596       0.0558368      0.000161993      0.00103651        0.0115311       -0.106379     -0.000115566    -0.000739169
                     2.79504e-06      0.00101822        -0.993615      -0.0374063     -7.19353e-05    -0.000745274      -0.00398075      -0.0467517
281700.4              -0.0270661        -0.10413     -6.44621e-05    -0.000753177        -0.988663       0.0558571      2.26995e-05      0.00104579
                    -7.13176e-05    -0.000746631       0.00448901      -0.0474812      0.000117622      0.00106086        -0.993687      -0.0374216
                       -0.988594       0.0558663      0.000162032      0.00103651        0.0115267       -0.106386       -0.0001156    -0.000739173
                     2.82777e-06      0.00101822        -0.993616      -0.0373763     -7.19664e-05    -0.000745281      -0.00398311      -0.0467576
281700.5              -0.0270686       -0.104135     -6.44936e-05    -0.000753183         -0.98866       0.0558866      2.27354e-05       0.0010458
                    -7.13436e-05     -0.00074664       0.00448902      -0.0474873      0.000117663      0.00106086        -0.993688      -0.0373916
                       -0.988591       0.0558957      0.000162071       0.0010365        0.0115222       -0.106392     -0.000115634    -0.000739176
                     2.86049e-06      0.00101823        -0.993616      -0.0373463     -7.19974e-05    -0.000745288      -0.00398548      -0.0467635
281700.6              -0.0270712       -0.104141     -6.45251e-05    -0.000753189        -0.988658       0.0559161      2.27714e-05      0.00104581
                    -7.13696e-05    -0.000746648       0.00448902      -0.0474934      0.000117703      0.00106087        -0.993688      -0.0373616
                       -0.988589       0.0559252       0.00016211       0.0010365        0.0115177       -0.106399     -0.000115668     -0.00073918
                     2.89323e-06      0.00101823        -0.993617      -0.0373162     -7.20285e-05    -0.000745294      -0.00398784      -0.0467693
281700.7              -0.0270737       -0.104147     -6.45566e-05    -0.000753196        -0.988656       0.0559455      2.28073e-05      0.00104581
                    -7.13956e-05    -0.000746657       0.00448903      -0.0474995      0.000117744      0.00106087        -0.993689      -0.0373315
                       -0.988587       0.0559547      0.000162149       0.0010365        0.0115133       -0.106406     -0.000115703    -0.000739184
                     2.92596e-06      0.00101823        -0.993618      -0.0372862     -7.20596e-05    -0.000745301      -0.00399021      -0.0467752
281700.8              -0.0270762       -0.104153     -6.45881e-05    -0.000753202        -0.988653        0.055975      2.28432e-05      0.00104582
                    -7.14217e-05    -0.000746666       0.00448903      -0.0475055      0.000117785      0.00106087         -0.99369      -0.0373015
                       -0.988584       0.0559841      0.000162188       0.0010365        0.0115088       -0.106413     -0.000115737    -0.000739187
                     2.95869e-06      0.00101824        -0.993619      -0.0372561     -7.20906e-05    -0.000745308      -0.00399258      -0.0467811
281700.9              -0.0270788       -0.104158     -6.46196e-05    -0.000753208        -0.988651       0.0560045      2.28791e-05      0.00104583
                    -7.14477e-05    -0.000746674       0.00448904      -0.0475116      0.000117825      0.00106088        -0.993691      -0.0372714
                       -0.988582       0.0560136      0.000162228       0.0010365        0.0115044       -0.106419     -0.000115771    -0.000739191
                     2.99142e-06      0.00101824         -0.99362      -0.0372261     -7.21217e-05    -0.000745315      -0.00399494      -0.0467869
281701                -0.0270813       -0.104164     -6.46511e-05    -0.000753214        -0.988649       0.0560339      2.29151e-05      0.00104583
                    -7.14737e-05    -0.000746683       0.00448905      -0.0475177      0.000117866      0.00106088        -0.993692      -0.0372414
                        -0.98858       0.0560431      0.000162267      0.00103649        0.0114999       -0.106426     -0.000115805    -0.000739195
                     3.02415e-06      0.00101824        -0.993621       -0.037196     -7.21528e-05    -0.000745321      -0.00399731      -0.0467928
281701.1              -0.0270838        -0.10417     -6.46826e-05     -0.00075322        -0.988646       0.0560634       2.2951e-05      0.00104584
                    -7.14997e-05    -0.000746692       0.00448905      -0.0475238      0.000117907      0.00106089        -0.993693      -0.0372114
                       -0.988577       0.0560725      0.000162306      0.00103649        0.0114954       -0.106433     -0.000115839    -0.000739198
                     3.05688e-06      0.00101824        -0.993621       -0.037166     -7.21839e-05    -0.000745328      -0.00399968      -0.0467987
281701.2              -0.0270864       -0.104176     -6.47141e-05    -0.000753226        -0.988644       0.0560928      2.29869e-05      0.00104585
                    -7.15258e-05      -0.0007467       0.00448906      -0.0475299      0.000117947      0.00106089        -0.993693      -0.0371813
                       -0.988575        0.056102      0.000162345      0.00103649         0.011491        -0.10644     -0.000115873    -0.000739202
                     3.08961e-06      0.00101825        -0.993622      -0.0371359     -7.22149e-05    -0.000745335      -0.00400205      -0.0468046
281701.3              -0.0270889       -0.104181     -6.47456e-05    -0.000753233        -0.988642       0.0561223      2.30228e-05      0.00104585
                    -7.15518e-05    -0.000746709       0.00448906       -0.047536      0.000117988      0.00106089        -0.993694      -0.0371513
                       -0.988573       0.0561315      0.000162384      0.00103649        0.0114865       -0.106446     -0.000115907    -0.000739206
                     3.12234e-06      0.00101825        -0.993623      -0.0371059      -7.2246e-05    -0.000745342      -0.00400441      -0.0468104
281701.4              -0.0270915       -0.104187     -6.47771e-05    -0.000753239        -0.988639       0.0561518      2.30588e-05      0.00104586
                    -7.15778e-05    -0.000746718       0.00448906       -0.047542      0.000118029       0.0010609        -0.993695      -0.0371212
                        -0.98857       0.0561609      0.000162423      0.00103649         0.011482       -0.106453     -0.000115942    -0.000739209
                     3.15508e-06      0.00101825        -0.993624      -0.0370759     -7.22771e-05    -0.000745348      -0.00400678      -0.0468163
281701.5               -0.027094       -0.104193     -6.48086e-05    -0.000753245        -0.988637       0.0561812      2.30947e-05      0.00104587
                    -7.16039e-05    -0.000746726       0.00448907      -0.0475481      0.000118069       0.0010609        -0.993696      -0.0370912
                       -0.988568       0.0561904      0.000162462      0.00103649        0.0114776        -0.10646     -0.000115976    -0.000739213
                     3.18781e-06      0.00101826        -0.993625      -0.0370458     -7.23082e-05    -0.000745355      -0.00400915      -0.0468222
281701.6              -0.0270965       -0.104199     -6.48401e-05    -0.000753251        -0.988635       0.0562107      2.31306e-05      0.00104587
                    -7.16299e-05    -0.000746735       0.00448907      -0.0475542       0.00011811       0.0010609        -0.993697      -0.0370611
                       -0.988566       0.0562199      0.000162501      0.00103648        0.0114731       -0.106467      -0.00011601    -0.000739217
                     3.22054e-06      0.00101826        -0.993625      -0.0370158     -7.23392e-05    -0.000745362      -0.00401152       -0.046828
281701.7              -0.0270991       -0.104204     -6.48716e-05    -0.000753257        -0.988632       0.0562402      2.31665e-05      0.00104588
                    -7.16559e-05    -0.000746743       0.00448907      -0.0475603      0.000118151      0.00106091        -0.993697      -0.0370311
                       -0.988563       0.0562493       0.00016254      0.00103648        0.0114686       -0.106474     -0.000116044     -0.00073922
                     3.25327e-06      0.00101826        -0.993626      -0.0369857     -7.23703e-05    -0.000745369      -0.00401389      -0.0468339
281701.8              -0.0271016        -0.10421     -6.49031e-05    -0.000753263         -0.98863       0.0562696      2.32024e-05      0.00104589
                     -7.1682e-05    -0.000746752       0.00448908      -0.0475664      0.000118191      0.00106091        -0.993698      -0.0370011
                       -0.988561       0.0562788      0.000162579      0.00103648        0.0114642        -0.10648     -0.000116078    -0.000739224
                     3.28601e-06      0.00101827        -0.993627      -0.0369557     -7.24014e-05    -0.000745375      -0.00401626      -0.0468398
281701.9              -0.0271042       -0.104216     -6.49346e-05    -0.000753269        -0.988628       0.0562991      2.32384e-05      0.00104589
                     -7.1708e-05    -0.000746761       0.00448908      -0.0475725      0.000118232      0.00106092        -0.993699       -0.036971
                       -0.988559       0.0563083      0.000162618      0.00103648        0.0114597       -0.106487     -0.000116112    -0.000739228
                     3.31874e-06      0.00101827        -0.993628      -0.0369256     -7.24325e-05    -0.000745382      -0.00401863      -0.0468456
281702                -0.0271067       -0.104221     -6.49661e-05    -0.000753276        -0.988625       0.0563286      2.32743e-05       0.0010459
                     -7.1734e-05    -0.000746769       0.00448908      -0.0475786      0.000118273      0.00106092          -0.9937       -0.036941
                       -0.988556       0.0563377      0.000162657      0.00103648        0.0114552       -0.106494     -0.000116146    -0.000739231
                     3.35147e-06      0.00101827        -0.993629      -0.0368956     -7.24636e-05    -0.000745389        -0.004021      -0.0468515
281702.1              -0.0271093       -0.104227     -6.49977e-05    -0.000753282        -0.988623        0.056358      2.33102e-05      0.00104591
                      -7.176e-05    -0.000746778       0.00448908      -0.0475846      0.000118313      0.00106092        -0.993701      -0.0369109
                       -0.988554       0.0563672      0.000162696      0.00103647        0.0114508       -0.106501      -0.00011618    -0.000739235
                     3.38421e-06      0.00101828         -0.99363      -0.0368655     -7.24946e-05    -0.000745395      -0.00402338      -0.0468574
281702.2              -0.0271118       -0.104233     -6.50292e-05    -0.000753288        -0.988621       0.0563875      2.33461e-05      0.00104591
                    -7.17861e-05    -0.000746787       0.00448908      -0.0475907      0.000118354      0.00106093        -0.993702      -0.0368809
                       -0.988552       0.0563967      0.000162735      0.00103647        0.0114463       -0.106507     -0.000116214    -0.000739238
                     3.41694e-06      0.00101828         -0.99363      -0.0368355     -7.25257e-05    -0.000745402      -0.00402575      -0.0468632
281702.3              -0.0271143       -0.104239     -6.50607e-05    -0.000753294        -0.988618       0.0564169      2.33821e-05      0.00104592
                    -7.18121e-05    -0.000746795       0.00448908      -0.0475968      0.000118394      0.00106093        -0.993702      -0.0368508
                       -0.988549       0.0564261      0.000162775      0.00103647        0.0114418       -0.106514     -0.000116249    -0.000739242
                     3.44968e-06      0.00101828        -0.993631      -0.0368055     -7.25568e-05    -0.000745409      -0.00402812      -0.0468691
281702.4              -0.0271169       -0.104244     -6.50922e-05      -0.0007533        -0.988616       0.0564464       2.3418e-05      0.00104593
                    -7.18381e-05    -0.000746804       0.00448909      -0.0476029      0.000118435      0.00106093        -0.993703      -0.0368208
                       -0.988547       0.0564556      0.000162814      0.00103647        0.0114374       -0.106521     -0.000116283    -0.000739246
                     3.48241e-06      0.00101828        -0.993632      -0.0367754     -7.25879e-05    -0.000745416      -0.00403049       -0.046875
281702.5              -0.0271194        -0.10425     -6.51237e-05    -0.000753306        -0.988613       0.0564759      2.34539e-05      0.00104593
                    -7.18642e-05    -0.000746813       0.00448909       -0.047609      0.000118476      0.00106094        -0.993704      -0.0367908
                       -0.988545       0.0564851      0.000162853      0.00103647        0.0114329       -0.106528     -0.000116317    -0.000739249
                     3.51515e-06      0.00101829        -0.993633      -0.0367454      -7.2619e-05    -0.000745422      -0.00403287      -0.0468808
281702.6               -0.027122       -0.104256     -6.51553e-05    -0.000753312        -0.988611       0.0565053      2.34898e-05      0.00104594
                    -7.18902e-05    -0.000746821       0.00448909      -0.0476151      0.000118516      0.00106094        -0.993705      -0.0367607
                       -0.988542       0.0565145      0.000162892      0.00103647        0.0114284       -0.106534     -0.000116351    -0.000739253
                     3.54788e-06      0.00101829        -0.993634      -0.0367153     -7.26501e-05    -0.000745429      -0.00403524      -0.0468867
281702.7              -0.0271245       -0.104262     -6.51868e-05    -0.000753319        -0.988609       0.0565348      2.35257e-05      0.00104595
                    -7.19163e-05     -0.00074683       0.00448908      -0.0476211      0.000118557      0.00106095        -0.993706      -0.0367307
                        -0.98854        0.056544      0.000162931      0.00103646        0.0114239       -0.106541     -0.000116385    -0.000739257
                     3.58062e-06      0.00101829        -0.993634      -0.0366853     -7.26811e-05    -0.000745436      -0.00403761      -0.0468926
281702.8              -0.0271271       -0.104267     -6.52183e-05    -0.000753325        -0.988606       0.0565643      2.35617e-05      0.00104595
                    -7.19423e-05    -0.000746838       0.00448908      -0.0476272      0.000118598      0.00106095        -0.993706      -0.0367006
                       -0.988538       0.0565735       0.00016297      0.00103646        0.0114195       -0.106548     -0.000116419     -0.00073926
                     3.61335e-06       0.0010183        -0.993635      -0.0366552     -7.27122e-05    -0.000745442      -0.00403999      -0.0468984
281702.9              -0.0271296       -0.104273     -6.52499e-05    -0.000753331        -0.988604       0.0565937      2.35976e-05      0.00104596
                    -7.19683e-05    -0.000746847       0.00448908      -0.0476333      0.000118638      0.00106095        -0.993707      -0.0366706
                       -0.988535       0.0566029      0.000163009      0.00103646         0.011415       -0.106555     -0.000116453    -0.000739264
                     3.64609e-06       0.0010183        -0.993636      -0.0366252     -7.27433e-05    -0.000745449      -0.00404236      -0.0469043
281703                -0.0271322       -0.104279     -6.52814e-05    -0.000753337        -0.988602       0.0566232      2.36335e-05      0.00104597
                    -7.19944e-05    -0.000746856       0.00448908      -0.0476394      0.000118679      0.00106096        -0.993708      -0.0366405
                       -0.988533       0.0566324      0.000163048      0.00103646        0.0114105       -0.106561     -0.000116487    -0.000739267
                     3.67883e-06       0.0010183        -0.993637      -0.0365951     -7.27744e-05    -0.000745456      -0.00404474      -0.0469102
281703.1              -0.0271347       -0.104285     -6.53129e-05    -0.000753343        -0.988599       0.0566526      2.36694e-05      0.00104597
                    -7.20204e-05    -0.000746864       0.00448908      -0.0476455       0.00011872      0.00106096        -0.993709      -0.0366105
                        -0.98853       0.0566619      0.000163087      0.00103646        0.0114061       -0.106568     -0.000116521    -0.000739271
