! TOUCHSTONE file generated by CST MICROWAVE STUDIO
! Date and time: Wed Oct  8 06:52:33 2025
! Project name: Teste_Macro_Metasurface_Nanopilar.cst
! Parameters = {H=600; L_x=85; L_y=115; Lambda=1064; Max_L=200; Min_L=70; PathPara=1; Phi=0; Step_L=10; Theta=0; p=520; phaseX=180; phaseY=0}
! Header version: 2018
! Port assignment regex: !\s*Touchstone port\s*([0-9]+)\s*=\s*(CST MWS port|CST DS port)\s*([0-9]+|Zmin|Zmax)\s*\(\"(.*)\"\)(\s*mode\s*([0-9]+))?.*
! Touchstone port assignment:
! Touchstone port 1 = CST MWS port Zmax ("") mode 1
! Touchstone port 2 = CST MWS port Zmax ("") mode 2
! Touchstone port 3 = CST MWS port Zmin ("") mode 1
! Touchstone port 4 = CST MWS port Zmin ("") mode 2
! S-Parameters are not renormalized. Each port impedance will be approximated by the real part at minimum frequency. The values are described via the [Reference] keyword.
! Default impedance is overridden by [Reference]
[Version] 2.0
# GHz S RI R 376.73
[Number of Ports] 4
[Reference]
376.73 376.73 376.73 376.73 
[Number of Frequencies] 1001
[Network Data]
281700                 -0.213951       -0.131706     -0.000207713     1.47819e-06        -0.227052        0.937086     -0.000140638    -0.000360911
                    -0.000159668    -7.74786e-05        0.0877737      -0.0798639     -0.000221821    -0.000290159        -0.857004        0.500541
                       -0.227466        0.937058     -0.000140225    -0.000266675        -0.251112       0.0199549     -4.05466e-05     3.57474e-05
                    -0.000306462    -0.000222902        -0.856365        0.500347     -0.000161982    -0.000274108        -0.112963       0.0374906
281700.1               -0.213956       -0.131699     -0.000207712     1.48867e-06        -0.227025        0.937092     -0.000140636    -0.000360909
                    -0.000159668    -7.74705e-05        0.0877687      -0.0798677      -0.00022183    -0.000290155        -0.856991        0.500564
                       -0.227439        0.937065     -0.000140229    -0.000266674        -0.251112       0.0199607      -4.0555e-05     3.57645e-05
                    -0.000306466    -0.000222895        -0.856352         0.50037      -0.00016199      -0.0002741        -0.112962       0.0374905
281700.2               -0.213961       -0.131692     -0.000207711     1.49914e-06        -0.226998        0.937099     -0.000140634    -0.000360907
                    -0.000159668    -7.74624e-05        0.0877638      -0.0798716     -0.000221838     -0.00029015        -0.856977        0.500587
                       -0.227412        0.937071     -0.000140233    -0.000266674        -0.251112       0.0199665     -4.05633e-05     3.57816e-05
                     -0.00030647    -0.000222888        -0.856338        0.500393     -0.000161998    -0.000274091        -0.112961       0.0374905
281700.3               -0.213965       -0.131684     -0.000207709     1.50962e-06        -0.226971        0.937105     -0.000140632    -0.000360905
                    -0.000159668    -7.74543e-05        0.0877589      -0.0798754     -0.000221847    -0.000290145        -0.856964         0.50061
                       -0.227385        0.937078     -0.000140236    -0.000266673        -0.251111       0.0199723     -4.05717e-05     3.57987e-05
                    -0.000306474    -0.000222881        -0.856325        0.500417     -0.000162006    -0.000274083         -0.11296       0.0374904
281700.4                -0.21397       -0.131677     -0.000207708      1.5201e-06        -0.226944        0.937112      -0.00014063    -0.000360904
                    -0.000159668    -7.74462e-05         0.087754      -0.0798793     -0.000221856     -0.00029014        -0.856951        0.500633
                       -0.227357        0.937085      -0.00014024    -0.000266673        -0.251111       0.0199781     -4.05801e-05     3.58157e-05
                    -0.000306478    -0.000222874        -0.856311         0.50044     -0.000162014    -0.000274074        -0.112958       0.0374903
281700.5               -0.213975        -0.13167     -0.000207706     1.53058e-06        -0.226916        0.937118     -0.000140628    -0.000360902
                    -0.000159669     -7.7438e-05        0.0877491      -0.0798831     -0.000221865    -0.000290135        -0.856937        0.500657
                        -0.22733        0.937091     -0.000140244    -0.000266673         -0.25111       0.0199839     -4.05884e-05     3.58328e-05
                    -0.000306482    -0.000222868        -0.856298        0.500463     -0.000162022    -0.000274066        -0.112957       0.0374902
281700.6               -0.213979       -0.131662     -0.000207705     1.54106e-06        -0.226889        0.937125     -0.000140626      -0.0003609
                    -0.000159669    -7.74299e-05        0.0877442       -0.079887     -0.000221874     -0.00029013        -0.856924         0.50068
                       -0.227303        0.937098     -0.000140248    -0.000266672         -0.25111       0.0199897     -4.05968e-05     3.58499e-05
                    -0.000306486    -0.000222861        -0.856285        0.500486      -0.00016203    -0.000274058        -0.112956       0.0374901
281700.7               -0.213984       -0.131655     -0.000207704     1.55154e-06        -0.226862        0.937131     -0.000140624    -0.000360898
                    -0.000159669    -7.74218e-05        0.0877393      -0.0798908     -0.000221883    -0.000290125        -0.856911        0.500703
                       -0.227276        0.937104     -0.000140252    -0.000266672         -0.25111       0.0199955     -4.06051e-05     3.58669e-05
                     -0.00030649    -0.000222854        -0.856271        0.500509     -0.000162038    -0.000274049        -0.112955       0.0374901
281700.8               -0.213988       -0.131648     -0.000207702     1.56202e-06        -0.226835        0.937138     -0.000140622    -0.000360896
                    -0.000159669    -7.74137e-05        0.0877344      -0.0798947     -0.000221892     -0.00029012        -0.856897        0.500726
                       -0.227249        0.937111     -0.000140255    -0.000266672        -0.251109       0.0200013     -4.06135e-05      3.5884e-05
                    -0.000306494    -0.000222847        -0.856258        0.500532     -0.000162046    -0.000274041        -0.112954         0.03749
281700.9               -0.213993        -0.13164     -0.000207701     1.57251e-06        -0.226808        0.937144      -0.00014062    -0.000360894
                    -0.000159669    -7.74056e-05        0.0877295      -0.0798985     -0.000221901    -0.000290115        -0.856884        0.500749
                       -0.227222        0.937117     -0.000140259    -0.000266671        -0.251109       0.0200071     -4.06218e-05      3.5901e-05
                    -0.000306498     -0.00022284        -0.856244        0.500556     -0.000162054    -0.000274032        -0.112953       0.0374899
281701                 -0.213998       -0.131633     -0.000207699     1.58299e-06        -0.226781        0.937151     -0.000140618    -0.000360892
                     -0.00015967    -7.73975e-05        0.0877246      -0.0799024      -0.00022191     -0.00029011         -0.85687        0.500772
                       -0.227195        0.937124     -0.000140263    -0.000266671        -0.251109       0.0200129     -4.06302e-05      3.5918e-05
                    -0.000306502    -0.000222833        -0.856231        0.500579     -0.000162062    -0.000274024        -0.112952       0.0374898
281701.1               -0.214002       -0.131625     -0.000207698     1.59348e-06        -0.226754        0.937157     -0.000140616     -0.00036089
                     -0.00015967    -7.73894e-05        0.0877197      -0.0799062     -0.000221919    -0.000290105        -0.856857        0.500795
                       -0.227168         0.93713     -0.000140267    -0.000266671        -0.251108       0.0200187     -4.06385e-05     3.59351e-05
                    -0.000306506    -0.000222826        -0.856218        0.500602      -0.00016207    -0.000274015        -0.112951       0.0374897
281701.2               -0.214007       -0.131618     -0.000207696     1.60397e-06        -0.226727        0.937164     -0.000140614    -0.000360888
                     -0.00015967    -7.73813e-05        0.0877148      -0.0799101     -0.000221927      -0.0002901        -0.856844        0.500819
                       -0.227141        0.937137     -0.000140271    -0.000266671        -0.251108       0.0200245     -4.06469e-05     3.59521e-05
                     -0.00030651    -0.000222819        -0.856204        0.500625     -0.000162078    -0.000274007         -0.11295       0.0374897
281701.3               -0.214012       -0.131611     -0.000207695     1.61446e-06          -0.2267         0.93717     -0.000140612    -0.000360886
                     -0.00015967    -7.73732e-05        0.0877099      -0.0799139     -0.000221936    -0.000290095         -0.85683        0.500842
                       -0.227114        0.937143     -0.000140274     -0.00026667        -0.251108       0.0200303     -4.06553e-05     3.59691e-05
                    -0.000306514    -0.000222812        -0.856191        0.500648     -0.000162086    -0.000273999        -0.112949       0.0374896
281701.4               -0.214016       -0.131603     -0.000207694     1.62495e-06        -0.226673        0.937177      -0.00014061    -0.000360884
                     -0.00015967    -7.73651e-05         0.087705      -0.0799178     -0.000221945     -0.00029009        -0.856817        0.500865
                       -0.227087         0.93715     -0.000140278     -0.00026667        -0.251107       0.0200361     -4.06636e-05     3.59862e-05
                    -0.000306518    -0.000222805        -0.856177        0.500672     -0.000162094     -0.00027399        -0.112948       0.0374895
281701.5               -0.214021       -0.131596     -0.000207692     1.63544e-06        -0.226646        0.937183     -0.000140608    -0.000360882
                    -0.000159671     -7.7357e-05        0.0877001      -0.0799216     -0.000221954    -0.000290085        -0.856804        0.500888
                        -0.22706        0.937156     -0.000140282     -0.00026667        -0.251107       0.0200419      -4.0672e-05     3.60032e-05
                    -0.000306522    -0.000222798        -0.856164        0.500695     -0.000162102    -0.000273982        -0.112947       0.0374894
281701.6               -0.214026       -0.131589     -0.000207691     1.64594e-06        -0.226619         0.93719     -0.000140606     -0.00036088
                    -0.000159671    -7.73489e-05        0.0876951      -0.0799254     -0.000221963     -0.00029008         -0.85679        0.500911
                       -0.227032        0.937163     -0.000140286    -0.000266669        -0.251106       0.0200477     -4.06803e-05     3.60202e-05
                    -0.000306526    -0.000222791        -0.856151        0.500718     -0.000162109    -0.000273973        -0.112946       0.0374893
281701.7                -0.21403       -0.131581     -0.000207689     1.65643e-06        -0.226591        0.937196     -0.000140604    -0.000360878
                    -0.000159671    -7.73408e-05        0.0876902      -0.0799293     -0.000221972    -0.000290075        -0.856777        0.500934
                       -0.227005        0.937169     -0.000140289    -0.000266669        -0.251106       0.0200535     -4.06887e-05     3.60372e-05
                     -0.00030653    -0.000222784        -0.856137        0.500741     -0.000162117    -0.000273965        -0.112945       0.0374893
281701.8               -0.214035       -0.131574     -0.000207688     1.66693e-06        -0.226564        0.937203     -0.000140603    -0.000360876
                    -0.000159671    -7.73326e-05        0.0876853      -0.0799331     -0.000221981    -0.000290071        -0.856763        0.500957
                       -0.226978        0.937176     -0.000140293    -0.000266669        -0.251106       0.0200593      -4.0697e-05     3.60542e-05
                    -0.000306534    -0.000222777        -0.856124        0.500764     -0.000162125    -0.000273957        -0.112943       0.0374892
281701.9                -0.21404       -0.131567     -0.000207687     1.67742e-06        -0.226537        0.937209     -0.000140601    -0.000360874
                    -0.000159671    -7.73246e-05        0.0876804       -0.079937      -0.00022199    -0.000290066         -0.85675        0.500981
                       -0.226951        0.937182     -0.000140297    -0.000266668        -0.251105       0.0200651     -4.07054e-05     3.60712e-05
                    -0.000306538     -0.00022277         -0.85611        0.500787     -0.000162133    -0.000273948        -0.112942       0.0374891
281702                 -0.214044       -0.131559     -0.000207685     1.68792e-06         -0.22651        0.937216     -0.000140599    -0.000360872
                    -0.000159672    -7.73165e-05        0.0876755      -0.0799408     -0.000221999    -0.000290061        -0.856737        0.501004
                       -0.226924        0.937189     -0.000140301    -0.000266668        -0.251105       0.0200709     -4.07137e-05     3.60882e-05
                    -0.000306542    -0.000222763        -0.856097        0.500811     -0.000162141     -0.00027394        -0.112941        0.037489
281702.1               -0.214049       -0.131552     -0.000207684     1.69842e-06        -0.226483        0.937222     -0.000140597     -0.00036087
                    -0.000159672    -7.73084e-05        0.0876706      -0.0799447     -0.000222007    -0.000290056        -0.856723        0.501027
                       -0.226897        0.937195     -0.000140305    -0.000266668        -0.251105       0.0200767     -4.07221e-05     3.61052e-05
                    -0.000306546    -0.000222756        -0.856084        0.500834     -0.000162149    -0.000273931         -0.11294       0.0374889
281702.2               -0.214054       -0.131545     -0.000207683     1.70892e-06        -0.226456        0.937229     -0.000140595    -0.000360868
                    -0.000159672    -7.73003e-05        0.0876657      -0.0799485     -0.000222016    -0.000290051         -0.85671         0.50105
                        -0.22687        0.937202     -0.000140308    -0.000266668        -0.251104       0.0200825     -4.07305e-05     3.61222e-05
                     -0.00030655    -0.000222749         -0.85607        0.500857     -0.000162157    -0.000273923        -0.112939       0.0374889
281702.3               -0.214058       -0.131537     -0.000207681     1.71943e-06        -0.226429        0.937236     -0.000140593    -0.000360867
                    -0.000159672    -7.72922e-05        0.0876608      -0.0799523     -0.000222025    -0.000290046        -0.856697        0.501073
                       -0.226843        0.937208     -0.000140312    -0.000266667        -0.251104       0.0200883     -4.07388e-05     3.61392e-05
                    -0.000306554    -0.000222742        -0.856057         0.50088     -0.000162165    -0.000273914        -0.112938       0.0374888
281702.4               -0.214063        -0.13153      -0.00020768     1.72993e-06        -0.226402        0.937242     -0.000140591    -0.000360865
                    -0.000159672    -7.72841e-05        0.0876559      -0.0799562     -0.000222034    -0.000290041        -0.856683        0.501096
                       -0.226816        0.937215     -0.000140316    -0.000266667        -0.251103       0.0200941     -4.07472e-05     3.61562e-05
                    -0.000306558    -0.000222735        -0.856043        0.500903     -0.000162173    -0.000273906        -0.112937       0.0374887
281702.5               -0.214068       -0.131522     -0.000207678     1.74044e-06        -0.226375        0.937249     -0.000140589    -0.000360863
                    -0.000159673     -7.7276e-05         0.087651        -0.07996     -0.000222043    -0.000290036         -0.85667        0.501119
                       -0.226789        0.937221      -0.00014032    -0.000266667        -0.251103       0.0200999     -4.07555e-05     3.61731e-05
                    -0.000306561    -0.000222728         -0.85603        0.500926     -0.000162181    -0.000273898        -0.112936       0.0374886
281702.6               -0.214072       -0.131515     -0.000207677     1.75094e-06        -0.226348        0.937255     -0.000140587    -0.000360861
                    -0.000159673    -7.72679e-05        0.0876461      -0.0799639     -0.000222052    -0.000290031        -0.856656        0.501143
                       -0.226762        0.937228     -0.000140323    -0.000266667        -0.251103       0.0201057     -4.07639e-05     3.61901e-05
                    -0.000306565    -0.000222721        -0.856017         0.50095     -0.000162189    -0.000273889        -0.112935       0.0374885
281702.7               -0.214077       -0.131508     -0.000207676     1.76145e-06        -0.226321        0.937262     -0.000140585    -0.000360859
                    -0.000159673    -7.72598e-05        0.0876411      -0.0799677     -0.000222061    -0.000290026        -0.856643        0.501166
                       -0.226735        0.937234     -0.000140327    -0.000266666        -0.251102       0.0201115     -4.07722e-05     3.62071e-05
                    -0.000306569    -0.000222714        -0.856003        0.500973     -0.000162197    -0.000273881        -0.112934       0.0374884
281702.8               -0.214081         -0.1315     -0.000207674     1.77196e-06        -0.226294        0.937268     -0.000140583    -0.000360857
                    -0.000159673    -7.72517e-05        0.0876362      -0.0799716      -0.00022207    -0.000290021         -0.85663        0.501189
                       -0.226707        0.937241     -0.000140331    -0.000266666        -0.251102       0.0201173     -4.07806e-05      3.6224e-05
                    -0.000306573    -0.000222708         -0.85599        0.500996     -0.000162205    -0.000273872        -0.112933       0.0374884
281702.9               -0.214086       -0.131493     -0.000207673     1.78247e-06        -0.226266        0.937275     -0.000140581    -0.000360855
                    -0.000159673    -7.72436e-05        0.0876313      -0.0799754     -0.000222079    -0.000290016        -0.856616        0.501212
                        -0.22668        0.937247     -0.000140335    -0.000266666        -0.251102       0.0201231     -4.07889e-05      3.6241e-05
                    -0.000306577    -0.000222701        -0.855976        0.501019     -0.000162213    -0.000273864        -0.112932       0.0374883
281703                 -0.214091       -0.131486     -0.000207672     1.79298e-06        -0.226239        0.937281     -0.000140579    -0.000360853
                    -0.000159674    -7.72355e-05        0.0876264      -0.0799792     -0.000222087    -0.000290011        -0.856603        0.501235
                       -0.226653        0.937254     -0.000140338    -0.000266666        -0.251101       0.0201289     -4.07973e-05      3.6258e-05
                    -0.000306581    -0.000222694        -0.855963        0.501042     -0.000162221    -0.000273856        -0.112931       0.0374882
281703.1               -0.214095       -0.131478      -0.00020767     1.80349e-06        -0.226212        0.937288     -0.000140577    -0.000360851
                    -0.000159674    -7.72274e-05        0.0876215      -0.0799831     -0.000222096    -0.000290006         -0.85659        0.501258
                       -0.226626         0.93726     -0.000140342    -0.000266665        -0.251101       0.0201347     -4.08057e-05     3.62749e-05
