! TOUCHSTONE file generated by CST MICROWAVE STUDIO
! Date and time: Wed Oct  8 06:50:40 2025
! Project name: Teste_Macro_Metasurface_Nanopilar.cst
! Parameters = {H=600; L_x=70; L_y=95; Lambda=1064; Max_L=200; Min_L=70; PathPara=1; Phi=0; Step_L=10; Theta=0; p=520; phaseX=180; phaseY=0}
! Header version: 2018
! Port assignment regex: !\s*Touchstone port\s*([0-9]+)\s*=\s*(CST MWS port|CST DS port)\s*([0-9]+|Zmin|Zmax)\s*\(\"(.*)\"\)(\s*mode\s*([0-9]+))?.*
! Touchstone port assignment:
! Touchstone port 1 = CST MWS port Zmax ("") mode 1
! Touchstone port 2 = CST MWS port Zmax ("") mode 2
! Touchstone port 3 = CST MWS port Zmin ("") mode 1
! Touchstone port 4 = CST MWS port Zmin ("") mode 2
! S-Parameters are not renormalized. Each port impedance will be approximated by the real part at minimum frequency. The values are described via the [Reference] keyword.
! Default impedance is overridden by [Reference]
[Version] 2.0
# GHz S RI R 376.73
[Number of Ports] 4
[Reference]
376.73 376.73 376.73 376.73 
[Number of Frequencies] 1001
[Network Data]
281700                  0.108708      -0.0295589      0.000445495     0.000352647        -0.923697        0.364487      8.00316e-05    -0.000108638
                     0.000470701     0.000358602         0.118694       0.0753433     -2.02853e-05     2.75162e-05        -0.980898         0.13189
                       -0.923796        0.364261      1.18599e-05     2.60756e-05       -0.0998875       0.0527768     -0.000321757     0.000456524
                      3.9904e-05     2.43423e-06         -0.98094        0.131728     -0.000279332     0.000390176       -0.0946982        0.104006
281700.1                0.108705      -0.0295641      0.000445512     0.000352639        -0.923688        0.364512       8.0047e-05    -0.000108619
                     0.000470721     0.000358588         0.118694       0.0753372     -2.02882e-05     2.75237e-05        -0.980895        0.131916
                       -0.923786        0.364286      1.18485e-05     2.60715e-05       -0.0998858       0.0527761     -0.000321762     0.000456533
                     3.98949e-05     2.43837e-06        -0.980937        0.131753     -0.000279323     0.000390167       -0.0946945        0.104006
281700.2                0.108701      -0.0295693      0.000445529     0.000352632        -0.923678        0.364536      8.00624e-05    -0.000108599
                     0.000470742     0.000358574         0.118694       0.0753311      -2.0291e-05     2.75311e-05        -0.980892        0.131942
                       -0.923776         0.36431      1.18371e-05     2.60673e-05       -0.0998842       0.0527754     -0.000321766     0.000456541
                     3.98858e-05     2.44251e-06        -0.980934        0.131779     -0.000279314     0.000390159       -0.0946909        0.104005
281700.3                0.108698      -0.0295745      0.000445546     0.000352625        -0.923669        0.364561      8.00778e-05     -0.00010858
                     0.000470762     0.000358559         0.118695        0.075325     -2.02939e-05     2.75386e-05        -0.980889        0.131968
                       -0.923767        0.364335      1.18256e-05     2.60632e-05       -0.0998825       0.0527748      -0.00032177      0.00045655
                     3.98767e-05     2.44665e-06        -0.980931        0.131805     -0.000279305     0.000390151       -0.0946872        0.104004
281700.4                0.108695      -0.0295796      0.000445563     0.000352617        -0.923659        0.364586      8.00932e-05    -0.000108561
                     0.000470782     0.000358545         0.118695       0.0753189     -2.02967e-05     2.75461e-05        -0.980886        0.131993
                       -0.923757         0.36436      1.18142e-05     2.60591e-05       -0.0998808       0.0527741     -0.000321774     0.000456558
                     3.98676e-05      2.4508e-06        -0.980928        0.131831     -0.000279296     0.000390143       -0.0946835        0.104003
281700.5                0.108692      -0.0295848       0.00044558      0.00035261         -0.92365        0.364611      8.01087e-05    -0.000108542
                     0.000470803     0.000358531         0.118695       0.0753128     -2.02996e-05     2.75535e-05        -0.980883        0.132019
                       -0.923748        0.364385      1.18028e-05     2.60549e-05       -0.0998791       0.0527734     -0.000321778     0.000456567
                     3.98585e-05     2.45494e-06        -0.980925        0.131857     -0.000279287     0.000390135       -0.0946799        0.104002
281700.6                0.108688        -0.02959      0.000445597     0.000352603         -0.92364        0.364635      8.01241e-05    -0.000108522
                     0.000470823     0.000358517         0.118695       0.0753068     -2.03024e-05      2.7561e-05         -0.98088        0.132045
                       -0.923738         0.36441      1.17914e-05     2.60508e-05       -0.0998775       0.0527728     -0.000321783     0.000456575
                     3.98494e-05     2.45909e-06        -0.980922        0.131883     -0.000279277     0.000390127       -0.0946762        0.104002
281700.7                0.108685      -0.0295951      0.000445614     0.000352595         -0.92363         0.36466      8.01395e-05    -0.000108503
                     0.000470843     0.000358503         0.118696       0.0753007     -2.03053e-05     2.75685e-05        -0.980877        0.132071
                       -0.923729        0.364434      1.17799e-05     2.60467e-05       -0.0998758       0.0527721     -0.000321787     0.000456583
                     3.98403e-05     2.46323e-06        -0.980919        0.131909     -0.000279268     0.000390118       -0.0946725        0.104001
281700.8                0.108682      -0.0296003      0.000445631     0.000352588        -0.923621        0.364685       8.0155e-05    -0.000108484
                     0.000470864     0.000358489         0.118696       0.0752946     -2.03081e-05     2.75759e-05        -0.980874        0.132097
                       -0.923719        0.364459      1.17685e-05     2.60425e-05       -0.0998741       0.0527714     -0.000321791     0.000456592
                     3.98312e-05     2.46738e-06        -0.980916        0.131935     -0.000279259      0.00039011       -0.0946688           0.104
281700.9                0.108679      -0.0296055      0.000445648      0.00035258        -0.923611         0.36471      8.01704e-05    -0.000108465
                     0.000470884     0.000358475         0.118696       0.0752885      -2.0311e-05     2.75834e-05        -0.980871        0.132123
                       -0.923709        0.364484      1.17571e-05     2.60384e-05       -0.0998725       0.0527708     -0.000321795       0.0004566
                     3.98222e-05     2.47153e-06        -0.980913        0.131961      -0.00027925     0.000390102       -0.0946652        0.103999
281701                  0.108675      -0.0296107      0.000445665     0.000352573        -0.923602        0.364734      8.01859e-05    -0.000108445
                     0.000470904     0.000358461         0.118696       0.0752824     -2.03139e-05     2.75909e-05        -0.980868        0.132149
                         -0.9237        0.364509      1.17457e-05     2.60343e-05       -0.0998708       0.0527701       -0.0003218     0.000456609
                     3.98131e-05     2.47568e-06         -0.98091        0.131987     -0.000279241     0.000390094       -0.0946615        0.103998
281701.1                0.108672      -0.0296158      0.000445682     0.000352566        -0.923592        0.364759      8.02013e-05    -0.000108426
                     0.000470925     0.000358446         0.118696       0.0752763     -2.03167e-05     2.75984e-05        -0.980865        0.132175
                        -0.92369        0.364534      1.17343e-05     2.60302e-05       -0.0998691       0.0527694     -0.000321804     0.000456617
                      3.9804e-05     2.47983e-06        -0.980907        0.132013     -0.000279232     0.000390086       -0.0946578        0.103997
281701.2                0.108669       -0.029621      0.000445699     0.000352558        -0.923583        0.364784      8.02168e-05    -0.000108407
                     0.000470945     0.000358432         0.118697       0.0752702     -2.03196e-05     2.76058e-05        -0.980862        0.132201
                       -0.923681        0.364558      1.17229e-05      2.6026e-05       -0.0998674       0.0527688     -0.000321808     0.000456626
                      3.9795e-05     2.48398e-06        -0.980904        0.132039     -0.000279223     0.000390078       -0.0946542        0.103997
281701.3                0.108666      -0.0296262      0.000445716     0.000352551        -0.923573        0.364809      8.02323e-05    -0.000108388
                     0.000470965     0.000358418         0.118697       0.0752641     -2.03225e-05     2.76133e-05        -0.980859        0.132227
                       -0.923671        0.364583      1.17115e-05     2.60219e-05       -0.0998658       0.0527681     -0.000321812     0.000456634
                     3.97859e-05     2.48814e-06        -0.980901        0.132065     -0.000279214     0.000390069       -0.0946505        0.103996
281701.4                0.108662      -0.0296314      0.000445733     0.000352544        -0.923563        0.364833      8.02477e-05    -0.000108368
                     0.000470986     0.000358404         0.118697        0.075258     -2.03253e-05     2.76208e-05        -0.980856        0.132253
                       -0.923662        0.364608         1.17e-05     2.60178e-05       -0.0998641       0.0527674     -0.000321816     0.000456642
                     3.97768e-05     2.49229e-06        -0.980898         0.13209     -0.000279205     0.000390061       -0.0946468        0.103995
281701.5                0.108659      -0.0296365       0.00044575     0.000352536        -0.923554        0.364858      8.02632e-05    -0.000108349
                     0.000471006      0.00035839         0.118697       0.0752519     -2.03282e-05     2.76282e-05        -0.980853        0.132279
                       -0.923652        0.364633      1.16886e-05     2.60137e-05       -0.0998624       0.0527668     -0.000321821     0.000456651
                     3.97678e-05     2.49645e-06        -0.980895        0.132116     -0.000279196     0.000390053       -0.0946432        0.103994
281701.6                0.108656      -0.0296417      0.000445767     0.000352529        -0.923544        0.364883      8.02787e-05     -0.00010833
                     0.000471026     0.000358376         0.118697       0.0752459     -2.03311e-05     2.76357e-05         -0.98085        0.132304
                       -0.923642        0.364657      1.16772e-05     2.60095e-05       -0.0998608       0.0527661     -0.000321825     0.000456659
                     3.97587e-05      2.5006e-06        -0.980892        0.132142     -0.000279187     0.000390045       -0.0946395        0.103993
281701.7                0.108653      -0.0296469      0.000445784     0.000352522        -0.923535        0.364908      8.02942e-05    -0.000108311
                     0.000471047     0.000358362         0.118698       0.0752398      -2.0334e-05     2.76432e-05        -0.980847         0.13233
                       -0.923633        0.364682      1.16658e-05     2.60054e-05       -0.0998591       0.0527654     -0.000321829     0.000456668
                     3.97497e-05     2.50476e-06        -0.980889        0.132168     -0.000279178     0.000390037       -0.0946358        0.103992
281701.8                0.108649       -0.029652      0.000445801     0.000352514        -0.923525        0.364932      8.03097e-05    -0.000108291
                     0.000471067     0.000358347         0.118698       0.0752337     -2.03368e-05     2.76506e-05        -0.980844        0.132356
                       -0.923623        0.364707      1.16544e-05     2.60013e-05       -0.0998574       0.0527648     -0.000321833     0.000456676
                     3.97407e-05     2.50892e-06        -0.980886        0.132194     -0.000279169     0.000390029       -0.0946322        0.103992
281701.9                0.108646      -0.0296572      0.000445818     0.000352507        -0.923516        0.364957      8.03252e-05    -0.000108272
                     0.000471087     0.000358333         0.118698       0.0752276     -2.03397e-05     2.76581e-05        -0.980841        0.132382
                       -0.923614        0.364732       1.1643e-05     2.59972e-05       -0.0998558       0.0527641     -0.000321838     0.000456685
                     3.97316e-05     2.51308e-06        -0.980883         0.13222     -0.000279159      0.00039002       -0.0946285        0.103991
281702                  0.108643      -0.0296624      0.000445835     0.000352499        -0.923506        0.364982      8.03407e-05    -0.000108253
                     0.000471108     0.000358319         0.118698       0.0752215     -2.03426e-05     2.76656e-05        -0.980838        0.132408
                       -0.923604        0.364756      1.16316e-05     2.59931e-05       -0.0998541       0.0527634     -0.000321842     0.000456693
                     3.97226e-05     2.51724e-06         -0.98088        0.132246      -0.00027915     0.000390012       -0.0946248         0.10399
281702.1                 0.10864      -0.0296676      0.000445852     0.000352492        -0.923497        0.365007      8.03562e-05    -0.000108233
                     0.000471128     0.000358305         0.118698       0.0752154     -2.03455e-05      2.7673e-05        -0.980835        0.132434
                       -0.923595        0.364781      1.16202e-05      2.5989e-05       -0.0998524       0.0527628     -0.000321846     0.000456701
                     3.97136e-05      2.5214e-06        -0.980876        0.132272     -0.000279141     0.000390004       -0.0946211        0.103989
281702.2                0.108636      -0.0296727      0.000445869     0.000352485        -0.923487        0.365031      8.03717e-05    -0.000108214
                     0.000471148     0.000358291         0.118699       0.0752093     -2.03484e-05     2.76805e-05        -0.980832         0.13246
                       -0.923585        0.364806      1.16088e-05     2.59848e-05       -0.0998507       0.0527621      -0.00032185      0.00045671
                     3.97045e-05     2.52556e-06        -0.980873        0.132298     -0.000279132     0.000389996       -0.0946175        0.103988
281702.3                0.108633      -0.0296779      0.000445886     0.000352477        -0.923477        0.365056      8.03872e-05    -0.000108195
                     0.000471169     0.000358277         0.118699       0.0752032     -2.03513e-05      2.7688e-05        -0.980829        0.132486
                       -0.923575        0.364831      1.15974e-05     2.59807e-05       -0.0998491       0.0527614     -0.000321854     0.000456718
                     3.96955e-05     2.52973e-06         -0.98087        0.132324     -0.000279123     0.000389988       -0.0946138        0.103987
281702.4                 0.10863      -0.0296831      0.000445903      0.00035247        -0.923468        0.365081      8.04027e-05    -0.000108176
                     0.000471189     0.000358263         0.118699       0.0751971     -2.03541e-05     2.76954e-05        -0.980826        0.132512
                       -0.923566        0.364856       1.1586e-05     2.59766e-05       -0.0998474       0.0527608     -0.000321859     0.000456727
                     3.96865e-05     2.53389e-06        -0.980867         0.13235     -0.000279114     0.000389979       -0.0946101        0.103987
281702.5                0.108626      -0.0296882       0.00044592     0.000352463        -0.923458        0.365106      8.04182e-05    -0.000108156
                     0.000471209     0.000358248         0.118699        0.075191      -2.0357e-05     2.77029e-05        -0.980823        0.132538
                       -0.923556         0.36488      1.15746e-05     2.59725e-05       -0.0998457       0.0527601     -0.000321863     0.000456735
                     3.96775e-05     2.53806e-06        -0.980864        0.132376     -0.000279105     0.000389971       -0.0946065        0.103986
281702.6                0.108623      -0.0296934      0.000445937     0.000352455        -0.923449         0.36513      8.04338e-05    -0.000108137
                      0.00047123     0.000358234         0.118699        0.075185     -2.03599e-05     2.77104e-05         -0.98082        0.132564
                       -0.923547        0.364905      1.15632e-05     2.59684e-05       -0.0998441       0.0527594     -0.000321867     0.000456744
                     3.96685e-05     2.54222e-06        -0.980861        0.132402     -0.000279096     0.000389963       -0.0946028        0.103985
281702.7                 0.10862      -0.0296986      0.000445954     0.000352448        -0.923439        0.365155      8.04493e-05    -0.000108118
                      0.00047125      0.00035822           0.1187       0.0751789     -2.03628e-05     2.77178e-05        -0.980817         0.13259
                       -0.923537         0.36493      1.15518e-05     2.59643e-05       -0.0998424       0.0527588     -0.000321871     0.000456752
                     3.96594e-05     2.54639e-06        -0.980858        0.132427     -0.000279087     0.000389955       -0.0945991        0.103984
281702.8                0.108617      -0.0297037      0.000445971      0.00035244        -0.923429         0.36518      8.04648e-05    -0.000108099
                      0.00047127     0.000358206           0.1187       0.0751728     -2.03657e-05     2.77253e-05        -0.980814        0.132615
                       -0.923528        0.364955      1.15404e-05     2.59602e-05       -0.0998407       0.0527581     -0.000321876      0.00045676
                     3.96504e-05     2.55056e-06        -0.980855        0.132453     -0.000279078     0.000389947       -0.0945955        0.103983
281702.9                0.108613      -0.0297089      0.000445988     0.000352433         -0.92342        0.365205      8.04804e-05    -0.000108079
                      0.00047129     0.000358192           0.1187       0.0751667     -2.03686e-05     2.77328e-05        -0.980811        0.132641
                       -0.923518        0.364979       1.1529e-05     2.59561e-05        -0.099839       0.0527574      -0.00032188     0.000456769
                     3.96414e-05     2.55473e-06        -0.980852        0.132479     -0.000279069     0.000389938       -0.0945918        0.103982
281703                   0.10861      -0.0297141      0.000446005     0.000352426         -0.92341        0.365229      8.04959e-05     -0.00010806
                     0.000471311     0.000358178           0.1187       0.0751606     -2.03715e-05     2.77402e-05        -0.980808        0.132667
                       -0.923508        0.365004      1.15176e-05      2.5952e-05       -0.0998374       0.0527568     -0.000321884     0.000456777
                     3.96324e-05      2.5589e-06        -0.980849        0.132505      -0.00027906      0.00038993       -0.0945881        0.103982
281703.1                0.108607      -0.0297192      0.000446022     0.000352418        -0.923401        0.365254      8.05115e-05    -0.000108041
                     0.000471331     0.000358163           0.1187       0.0751545     -2.03744e-05     2.77477e-05        -0.980805        0.132693
                       -0.923499        0.365029      1.15062e-05     2.59479e-05       -0.0998357       0.0527561     -0.000321888     0.000456786
