! TOUCHSTONE file generated by CST MICROWAVE STUDIO
! Date and time: Wed Oct  8 06:51:28 2025
! Project name: Teste_Macro_Metasurface_Nanopilar.cst
! Parameters = {H=600; L_x=75; L_y=140; Lambda=1064; Max_L=200; Min_L=70; PathPara=1; Phi=0; Step_L=10; Theta=0; p=520; phaseX=180; phaseY=0}
! Header version: 2018
! Port assignment regex: !\s*Touchstone port\s*([0-9]+)\s*=\s*(CST MWS port|CST DS port)\s*([0-9]+|Zmin|Zmax)\s*\(\"(.*)\"\)(\s*mode\s*([0-9]+))?.*
! Touchstone port assignment:
! Touchstone port 1 = CST MWS port Zmax ("") mode 1
! Touchstone port 2 = CST MWS port Zmax ("") mode 2
! Touchstone port 3 = CST MWS port Zmin ("") mode 1
! Touchstone port 4 = CST MWS port Zmin ("") mode 2
! S-Parameters are not renormalized. Each port impedance will be approximated by the real part at minimum frequency. The values are described via the [Reference] keyword.
! Default impedance is overridden by [Reference]
[Version] 2.0
# GHz S RI R 376.73
[Number of Ports] 4
[Reference]
376.73 376.73 376.73 376.73 
[Number of Frequencies] 1001
[Network Data]
281700                 -0.065174        0.275416      0.000425853      -0.0003193         0.817816        0.483657     -0.000171239    -0.000176067
                     0.000425317    -0.000222058          0.10965      -0.0409514     -0.000469626     0.000144567         -0.91054        0.395048
                        0.817575        0.483779     -0.000381095    -6.04089e-05        -0.213752        0.189172      0.000476891     0.000208606
                    -0.000563766    -5.55902e-05        -0.910578        0.394939      0.000266362     9.84103e-05        -0.105019       0.0522202
281700.1              -0.0651629        0.275414      0.000425856    -0.000319311         0.817833         0.48363     -0.000171198    -0.000176053
                     0.000425305    -0.000222071         0.109647      -0.0409564     -0.000469625     0.000144581         -0.91053        0.395072
                        0.817592        0.483753     -0.000381097       -6.04e-05        -0.213743        0.189175      0.000476911     0.000208601
                    -0.000563766    -5.55736e-05        -0.910568        0.394963      0.000266369     9.84051e-05        -0.105017       0.0522197
281700.2              -0.0651517        0.275412      0.000425858    -0.000319321          0.81785        0.483603     -0.000171157     -0.00017604
                     0.000425293    -0.000222085         0.109643      -0.0409613     -0.000469623     0.000144595        -0.910519        0.395097
                         0.81761        0.483726     -0.000381099    -6.03912e-05        -0.213734        0.189179      0.000476931     0.000208595
                    -0.000563766     -5.5557e-05        -0.910558        0.394988      0.000266375     9.83999e-05        -0.105015       0.0522192
281700.3              -0.0651405        0.275411      0.000425861    -0.000319332         0.817867        0.483576     -0.000171116    -0.000176027
                     0.000425281    -0.000222098         0.109639      -0.0409663     -0.000469621      0.00014461        -0.910509        0.395121
                        0.817627        0.483699       -0.0003811    -6.03823e-05        -0.213726        0.189182      0.000476952     0.000208589
                    -0.000563766    -5.55404e-05        -0.910547        0.395012      0.000266382     9.83947e-05        -0.105014       0.0522187
281700.4              -0.0651293        0.275409      0.000425864    -0.000319343         0.817884         0.48355     -0.000171075    -0.000176014
                     0.000425269    -0.000222112         0.109635      -0.0409713      -0.00046962     0.000144624        -0.910498        0.395145
                        0.817644        0.483673     -0.000381102    -6.03735e-05        -0.213717        0.189186      0.000476972     0.000208583
                    -0.000563766    -5.55238e-05        -0.910537        0.395037      0.000266389     9.83895e-05        -0.105012       0.0522182
281700.5              -0.0651182        0.275407      0.000425867    -0.000319354         0.817902        0.483523     -0.000171034    -0.000176001
                     0.000425257    -0.000222125         0.109632      -0.0409762     -0.000469618     0.000144638        -0.910488         0.39517
                        0.817661        0.483646     -0.000381104    -6.03646e-05        -0.213708        0.189189      0.000476993     0.000208578
                    -0.000563766    -5.55072e-05        -0.910527        0.395061      0.000266396     9.83843e-05         -0.10501       0.0522177
281700.6               -0.065107        0.275406       0.00042587    -0.000319365         0.817919        0.483496     -0.000170993    -0.000175988
                     0.000425245    -0.000222139         0.109628      -0.0409812     -0.000469616     0.000144652        -0.910478        0.395194
                        0.817678        0.483619     -0.000381105    -6.03558e-05          -0.2137        0.189193      0.000477013     0.000208572
                    -0.000563767    -5.54906e-05        -0.910516        0.395085      0.000266403     9.83791e-05        -0.105009       0.0522172
281700.7              -0.0650958        0.275404      0.000425873    -0.000319376         0.817936         0.48347     -0.000170952    -0.000175974
                     0.000425233    -0.000222152         0.109624      -0.0409862     -0.000469615     0.000144667        -0.910467        0.395219
                        0.817696        0.483593     -0.000381107    -6.03469e-05        -0.213691        0.189196      0.000477033     0.000208566
                    -0.000563767     -5.5474e-05        -0.910506         0.39511      0.000266409     9.83739e-05        -0.105007       0.0522168
281700.8              -0.0650847        0.275403      0.000425876    -0.000319387         0.817953        0.483443     -0.000170911    -0.000175961
                     0.000425221    -0.000222165         0.109621      -0.0409911     -0.000469613     0.000144681        -0.910457        0.395243
                        0.817713        0.483566     -0.000381109    -6.03381e-05        -0.213682          0.1892      0.000477054     0.000208561
                    -0.000563767    -5.54574e-05        -0.910495        0.395134      0.000266416     9.83687e-05        -0.105005       0.0522163
281700.9              -0.0650735        0.275401      0.000425879    -0.000319398          0.81797        0.483416     -0.000170871    -0.000175948
                     0.000425209    -0.000222179         0.109617      -0.0409961     -0.000469611     0.000144695        -0.910447        0.395268
                         0.81773        0.483539     -0.000381111    -6.03292e-05        -0.213674        0.189204      0.000477074     0.000208555
                    -0.000563767    -5.54408e-05        -0.910485        0.395159      0.000266423     9.83636e-05        -0.105004       0.0522158
281701                -0.0650623        0.275399      0.000425882    -0.000319409         0.817987         0.48339      -0.00017083    -0.000175935
                     0.000425196    -0.000222192         0.109613       -0.041001      -0.00046961     0.000144709        -0.910436        0.395292
                        0.817747        0.483513     -0.000381112    -6.03204e-05        -0.213665        0.189207      0.000477095     0.000208549
                    -0.000563767    -5.54242e-05        -0.910475        0.395183       0.00026643     9.83584e-05        -0.105002       0.0522153
281701.1              -0.0650512        0.275398      0.000425885     -0.00031942         0.818005        0.483363     -0.000170789    -0.000175922
                     0.000425184    -0.000222206         0.109609       -0.041006     -0.000469608     0.000144724        -0.910426        0.395316
                        0.817764        0.483486     -0.000381114    -6.03116e-05        -0.213656        0.189211      0.000477115     0.000208543
                    -0.000563767    -5.54076e-05        -0.910464        0.395208      0.000266436     9.83532e-05           -0.105       0.0522148
281701.2                -0.06504        0.275396      0.000425888    -0.000319431         0.818022        0.483336     -0.000170748    -0.000175909
                     0.000425172    -0.000222219         0.109606       -0.041011     -0.000469606     0.000144738        -0.910415        0.395341
                        0.817782        0.483459     -0.000381116    -6.03027e-05        -0.213648        0.189214      0.000477135     0.000208538
                    -0.000563767     -5.5391e-05        -0.910454        0.395232      0.000266443      9.8348e-05        -0.104998       0.0522143
281701.3              -0.0650288        0.275394      0.000425891    -0.000319442         0.818039         0.48331     -0.000170707    -0.000175895
                      0.00042516    -0.000222233         0.109602      -0.0410159     -0.000469604     0.000144752        -0.910405        0.395365
                        0.817799        0.483433     -0.000381118    -6.02939e-05        -0.213639        0.189218      0.000477156     0.000208532
                    -0.000563767    -5.53744e-05        -0.910444        0.395256       0.00026645     9.83428e-05        -0.104997       0.0522138
281701.4              -0.0650176        0.275393      0.000425894    -0.000319453         0.818056        0.483283     -0.000170666    -0.000175882
                     0.000425148    -0.000222246         0.109598      -0.0410209     -0.000469603     0.000144766        -0.910395         0.39539
                        0.817816        0.483406     -0.000381119     -6.0285e-05         -0.21363        0.189221      0.000477176     0.000208526
                    -0.000563767    -5.53578e-05        -0.910433        0.395281      0.000266457     9.83376e-05        -0.104995       0.0522133
281701.5              -0.0650065        0.275391      0.000425897    -0.000319464         0.818073        0.483256     -0.000170625    -0.000175869
                     0.000425136    -0.000222259         0.109595      -0.0410259     -0.000469601     0.000144781        -0.910384        0.395414
                        0.817833        0.483379     -0.000381121    -6.02762e-05        -0.213622        0.189225      0.000477197     0.000208521
                    -0.000563767    -5.53413e-05        -0.910423        0.395305      0.000266464     9.83324e-05        -0.104993       0.0522128
281701.6              -0.0649953        0.275389        0.0004259    -0.000319475          0.81809        0.483229     -0.000170584    -0.000175856
                     0.000425124    -0.000222273         0.109591      -0.0410308     -0.000469599     0.000144795        -0.910374        0.395439
                         0.81785        0.483352     -0.000381123    -6.02673e-05        -0.213613        0.189228      0.000477217     0.000208515
                    -0.000563767    -5.53247e-05        -0.910412         0.39533       0.00026647     9.83272e-05        -0.104992       0.0522123
281701.7              -0.0649841        0.275388      0.000425903    -0.000319486         0.818108        0.483203     -0.000170544    -0.000175843
                     0.000425112    -0.000222286         0.109587      -0.0410358     -0.000469598     0.000144809        -0.910364        0.395463
                        0.817867        0.483326     -0.000381125    -6.02585e-05        -0.213604        0.189232      0.000477237     0.000208509
                    -0.000563768    -5.53081e-05        -0.910402        0.395354      0.000266477      9.8322e-05         -0.10499       0.0522118
281701.8               -0.064973        0.275386      0.000425906    -0.000319497         0.818125        0.483176     -0.000170503    -0.000175829
                       0.0004251      -0.0002223         0.109583      -0.0410407     -0.000469596     0.000144823        -0.910353        0.395487
                        0.817885        0.483299     -0.000381126    -6.02496e-05        -0.213595        0.189235      0.000477258     0.000208503
                    -0.000563768    -5.52915e-05        -0.910392        0.395378      0.000266484     9.83168e-05        -0.104988       0.0522113
281701.9              -0.0649618        0.275384      0.000425909    -0.000319508         0.818142        0.483149     -0.000170462    -0.000175816
                     0.000425088    -0.000222313          0.10958      -0.0410457     -0.000469594     0.000144838        -0.910343        0.395512
                        0.817902        0.483272     -0.000381128    -6.02408e-05        -0.213587        0.189239      0.000477278     0.000208498
                    -0.000563768    -5.52749e-05        -0.910381        0.395403      0.000266491     9.83117e-05        -0.104987       0.0522108
281702                -0.0649506        0.275383      0.000425912    -0.000319519         0.818159        0.483123     -0.000170421    -0.000175803
                     0.000425076    -0.000222326         0.109576      -0.0410507     -0.000469593     0.000144852        -0.910332        0.395536
                        0.817919        0.483246      -0.00038113    -6.02319e-05        -0.213578        0.189242      0.000477298     0.000208492
                    -0.000563768    -5.52583e-05        -0.910371        0.395427      0.000266497     9.83065e-05        -0.104985       0.0522104
281702.1              -0.0649395        0.275381      0.000425915    -0.000319529         0.818176        0.483096      -0.00017038     -0.00017579
                     0.000425064     -0.00022234         0.109572      -0.0410556     -0.000469591     0.000144866        -0.910322        0.395561
                        0.817936        0.483219     -0.000381132    -6.02231e-05        -0.213569        0.189246      0.000477319     0.000208486
                    -0.000563768    -5.52417e-05         -0.91036        0.395452      0.000266504     9.83013e-05        -0.104983       0.0522099
281702.2              -0.0649283        0.275379      0.000425918     -0.00031954         0.818193        0.483069     -0.000170339    -0.000175777
                     0.000425052    -0.000222353         0.109569      -0.0410606     -0.000469589      0.00014488        -0.910312        0.395585
                        0.817953        0.483192     -0.000381133    -6.02143e-05        -0.213561        0.189249      0.000477339      0.00020848
                    -0.000563768    -5.52251e-05         -0.91035        0.395476      0.000266511     9.82961e-05        -0.104982       0.0522094
281702.3              -0.0649171        0.275378      0.000425921    -0.000319551         0.818211        0.483043     -0.000170298    -0.000175763
                      0.00042504    -0.000222366         0.109565      -0.0410655     -0.000469588     0.000144895        -0.910301         0.39561
                        0.817971        0.483166     -0.000381135    -6.02054e-05        -0.213552        0.189253      0.000477359     0.000208475
                    -0.000563768    -5.52085e-05         -0.91034        0.395501      0.000266518     9.82909e-05         -0.10498       0.0522089
281702.4               -0.064906        0.275376      0.000425924    -0.000319562         0.818228        0.483016     -0.000170257     -0.00017575
                     0.000425028     -0.00022238         0.109561      -0.0410705     -0.000469586     0.000144909        -0.910291        0.395634
                        0.817988        0.483139     -0.000381137    -6.01966e-05        -0.213543        0.189256       0.00047738     0.000208469
                    -0.000563768    -5.51919e-05        -0.910329        0.395525      0.000266525     9.82858e-05        -0.104978       0.0522084
281702.5              -0.0648948        0.275374      0.000425927    -0.000319573         0.818245        0.482989     -0.000170217    -0.000175737
                     0.000425016    -0.000222393         0.109557      -0.0410754     -0.000469584     0.000144923         -0.91028        0.395658
                        0.818005        0.483112     -0.000381139    -6.01877e-05        -0.213535         0.18926        0.0004774     0.000208463
                    -0.000563768    -5.51753e-05        -0.910319        0.395549      0.000266531     9.82806e-05        -0.104976       0.0522079
281702.6              -0.0648836        0.275373       0.00042593    -0.000319584         0.818262        0.482962     -0.000170176    -0.000175724
                     0.000425004    -0.000222407         0.109554      -0.0410804     -0.000469582     0.000144937         -0.91027        0.395683
                        0.818022        0.483086      -0.00038114    -6.01789e-05        -0.213526        0.189263       0.00047742     0.000208458
                    -0.000563768    -5.51587e-05        -0.910309        0.395574      0.000266538     9.82754e-05        -0.104975       0.0522074
281702.7              -0.0648725        0.275371      0.000425933    -0.000319595         0.818279        0.482936     -0.000170135    -0.000175711
                     0.000424992     -0.00022242          0.10955      -0.0410854     -0.000469581     0.000144951         -0.91026        0.395707
                        0.818039        0.483059     -0.000381142      -6.017e-05        -0.213517        0.189267      0.000477441     0.000208452
                    -0.000563768    -5.51421e-05        -0.910298        0.395598      0.000266545     9.82702e-05        -0.104973       0.0522069
281702.8              -0.0648613        0.275369      0.000425936    -0.000319606         0.818296        0.482909     -0.000170094    -0.000175697
                      0.00042498    -0.000222433         0.109546      -0.0410903     -0.000469579     0.000144966        -0.910249        0.395732
                        0.818056        0.483032     -0.000381144    -6.01612e-05        -0.213509         0.18927      0.000477461     0.000208446
                    -0.000563768    -5.51255e-05        -0.910288        0.395623      0.000266552     9.82651e-05        -0.104971       0.0522064
281702.9              -0.0648501        0.275368      0.000425939    -0.000319617         0.818314        0.482882     -0.000170053    -0.000175684
                     0.000424968    -0.000222447         0.109543      -0.0410953     -0.000469577      0.00014498        -0.910239        0.395756
                        0.818074        0.483005     -0.000381145    -6.01523e-05          -0.2135        0.189274      0.000477481      0.00020844
                    -0.000563769    -5.51089e-05        -0.910277        0.395647      0.000266558     9.82599e-05         -0.10497       0.0522059
281703                 -0.064839        0.275366      0.000425942    -0.000319628         0.818331        0.482856     -0.000170012    -0.000175671
                     0.000424956     -0.00022246         0.109539      -0.0411002     -0.000469576     0.000144994        -0.910229        0.395781
                        0.818091        0.482979     -0.000381147    -6.01435e-05        -0.213491        0.189277      0.000477502     0.000208435
                    -0.000563769    -5.50924e-05        -0.910267        0.395672      0.000266565     9.82547e-05        -0.104968       0.0522054
281703.1              -0.0648278        0.275364      0.000425944    -0.000319639         0.818348        0.482829     -0.000169971    -0.000175658
                     0.000424944    -0.000222474         0.109535      -0.0411052     -0.000469574     0.000145008        -0.910218        0.395805
                        0.818108        0.482952     -0.000381149    -6.01346e-05        -0.213483        0.189281      0.000477522     0.000208429
