! TOUCHSTONE file generated by CST MICROWAVE STUDIO
! Date and time: Wed Oct  8 07:06:23 2025
! Project name: Teste_Macro_Metasurface_Nanopilar.cst
! Parameters = {H=600; L_x=200; L_y=140; Lambda=1064; Max_L=200; Min_L=70; PathPara=1; Phi=0; Step_L=10; Theta=0; p=520; phaseX=180; phaseY=0}
! Header version: 2018
! Port assignment regex: !\s*Touchstone port\s*([0-9]+)\s*=\s*(CST MWS port|CST DS port)\s*([0-9]+|Zmin|Zmax)\s*\(\"(.*)\"\)(\s*mode\s*([0-9]+))?.*
! Touchstone port assignment:
! Touchstone port 1 = CST MWS port Zmax ("") mode 1
! Touchstone port 2 = CST MWS port Zmax ("") mode 2
! Touchstone port 3 = CST MWS port Zmin ("") mode 1
! Touchstone port 4 = CST MWS port Zmin ("") mode 2
! S-Parameters are not renormalized. Each port impedance will be approximated by the real part at minimum frequency. The values are described via the [Reference] keyword.
! Default impedance is overridden by [Reference]
[Version] 2.0
# GHz S RI R 376.73
[Number of Ports] 4
[Reference]
376.73 376.73 376.73 376.73 
[Number of Frequencies] 1001
[Network Data]
281700                 -0.129992        0.181071     -0.000107425    -0.000749794        -0.766652       -0.592325     -0.000466793     0.000672179
                     -0.00015215    -0.000852844       -0.0508067       -0.113226       1.3689e-06      0.00101789        -0.983689       0.0908799
                       -0.766248       -0.592666      7.93571e-05     0.000946615        -0.147264        0.166049      0.000686615    -0.000453233
                    -0.000569059     0.000515345        -0.983602       0.0909714      0.000597635    -0.000474145         0.023943       -0.121448
281700.1               -0.129983         0.18107     -0.000107463    -0.000749791        -0.766671       -0.592302     -0.000466756     0.000672202
                    -0.000152178     -0.00085284       -0.0508103       -0.113231       1.4038e-06       0.0010179        -0.983685       0.0909095
                       -0.766268       -0.592643      7.93894e-05     0.000946607        -0.147255        0.166049       0.00068657    -0.000453254
                    -0.000569039     0.000515373        -0.983598        0.091001      0.000597595    -0.000474179        0.0239383       -0.121455
281700.2               -0.129974        0.181069       -0.0001075    -0.000749788        -0.766691       -0.592279     -0.000466719     0.000672226
                    -0.000152206    -0.000852836        -0.050814       -0.113237       1.4387e-06      0.00101791        -0.983682       0.0909391
                       -0.766287        -0.59262      7.94217e-05     0.000946599        -0.147246        0.166049      0.000686525    -0.000453274
                    -0.000569019       0.0005154        -0.983594       0.0910306      0.000597554    -0.000474213        0.0239336       -0.121463
281700.3               -0.129965        0.181068     -0.000107538    -0.000749785         -0.76671       -0.592256     -0.000466682     0.000672249
                    -0.000152235    -0.000852832       -0.0508176       -0.113243       1.4736e-06      0.00101792        -0.983678       0.0909687
                       -0.766306       -0.592598      7.94539e-05     0.000946591        -0.147236        0.166049      0.000686479    -0.000453295
                       -0.000569     0.000515428        -0.983591       0.0910602      0.000597514    -0.000474247        0.0239288       -0.121471
281700.4               -0.129956        0.181066     -0.000107575    -0.000749782         -0.76673       -0.592233     -0.000466645     0.000672273
                    -0.000152263    -0.000852829       -0.0508213       -0.113248      1.50849e-06      0.00101793        -0.983675       0.0909983
                       -0.766326       -0.592575      7.94862e-05     0.000946583        -0.147227         0.16605      0.000686434    -0.000453315
                     -0.00056898     0.000515455        -0.983587       0.0910898      0.000597474    -0.000474281        0.0239241       -0.121479
281700.5               -0.129947        0.181065     -0.000107612    -0.000749778        -0.766749       -0.592211     -0.000466608     0.000672297
                    -0.000152291    -0.000852825       -0.0508249       -0.113254      1.54339e-06      0.00101794        -0.983671       0.0910279
                       -0.766345       -0.592552      7.95185e-05     0.000946575        -0.147217         0.16605      0.000686389    -0.000453336
                    -0.000568961     0.000515483        -0.983584       0.0911194      0.000597433    -0.000474314        0.0239194       -0.121486
281700.6               -0.129938        0.181064      -0.00010765    -0.000749775        -0.766769       -0.592188     -0.000466571      0.00067232
                    -0.000152319    -0.000852821       -0.0508286        -0.11326      1.57829e-06      0.00101794        -0.983668       0.0910574
                       -0.766365       -0.592529      7.95508e-05     0.000946567        -0.147208         0.16605      0.000686344    -0.000453356
                    -0.000568941      0.00051551         -0.98358        0.091149      0.000597393    -0.000474348        0.0239146       -0.121494
281700.7               -0.129929        0.181063     -0.000107687    -0.000749772        -0.766788       -0.592165     -0.000466534     0.000672344
                    -0.000152348    -0.000852817       -0.0508322       -0.113265      1.61318e-06      0.00101795        -0.983664        0.091087
                       -0.766384       -0.592507      7.95831e-05     0.000946559        -0.147199         0.16605      0.000686299    -0.000453376
                    -0.000568922     0.000515538        -0.983577       0.0911786      0.000597352    -0.000474382        0.0239099       -0.121502
281700.8                -0.12992        0.181061     -0.000107725    -0.000749769        -0.766807       -0.592142     -0.000466497     0.000672367
                    -0.000152376    -0.000852813       -0.0508358       -0.113271      1.64808e-06      0.00101796         -0.98366       0.0911166
                       -0.766404       -0.592484      7.96154e-05     0.000946551        -0.147189         0.16605      0.000686254    -0.000453397
                    -0.000568902     0.000515565        -0.983573       0.0912082      0.000597312    -0.000474416        0.0239051        -0.12151
281700.9               -0.129911         0.18106     -0.000107762    -0.000749766        -0.766827       -0.592119      -0.00046646     0.000672391
                    -0.000152404     -0.00085281       -0.0508395       -0.113276      1.68297e-06      0.00101797        -0.983657       0.0911462
                       -0.766423       -0.592461      7.96477e-05     0.000946543         -0.14718         0.16605      0.000686208    -0.000453417
                    -0.000568882     0.000515593        -0.983569       0.0912378      0.000597271     -0.00047445        0.0239004       -0.121518
281701                 -0.129902        0.181059       -0.0001078    -0.000749763        -0.766846       -0.592096     -0.000466423     0.000672414
                    -0.000152433    -0.000852806       -0.0508431       -0.113282      1.71787e-06      0.00101798        -0.983653       0.0911758
                       -0.766443       -0.592438        7.968e-05     0.000946535         -0.14717         0.16605      0.000686163    -0.000453438
                    -0.000568863      0.00051562        -0.983566       0.0912674      0.000597231    -0.000474483        0.0238957       -0.121525
281701.1               -0.129892        0.181058     -0.000107837     -0.00074976        -0.766866       -0.592074     -0.000466386     0.000672438
                    -0.000152461    -0.000852802       -0.0508468       -0.113288      1.75276e-06      0.00101799         -0.98365       0.0912054
                       -0.766462       -0.592415      7.97123e-05     0.000946527        -0.147161         0.16605      0.000686118    -0.000453458
                    -0.000568843     0.000515648        -0.983562        0.091297       0.00059719    -0.000474517        0.0238909       -0.121533
281701.2               -0.129883        0.181056     -0.000107875    -0.000749757        -0.766885       -0.592051     -0.000466349     0.000672461
                    -0.000152489    -0.000852798       -0.0508504       -0.113293      1.78765e-06        0.001018        -0.983646        0.091235
                       -0.766482       -0.592393      7.97445e-05     0.000946519        -0.147152         0.16605      0.000686073    -0.000453479
                    -0.000568824     0.000515675        -0.983559       0.0913266       0.00059715    -0.000474551        0.0238862       -0.121541
281701.3               -0.129874        0.181055     -0.000107912    -0.000749754        -0.766905       -0.592028     -0.000466312     0.000672485
                    -0.000152517    -0.000852795       -0.0508541       -0.113299      1.82255e-06      0.00101801        -0.983643       0.0912646
                       -0.766501        -0.59237      7.97768e-05     0.000946511        -0.147142         0.16605      0.000686027    -0.000453499
                    -0.000568804     0.000515703        -0.983555       0.0913562      0.000597109    -0.000474585        0.0238814       -0.121549
281701.4               -0.129865        0.181054     -0.000107949    -0.000749751        -0.766924       -0.592005     -0.000466275     0.000672508
                    -0.000152546    -0.000852791       -0.0508577       -0.113305      1.85744e-06      0.00101802        -0.983639       0.0912942
                       -0.766521       -0.592347      7.98091e-05     0.000946503        -0.147133         0.16605      0.000685982    -0.000453519
                    -0.000568784      0.00051573        -0.983551       0.0913858      0.000597069    -0.000474618        0.0238767       -0.121556
281701.5               -0.129856        0.181052     -0.000107987    -0.000749748        -0.766944       -0.591982     -0.000466238     0.000672532
                    -0.000152574    -0.000852787       -0.0508614        -0.11331      1.89233e-06      0.00101803        -0.983635       0.0913238
                        -0.76654       -0.592324      7.98414e-05     0.000946495        -0.147124         0.16605      0.000685937     -0.00045354
                    -0.000568765     0.000515758        -0.983548       0.0914154      0.000597028    -0.000474652        0.0238719       -0.121564
281701.6               -0.129847        0.181051     -0.000108024    -0.000749745        -0.766963        -0.59196     -0.000466201     0.000672555
                    -0.000152602    -0.000852783        -0.050865       -0.113316      1.92722e-06      0.00101804        -0.983632       0.0913534
                        -0.76656       -0.592302      7.98737e-05     0.000946487        -0.147114         0.16605      0.000685892     -0.00045356
                    -0.000568745     0.000515785        -0.983544        0.091445      0.000596988    -0.000474686        0.0238672       -0.121572
281701.7               -0.129838         0.18105     -0.000108062    -0.000749742        -0.766983       -0.591937     -0.000466164     0.000672579
                    -0.000152631     -0.00085278       -0.0508687       -0.113321      1.96211e-06      0.00101805        -0.983628        0.091383
                       -0.766579       -0.592279       7.9906e-05     0.000946479        -0.147105         0.16605      0.000685846    -0.000453581
                    -0.000568726     0.000515813        -0.983541       0.0914746      0.000596947     -0.00047472        0.0238624        -0.12158
281701.8               -0.129829        0.181049     -0.000108099    -0.000749739        -0.767002       -0.591914     -0.000466127     0.000672602
                    -0.000152659    -0.000852776       -0.0508723       -0.113327        1.997e-06      0.00101806        -0.983625       0.0914126
                       -0.766599       -0.592256      7.99383e-05     0.000946471        -0.147095         0.16605      0.000685801    -0.000453601
                    -0.000568706     0.000515841        -0.983537       0.0915041      0.000596907    -0.000474754        0.0238577       -0.121587
281701.9                -0.12982        0.181047     -0.000108137    -0.000749735        -0.767022       -0.591891      -0.00046609     0.000672626
                    -0.000152687    -0.000852772        -0.050876       -0.113333      2.03189e-06      0.00101806        -0.983621       0.0914422
                       -0.766618       -0.592233      7.99706e-05     0.000946463        -0.147086         0.16605      0.000685756    -0.000453621
                    -0.000568687     0.000515868        -0.983533       0.0915337      0.000596867    -0.000474787         0.023853       -0.121595
281702                 -0.129811        0.181046     -0.000108174    -0.000749732        -0.767041       -0.591868     -0.000466053     0.000672649
                    -0.000152716    -0.000852768       -0.0508796       -0.113338      2.06677e-06      0.00101807        -0.983617       0.0914718
                       -0.766637        -0.59221      8.00029e-05     0.000946455        -0.147077         0.16605      0.000685711    -0.000453642
                    -0.000568667     0.000515896         -0.98353       0.0915633      0.000596826    -0.000474821        0.0238482       -0.121603
281702.1               -0.129802        0.181045     -0.000108212    -0.000749729        -0.767061       -0.591845     -0.000466016     0.000672673
                    -0.000152744    -0.000852764       -0.0508832       -0.113344      2.10166e-06      0.00101808        -0.983614       0.0915014
                       -0.766657       -0.592188      8.00352e-05     0.000946447        -0.147067         0.16605      0.000685665    -0.000453662
                    -0.000568647     0.000515923        -0.983526       0.0915929      0.000596786    -0.000474855        0.0238435       -0.121611
281702.2               -0.129793        0.181044     -0.000108249    -0.000749726         -0.76708       -0.591823     -0.000465979     0.000672696
                    -0.000152772    -0.000852761       -0.0508869       -0.113349      2.13655e-06      0.00101809         -0.98361       0.0915309
                       -0.766676       -0.592165      8.00675e-05     0.000946439        -0.147058         0.16605       0.00068562    -0.000453683
                    -0.000568628     0.000515951        -0.983523       0.0916225      0.000596745    -0.000474889        0.0238387       -0.121618
281702.3               -0.129784        0.181042     -0.000108286    -0.000749723          -0.7671         -0.5918     -0.000465942      0.00067272
                    -0.000152801    -0.000852757       -0.0508905       -0.113355      2.17143e-06       0.0010181        -0.983607       0.0915605
                       -0.766696       -0.592142      8.00998e-05     0.000946431        -0.147048         0.16605      0.000685575    -0.000453703
                    -0.000568608     0.000515978        -0.983519       0.0916521      0.000596705    -0.000474922         0.023834       -0.121626
281702.4               -0.129775        0.181041     -0.000108324     -0.00074972        -0.767119       -0.591777     -0.000465905     0.000672744
                    -0.000152829    -0.000852753       -0.0508942       -0.113361      2.20632e-06      0.00101811        -0.983603       0.0915901
                       -0.766715       -0.592119      8.01321e-05     0.000946423        -0.147039         0.16605      0.000685529    -0.000453724
                    -0.000568589     0.000516006        -0.983515       0.0916817      0.000596664    -0.000474956        0.0238292       -0.121634
281702.5               -0.129766         0.18104     -0.000108361    -0.000749717        -0.767138       -0.591754     -0.000465869     0.000672767
                    -0.000152857    -0.000852749       -0.0508978       -0.113366       2.2412e-06      0.00101812        -0.983599       0.0916197
                       -0.766735       -0.592097      8.01644e-05     0.000946415         -0.14703         0.16605      0.000685484    -0.000453744
                    -0.000568569     0.000516033        -0.983512       0.0917113      0.000596624     -0.00047499        0.0238245       -0.121642
281702.6               -0.129757        0.181038     -0.000108399    -0.000749714        -0.767158       -0.591731     -0.000465832     0.000672791
                    -0.000152886    -0.000852745       -0.0509015       -0.113372      2.27609e-06      0.00101813        -0.983596       0.0916493
                       -0.766754       -0.592074      8.01967e-05     0.000946407         -0.14702         0.16605      0.000685439    -0.000453764
                     -0.00056855     0.000516061        -0.983508       0.0917409      0.000596583    -0.000475023        0.0238197       -0.121649
281702.7               -0.129748        0.181037     -0.000108436    -0.000749711        -0.767177       -0.591708     -0.000465795     0.000672814
                    -0.000152914    -0.000852742       -0.0509051       -0.113377      2.31097e-06      0.00101814        -0.983592       0.0916789
                       -0.766774       -0.592051       8.0229e-05     0.000946399        -0.147011         0.16605      0.000685393    -0.000453785
                     -0.00056853     0.000516088        -0.983505       0.0917705      0.000596543    -0.000475057         0.023815       -0.121657
281702.8               -0.129739        0.181036     -0.000108474    -0.000749708        -0.767197       -0.591686     -0.000465758     0.000672838
                    -0.000152942    -0.000852738       -0.0509088       -0.113383      2.34585e-06      0.00101815        -0.983589       0.0917085
                       -0.766793       -0.592028      8.02613e-05     0.000946391        -0.147001        0.166051      0.000685348    -0.000453805
                     -0.00056851     0.000516116        -0.983501       0.0918001      0.000596502    -0.000475091        0.0238102       -0.121665
281702.9                -0.12973        0.181035     -0.000108511    -0.000749705        -0.767216       -0.591663     -0.000465721     0.000672861
                     -0.00015297    -0.000852734       -0.0509125       -0.113389      2.38074e-06      0.00101816        -0.983585       0.0917381
                       -0.766813       -0.592005      8.02936e-05     0.000946383        -0.146992        0.166051      0.000685303    -0.000453826
                    -0.000568491     0.000516143        -0.983497       0.0918297      0.000596462    -0.000475125        0.0238055       -0.121673
281703                 -0.129721        0.181033     -0.000108548    -0.000749702        -0.767236        -0.59164     -0.000465684     0.000672885
                    -0.000152999     -0.00085273       -0.0509161       -0.113394      2.41562e-06      0.00101817        -0.983581       0.0917677
                       -0.766832       -0.591983      8.03259e-05     0.000946375        -0.146983        0.166051      0.000685257    -0.000453846
                    -0.000568471     0.000516171        -0.983494       0.0918593      0.000596421    -0.000475158        0.0238007       -0.121681
281703.1               -0.129712        0.181032     -0.000108586    -0.000749699        -0.767255       -0.591617     -0.000465647     0.000672908
                    -0.000153027    -0.000852727       -0.0509198         -0.1134       2.4505e-06      0.00101817        -0.983578       0.0917973
                       -0.766852        -0.59196      8.03582e-05     0.000946367        -0.146973        0.166051      0.000685212    -0.000453867
