! TOUCHSTONE file generated by CST MICROWAVE STUDIO
! Date and time: Wed Oct  8 06:57:02 2025
! Project name: Teste_Macro_Metasurface_Nanopilar.cst
! Parameters = {H=600; L_x=120; L_y=185; Lambda=1064; Max_L=200; Min_L=70; PathPara=1; Phi=0; Step_L=10; Theta=0; p=520; phaseX=180; phaseY=0}
! Header version: 2018
! Port assignment regex: !\s*Touchstone port\s*([0-9]+)\s*=\s*(CST MWS port|CST DS port)\s*([0-9]+|Zmin|Zmax)\s*\(\"(.*)\"\)(\s*mode\s*([0-9]+))?.*
! Touchstone port assignment:
! Touchstone port 1 = CST MWS port Zmax ("") mode 1
! Touchstone port 2 = CST MWS port Zmax ("") mode 2
! Touchstone port 3 = CST MWS port Zmin ("") mode 1
! Touchstone port 4 = CST MWS port Zmin ("") mode 2
! S-Parameters are not renormalized. Each port impedance will be approximated by the real part at minimum frequency. The values are described via the [Reference] keyword.
! Default impedance is overridden by [Reference]
[Version] 2.0
# GHz S RI R 376.73
[Number of Ports] 4
[Reference]
376.73 376.73 376.73 376.73 
[Number of Frequencies] 1001
[Network Data]
281700                -0.0834715        0.258464      0.000270128    -2.02322e-05        -0.808439       -0.509908      -0.00032897    -9.67501e-05
                     0.000306589    -6.65258e-05        -0.233114     -0.00657586     -5.10695e-05     0.000260189        -0.246955       -0.934814
                       -0.808505       -0.509777     -5.77731e-06     0.000175246        -0.203125        0.179535      6.67673e-06    -0.000228208
                    -0.000342258    -0.000210069        -0.246992       -0.935231      0.000104186    -0.000160647        -0.200014        0.120035
281700.1              -0.0834618         0.25846      0.000269926    -2.04893e-05        -0.808457       -0.509884     -0.000328958     -9.6742e-05
                     0.000306578    -6.65331e-05        -0.233112      -0.0065682     -5.10575e-05     0.000260188        -0.246984       -0.934807
                       -0.808523       -0.509753     -5.79324e-06     0.000175626        -0.203115        0.179537      6.67583e-06    -0.000228211
                    -0.000342251    -0.000210061        -0.247021       -0.935223      0.000104175    -0.000160642        -0.200008        0.120039
281700.2               -0.083452        0.258456      0.000269733    -2.07502e-05        -0.808474        -0.50986     -0.000328945    -9.67339e-05
                     0.000306567    -6.65404e-05        -0.233109     -0.00656054     -5.10455e-05     0.000260187        -0.247012         -0.9348
                        -0.80854       -0.509729     -5.82179e-06     0.000176009        -0.203104        0.179539      6.67494e-06    -0.000228215
                    -0.000342244    -0.000210052        -0.247049       -0.935216      0.000104163    -0.000160636        -0.200003        0.120043
281700.3              -0.0834423        0.258452      0.000269549    -2.10146e-05        -0.808491       -0.509836     -0.000328933    -9.67259e-05
                     0.000306557    -6.65477e-05        -0.233106     -0.00655289     -5.10335e-05     0.000260186         -0.24704       -0.934793
                       -0.808558       -0.509705     -5.86327e-06     0.000176394        -0.203093        0.179541      6.67404e-06    -0.000228218
                    -0.000342237    -0.000210044        -0.247078       -0.935208      0.000104152    -0.000160631        -0.199997        0.120047
281700.4              -0.0834326        0.258448      0.000269374    -2.12821e-05        -0.808509       -0.509812      -0.00032892    -9.67178e-05
                     0.000306546     -6.6555e-05        -0.233104     -0.00654523     -5.10215e-05     0.000260185        -0.247069       -0.934787
                       -0.808575       -0.509681     -5.91798e-06     0.000176781        -0.203083        0.179543      6.67314e-06    -0.000228221
                     -0.00034223    -0.000210035        -0.247106       -0.935201      0.000104141    -0.000160625        -0.199991        0.120051
281700.5              -0.0834228        0.258444      0.000269207    -2.15522e-05        -0.808526       -0.509788     -0.000328908    -9.67098e-05
                     0.000306535    -6.65623e-05        -0.233101     -0.00653758     -5.10095e-05     0.000260184        -0.247097        -0.93478
                       -0.808592       -0.509657     -5.98616e-06      0.00017717        -0.203072        0.179545      6.67224e-06    -0.000228224
                    -0.000342223    -0.000210027        -0.247134       -0.935194      0.000104129     -0.00016062        -0.199985        0.120055
281700.6              -0.0834131         0.25844      0.000269049    -2.18244e-05        -0.808544       -0.509764     -0.000328896    -9.67017e-05
                     0.000306525    -6.65697e-05        -0.233098     -0.00652992     -5.09975e-05     0.000260183        -0.247125       -0.934773
                        -0.80861       -0.509633     -6.06801e-06     0.000177559        -0.203061        0.179547      6.67134e-06    -0.000228227
                    -0.000342216    -0.000210018        -0.247163       -0.935186      0.000104118    -0.000160614        -0.199979         0.12006
281700.7              -0.0834034        0.258436        0.0002689    -2.20985e-05        -0.808561        -0.50974     -0.000328883    -9.66936e-05
                     0.000306514     -6.6577e-05        -0.233096     -0.00652227     -5.09855e-05     0.000260182        -0.247154       -0.934766
                       -0.808627       -0.509609      -6.1637e-06     0.000177948         -0.20305        0.179549      6.67045e-06    -0.000228231
                    -0.000342209    -0.000210009        -0.247191       -0.935179      0.000104107    -0.000160608        -0.199973        0.120064
281700.8              -0.0833937        0.258432      0.000268759     -2.2374e-05        -0.808579       -0.509716     -0.000328871    -9.66856e-05
                     0.000306503    -6.65843e-05        -0.233093     -0.00651462     -5.09735e-05     0.000260181        -0.247182        -0.93476
                       -0.808645       -0.509585     -6.27334e-06     0.000178336         -0.20304        0.179551      6.66955e-06    -0.000228234
                    -0.000342202    -0.000210001         -0.24722       -0.935171      0.000104095    -0.000160603        -0.199968        0.120068
281700.9              -0.0833839        0.258428      0.000268627    -2.26505e-05        -0.808596       -0.509692     -0.000328858    -9.66775e-05
                     0.000306493    -6.65916e-05         -0.23309     -0.00650696     -5.09615e-05      0.00026018         -0.24721       -0.934753
                       -0.808662       -0.509561     -6.39701e-06     0.000178722        -0.203029        0.179553      6.66865e-06    -0.000228237
                    -0.000342194    -0.000209992        -0.247248       -0.935164      0.000104084    -0.000160597        -0.199962        0.120072
281701                -0.0833742        0.258424      0.000268504    -2.29277e-05        -0.808614       -0.509668     -0.000328846    -9.66695e-05
                     0.000306482    -6.65989e-05        -0.233088     -0.00649931     -5.09495e-05     0.000260179        -0.247239       -0.934746
                        -0.80868       -0.509537     -6.53471e-06     0.000179106        -0.203018        0.179555      6.66775e-06     -0.00022824
                    -0.000342187    -0.000209984        -0.247277       -0.935157      0.000104072    -0.000160592        -0.199956        0.120076
281701.1              -0.0833645         0.25842      0.000268389    -2.32052e-05        -0.808631       -0.509644     -0.000328834    -9.66614e-05
                     0.000306471    -6.66063e-05        -0.233085     -0.00649166     -5.09375e-05     0.000260177        -0.247267       -0.934739
                       -0.808697       -0.509513     -6.68641e-06     0.000179487        -0.203008        0.179557      6.66685e-06    -0.000228243
                     -0.00034218    -0.000209975        -0.247305       -0.935149      0.000104061    -0.000160586         -0.19995         0.12008
281701.2              -0.0833548        0.258416      0.000268282    -2.34827e-05        -0.808648        -0.50962     -0.000328821    -9.66533e-05
                     0.000306461    -6.66136e-05        -0.233082     -0.00648401     -5.09255e-05     0.000260176        -0.247296       -0.934733
                       -0.808714       -0.509489     -6.85201e-06     0.000179863        -0.202997        0.179559      6.66595e-06    -0.000228247
                    -0.000342173    -0.000209967        -0.247334       -0.935142       0.00010405    -0.000160581        -0.199944        0.120084
281701.3               -0.083345        0.258412      0.000268183    -2.37598e-05        -0.808666       -0.509596     -0.000328809    -9.66453e-05
                      0.00030645    -6.66209e-05         -0.23308     -0.00647636     -5.09135e-05     0.000260175        -0.247324       -0.934726
                       -0.808732       -0.509465     -7.03137e-06     0.000180236        -0.202986        0.179561      6.66505e-06     -0.00022825
                    -0.000342166    -0.000209958        -0.247362       -0.935135      0.000104038    -0.000160575        -0.199938        0.120088
281701.4              -0.0833353        0.258408      0.000268092    -2.40362e-05        -0.808683       -0.509572     -0.000328796    -9.66372e-05
                     0.000306439    -6.66282e-05        -0.233077      -0.0064687     -5.09015e-05     0.000260174        -0.247352       -0.934719
                       -0.808749       -0.509441     -7.22429e-06     0.000180602        -0.202975        0.179563      6.66415e-06    -0.000228253
                    -0.000342159     -0.00020995         -0.24739       -0.935127      0.000104027     -0.00016057        -0.199933        0.120093
281701.5              -0.0833256        0.258404      0.000268009    -2.43117e-05        -0.808701       -0.509547     -0.000328784    -9.66291e-05
                     0.000306429    -6.66356e-05        -0.233074     -0.00646105     -5.08895e-05     0.000260173        -0.247381       -0.934712
                       -0.808767       -0.509417     -7.43051e-06     0.000180963        -0.202965        0.179565      6.66326e-06    -0.000228256
                    -0.000342152    -0.000209941        -0.247419        -0.93512      0.000104016    -0.000160564        -0.199927        0.120097
281701.6              -0.0833159          0.2584      0.000267934    -2.45859e-05        -0.808718       -0.509523     -0.000328772    -9.66211e-05
                     0.000306418    -6.66429e-05        -0.233072      -0.0064534     -5.08775e-05     0.000260172        -0.247409       -0.934706
                       -0.808784       -0.509393     -7.64972e-06     0.000181317        -0.202954        0.179567      6.66236e-06     -0.00022826
                    -0.000342145    -0.000209933        -0.247447       -0.935112      0.000104004    -0.000160559        -0.199921        0.120101
281701.7              -0.0833061        0.258397      0.000267865    -2.48586e-05        -0.808736       -0.509499     -0.000328759     -9.6613e-05
                     0.000306408    -6.66502e-05        -0.233069     -0.00644575     -5.08655e-05     0.000260171        -0.247437       -0.934699
                       -0.808802       -0.509369     -7.88157e-06     0.000181663        -0.202943        0.179569      6.66146e-06    -0.000228263
                    -0.000342138    -0.000209924        -0.247476       -0.935105      0.000103993    -0.000160553        -0.199915        0.120105
281701.8              -0.0832964        0.258393      0.000267805    -2.51295e-05        -0.808753       -0.509475     -0.000328747    -9.66049e-05
                     0.000306397    -6.66575e-05        -0.233066     -0.00643811     -5.08536e-05      0.00026017        -0.247466       -0.934692
                       -0.808819       -0.509345     -8.12563e-06     0.000182001        -0.202932        0.179571      6.66056e-06    -0.000228266
                    -0.000342131    -0.000209915        -0.247504       -0.935098      0.000103982    -0.000160547        -0.199909        0.120109
281701.9              -0.0832867        0.258389      0.000267751    -2.53985e-05         -0.80877       -0.509451     -0.000328735    -9.65968e-05
                     0.000306386    -6.66649e-05        -0.233064     -0.00643046     -5.08416e-05     0.000260169        -0.247494       -0.934685
                       -0.808836       -0.509321     -8.38146e-06      0.00018233        -0.202922        0.179573      6.65966e-06    -0.000228269
                    -0.000342124    -0.000209907        -0.247533        -0.93509       0.00010397    -0.000160542        -0.199903        0.120113
281702                 -0.083277        0.258385      0.000267704    -2.56652e-05        -0.808788       -0.509427     -0.000328722    -9.65888e-05
                     0.000306376    -6.66722e-05        -0.233061     -0.00642281     -5.08296e-05     0.000260168        -0.247522       -0.934678
                       -0.808854       -0.509297     -8.64855e-06      0.00018265        -0.202911        0.179575      6.65876e-06    -0.000228272
                    -0.000342117    -0.000209898        -0.247561       -0.935083      0.000103959    -0.000160536        -0.199898        0.120117
281702.1              -0.0832673        0.258381      0.000267663    -2.59295e-05        -0.808805       -0.509403      -0.00032871    -9.65807e-05
                     0.000306365    -6.66795e-05        -0.233058     -0.00641516     -5.08176e-05     0.000260167        -0.247551       -0.934672
                       -0.808871       -0.509273     -8.92636e-06     0.000182959          -0.2029        0.179577      6.65786e-06    -0.000228276
                    -0.000342109     -0.00020989        -0.247589       -0.935076      0.000103948    -0.000160531        -0.199892        0.120122
281702.2              -0.0832575        0.258377      0.000267629    -2.61913e-05        -0.808823       -0.509379     -0.000328697    -9.65726e-05
                     0.000306354    -6.66869e-05        -0.233056     -0.00640751     -5.08056e-05     0.000260166        -0.247579       -0.934665
                       -0.808889       -0.509249      -9.2143e-06     0.000183258         -0.20289        0.179579      6.65696e-06    -0.000228279
                    -0.000342102    -0.000209881        -0.247618       -0.935068      0.000103936    -0.000160525        -0.199886        0.120126
281702.3              -0.0832478        0.258373      0.000267601    -2.64502e-05         -0.80884       -0.509355     -0.000328685    -9.65645e-05
                     0.000306344    -6.66942e-05        -0.233053     -0.00639987     -5.07936e-05     0.000260164        -0.247607       -0.934658
                       -0.808906       -0.509225     -9.51176e-06     0.000183546        -0.202879        0.179581      6.65606e-06    -0.000228282
                    -0.000342095    -0.000209873        -0.247646       -0.935061      0.000103925     -0.00016052         -0.19988         0.12013
281702.4              -0.0832381        0.258369      0.000267579    -2.67063e-05        -0.808858       -0.509331     -0.000328673    -9.65565e-05
                     0.000306333    -6.67015e-05         -0.23305     -0.00639222     -5.07817e-05     0.000260163        -0.247636       -0.934651
                       -0.808924       -0.509201     -9.81809e-06     0.000183822        -0.202868        0.179583      6.65516e-06    -0.000228285
                    -0.000342088    -0.000209864        -0.247675       -0.935054      0.000103914    -0.000160514        -0.199874        0.120134
281702.5              -0.0832284        0.258365      0.000267562    -2.69593e-05        -0.808875       -0.509307      -0.00032866    -9.65484e-05
                     0.000306322    -6.67088e-05        -0.233048     -0.00638458     -5.07697e-05     0.000260162        -0.247664       -0.934645
                       -0.808941       -0.509177     -1.01326e-05     0.000184087        -0.202857        0.179585      6.65426e-06    -0.000228288
                    -0.000342081    -0.000209856        -0.247703       -0.935046      0.000103902    -0.000160509        -0.199868        0.120138
281702.6              -0.0832186        0.258361      0.000267551    -2.72091e-05        -0.808892       -0.509283     -0.000328648    -9.65403e-05
                     0.000306312    -6.67162e-05        -0.233045     -0.00637693     -5.07577e-05     0.000260161        -0.247693       -0.934638
                       -0.808958       -0.509153     -1.04547e-05     0.000184339        -0.202847        0.179587      6.65336e-06    -0.000228292
                    -0.000342074    -0.000209847        -0.247732       -0.935039      0.000103891    -0.000160503        -0.199863        0.120142
281702.7              -0.0832089        0.258357      0.000267545    -2.74556e-05         -0.80891       -0.509259     -0.000328636    -9.65322e-05
                     0.000306301    -6.67235e-05        -0.233042     -0.00636929     -5.07457e-05      0.00026016        -0.247721       -0.934631
                       -0.808976       -0.509129     -1.07835e-05     0.000184578        -0.202836        0.179589      6.65246e-06    -0.000228295
                    -0.000342067    -0.000209839         -0.24776       -0.935032       0.00010388    -0.000160498        -0.199857        0.120146
281702.8              -0.0831992        0.258353      0.000267545    -2.76988e-05        -0.808927       -0.509235     -0.000328623    -9.65241e-05
                     0.000306291    -6.67308e-05         -0.23304     -0.00636164     -5.07338e-05     0.000260159        -0.247749       -0.934624
                       -0.808993       -0.509105     -1.11185e-05     0.000184805        -0.202825        0.179591      6.65156e-06    -0.000228298
                     -0.00034206     -0.00020983        -0.247788       -0.935024      0.000103868    -0.000160492        -0.199851         0.12015
281702.9              -0.0831895        0.258349      0.000267549    -2.79384e-05        -0.808945       -0.509211     -0.000328611     -9.6516e-05
                      0.00030628    -6.67382e-05        -0.233037       -0.006354     -5.07218e-05     0.000260158        -0.247778       -0.934617
                       -0.809011       -0.509081     -1.14588e-05     0.000185019        -0.202814        0.179593      6.65066e-06    -0.000228301
                    -0.000342053    -0.000209822        -0.247817       -0.935017      0.000103857    -0.000160487        -0.199845        0.120155
281703                -0.0831798        0.258345      0.000267557    -2.81745e-05        -0.808962       -0.509187     -0.000328599     -9.6508e-05
                     0.000306269    -6.67455e-05        -0.233034     -0.00634635     -5.07098e-05     0.000260157        -0.247806       -0.934611
                       -0.809028       -0.509056     -1.18038e-05      0.00018522        -0.202804        0.179595      6.64976e-06    -0.000228304
                    -0.000342046    -0.000209813        -0.247845        -0.93501      0.000103846    -0.000160481        -0.199839        0.120159
281703.1                -0.08317        0.258341      0.000267571     -2.8407e-05         -0.80898       -0.509163     -0.000328586    -9.64999e-05
                     0.000306259    -6.67528e-05        -0.233032     -0.00633871     -5.06978e-05     0.000260156        -0.247834       -0.934604
                       -0.809045       -0.509032     -1.21527e-05     0.000185407        -0.202793        0.179597      6.64886e-06    -0.000228308
