! TOUCHSTONE file generated by CST MICROWAVE STUDIO
! Date and time: Wed Oct  8 06:55:32 2025
! Project name: Teste_Macro_Metasurface_Nanopilar.cst
! Parameters = {H=600; L_x=110; L_y=115; Lambda=1064; Max_L=200; Min_L=70; PathPara=1; Phi=0; Step_L=10; Theta=0; p=520; phaseX=180; phaseY=0}
! Header version: 2018
! Port assignment regex: !\s*Touchstone port\s*([0-9]+)\s*=\s*(CST MWS port|CST DS port)\s*([0-9]+|Zmin|Zmax)\s*\(\"(.*)\"\)(\s*mode\s*([0-9]+))?.*
! Touchstone port assignment:
! Touchstone port 1 = CST MWS port Zmax ("") mode 1
! Touchstone port 2 = CST MWS port Zmax ("") mode 2
! Touchstone port 3 = CST MWS port Zmin ("") mode 1
! Touchstone port 4 = CST MWS port Zmin ("") mode 2
! S-Parameters are not renormalized. Each port impedance will be approximated by the real part at minimum frequency. The values are described via the [Reference] keyword.
! Default impedance is overridden by [Reference]
[Version] 2.0
# GHz S RI R 376.73
[Number of Ports] 4
[Reference]
376.73 376.73 376.73 376.73 
[Number of Frequencies] 1001
[Network Data]
281700                 -0.165545        0.157182     -0.000172274    -0.000492245         0.678846        0.686627     -2.27086e-05    -0.000184432
                    -9.23854e-05    -0.000738336        -0.244385       0.0611827      0.000128868    -0.000160541         0.401853        0.873282
                        0.678583        0.686692      0.000209646    -0.000126592        -0.161806        0.162847      0.000455703     0.000609923
                    -0.000146665     -0.00015157          0.40169        0.873042      0.000426598     0.000567275        -0.206735        0.145298
281700.1               -0.165536        0.157185      -0.00017229    -0.000492253         0.678869        0.686606     -2.27174e-05    -0.000184432
                    -9.23528e-05    -0.000738279         -0.24438       0.0611904       0.00012886    -0.000160538         0.401881         0.87327
                        0.678607         0.68667      0.000209637    -0.000126593        -0.161798        0.162849      0.000455732     0.000609905
                     -0.00014675    -0.000151242         0.401718         0.87303      0.000426637     0.000567263        -0.206729        0.145302
281700.2               -0.165527        0.157189     -0.000172306    -0.000492262         0.678893        0.686584     -2.27265e-05    -0.000184432
                    -9.23786e-05    -0.000738289        -0.244375       0.0611981      0.000128853    -0.000160534         0.401909        0.873258
                         0.67863        0.686649      0.000209628    -0.000126594         -0.16179         0.16285      0.000455761     0.000609887
                    -0.000146803     -0.00015106         0.401746        0.873018      0.000426675      0.00056725        -0.206722        0.145307
281700.3               -0.165519        0.157192     -0.000172322    -0.000492271         0.678916        0.686562     -2.27359e-05    -0.000184431
                    -9.24636e-05    -0.000738366         -0.24437       0.0612058      0.000128846    -0.000160531         0.401937        0.873246
                        0.678654        0.686627       0.00020962    -0.000126595        -0.161783        0.162852       0.00045579     0.000609869
                    -0.000146823    -0.000151028         0.401774        0.873006      0.000426713     0.000567237        -0.206715        0.145311
281700.4                -0.16551        0.157195     -0.000172338     -0.00049228          0.67894         0.68654     -2.27454e-05    -0.000184431
                    -9.26088e-05    -0.000738511        -0.244365       0.0612135      0.000128838    -0.000160527         0.401965        0.873234
                        0.678678        0.686605      0.000209611    -0.000126595        -0.161775        0.162854      0.000455819     0.000609852
                    -0.000146809     -0.00015115         0.401802        0.872993      0.000426751     0.000567224        -0.206709        0.145315
281700.5               -0.165501        0.157198     -0.000172354    -0.000492288         0.678963        0.686518     -2.27551e-05    -0.000184432
                    -9.28155e-05    -0.000738726         -0.24436       0.0612212      0.000128831    -0.000160524         0.401993        0.873222
                        0.678701        0.686583      0.000209602    -0.000126596        -0.161767        0.162855      0.000455848     0.000609835
                     -0.00014676    -0.000151428          0.40183        0.872981      0.000426789     0.000567211        -0.206702        0.145319
281700.6               -0.165492        0.157201      -0.00017237    -0.000492297         0.678987        0.686496      -2.2765e-05    -0.000184432
                    -9.30851e-05    -0.000739012        -0.244355       0.0612289      0.000128823     -0.00016052         0.402022         0.87321
                        0.678725        0.686561      0.000209594    -0.000126596        -0.161759        0.162857      0.000455877     0.000609818
                    -0.000146676    -0.000151864         0.401858        0.872969      0.000426828     0.000567198        -0.206696        0.145324
281700.7               -0.165483        0.157204     -0.000172386    -0.000492306         0.679011        0.686474      -2.2775e-05    -0.000184433
                    -9.34191e-05     -0.00073937         -0.24435       0.0612367      0.000128816    -0.000160517          0.40205        0.873198
                        0.678748        0.686539      0.000209585    -0.000126596        -0.161751        0.162859      0.000455907     0.000609801
                    -0.000146555    -0.000152461         0.401887        0.872957      0.000426866     0.000567186        -0.206689        0.145328
281700.8               -0.165474        0.157207     -0.000172402    -0.000492314         0.679034        0.686452     -2.27852e-05    -0.000184433
                    -9.38195e-05    -0.000739802        -0.244345       0.0612444      0.000128809    -0.000160513         0.402078        0.873186
                        0.678772        0.686517      0.000209576    -0.000126596        -0.161744        0.162861      0.000455936     0.000609785
                    -0.000146395     -0.00015322         0.401915        0.872945      0.000426904     0.000567173        -0.206682        0.145332
281700.9               -0.165465        0.157211     -0.000172418    -0.000492323         0.679058         0.68643     -2.27955e-05    -0.000184434
                    -9.42884e-05    -0.000740309         -0.24434       0.0612521      0.000128801     -0.00016051         0.402106        0.873173
                        0.678796        0.686495      0.000209567    -0.000126596        -0.161736        0.162862      0.000455964     0.000609768
                    -0.000146194    -0.000154144         0.401943        0.872933      0.000426942      0.00056716        -0.206676        0.145336
281701                 -0.165456        0.157214     -0.000172434    -0.000492331         0.679081        0.686408      -2.2806e-05    -0.000184435
                    -9.48281e-05    -0.000740891        -0.244335       0.0612598      0.000128794    -0.000160506         0.402134        0.873161
                        0.678819        0.686473      0.000209558    -0.000126596        -0.161728        0.162864      0.000455993     0.000609752
                     -0.00014595    -0.000155232         0.401971        0.872921       0.00042698     0.000567147        -0.206669        0.145341
281701.1               -0.165447        0.157217      -0.00017245     -0.00049234         0.679105        0.686386     -2.28165e-05    -0.000184437
                    -9.54415e-05    -0.000741551         -0.24433       0.0612675      0.000128787    -0.000160503         0.402162        0.873149
                        0.678843        0.686451      0.000209549    -0.000126595         -0.16172        0.162866      0.000456022     0.000609736
                    -0.000145661    -0.000156487         0.401999        0.872909      0.000427018     0.000567134        -0.206662        0.145345
281701.2               -0.165439         0.15722     -0.000172467    -0.000492349         0.679129        0.686364     -2.28272e-05    -0.000184438
                    -9.61315e-05     -0.00074229        -0.244325       0.0612752      0.000128779    -0.000160499          0.40219        0.873137
                        0.678867         0.68643       0.00020954    -0.000126595        -0.161712        0.162867      0.000456051     0.000609721
                    -0.000145324    -0.000157909         0.402027        0.872897      0.000427056     0.000567121        -0.206656        0.145349
281701.3                -0.16543        0.157223     -0.000172483    -0.000492357         0.679152        0.686342     -2.28379e-05     -0.00018444
                    -9.69013e-05    -0.000743109         -0.24432       0.0612829      0.000128772    -0.000160496         0.402218        0.873125
                         0.67889        0.686408      0.000209531    -0.000126595        -0.161705        0.162869       0.00045608     0.000609706
                    -0.000144936    -0.000159497         0.402055        0.872884      0.000427094     0.000567108        -0.206649        0.145353
281701.4               -0.165421        0.157226     -0.000172499    -0.000492366         0.679176         0.68632     -2.28487e-05    -0.000184441
                    -9.77548e-05     -0.00074401        -0.244315       0.0612906      0.000128765    -0.000160492         0.402246        0.873113
                        0.678914        0.686386      0.000209522    -0.000126594        -0.161697        0.162871      0.000456108     0.000609691
                    -0.000144493    -0.000161251         0.402083        0.872872      0.000427133     0.000567095        -0.206643        0.145358
281701.5               -0.165412        0.157229     -0.000172515    -0.000492374         0.679199        0.686298     -2.28596e-05    -0.000184443
                     -9.8696e-05    -0.000744993         -0.24431       0.0612984      0.000128758    -0.000160489         0.402275        0.873101
                        0.678937        0.686364      0.000209513    -0.000126593        -0.161689        0.162873      0.000456137     0.000609676
                    -0.000143994     -0.00016317         0.402111         0.87286      0.000427171     0.000567082        -0.206636        0.145362
281701.6               -0.165403        0.157233     -0.000172531    -0.000492383         0.679223        0.686276     -2.28705e-05    -0.000184445
                    -9.97293e-05     -0.00074606        -0.244305       0.0613061       0.00012875    -0.000160485         0.402303        0.873089
                        0.678961        0.686342      0.000209504    -0.000126593        -0.161681        0.162874      0.000456165     0.000609661
                    -0.000143433    -0.000165254         0.402139        0.872848      0.000427209     0.000567069        -0.206629        0.145366
281701.7               -0.165394        0.157236     -0.000172548    -0.000492392         0.679246        0.686254     -2.28815e-05    -0.000184447
                     -0.00010086    -0.000747212          -0.2443       0.0613138      0.000128743    -0.000160482         0.402331        0.873077
                        0.678985         0.68632      0.000209495    -0.000126592        -0.161673        0.162876      0.000456193     0.000609647
                    -0.000142807    -0.000167499         0.402168        0.872836      0.000427247     0.000567055        -0.206623         0.14537
281701.8               -0.165385        0.157239     -0.000172564      -0.0004924          0.67927        0.686232     -2.28925e-05     -0.00018445
                    -0.000102093    -0.000748451        -0.244295       0.0613215      0.000128736    -0.000160478         0.402359        0.873064
                        0.679008        0.686299      0.000209485    -0.000126591        -0.161665        0.162878      0.000456221     0.000609633
                    -0.000142112    -0.000169905         0.402196        0.872824      0.000427285     0.000567042        -0.206616        0.145375
281701.9               -0.165376        0.157242      -0.00017258    -0.000492409         0.679294         0.68621     -2.29035e-05    -0.000184452
                    -0.000103434    -0.000749776         -0.24429       0.0613292      0.000128729    -0.000160475         0.402387        0.873052
                        0.679032        0.686277      0.000209476     -0.00012659        -0.161658        0.162879      0.000456249     0.000609619
                    -0.000141344    -0.000172467         0.402224        0.872812      0.000427323     0.000567029        -0.206609        0.145379
281702                 -0.165367        0.157245     -0.000172596    -0.000492417         0.679317        0.686188     -2.29146e-05    -0.000184455
                     -0.00010489     -0.00075119        -0.244285       0.0613369      0.000128721    -0.000160471         0.402415         0.87304
                        0.679056        0.686255      0.000209467    -0.000126589         -0.16165        0.162881      0.000456277     0.000609605
                    -0.000140499    -0.000175183         0.402252        0.872799      0.000427361     0.000567016        -0.206603        0.145383
281702.1               -0.165359        0.157248     -0.000172613    -0.000492426         0.679341        0.686166     -2.29257e-05    -0.000184458
                    -0.000106468    -0.000752693         -0.24428       0.0613446      0.000128714    -0.000160468         0.402443        0.873028
                        0.679079        0.686233      0.000209458    -0.000126588        -0.161642        0.162883      0.000456304     0.000609591
                    -0.000139573    -0.000178048          0.40228        0.872787      0.000427399     0.000567003        -0.206596        0.145387
281702.2                -0.16535        0.157251     -0.000172629    -0.000492434         0.679364        0.686144     -2.29368e-05    -0.000184461
                    -0.000108176    -0.000754284        -0.244275       0.0613523      0.000128707    -0.000160464         0.402471        0.873016
                        0.679103        0.686212      0.000209448    -0.000126587        -0.161634        0.162885      0.000456332     0.000609578
                    -0.000138561    -0.000181058         0.402308        0.872775      0.000427437      0.00056699        -0.206589        0.145391
281702.3               -0.165341        0.157254     -0.000172645    -0.000492443         0.679388        0.686122     -2.29479e-05    -0.000184464
                    -0.000110021    -0.000755965         -0.24427         0.06136        0.0001287    -0.000160461           0.4025        0.873004
                        0.679126         0.68619      0.000209439    -0.000126585        -0.161626        0.162886      0.000456359     0.000609565
                    -0.000137459    -0.000184209         0.402336        0.872763      0.000427474     0.000566976        -0.206583        0.145396
281702.4               -0.165332        0.157258     -0.000172661    -0.000492451         0.679411          0.6861     -2.29591e-05    -0.000184467
                    -0.000112014    -0.000757736        -0.244265       0.0613677      0.000128693    -0.000160457         0.402528        0.872992
                         0.67915        0.686168       0.00020943    -0.000126584        -0.161619        0.162888      0.000456386     0.000609552
                    -0.000136262    -0.000187494         0.402364        0.872751      0.000427512     0.000566963        -0.206576          0.1454
281702.5               -0.165323        0.157261     -0.000172678     -0.00049246         0.679435        0.686078     -2.29702e-05     -0.00018447
                    -0.000114163    -0.000759594         -0.24426       0.0613755      0.000128686    -0.000160454         0.402556         0.87298
                        0.679174        0.686146       0.00020942    -0.000126583        -0.161611         0.16289      0.000456412     0.000609539
                    -0.000134968    -0.000190908         0.402392        0.872739       0.00042755      0.00056695         -0.20657        0.145404
281702.6               -0.165314        0.157264     -0.000172694    -0.000492468         0.679458        0.686056     -2.29814e-05    -0.000184473
                    -0.000116481    -0.000761541        -0.244255       0.0613832      0.000128678     -0.00016045         0.402584        0.872967
                        0.679197        0.686125      0.000209411    -0.000126581        -0.161603        0.162891      0.000456438     0.000609526
                     -0.00013357    -0.000194443          0.40242        0.872727      0.000427588     0.000566936        -0.206563        0.145408
281702.7               -0.165305        0.157267      -0.00017271    -0.000492477         0.679482        0.686034     -2.29925e-05    -0.000184477
                    -0.000118977    -0.000763573         -0.24425       0.0613909      0.000128671    -0.000160447         0.402612        0.872955
                        0.679221        0.686103      0.000209401     -0.00012658        -0.161595        0.162893      0.000456465     0.000609514
                    -0.000132067    -0.000198093         0.402448        0.872715      0.000427626     0.000566923        -0.206556        0.145413
281702.8               -0.165296         0.15727     -0.000172727    -0.000492485         0.679506        0.686012     -2.30037e-05    -0.000184481
                    -0.000121665    -0.000765689        -0.244245       0.0613986      0.000128664    -0.000160443          0.40264        0.872943
                        0.679245        0.686081      0.000209392    -0.000126578        -0.161587        0.162895       0.00045649     0.000609501
                    -0.000130454     -0.00020185         0.402477        0.872702      0.000427664      0.00056691         -0.20655        0.145417
281702.9               -0.165288        0.157273     -0.000172743    -0.000492494         0.679529         0.68599     -2.30148e-05    -0.000184484
                    -0.000124558    -0.000767885         -0.24424       0.0614063      0.000128657     -0.00016044         0.402668        0.872931
                        0.679268        0.686059      0.000209382    -0.000126577         -0.16158        0.162897      0.000456516     0.000609489
                    -0.000128728    -0.000205706         0.402505         0.87269      0.000427702     0.000566896        -0.206543        0.145421
281703                 -0.165279        0.157276     -0.000172759    -0.000492502         0.679553        0.685968     -2.30259e-05    -0.000184488
                    -0.000127671    -0.000770158        -0.244235        0.061414       0.00012865    -0.000160436         0.402696        0.872919
                        0.679292        0.686038      0.000209373    -0.000126575        -0.161572        0.162898      0.000456541     0.000609477
                    -0.000126887    -0.000209653         0.402533        0.872678       0.00042774     0.000566883        -0.206536        0.145425
281703.1                -0.16527        0.157279     -0.000172776    -0.000492511         0.679576        0.685946     -2.30371e-05    -0.000184492
                     -0.00013102    -0.000772501         -0.24423       0.0614217      0.000128643    -0.000160433         0.402724        0.872907
                        0.679316        0.686016      0.000209363    -0.000126574        -0.161564          0.1629      0.000456566     0.000609465
