! TOUCHSTONE file generated by CST MICROWAVE STUDIO
! Date and time: Wed Oct  8 07:00:17 2025
! Project name: Teste_Macro_Metasurface_Nanopilar.cst
! Parameters = {H=600; L_x=150; L_y=110; Lambda=1064; Max_L=200; Min_L=70; PathPara=1; Phi=0; Step_L=10; Theta=0; p=520; phaseX=180; phaseY=0}
! Header version: 2018
! Port assignment regex: !\s*Touchstone port\s*([0-9]+)\s*=\s*(CST MWS port|CST DS port)\s*([0-9]+|Zmin|Zmax)\s*\(\"(.*)\"\)(\s*mode\s*([0-9]+))?.*
! Touchstone port assignment:
! Touchstone port 1 = CST MWS port Zmax ("") mode 1
! Touchstone port 2 = CST MWS port Zmax ("") mode 2
! Touchstone port 3 = CST MWS port Zmin ("") mode 1
! Touchstone port 4 = CST MWS port Zmin ("") mode 2
! S-Parameters are not renormalized. Each port impedance will be approximated by the real part at minimum frequency. The values are described via the [Reference] keyword.
! Default impedance is overridden by [Reference]
[Version] 2.0
# GHz S RI R 376.73
[Number of Ports] 4
[Reference]
376.73 376.73 376.73 376.73 
[Number of Frequencies] 1001
[Network Data]
281700                  0.028576      -0.0319887      0.000674939     0.000736548         0.976273       -0.160265      0.000152311    -0.000340154
                     0.000683334     0.000592974        -0.178857     -0.00979749     -0.000172664     0.000134765        -0.475389       -0.855458
                        0.976074       -0.160645     -7.47003e-05      0.00013427       -0.0422262        -0.01926      0.000850514     3.71248e-05
                     0.000201555    -0.000210599        -0.475484       -0.855669      0.000915143     4.40135e-05       -0.0873391        0.155664
281700.1               0.0285741      -0.0319962      0.000674964     0.000736535         0.976267       -0.160299      0.000152294    -0.000340162
                     0.000683342      0.00059296        -0.178852     -0.00979287     -0.000172664     0.000134773        -0.475416       -0.855444
                        0.976068       -0.160679     -7.47026e-05     0.000134267       -0.0422281      -0.0192649      0.000850509     3.70853e-05
                     0.000201545    -0.000210626         -0.47551       -0.855655      0.000915146     4.39811e-05       -0.0873309        0.155663
281700.2               0.0285721      -0.0320036       0.00067499     0.000736521         0.976261       -0.160334      0.000152278    -0.000340171
                      0.00068335     0.000592946        -0.178848     -0.00978825     -0.000172663      0.00013478        -0.475443        -0.85543
                        0.976062       -0.160713     -7.47049e-05     0.000134265         -0.04223      -0.0192697      0.000850505     3.70458e-05
                     0.000201534    -0.000210653        -0.475537       -0.855641       0.00091515     4.39488e-05       -0.0873228        0.155662
281700.3               0.0285702       -0.032011      0.000675015     0.000736508         0.976256       -0.160369      0.000152262    -0.000340179
                     0.000683358     0.000592932        -0.178843     -0.00978363     -0.000172663     0.000134788         -0.47547       -0.855416
                        0.976056       -0.160748     -7.47073e-05     0.000134263        -0.042232      -0.0192746        0.0008505     3.70063e-05
                     0.000201524     -0.00021068        -0.475564       -0.855627      0.000915154     4.39164e-05       -0.0873147        0.155661
281700.4               0.0285682      -0.0320185       0.00067504     0.000736494          0.97625       -0.160403      0.000152246    -0.000340188
                     0.000683367     0.000592917        -0.178838     -0.00977901     -0.000172663     0.000134795        -0.475497       -0.855402
                         0.97605       -0.160782     -7.47096e-05     0.000134261       -0.0422339      -0.0192795      0.000850496     3.69668e-05
                     0.000201513    -0.000210706        -0.475591       -0.855614      0.000915158      4.3884e-05       -0.0873066         0.15566
281700.5               0.0285663      -0.0320259      0.000675065     0.000736481         0.976244       -0.160438      0.000152229    -0.000340196
                     0.000683375     0.000592903        -0.178834     -0.00977439     -0.000172663     0.000134802        -0.475524       -0.855388
                        0.976044       -0.160817     -7.47119e-05     0.000134259       -0.0422359      -0.0192844      0.000850491     3.69273e-05
                     0.000201503    -0.000210733        -0.475618         -0.8556      0.000915162     4.38516e-05       -0.0872984        0.155659
281700.6               0.0285643      -0.0320333      0.000675091     0.000736467         0.976238       -0.160472      0.000152213    -0.000340204
                     0.000683383     0.000592889        -0.178829     -0.00976977     -0.000172663      0.00013481        -0.475551       -0.855374
                        0.976038       -0.160851     -7.47142e-05     0.000134257       -0.0422378      -0.0192892      0.000850486     3.68878e-05
                     0.000201493     -0.00021076        -0.475645       -0.855586      0.000915166     4.38193e-05       -0.0872903        0.155658
281700.7               0.0285624      -0.0320407      0.000675116     0.000736454         0.976232       -0.160507      0.000152197    -0.000340213
                     0.000683392     0.000592875        -0.178825     -0.00976515     -0.000172662     0.000134817        -0.475578        -0.85536
                        0.976033       -0.160886     -7.47165e-05     0.000134255       -0.0422398      -0.0192941      0.000850482     3.68483e-05
                     0.000201482    -0.000210787        -0.475672       -0.855572       0.00091517     4.37869e-05       -0.0872822        0.155657
281700.8               0.0285605      -0.0320482      0.000675141     0.000736441         0.976226       -0.160541       0.00015218    -0.000340221
                       0.0006834     0.000592861         -0.17882     -0.00976053     -0.000172662     0.000134825        -0.475605       -0.855346
                        0.976027        -0.16092     -7.47188e-05     0.000134253       -0.0422417       -0.019299      0.000850477     3.68088e-05
                     0.000201472    -0.000210814        -0.475699       -0.855558      0.000915173     4.37545e-05       -0.0872741        0.155656
281700.9               0.0285585      -0.0320556      0.000675167     0.000736427          0.97622       -0.160576      0.000152164     -0.00034023
                     0.000683408     0.000592847        -0.178816     -0.00975591     -0.000172662     0.000134832        -0.475631       -0.855332
                        0.976021       -0.160955     -7.47211e-05     0.000134251       -0.0422436      -0.0193039      0.000850473     3.67693e-05
                     0.000201461     -0.00021084        -0.475726       -0.855544      0.000915177     4.37221e-05       -0.0872659        0.155655
281701                 0.0285566       -0.032063      0.000675192     0.000736414         0.976215        -0.16061      0.000152148    -0.000340238
                     0.000683417     0.000592832        -0.178811     -0.00975129     -0.000172662     0.000134839        -0.475658       -0.855318
                        0.976015       -0.160989     -7.47234e-05     0.000134249       -0.0422456      -0.0193088      0.000850468     3.67298e-05
                     0.000201451    -0.000210867        -0.475753        -0.85553      0.000915181     4.36897e-05       -0.0872578        0.155654
281701.1               0.0285546      -0.0320705      0.000675217       0.0007364         0.976209       -0.160645      0.000152132    -0.000340247
                     0.000683425     0.000592818        -0.178807     -0.00974667     -0.000172661     0.000134847        -0.475685       -0.855304
                        0.976009       -0.161024     -7.47257e-05     0.000134247       -0.0422475      -0.0193136      0.000850464     3.66903e-05
                     0.000201441    -0.000210894         -0.47578       -0.855516      0.000915185     4.36574e-05       -0.0872497        0.155653
281701.2               0.0285527      -0.0320779      0.000675243     0.000736387         0.976203       -0.160679      0.000152115    -0.000340255
                     0.000683433     0.000592804        -0.178802     -0.00974205     -0.000172661     0.000134854        -0.475712        -0.85529
                        0.976003       -0.161058      -7.4728e-05     0.000134245       -0.0422495      -0.0193185      0.000850459     3.66508e-05
                      0.00020143    -0.000210921        -0.475807       -0.855502      0.000915189      4.3625e-05       -0.0872416        0.155652
281701.3               0.0285507      -0.0320853      0.000675268     0.000736373         0.976197       -0.160714      0.000152099    -0.000340264
                     0.000683441      0.00059279        -0.178798     -0.00973744     -0.000172661     0.000134862        -0.475739       -0.855277
                        0.975997       -0.161093     -7.47303e-05     0.000134242       -0.0422514      -0.0193234      0.000850454     3.66113e-05
                      0.00020142    -0.000210948        -0.475833       -0.855488      0.000915193     4.35926e-05       -0.0872334        0.155651
281701.4               0.0285488      -0.0320927      0.000675293      0.00073636         0.976191       -0.160748      0.000152083    -0.000340272
                      0.00068345     0.000592776        -0.178793     -0.00973282     -0.000172661     0.000134869        -0.475766       -0.855263
                        0.975991       -0.161127     -7.47326e-05      0.00013424       -0.0422534      -0.0193283       0.00085045     3.65718e-05
                     0.000201409    -0.000210974         -0.47586       -0.855474      0.000915196     4.35602e-05       -0.0872253         0.15565
281701.5               0.0285468      -0.0321002      0.000675318     0.000736346         0.976185       -0.160783      0.000152067    -0.000340281
                     0.000683458     0.000592762        -0.178788      -0.0097282     -0.000172661     0.000134876        -0.475793       -0.855249
                        0.975985       -0.161162     -7.47349e-05     0.000134238       -0.0422553      -0.0193331      0.000850445     3.65323e-05
                     0.000201399    -0.000211001        -0.475887        -0.85546        0.0009152     4.35278e-05       -0.0872172        0.155649
281701.6               0.0285449      -0.0321076      0.000675344     0.000736333         0.976179       -0.160817       0.00015205    -0.000340289
                     0.000683466     0.000592747        -0.178784     -0.00972359      -0.00017266     0.000134884         -0.47582       -0.855235
                         0.97598       -0.161196     -7.47372e-05     0.000134236       -0.0422573       -0.019338      0.000850441     3.64928e-05
                     0.000201389    -0.000211028        -0.475914       -0.855446      0.000915204     4.34954e-05       -0.0872091        0.155648
281701.7               0.0285429       -0.032115      0.000675369     0.000736319         0.976173       -0.160852      0.000152034    -0.000340298
                     0.000683475     0.000592733        -0.178779     -0.00971897      -0.00017266     0.000134891        -0.475847       -0.855221
                        0.975974       -0.161231     -7.47395e-05     0.000134234       -0.0422592      -0.0193429      0.000850436     3.64533e-05
                     0.000201378    -0.000211055        -0.475941       -0.855432      0.000915208     4.34631e-05        -0.087201        0.155647
281701.8                0.028541      -0.0321224      0.000675394     0.000736306         0.976168       -0.160886      0.000152018    -0.000340306
                     0.000683483     0.000592719        -0.178775     -0.00971435      -0.00017266     0.000134899        -0.475874       -0.855207
                        0.975968       -0.161265     -7.47419e-05     0.000134232       -0.0422612      -0.0193478      0.000850432     3.64138e-05
                     0.000201368    -0.000211082        -0.475968       -0.855418      0.000915212     4.34307e-05       -0.0871928        0.155646
281701.9                0.028539      -0.0321299       0.00067542     0.000736293         0.976162       -0.160921      0.000152001    -0.000340315
                     0.000683491     0.000592705         -0.17877     -0.00970974      -0.00017266     0.000134906          -0.4759       -0.855193
                        0.975962         -0.1613     -7.47442e-05      0.00013423       -0.0422631      -0.0193526      0.000850427     3.63743e-05
                     0.000201357    -0.000211108        -0.475995       -0.855404      0.000915216     4.33983e-05       -0.0871847        0.155645
281702                 0.0285371      -0.0321373      0.000675445     0.000736279         0.976156       -0.160955      0.000151985    -0.000340323
                     0.000683499     0.000592691        -0.178766     -0.00970512     -0.000172659     0.000134913        -0.475927       -0.855179
                        0.975956       -0.161334     -7.47465e-05     0.000134228       -0.0422651      -0.0193575      0.000850422     3.63348e-05
                     0.000201347    -0.000211135        -0.476022        -0.85539      0.000915219     4.33659e-05       -0.0871766        0.155644
281702.1               0.0285351      -0.0321447       0.00067547     0.000736266          0.97615       -0.160989      0.000151969    -0.000340331
                     0.000683508     0.000592677        -0.178761     -0.00970051     -0.000172659     0.000134921        -0.475954       -0.855165
                         0.97595       -0.161369     -7.47488e-05     0.000134226        -0.042267      -0.0193624      0.000850418     3.62953e-05
                     0.000201337    -0.000211162        -0.476049       -0.855376      0.000915223     4.33335e-05       -0.0871685        0.155643
281702.2               0.0285332      -0.0321521      0.000675496     0.000736252         0.976144       -0.161024      0.000151953     -0.00034034
                     0.000683516     0.000592662        -0.178757     -0.00969589     -0.000172659     0.000134928        -0.475981       -0.855151
                        0.975944       -0.161403     -7.47511e-05     0.000134224        -0.042269      -0.0193673      0.000850413     3.62558e-05
                     0.000201326    -0.000211189        -0.476076       -0.855362      0.000915227     4.33011e-05       -0.0871603        0.155642
281702.3               0.0285312      -0.0321596      0.000675521     0.000736239         0.976138       -0.161058      0.000151936    -0.000340348
                     0.000683524     0.000592648        -0.178752     -0.00969128     -0.000172659     0.000134936        -0.476008       -0.855137
                        0.975938       -0.161438     -7.47534e-05     0.000134222       -0.0422709      -0.0193721      0.000850409     3.62163e-05
                     0.000201316    -0.000211215        -0.476103       -0.855348      0.000915231     4.32688e-05       -0.0871522        0.155641
281702.4               0.0285293       -0.032167      0.000675546     0.000736225         0.976132       -0.161093       0.00015192    -0.000340357
                     0.000683533     0.000592634        -0.178748     -0.00968667     -0.000172659     0.000134943        -0.476035       -0.855123
                        0.975932       -0.161472     -7.47557e-05      0.00013422       -0.0422729       -0.019377      0.000850404     3.61768e-05
                     0.000201305    -0.000211242        -0.476129       -0.855334      0.000915235     4.32364e-05       -0.0871441         0.15564
281702.5               0.0285273      -0.0321744      0.000675572     0.000736212         0.976126       -0.161127      0.000151904    -0.000340365
                     0.000683541      0.00059262        -0.178743     -0.00968205     -0.000172658      0.00013495        -0.476062       -0.855109
                        0.975926       -0.161507      -7.4758e-05     0.000134218       -0.0422748      -0.0193819      0.000850399     3.61373e-05
                     0.000201295    -0.000211269        -0.476156       -0.855321      0.000915239      4.3204e-05        -0.087136        0.155639
281702.6               0.0285254      -0.0321819      0.000675597     0.000736198         0.976121       -0.161162      0.000151888    -0.000340374
                     0.000683549     0.000592606        -0.178738     -0.00967744     -0.000172658     0.000134958        -0.476089       -0.855095
                        0.975921       -0.161541     -7.47604e-05     0.000134216       -0.0422768      -0.0193868      0.000850395     3.60978e-05
                     0.000201284    -0.000211296        -0.476183       -0.855307      0.000915242     4.31716e-05       -0.0871278        0.155638
281702.7               0.0285234      -0.0321893      0.000675622     0.000736185         0.976115       -0.161196      0.000151871    -0.000340382
                     0.000683557     0.000592592        -0.178734     -0.00967282     -0.000172658     0.000134965        -0.476116       -0.855081
                        0.975915       -0.161576     -7.47627e-05     0.000134213       -0.0422787      -0.0193916       0.00085039     3.60584e-05
                     0.000201274    -0.000211323         -0.47621       -0.855293      0.000915246     4.31392e-05       -0.0871197        0.155637
281702.8               0.0285215      -0.0321967      0.000675648     0.000736171         0.976109       -0.161231      0.000151855    -0.000340391
                     0.000683566     0.000592577        -0.178729     -0.00966821     -0.000172658     0.000134973        -0.476142       -0.855067
                        0.975909        -0.16161      -7.4765e-05     0.000134211       -0.0422807      -0.0193965      0.000850386     3.60189e-05
                     0.000201264    -0.000211349        -0.476237       -0.855279       0.00091525     4.31068e-05       -0.0871116        0.155636
281702.9               0.0285195      -0.0322041      0.000675673     0.000736158         0.976103       -0.161265      0.000151839    -0.000340399
                     0.000683574     0.000592563        -0.178725      -0.0096636     -0.000172657      0.00013498        -0.476169       -0.855053
                        0.975903       -0.161645     -7.47673e-05     0.000134209       -0.0422826      -0.0194014      0.000850381     3.59794e-05
                     0.000201253    -0.000211376        -0.476264       -0.855265      0.000915254     4.30744e-05       -0.0871035        0.155635
281703                 0.0285175      -0.0322116      0.000675698     0.000736145         0.976097         -0.1613      0.000151822    -0.000340407
                     0.000683582     0.000592549         -0.17872     -0.00965899     -0.000172657     0.000134987        -0.476196       -0.855039
                        0.975897       -0.161679     -7.47696e-05     0.000134207       -0.0422846      -0.0194063      0.000850376     3.59399e-05
                     0.000201243    -0.000211403        -0.476291       -0.855251      0.000915258      4.3042e-05       -0.0870954        0.155634
281703.1               0.0285156       -0.032219      0.000675724     0.000736131         0.976091       -0.161334      0.000151806    -0.000340416
                     0.000683591     0.000592535        -0.178716     -0.00965438     -0.000172657     0.000134995        -0.476223       -0.855025
                        0.975891       -0.161714      -7.4772e-05     0.000134205       -0.0422865      -0.0194111      0.000850372     3.59004e-05
