! TOUCHSTONE file generated by CST MICROWAVE STUDIO
! Date and time: Wed Oct  8 07:06:37 2025
! Project name: Teste_Macro_Metasurface_Nanopilar.cst
! Parameters = {H=600; L_x=200; L_y=190; Lambda=1064; Max_L=200; Min_L=70; PathPara=1; Phi=0; Step_L=10; Theta=0; p=520; phaseX=180; phaseY=0}
! Header version: 2018
! Port assignment regex: !\s*Touchstone port\s*([0-9]+)\s*=\s*(CST MWS port|CST DS port)\s*([0-9]+|Zmin|Zmax)\s*\(\"(.*)\"\)(\s*mode\s*([0-9]+))?.*
! Touchstone port assignment:
! Touchstone port 1 = CST MWS port Zmax ("") mode 1
! Touchstone port 2 = CST MWS port Zmax ("") mode 2
! Touchstone port 3 = CST MWS port Zmin ("") mode 1
! Touchstone port 4 = CST MWS port Zmin ("") mode 2
! S-Parameters are not renormalized. Each port impedance will be approximated by the real part at minimum frequency. The values are described via the [Reference] keyword.
! Default impedance is overridden by [Reference]
[Version] 2.0
# GHz S RI R 376.73
[Number of Ports] 4
[Reference]
376.73 376.73 376.73 376.73 
[Number of Frequencies] 1001
[Network Data]
281700                 -0.262021       -0.258059      0.000303168    -0.000310902        -0.850805        0.366125      -0.00020712    -0.000106638
                     0.000321521    -0.000297236        -0.348369       -0.269423     -3.19688e-05    -0.000149386        -0.784144        0.428988
                       -0.850841        0.366096      1.66181e-05     -0.00019853        -0.010788       -0.366763     -0.000240331     6.31771e-05
                    -0.000200313    -7.03105e-05        -0.784098        0.429018     -0.000313839    -4.79534e-06       -0.0424756       -0.437338
281700.1               -0.262029       -0.258059      0.000303163    -0.000310914        -0.850792        0.366149     -0.000207133    -0.000106623
                     0.000321507    -0.000297221        -0.348377        -0.26942     -3.20173e-05    -0.000150041        -0.784129        0.429009
                       -0.850829         0.36612      1.66042e-05    -0.000198517       -0.0108034       -0.366768     -0.000240304     6.31256e-05
                    -0.000200305    -7.03313e-05        -0.784083        0.429039     -0.000312994    -4.63292e-06       -0.0424942       -0.437341
281700.2               -0.262037       -0.258058      0.000303158    -0.000310926        -0.850779        0.366173     -0.000207146    -0.000106609
                     0.000321493    -0.000297206        -0.348386       -0.269417     -3.20477e-05      -0.0001507        -0.784115        0.429031
                       -0.850816        0.366144      1.65903e-05    -0.000198503       -0.0108188       -0.366773     -0.000240276     6.30746e-05
                    -0.000200296    -7.03522e-05        -0.784069        0.429061     -0.000312159    -4.46814e-06       -0.0425127       -0.437344
281700.3               -0.262045       -0.258058      0.000303153    -0.000310938        -0.850766        0.366197     -0.000207159    -0.000106594
                      0.00032148     -0.00029719        -0.348394       -0.269414       -3.206e-05    -0.000151361          -0.7841        0.429053
                       -0.850803        0.366168      1.65764e-05     -0.00019849       -0.0108342       -0.366777     -0.000240249     6.30242e-05
                    -0.000200287    -7.03733e-05        -0.784054        0.429083     -0.000311334    -4.30111e-06       -0.0425312       -0.437347
281700.4               -0.262053       -0.258057      0.000303148     -0.00031095        -0.850753        0.366221     -0.000207172    -0.000106579
                     0.000321466    -0.000297175        -0.348403       -0.269411     -3.20537e-05    -0.000152025        -0.784085        0.429075
                       -0.850791        0.366192      1.65624e-05    -0.000198477       -0.0108496       -0.366782     -0.000240221     6.29744e-05
                    -0.000200279    -7.03945e-05        -0.784039        0.429105     -0.000310518    -4.13193e-06       -0.0425498        -0.43735
281700.5               -0.262061       -0.258056      0.000303142    -0.000310962        -0.850741        0.366245     -0.000207186    -0.000106564
                     0.000321452     -0.00029716        -0.348411       -0.269408     -3.20288e-05     -0.00015269        -0.784071        0.429097
                       -0.850778        0.366216      1.65484e-05    -0.000198463        -0.010865       -0.366787     -0.000240192     6.29252e-05
                     -0.00020027    -7.04159e-05        -0.784025        0.429127     -0.000309711     -3.9607e-06       -0.0425683       -0.437353
281700.6                -0.26207       -0.258056      0.000303137    -0.000310974        -0.850728        0.366268     -0.000207199     -0.00010655
                     0.000321438    -0.000297144         -0.34842       -0.269405     -3.19851e-05    -0.000153355        -0.784056        0.429118
                       -0.850766         0.36624      1.65344e-05     -0.00019845       -0.0108804       -0.366791     -0.000240164     6.28765e-05
                    -0.000200261    -7.04374e-05         -0.78401        0.429149     -0.000308914    -3.78751e-06       -0.0425869       -0.437356
281700.7               -0.262078       -0.258055      0.000303132    -0.000310986        -0.850715        0.366292     -0.000207212    -0.000106535
                     0.000321424    -0.000297129        -0.348428       -0.269402     -3.19225e-05    -0.000154019        -0.784041         0.42914
                       -0.850753        0.366265      1.65204e-05    -0.000198436       -0.0108958       -0.366796     -0.000240136     6.28284e-05
                    -0.000200252    -7.04591e-05        -0.783995        0.429171     -0.000308125    -3.61246e-06       -0.0426054       -0.437359
281700.8               -0.262086       -0.258055      0.000303127    -0.000310998        -0.850702        0.366316     -0.000207225     -0.00010652
                      0.00032141    -0.000297113        -0.348437       -0.269399     -3.18409e-05    -0.000154682        -0.784027        0.429162
                        -0.85074        0.366289      1.65064e-05    -0.000198423       -0.0109113       -0.366801     -0.000240107     6.27809e-05
                    -0.000200243     -7.0481e-05        -0.783981        0.429193     -0.000307345    -3.43564e-06        -0.042624       -0.437362
281700.9               -0.262094       -0.258054      0.000303122    -0.000311011        -0.850689         0.36634     -0.000207238    -0.000106505
                     0.000321396    -0.000297097        -0.348445       -0.269396     -3.17404e-05    -0.000155344        -0.784012        0.429184
                       -0.850728        0.366313      1.64923e-05     -0.00019841       -0.0109267       -0.366805     -0.000240078      6.2734e-05
                    -0.000200234     -7.0503e-05        -0.783966        0.429214     -0.000306574    -3.25714e-06       -0.0426425       -0.437366
281701                 -0.262102       -0.258053      0.000303116    -0.000311023        -0.850677        0.366364     -0.000207251    -0.000106491
                     0.000321382    -0.000297081        -0.348454       -0.269393      -3.1621e-05    -0.000156001        -0.783997        0.429206
                       -0.850715        0.366337      1.64782e-05    -0.000198396       -0.0109421        -0.36681     -0.000240049     6.26876e-05
                    -0.000200224    -7.05252e-05        -0.783952        0.429236     -0.000305812    -3.07704e-06       -0.0426611       -0.437369
281701.1                -0.26211       -0.258053      0.000303111    -0.000311035        -0.850664        0.366388     -0.000207265    -0.000106476
                     0.000321368    -0.000297065        -0.348462        -0.26939     -3.14829e-05    -0.000156655        -0.783983        0.429227
                       -0.850703        0.366361      1.64641e-05    -0.000198383       -0.0109575       -0.366815     -0.000240019     6.26418e-05
                    -0.000200215    -7.05475e-05        -0.783937        0.429258     -0.000305058    -2.89542e-06       -0.0426796       -0.437372
281701.2               -0.262118       -0.258052      0.000303106    -0.000311047        -0.850651        0.366412     -0.000207278    -0.000106461
                     0.000321354    -0.000297049        -0.348471       -0.269387     -3.13262e-05    -0.000157305        -0.783968        0.429249
                        -0.85069        0.366385      1.64499e-05    -0.000198369       -0.0109729       -0.366819      -0.00023999     6.25966e-05
                    -0.000200205      -7.057e-05        -0.783922         0.42928     -0.000304313    -2.71236e-06       -0.0426982       -0.437375
281701.3               -0.262126       -0.258051      0.000303101    -0.000311059        -0.850638        0.366436     -0.000207291    -0.000106447
                      0.00032134    -0.000297033        -0.348479       -0.269384     -3.11512e-05    -0.000157948        -0.783953        0.429271
                       -0.850677        0.366409      1.64357e-05    -0.000198355       -0.0109883       -0.366824      -0.00023996      6.2552e-05
                    -0.000200196    -7.05926e-05        -0.783908        0.429302     -0.000303575    -2.52794e-06       -0.0427167       -0.437378
281701.4               -0.262134       -0.258051      0.000303096    -0.000311071        -0.850625         0.36646     -0.000207304    -0.000106432
                     0.000321325    -0.000297017        -0.348488       -0.269381      -3.0958e-05    -0.000158585        -0.783939        0.429293
                       -0.850665        0.366433      1.64215e-05    -0.000198342       -0.0110037       -0.366828      -0.00023993      6.2508e-05
                    -0.000200186    -7.06155e-05        -0.783893        0.429324     -0.000302846    -2.34223e-06       -0.0427353       -0.437381
281701.5               -0.262142        -0.25805       0.00030309    -0.000311083        -0.850612        0.366484     -0.000207317    -0.000106417
                     0.000321311    -0.000297001        -0.348496       -0.269378     -3.07471e-05    -0.000159215        -0.783924        0.429315
                       -0.850652        0.366457      1.64073e-05    -0.000198328       -0.0110191       -0.366833       -0.0002399     6.24645e-05
                    -0.000200176    -7.06385e-05        -0.783878        0.429346     -0.000302125    -2.15531e-06       -0.0427538       -0.437384
281701.6               -0.262151        -0.25805      0.000303085    -0.000311095          -0.8506        0.366508      -0.00020733    -0.000106403
                     0.000321297    -0.000296985        -0.348505       -0.269375     -3.05189e-05    -0.000159837        -0.783909        0.429336
                       -0.850639        0.366481      1.63931e-05    -0.000198315       -0.0110346       -0.366838      -0.00023987     6.24216e-05
                    -0.000200166    -7.06617e-05        -0.783864        0.429367     -0.000301412    -1.96724e-06       -0.0427724       -0.437387
281701.7               -0.262159       -0.258049       0.00030308    -0.000311107        -0.850587        0.366532     -0.000207343    -0.000106388
                     0.000321283    -0.000296968        -0.348513       -0.269372     -3.02736e-05    -0.000160449        -0.783895        0.429358
                       -0.850627        0.366506      1.63788e-05    -0.000198301         -0.01105       -0.366842     -0.000239839     6.23793e-05
                    -0.000200156     -7.0685e-05        -0.783849        0.429389     -0.000300707    -1.77808e-06       -0.0427909        -0.43739
281701.8               -0.262167       -0.258048      0.000303075    -0.000311119        -0.850574        0.366556     -0.000207356    -0.000106374
                     0.000321268    -0.000296952        -0.348522       -0.269369     -3.00118e-05    -0.000161053         -0.78388         0.42938
                       -0.850614         0.36653      1.63645e-05    -0.000198287       -0.0110654       -0.366847     -0.000239809     6.23376e-05
                    -0.000200146    -7.07085e-05        -0.783835        0.429411     -0.000300009    -1.58791e-06       -0.0428095       -0.437393
281701.9               -0.262175       -0.258048      0.000303069    -0.000311131        -0.850561         0.36658     -0.000207369    -0.000106359
                     0.000321254    -0.000296935         -0.34853       -0.269366     -2.97341e-05    -0.000161645        -0.783865        0.429402
                       -0.850602        0.366554      1.63501e-05    -0.000198273       -0.0110808       -0.366852     -0.000239778     6.22964e-05
                    -0.000200136    -7.07323e-05         -0.78382        0.429433     -0.000299319    -1.39679e-06        -0.042828       -0.437396
281702                 -0.262183       -0.258047      0.000303064    -0.000311143        -0.850548        0.366604     -0.000207382    -0.000106344
                      0.00032124    -0.000296919        -0.348538       -0.269362     -2.94409e-05    -0.000162227         -0.78385        0.429424
                       -0.850589        0.366578      1.63357e-05     -0.00019826       -0.0110963       -0.366856     -0.000239748     6.22559e-05
                    -0.000200125    -7.07561e-05        -0.783805        0.429455     -0.000298636    -1.20477e-06       -0.0428465       -0.437399
281702.1               -0.262191       -0.258046      0.000303059    -0.000311155        -0.850536        0.366628     -0.000207395     -0.00010633
                     0.000321225    -0.000296902        -0.348547       -0.269359     -2.91328e-05    -0.000162798        -0.783836        0.429445
                       -0.850576        0.366602      1.63213e-05    -0.000198246       -0.0111117       -0.366861     -0.000239717     6.22159e-05
                    -0.000200115    -7.07802e-05        -0.783791        0.429477     -0.000297961    -1.01191e-06       -0.0428651       -0.437402
281702.2               -0.262199       -0.258046      0.000303054    -0.000311167        -0.850523        0.366652     -0.000207408    -0.000106315
                     0.000321211    -0.000296885        -0.348555       -0.269356     -2.88104e-05    -0.000163356        -0.783821        0.429467
                       -0.850564        0.366626      1.63069e-05    -0.000198232       -0.0111271       -0.366866     -0.000239686     6.21764e-05
                    -0.000200104    -7.08045e-05        -0.783776        0.429499     -0.000297292    -8.18277e-07       -0.0428836       -0.437405
281702.3               -0.262207       -0.258045      0.000303048    -0.000311179         -0.85051        0.366676      -0.00020742    -0.000106301
                     0.000321196    -0.000296868        -0.348564       -0.269353     -2.84744e-05    -0.000163901        -0.783806        0.429489
                       -0.850551         0.36665      1.62925e-05    -0.000198218       -0.0111425        -0.36687     -0.000239655     6.21376e-05
                    -0.000200093    -7.08289e-05        -0.783761         0.42952     -0.000296631    -6.23918e-07       -0.0429022       -0.437408
281702.4               -0.262215       -0.258044      0.000303043    -0.000311191        -0.850497          0.3667     -0.000207433    -0.000106286
                     0.000321182    -0.000296851        -0.348572        -0.26935     -2.81254e-05    -0.000164433        -0.783792        0.429511
                       -0.850538        0.366674       1.6278e-05    -0.000198204        -0.011158       -0.366875     -0.000239624     6.20993e-05
                    -0.000200082    -7.08536e-05        -0.783747        0.429542     -0.000295977    -4.28886e-07       -0.0429207       -0.437411
281702.5               -0.262224       -0.258044      0.000303038    -0.000311203        -0.850484        0.366724     -0.000207446    -0.000106272
                     0.000321167    -0.000296834        -0.348581       -0.269347     -2.77642e-05    -0.000164951        -0.783777        0.429533
                       -0.850526        0.366698      1.62634e-05     -0.00019819       -0.0111734        -0.36688     -0.000239593     6.20616e-05
                    -0.000200071    -7.08784e-05        -0.783732        0.429564      -0.00029533    -2.33233e-07       -0.0429393       -0.437414
281702.6               -0.262232       -0.258043      0.000303033    -0.000311215        -0.850471        0.366748     -0.000207459    -0.000106257
                     0.000321153    -0.000296817        -0.348589       -0.269344     -2.73914e-05    -0.000165456        -0.783762        0.429554
                       -0.850513        0.366722      1.62489e-05    -0.000198176       -0.0111888       -0.366884     -0.000239562     6.20244e-05
                     -0.00020006    -7.09034e-05        -0.783717        0.429586      -0.00029469    -3.70075e-08       -0.0429578       -0.437418
281702.7                -0.26224       -0.258043      0.000303027    -0.000311227        -0.850459        0.366772     -0.000207472    -0.000106242
                     0.000321138      -0.0002968        -0.348598       -0.269341     -2.70078e-05    -0.000165945        -0.783748        0.429576
                       -0.850501        0.366747      1.62343e-05    -0.000198162       -0.0112043       -0.366889      -0.00023953     6.19879e-05
                    -0.000200049    -7.09287e-05        -0.783703        0.429608     -0.000294057     1.59743e-07       -0.0429764       -0.437421
281702.8               -0.262248       -0.258042      0.000303022    -0.000311239        -0.850446        0.366796     -0.000207485    -0.000106228
                     0.000321123    -0.000296782        -0.348606       -0.269338     -2.66141e-05     -0.00016642        -0.783733        0.429598
                       -0.850488        0.366771      1.62197e-05    -0.000198148       -0.0112197       -0.366894     -0.000239499     6.19519e-05
                    -0.000200037    -7.09541e-05        -0.783688         0.42963      -0.00029343     3.56972e-07       -0.0429949       -0.437424
281702.9               -0.262256       -0.258041      0.000303017    -0.000311251        -0.850433        0.366819     -0.000207498    -0.000106213
                     0.000321109    -0.000296765        -0.348615       -0.269335      -2.6211e-05     -0.00016688        -0.783718         0.42962
                       -0.850475        0.366795       1.6205e-05    -0.000198134       -0.0112351       -0.366898     -0.000239468     6.19164e-05
                    -0.000200026    -7.09797e-05        -0.783674        0.429652      -0.00029281     5.54635e-07       -0.0430135       -0.437427
281703                 -0.262264       -0.258041      0.000303012    -0.000311263         -0.85042        0.366843      -0.00020751    -0.000106199
                     0.000321094    -0.000296748        -0.348623       -0.269332     -2.57994e-05    -0.000167324        -0.783704        0.429642
                       -0.850463        0.366819      1.61904e-05     -0.00019812       -0.0112506       -0.366903     -0.000239436     6.18815e-05
                    -0.000200014    -7.10056e-05        -0.783659        0.429673     -0.000292196      7.5269e-07        -0.043032        -0.43743
281703.1               -0.262272        -0.25804      0.000303006    -0.000311275        -0.850407        0.366867     -0.000207523    -0.000106184
                     0.000321079     -0.00029673        -0.348632       -0.269329     -2.53798e-05    -0.000167753        -0.783689        0.429663
                        -0.85045        0.366843      1.61757e-05    -0.000198106        -0.011266       -0.366908     -0.000239405     6.18472e-05
