! TOUCHSTONE file generated by CST MICROWAVE STUDIO
! Date and time: Wed Oct  8 06:58:49 2025
! Project name: Teste_Macro_Metasurface_Nanopilar.cst
! Parameters = {H=600; L_x=135; L_y=185; Lambda=1064; Max_L=200; Min_L=70; PathPara=1; Phi=0; Step_L=10; Theta=0; p=520; phaseX=180; phaseY=0}
! Header version: 2018
! Port assignment regex: !\s*Touchstone port\s*([0-9]+)\s*=\s*(CST MWS port|CST DS port)\s*([0-9]+|Zmin|Zmax)\s*\(\"(.*)\"\)(\s*mode\s*([0-9]+))?.*
! Touchstone port assignment:
! Touchstone port 1 = CST MWS port Zmax ("") mode 1
! Touchstone port 2 = CST MWS port Zmax ("") mode 2
! Touchstone port 3 = CST MWS port Zmin ("") mode 1
! Touchstone port 4 = CST MWS port Zmin ("") mode 2
! S-Parameters are not renormalized. Each port impedance will be approximated by the real part at minimum frequency. The values are described via the [Reference] keyword.
! Default impedance is overridden by [Reference]
[Version] 2.0
# GHz S RI R 376.73
[Number of Ports] 4
[Reference]
376.73 376.73 376.73 376.73 
[Number of Frequencies] 1001
[Network Data]
281700                -0.0151019       0.0789598        -0.000236     0.000500791        -0.956886       -0.261968      7.78921e-05     -0.00139237
                    -0.000708145     0.000581838         -0.49967       -0.525175     -0.000470944    -0.000403525        -0.581964       0.0988816
                       -0.957215       -0.261996     -0.000299843    -0.000494419       -0.0321739       0.0728663       0.00120279     0.000799931
                     0.000436706     -0.00130535        -0.581925       0.0993186       0.00133682     0.000678497        0.0736301        -0.70103
281700.1               -0.015098       0.0789538     -0.000235902     0.000500871        -0.956895       -0.261939      7.78073e-05     -0.00139249
                    -0.000707831     0.000581021        -0.499752       -0.525167     -0.000470294    -0.000403867        -0.581883       0.0989249
                       -0.957224       -0.261967     -0.000299995    -0.000494274       -0.0321697       0.0728608       0.00120293     0.000799844
                     0.000435784     -0.00130545        -0.581845       0.0993609       0.00133534     0.000676852        0.0735326       -0.701092
281700.2              -0.0150941       0.0789478     -0.000235804      0.00050095        -0.956903        -0.26191      7.77226e-05      -0.0013926
                    -0.000707517     0.000580208        -0.499834       -0.525158     -0.000469641    -0.000404208        -0.581802       0.0989682
                       -0.957233       -0.261938     -0.000300147     -0.00049413       -0.0321655       0.0728553       0.00120306     0.000799757
                     0.000434859     -0.00130553        -0.581764       0.0994032       0.00133387     0.000675215         0.073435       -0.701154
281700.3              -0.0150903       0.0789418     -0.000235706      0.00050103        -0.956912       -0.261881      7.76377e-05     -0.00139272
                    -0.000707202     0.000579398        -0.499916        -0.52515     -0.000468984    -0.000404546        -0.581722       0.0990115
                       -0.957242       -0.261909     -0.000300298    -0.000493985       -0.0321613       0.0728498       0.00120319     0.000799669
                      0.00043393     -0.00130561        -0.581683       0.0994456       0.00133241     0.000673585        0.0733375       -0.701216
281700.4              -0.0150864       0.0789358     -0.000235609      0.00050111         -0.95692       -0.261852      7.75529e-05     -0.00139283
                    -0.000706887     0.000578592        -0.499998       -0.525142     -0.000468324    -0.000404882        -0.581641       0.0990548
                       -0.957251        -0.26188     -0.000300449     -0.00049384       -0.0321571       0.0728444       0.00120333     0.000799582
                     0.000432997     -0.00130569        -0.581602       0.0994879       0.00133095     0.000671962        0.0732399       -0.701278
281700.5              -0.0150826       0.0789297     -0.000235511      0.00050119        -0.956929       -0.261823      7.74681e-05     -0.00139295
                    -0.000706572     0.000577789        -0.500079       -0.525133      -0.00046766    -0.000405216         -0.58156       0.0990981
                        -0.95726       -0.261851       -0.0003006    -0.000493695       -0.0321529       0.0728389       0.00120346     0.000799494
                     0.000432061     -0.00130575        -0.581521       0.0995302       0.00132951     0.000670347        0.0731422        -0.70134
281700.6              -0.0150787       0.0789237     -0.000235413     0.000501269        -0.956937       -0.261794      7.73832e-05     -0.00139306
                    -0.000706256     0.000576989        -0.500161       -0.525125     -0.000466992    -0.000405548        -0.581479       0.0991413
                       -0.957269       -0.261822     -0.000300751     -0.00049355       -0.0321487       0.0728334       0.00120359     0.000799406
                     0.000431121     -0.00130582         -0.58144       0.0995724       0.00132807      0.00066874        0.0730446       -0.701402
281700.7              -0.0150749       0.0789177     -0.000235316     0.000501349        -0.956946       -0.261766      7.72983e-05     -0.00139318
                     -0.00070594     0.000576193        -0.500243       -0.525117     -0.000466321    -0.000405878        -0.581398       0.0991846
                       -0.957277       -0.261793     -0.000300901    -0.000493405       -0.0321445        0.072828       0.00120372     0.000799319
                     0.000430177     -0.00130587        -0.581359       0.0996147       0.00132664     0.000667139        0.0729469       -0.701464
281700.8               -0.015071       0.0789117     -0.000235218     0.000501428        -0.956955       -0.261737      7.72135e-05     -0.00139329
                    -0.000705624       0.0005754        -0.500325       -0.525108     -0.000465647    -0.000406205        -0.581317       0.0992278
                       -0.957286       -0.261764     -0.000301051     -0.00049326       -0.0321403       0.0728225       0.00120386     0.000799231
                      0.00042923     -0.00130592        -0.581278       0.0996569       0.00132522     0.000665546        0.0728492       -0.701525
281700.9              -0.0150672       0.0789057     -0.000235121     0.000501508        -0.956963       -0.261708      7.71285e-05     -0.00139341
                    -0.000705308     0.000574611        -0.500407         -0.5251     -0.000464969    -0.000406529        -0.581236       0.0992709
                       -0.957295       -0.261735     -0.000301201    -0.000493115       -0.0321361        0.072817       0.00120399     0.000799143
                     0.000428279     -0.00130597        -0.581197       0.0996992        0.0013238     0.000663961        0.0727514       -0.701587
281701                -0.0150633       0.0788996     -0.000235024     0.000501587        -0.956972       -0.261679      7.70436e-05     -0.00139352
                    -0.000704991     0.000573825        -0.500489       -0.525091     -0.000464287    -0.000406852        -0.581154       0.0993141
                       -0.957304       -0.261706     -0.000301351     -0.00049297       -0.0321319       0.0728115       0.00120412     0.000799055
                     0.000427325       -0.001306        -0.581116       0.0997414        0.0013224     0.000662382        0.0726537       -0.701649
281701.1              -0.0150595       0.0788936     -0.000234926     0.000501667         -0.95698        -0.26165      7.69587e-05     -0.00139364
                    -0.000704674     0.000573043         -0.50057       -0.525083     -0.000463602    -0.000407172        -0.581073       0.0993573
                       -0.957313       -0.261677       -0.0003015    -0.000492824       -0.0321277       0.0728061       0.00120425     0.000798967
                     0.000426368     -0.00130603        -0.581035       0.0997836         0.001321     0.000660811        0.0725559       -0.701711
281701.2              -0.0150556       0.0788876     -0.000234829     0.000501747        -0.956989       -0.261621      7.68737e-05     -0.00139375
                    -0.000704357     0.000572264        -0.500652       -0.525074     -0.000462913    -0.000407489        -0.580992       0.0994004
                       -0.957322       -0.261648      -0.00030165    -0.000492679       -0.0321235       0.0728006       0.00120439     0.000798879
                     0.000425407     -0.00130605        -0.580954       0.0998258       0.00131961     0.000659247        0.0724581       -0.701773
281701.3              -0.0150518       0.0788816     -0.000234732     0.000501826        -0.956997       -0.261592      7.67888e-05     -0.00139387
                    -0.000704039     0.000571488        -0.500734       -0.525066     -0.000462221    -0.000407803        -0.580911       0.0994435
                       -0.957331       -0.261619     -0.000301799    -0.000492534       -0.0321193       0.0727951       0.00120452     0.000798791
                     0.000424442     -0.00130607        -0.580873       0.0998679       0.00131823     0.000657691        0.0723603       -0.701834
281701.4              -0.0150479       0.0788756     -0.000234635     0.000501906        -0.957006       -0.261563      7.67038e-05     -0.00139398
                    -0.000703721     0.000570716        -0.500816       -0.525057     -0.000461525    -0.000408115         -0.58083       0.0994866
                        -0.95734        -0.26159     -0.000301947    -0.000492388       -0.0321151       0.0727897       0.00120465     0.000798703
                     0.000423475     -0.00130608        -0.580791       0.0999101       0.00131685     0.000656141        0.0722624       -0.701896
281701.5              -0.0150441       0.0788695     -0.000234538     0.000501985        -0.957014       -0.261534      7.66188e-05      -0.0013941
                    -0.000703403     0.000569947        -0.500898       -0.525049     -0.000460825    -0.000408425        -0.580749       0.0995297
                       -0.957348       -0.261561     -0.000302096    -0.000492243       -0.0321109       0.0727842       0.00120479     0.000798615
                     0.000422504     -0.00130608         -0.58071       0.0999523       0.00131549     0.000654598        0.0721646       -0.701958
281701.6              -0.0150402       0.0788635     -0.000234441     0.000502064        -0.957023       -0.261505      7.65338e-05     -0.00139421
                    -0.000703085     0.000569181         -0.50098        -0.52504     -0.000460122    -0.000408731        -0.580668       0.0995727
                       -0.957357       -0.261532     -0.000302244    -0.000492097       -0.0321067       0.0727787       0.00120492     0.000798527
                      0.00042153     -0.00130608        -0.580629       0.0999944       0.00131413     0.000653063        0.0720667       -0.702019
281701.7              -0.0150364       0.0788575     -0.000234344     0.000502144        -0.957031       -0.261476      7.64487e-05     -0.00139433
                    -0.000702766     0.000568419        -0.501062       -0.525031     -0.000459416    -0.000409035        -0.580587       0.0996157
                       -0.957366       -0.261503     -0.000302392    -0.000491951       -0.0321025       0.0727733       0.00120505     0.000798438
                     0.000420553     -0.00130606        -0.580548        0.100036       0.00131278     0.000651534        0.0719687       -0.702081
281701.8              -0.0150325       0.0788515     -0.000234247     0.000502223         -0.95704       -0.261447      7.63637e-05     -0.00139444
                    -0.000702448      0.00056766        -0.501144       -0.525023     -0.000458705    -0.000409335        -0.580505       0.0996587
                       -0.957375       -0.261474      -0.00030254    -0.000491806       -0.0320983       0.0727678       0.00120518      0.00079835
                     0.000419572     -0.00130604        -0.580467        0.100079       0.00131143     0.000650012        0.0718708       -0.702143
281701.9              -0.0150287       0.0788454      -0.00023415     0.000502303        -0.957049       -0.261418      7.62786e-05     -0.00139456
                    -0.000702129     0.000566905        -0.501226       -0.525014     -0.000457992    -0.000409633        -0.580424       0.0997017
                       -0.957384       -0.261445     -0.000302688     -0.00049166       -0.0320941       0.0727623       0.00120532     0.000798262
                     0.000418589     -0.00130601        -0.580386        0.100121        0.0013101     0.000648498        0.0717728       -0.702204
281702                -0.0150248       0.0788394     -0.000234053     0.000502382        -0.957057       -0.261389      7.61936e-05     -0.00139467
                     -0.00070181     0.000566152        -0.501308       -0.525006     -0.000457275    -0.000409928        -0.580343       0.0997447
                       -0.957393       -0.261416     -0.000302835    -0.000491514       -0.0320899       0.0727569       0.00120545     0.000798173
                     0.000417603     -0.00130598        -0.580304        0.100163       0.00130877      0.00064699        0.0716748       -0.702266
281702.1               -0.015021       0.0788334     -0.000233957     0.000502461        -0.957066        -0.26136      7.61085e-05     -0.00139479
                     -0.00070149     0.000565403        -0.501389       -0.524997     -0.000456554    -0.000410219        -0.580262       0.0997877
                       -0.957402       -0.261387     -0.000302982    -0.000491368       -0.0320858       0.0727514       0.00120558     0.000798085
                     0.000416613     -0.00130593        -0.580223        0.100205       0.00130745     0.000645489        0.0715768       -0.702328
281702.2              -0.0150172       0.0788274      -0.00023386     0.000502541        -0.957074       -0.261331      7.60234e-05      -0.0013949
                    -0.000701171     0.000564658        -0.501471       -0.524988     -0.000455829    -0.000410507        -0.580181       0.0998306
                        -0.95741       -0.261358     -0.000303129    -0.000491222       -0.0320816        0.072746       0.00120572     0.000797996
                     0.000415621     -0.00130588        -0.580142        0.100247       0.00130613     0.000643995        0.0714788       -0.702389
281702.3              -0.0150133       0.0788213     -0.000233763      0.00050262        -0.957083       -0.261302      7.59383e-05     -0.00139502
                    -0.000700851     0.000563915        -0.501553        -0.52498     -0.000455102    -0.000410793        -0.580099       0.0998735
                       -0.957419       -0.261329     -0.000303275    -0.000491076       -0.0320774       0.0727405       0.00120585     0.000797907
                     0.000414626     -0.00130582        -0.580061        0.100289       0.00130483     0.000642508        0.0713807       -0.702451
281702.4              -0.0150095       0.0788153     -0.000233667     0.000502699        -0.957091       -0.261273      7.58531e-05     -0.00139513
                    -0.000700531     0.000563176        -0.501635       -0.524971      -0.00045437    -0.000411074        -0.580018       0.0999164
                       -0.957428         -0.2613     -0.000303422     -0.00049093       -0.0320732        0.072735       0.00120598     0.000797819
                     0.000413629     -0.00130575         -0.57998        0.100331       0.00130353     0.000641027        0.0712826       -0.702512
281702.5              -0.0150056       0.0788093      -0.00023357     0.000502779          -0.9571       -0.261244       7.5768e-05     -0.00139525
                    -0.000700211      0.00056244        -0.501717       -0.524962     -0.000453635    -0.000411353        -0.579937       0.0999593
                       -0.957437       -0.261271     -0.000303568    -0.000490784        -0.032069       0.0727296       0.00120612      0.00079773
                     0.000412629     -0.00130568        -0.579898        0.100373       0.00130224     0.000639554        0.0711845       -0.702574
281702.6              -0.0150018       0.0788033     -0.000233474     0.000502858        -0.957108       -0.261215      7.56828e-05     -0.00139536
                    -0.000699891     0.000561708        -0.501799       -0.524953     -0.000452897    -0.000411628        -0.579856        0.100002
                       -0.957446       -0.261242     -0.000303714    -0.000490638       -0.0320648       0.0727241       0.00120625     0.000797641
                     0.000411626     -0.00130559        -0.579817        0.100415       0.00130095     0.000638087        0.0710864       -0.702636
281702.7               -0.014998       0.0787972     -0.000233378     0.000502937        -0.957117       -0.261186      7.55977e-05     -0.00139548
                    -0.000699571     0.000560978        -0.501881       -0.524945     -0.000452155      -0.0004119        -0.579774        0.100045
                       -0.957455       -0.261213     -0.000303859    -0.000490492       -0.0320606       0.0727187       0.00120638     0.000797552
                     0.000410621      -0.0013055        -0.579736        0.100457       0.00129968     0.000636626        0.0709882       -0.702697
281702.8              -0.0149941       0.0787912     -0.000233281     0.000503016        -0.957125       -0.261157      7.55125e-05     -0.00139559
                     -0.00069925     0.000560252        -0.501963       -0.524936      -0.00045141    -0.000412168        -0.579693        0.100088
                       -0.957463       -0.261184     -0.000304005    -0.000490346       -0.0320564       0.0727132       0.00120651     0.000797464
                     0.000409613      -0.0013054        -0.579654        0.100499       0.00129841     0.000635172        0.0708901       -0.702759
281702.9              -0.0149903       0.0787852     -0.000233185     0.000503096        -0.957134       -0.261128      7.54273e-05     -0.00139571
                     -0.00069893     0.000559529        -0.502045       -0.524927     -0.000450661    -0.000412432        -0.579612        0.100131
                       -0.957472       -0.261155      -0.00030415    -0.000490199       -0.0320522       0.0727078       0.00120665     0.000797375
                     0.000408603     -0.00130528        -0.579573        0.100541       0.00129715     0.000633725        0.0707919        -0.70282
281703                -0.0149864       0.0787791     -0.000233089     0.000503175        -0.957142       -0.261099      7.53421e-05     -0.00139582
                    -0.000698609     0.000558809        -0.502127       -0.524918     -0.000449909    -0.000412693         -0.57953        0.100173
                       -0.957481       -0.261126     -0.000304295    -0.000490053        -0.032048       0.0727023       0.00120678     0.000797285
                     0.000407592     -0.00130516        -0.579492        0.100583       0.00129589     0.000632285        0.0706936       -0.702882
281703.1              -0.0149826       0.0787731     -0.000232993     0.000503254        -0.957151        -0.26107      7.52568e-05     -0.00139594
                    -0.000698288     0.000558093        -0.502209       -0.524909     -0.000449153     -0.00041295        -0.579449        0.100216
                        -0.95749       -0.261097      -0.00030444    -0.000489907       -0.0320438       0.0726969       0.00120691     0.000797196
