! TOUCHSTONE file generated by CST MICROWAVE STUDIO
! Date and time: Wed Oct  8 06:55:38 2025
! Project name: Teste_Macro_Metasurface_Nanopilar.cst
! Parameters = {H=600; L_x=110; L_y=140; Lambda=1064; Max_L=200; Min_L=70; PathPara=1; Phi=0; Step_L=10; Theta=0; p=520; phaseX=180; phaseY=0}
! Header version: 2018
! Port assignment regex: !\s*Touchstone port\s*([0-9]+)\s*=\s*(CST MWS port|CST DS port)\s*([0-9]+|Zmin|Zmax)\s*\(\"(.*)\"\)(\s*mode\s*([0-9]+))?.*
! Touchstone port assignment:
! Touchstone port 1 = CST MWS port Zmax ("") mode 1
! Touchstone port 2 = CST MWS port Zmax ("") mode 2
! Touchstone port 3 = CST MWS port Zmin ("") mode 1
! Touchstone port 4 = CST MWS port Zmin ("") mode 2
! S-Parameters are not renormalized. Each port impedance will be approximated by the real part at minimum frequency. The values are described via the [Reference] keyword.
! Default impedance is overridden by [Reference]
[Version] 2.0
# GHz S RI R 376.73
[Number of Ports] 4
[Reference]
376.73 376.73 376.73 376.73 
[Number of Frequencies] 1001
[Network Data]
281700                   -0.2157      -0.0823049       0.00024927     -0.00059637       -0.0620086         -0.9645      0.000558591    -0.000243812
                     0.000312586    -0.000531449       0.00414171       0.0669121     -0.000551951     0.000401402         0.972859        0.172627
                      -0.0610794       -0.964699     -0.000435875     0.000552157         -0.20421        0.109388     -0.000653791    -5.43916e-07
                     0.000432505     -0.00016601         0.973091        0.172955      -0.00047293     0.000124776       -0.0319469       0.0618409
281700.1               -0.215701      -0.0822967       0.00024926    -0.000596386       -0.0620383       -0.964499      0.000558587    -0.000243831
                     0.000312573    -0.000531462       0.00414582       0.0669057       -0.0005501     0.000403041         0.972866        0.172593
                      -0.0611094       -0.964697     -0.000435851     0.000552172        -0.204205        0.109393     -0.000653766    -5.31364e-07
                     0.000432499    -0.000166027         0.973098        0.172921     -0.000473652     0.000123463       -0.0319442       0.0618355
281700.2               -0.215702      -0.0822884       0.00024925    -0.000596403        -0.062068       -0.964498      0.000558583    -0.000243851
                     0.000312561    -0.000531474       0.00414993       0.0668993     -0.000548363     0.000404666         0.972872        0.172559
                      -0.0611394       -0.964696     -0.000435826     0.000552187          -0.2042        0.109397     -0.000653742    -5.18804e-07
                     0.000432493    -0.000166043         0.973104        0.172886      -0.00047436     0.000122167       -0.0319415       0.0618302
281700.3               -0.215703      -0.0822801       0.00024924     -0.00059642       -0.0620978       -0.964496       0.00055858     -0.00024387
                     0.000312548    -0.000531487       0.00415403       0.0668929     -0.000546732     0.000406272         0.972879        0.172524
                      -0.0611693       -0.964695     -0.000435802     0.000552202        -0.204195        0.109401     -0.000653717    -5.06238e-07
                     0.000432487     -0.00016606         0.973111        0.172852     -0.000475054     0.000120888       -0.0319388       0.0618248
281700.4               -0.215704      -0.0822718       0.00024923    -0.000596437       -0.0621275       -0.964495      0.000558576     -0.00024389
                     0.000312536    -0.000531499       0.00415814       0.0668865     -0.000545203     0.000407858         0.972885         0.17249
                      -0.0611993       -0.964693     -0.000435777     0.000552217        -0.204191        0.109406     -0.000653693    -4.93666e-07
                     0.000432482    -0.000166077         0.973117        0.172818     -0.000475735     0.000119625       -0.0319361       0.0618195
281700.5               -0.215705      -0.0822636       0.00024922    -0.000596453       -0.0621572       -0.964494      0.000558572    -0.000243909
                     0.000312523    -0.000531512       0.00416224       0.0668802     -0.000543768     0.000409419         0.972892        0.172456
                      -0.0612293       -0.964692     -0.000435753     0.000552231        -0.204186         0.10941     -0.000653668    -4.81087e-07
                     0.000432476    -0.000166093         0.973124        0.172784     -0.000476402     0.000118379       -0.0319335       0.0618141
281700.6               -0.215706      -0.0822553       0.00024921     -0.00059647       -0.0621869       -0.964493      0.000558568    -0.000243929
                     0.000312511    -0.000531525       0.00416635       0.0668738     -0.000542423     0.000410955         0.972898        0.172421
                      -0.0612592        -0.96469     -0.000435728     0.000552246        -0.204181        0.109415     -0.000653643    -4.68501e-07
                      0.00043247     -0.00016611          0.97313        0.172749     -0.000477057      0.00011715       -0.0319308       0.0618088
281700.7               -0.215707       -0.082247        0.0002492    -0.000596487       -0.0622166       -0.964492      0.000558565    -0.000243948
                     0.000312498    -0.000531537       0.00417045       0.0668674      -0.00054116     0.000412463         0.972905        0.172387
                      -0.0612892       -0.964689     -0.000435704     0.000552261        -0.204176        0.109419     -0.000653619    -4.55909e-07
                     0.000432464    -0.000166126         0.973137        0.172715     -0.000477699     0.000115937       -0.0319281       0.0618034
281700.8               -0.215708      -0.0822387       0.00024919    -0.000596504       -0.0622463       -0.964491      0.000558561    -0.000243968
                     0.000312486     -0.00053155       0.00417456        0.066861     -0.000539976     0.000413942         0.972911        0.172353
                      -0.0613192       -0.964688     -0.000435679     0.000552276        -0.204172        0.109424     -0.000653594    -4.43311e-07
                     0.000432458    -0.000166143         0.973143        0.172681     -0.000478327     0.000114741       -0.0319254       0.0617981
281700.9               -0.215709      -0.0822305       0.00024918     -0.00059652        -0.062276        -0.96449      0.000558557    -0.000243987
                     0.000312473    -0.000531562       0.00417866       0.0668546     -0.000538866     0.000415391         0.972918        0.172318
                      -0.0613491       -0.964686     -0.000435655     0.000552291        -0.204167        0.109428      -0.00065357    -4.30705e-07
                     0.000432452     -0.00016616          0.97315        0.172646     -0.000478944     0.000113562       -0.0319227       0.0617927
281701                  -0.21571      -0.0822222       0.00024917    -0.000596537       -0.0623058       -0.964489      0.000558553    -0.000244007
                     0.000312461    -0.000531575       0.00418277       0.0668483     -0.000537824     0.000416809         0.972924        0.172284
                      -0.0613791       -0.964685      -0.00043563     0.000552306        -0.204162        0.109433     -0.000653545    -4.18093e-07
                     0.000432446    -0.000166176         0.973156        0.172612     -0.000479548     0.000112399       -0.0319201       0.0617874
281701.1               -0.215711      -0.0822139       0.00024916    -0.000596554       -0.0623355       -0.964487       0.00055855    -0.000244026
                     0.000312448    -0.000531588       0.00418687       0.0668419     -0.000536847     0.000418196         0.972931         0.17225
                      -0.0614091       -0.964683     -0.000435606     0.000552321        -0.204157        0.109437      -0.00065352    -4.05474e-07
                      0.00043244    -0.000166193         0.973163        0.172578     -0.000480139     0.000111253       -0.0319174        0.061782
281701.2               -0.215712      -0.0822056       0.00024915    -0.000596571       -0.0623652       -0.964486      0.000558546    -0.000244046
                     0.000312435      -0.0005316       0.00419097       0.0668355      -0.00053593      0.00041955         0.972937        0.172215
                       -0.061439       -0.964682     -0.000435581     0.000552335        -0.204152        0.109442     -0.000653496    -3.92849e-07
                     0.000432434    -0.000166209         0.973169        0.172543     -0.000480719     0.000110123       -0.0319147       0.0617767
281701.3               -0.215713      -0.0821974       0.00024914    -0.000596587        -0.062395       -0.964485      0.000558542    -0.000244065
                     0.000312423    -0.000531613       0.00419507       0.0668291     -0.000535069     0.000420873         0.972944        0.172181
                       -0.061469       -0.964681     -0.000435557      0.00055235        -0.204148        0.109446     -0.000653471    -3.80217e-07
                     0.000432428    -0.000166226         0.973176        0.172509     -0.000481286     0.000109009        -0.031912       0.0617714
281701.4               -0.215714      -0.0821891       0.00024913    -0.000596604       -0.0624247       -0.964484      0.000558538    -0.000244085
                      0.00031241    -0.000531626       0.00419918       0.0668227     -0.000534262     0.000422163          0.97295        0.172147
                       -0.061499       -0.964679     -0.000435532     0.000552365        -0.204143         0.10945     -0.000653446    -3.67578e-07
                     0.000432422    -0.000166243         0.973182        0.172475     -0.000481842     0.000107912       -0.0319094        0.061766
281701.5               -0.215715      -0.0821808       0.00024912    -0.000596621       -0.0624544       -0.964483      0.000558535    -0.000244104
                     0.000312398    -0.000531638       0.00420328       0.0668164     -0.000533505     0.000423422         0.972957        0.172112
                      -0.0615289       -0.964678     -0.000435508      0.00055238        -0.204138        0.109455     -0.000653422    -3.54933e-07
                     0.000432416    -0.000166259         0.973189         0.17244     -0.000482385     0.000106832       -0.0319067       0.0617607
281701.6               -0.215716      -0.0821725       0.00024911    -0.000596637       -0.0624842       -0.964482      0.000558531    -0.000244124
                     0.000312385    -0.000531651       0.00420738         0.06681     -0.000532794     0.000424648         0.972963        0.172078
                      -0.0615589       -0.964676     -0.000435483     0.000552395        -0.204133        0.109459     -0.000653397    -3.42281e-07
                     0.000432411    -0.000166276         0.973195        0.172406     -0.000482918     0.000105768        -0.031904       0.0617553
281701.7               -0.215717      -0.0821643        0.0002491    -0.000596654       -0.0625139        -0.96448      0.000558527    -0.000244143
                     0.000312373    -0.000531663       0.00421148       0.0668036     -0.000532126     0.000425842          0.97297        0.172044
                      -0.0615889       -0.964675     -0.000435459      0.00055241        -0.204129        0.109464     -0.000653372    -3.29622e-07
                     0.000432405    -0.000166293         0.973202        0.172372     -0.000483439      0.00010472       -0.0319013         0.06175
281701.8               -0.215718       -0.082156       0.00024909    -0.000596671       -0.0625437       -0.964479      0.000558523    -0.000244163
                      0.00031236    -0.000531676       0.00421558       0.0667972       -0.0005315     0.000427006         0.972976        0.172009
                      -0.0616188       -0.964673     -0.000435434     0.000552425        -0.204124        0.109468     -0.000653348    -3.16956e-07
                     0.000432399    -0.000166309         0.973208        0.172338     -0.000483948     0.000103689       -0.0318987       0.0617446
281701.9               -0.215719      -0.0821477       0.00024908    -0.000596688       -0.0625734       -0.964478       0.00055852    -0.000244182
                     0.000312348    -0.000531689       0.00421968       0.0667908     -0.000530912     0.000428138         0.972983        0.171975
                      -0.0616488       -0.964672     -0.000435409     0.000552439        -0.204119        0.109473     -0.000653323    -3.04283e-07
                     0.000432393    -0.000166326         0.973215        0.172303     -0.000484446     0.000102675        -0.031896       0.0617393
281702                  -0.21572      -0.0821394       0.00024907    -0.000596704       -0.0626032       -0.964477      0.000558516    -0.000244202
                     0.000312335    -0.000531701       0.00422378       0.0667845      -0.00053036     0.000429239         0.972989        0.171941
                      -0.0616788       -0.964671     -0.000435385     0.000552454        -0.204114        0.109477     -0.000653298    -2.91604e-07
                     0.000432387    -0.000166342         0.973221        0.172269     -0.000484933     0.000101676       -0.0318933       0.0617339
281702.1               -0.215721      -0.0821312       0.00024906    -0.000596721       -0.0626329       -0.964476      0.000558512    -0.000244221
                     0.000312323    -0.000531714       0.00422787       0.0667781     -0.000529842      0.00043031         0.972996        0.171906
                      -0.0617087       -0.964669      -0.00043536     0.000552469        -0.204109        0.109482     -0.000653274    -2.78917e-07
                     0.000432381    -0.000166359         0.973228        0.172235      -0.00048541     0.000100695       -0.0318906       0.0617286
281702.2               -0.215722      -0.0821229       0.00024905    -0.000596738       -0.0626627       -0.964475      0.000558508    -0.000244241
                      0.00031231    -0.000531726       0.00423197       0.0667717     -0.000529356     0.000431352         0.973002        0.171872
                      -0.0617387       -0.964668     -0.000435336     0.000552484        -0.204105        0.109486     -0.000653249    -2.66224e-07
                     0.000432375    -0.000166376         0.973234          0.1722     -0.000485875     9.97296e-05        -0.031888       0.0617232
281702.3               -0.215723      -0.0821146       0.00024904    -0.000596754       -0.0626924       -0.964473      0.000558505     -0.00024426
                     0.000312298    -0.000531739       0.00423607       0.0667653     -0.000528899     0.000432364         0.973009        0.171838
                      -0.0617687       -0.964666     -0.000435311     0.000552499          -0.2041        0.109491     -0.000653224    -2.53524e-07
                     0.000432369    -0.000166392         0.973241        0.172166     -0.000486329      9.8781e-05       -0.0318853       0.0617179
281702.4               -0.215724      -0.0821063       0.00024903    -0.000596771       -0.0627222       -0.964472      0.000558501     -0.00024428
                     0.000312285    -0.000531752       0.00424017       0.0667589      -0.00052847     0.000433348         0.973015        0.171803
                      -0.0617986       -0.964665     -0.000435287     0.000552514        -0.204095        0.109495       -0.0006532    -2.40817e-07
                     0.000432363    -0.000166409         0.973247        0.172132     -0.000486773      9.7849e-05       -0.0318826       0.0617125
281702.5               -0.215725      -0.0820981       0.00024902    -0.000596788        -0.062752       -0.964471      0.000558497    -0.000244299
                     0.000312273    -0.000531764       0.00424426       0.0667525     -0.000528067     0.000434303         0.973022        0.171769
                      -0.0618286       -0.964664     -0.000435262     0.000552528         -0.20409        0.109499     -0.000653175    -2.28103e-07
                     0.000432357    -0.000166426         0.973253        0.172097     -0.000487206     9.69336e-05         -0.03188       0.0617072
281702.6               -0.215726      -0.0820898       0.00024901    -0.000596804       -0.0627817        -0.96447      0.000558493    -0.000244319
                      0.00031226    -0.000531777       0.00424836       0.0667461     -0.000527689     0.000435231         0.973028        0.171735
                      -0.0618586       -0.964662     -0.000435237     0.000552543        -0.204086        0.109504      -0.00065315    -2.15382e-07
                     0.000432351    -0.000166442          0.97326        0.172063     -0.000487628     9.60348e-05       -0.0318773       0.0617018
281702.7               -0.215727      -0.0820815         0.000249    -0.000596821       -0.0628115       -0.964469       0.00055849    -0.000244338
                     0.000312247    -0.000531789       0.00425246       0.0667398     -0.000527334     0.000436132         0.973035          0.1717
                      -0.0618885       -0.964661     -0.000435213     0.000552558        -0.204081        0.109508     -0.000653125    -2.02654e-07
                     0.000432346    -0.000166459         0.973266        0.172029      -0.00048804     9.51528e-05       -0.0318746       0.0616965
281702.8               -0.215728      -0.0820732       0.00024899    -0.000596838       -0.0628413       -0.964467      0.000558486    -0.000244357
                     0.000312235    -0.000531802       0.00425655       0.0667334     -0.000527001     0.000437007         0.973041        0.171666
                      -0.0619185       -0.964659     -0.000435188     0.000552573        -0.204076        0.109513     -0.000653101    -1.89919e-07
                      0.00043234    -0.000166475         0.973273        0.171994     -0.000488442     9.42875e-05       -0.0318719       0.0616911
281702.9               -0.215729       -0.082065       0.00024898    -0.000596854       -0.0628711       -0.964466      0.000558482    -0.000244377
                     0.000312222    -0.000531815       0.00426065        0.066727     -0.000526688     0.000437855         0.973048        0.171632
                      -0.0619485       -0.964658     -0.000435164     0.000552588        -0.204071        0.109517     -0.000653076    -1.77177e-07
                     0.000432334    -0.000166492         0.973279         0.17196     -0.000488833      9.3439e-05       -0.0318693       0.0616858
281703                  -0.21573      -0.0820567       0.00024897    -0.000596871       -0.0629009       -0.964465      0.000558478    -0.000244396
                      0.00031221    -0.000531827       0.00426474       0.0667206     -0.000526395     0.000438678         0.973054        0.171597
                      -0.0619784       -0.964656     -0.000435139     0.000552602        -0.204066        0.109522     -0.000653051    -1.64428e-07
                     0.000432328    -0.000166509         0.973286        0.171926     -0.000489215     9.26074e-05       -0.0318666       0.0616804
281703.1               -0.215731      -0.0820484       0.00024896    -0.000596888       -0.0629307       -0.964464      0.000558475    -0.000244416
                     0.000312197     -0.00053184       0.00426883       0.0667142     -0.000526119     0.000439476         0.973061        0.171563
                      -0.0620084       -0.964655     -0.000435114     0.000552617        -0.204062        0.109526     -0.000653027    -1.51672e-07
