! TOUCHSTONE file generated by CST MICROWAVE STUDIO
! Date and time: Wed Oct  8 06:56:41 2025
! Project name: Teste_Macro_Metasurface_Nanopilar.cst
! Parameters = {H=600; L_x=120; L_y=105; Lambda=1064; Max_L=200; Min_L=70; PathPara=1; Phi=0; Step_L=10; Theta=0; p=520; phaseX=180; phaseY=0}
! Header version: 2018
! Port assignment regex: !\s*Touchstone port\s*([0-9]+)\s*=\s*(CST MWS port|CST DS port)\s*([0-9]+|Zmin|Zmax)\s*\(\"(.*)\"\)(\s*mode\s*([0-9]+))?.*
! Touchstone port assignment:
! Touchstone port 1 = CST MWS port Zmax ("") mode 1
! Touchstone port 2 = CST MWS port Zmax ("") mode 2
! Touchstone port 3 = CST MWS port Zmin ("") mode 1
! Touchstone port 4 = CST MWS port Zmin ("") mode 2
! S-Parameters are not renormalized. Each port impedance will be approximated by the real part at minimum frequency. The values are described via the [Reference] keyword.
! Default impedance is overridden by [Reference]
[Version] 2.0
# GHz S RI R 376.73
[Number of Ports] 4
[Reference]
376.73 376.73 376.73 376.73 
[Number of Frequencies] 1001
[Network Data]
281700                 -0.243783       -0.050601     -0.000562003    -0.000544927         0.106946        0.957378     -0.000492187     0.000316606
                    -0.000602572    -0.000249607       -0.0428718        0.178816     -0.000454175     0.000263828         0.879502        0.417258
                        0.106558        0.957645     -0.000579448     0.000156475        -0.227073        0.103375      0.000194307     0.000542395
                    -0.000515184     0.000357553         0.879503         0.41749       0.00010934     0.000494991        -0.115765        0.145806
281700.1               -0.243783      -0.0505922     -0.000562034    -0.000544902         0.106975        0.957375     -0.000492182     0.000316632
                    -0.000602584    -0.000249594       -0.0428629        0.178813     -0.000454164     0.000263841         0.879518        0.417228
                        0.106587        0.957643     -0.000579453     0.000156498        -0.227068         0.10338      0.000194327     0.000542392
                    -0.000515182     0.000357567         0.879518         0.41746      0.000109356     0.000494997        -0.115758        0.145805
281700.2               -0.243783      -0.0505834     -0.000562064    -0.000544877         0.107004        0.957372     -0.000492178     0.000316657
                    -0.000602595    -0.000249581        -0.042854         0.17881     -0.000454154     0.000263854         0.879533        0.417198
                        0.106616         0.95764     -0.000579458     0.000156521        -0.227064        0.103385      0.000194347      0.00054239
                     -0.00051518      0.00035758         0.879534         0.41743      0.000109373     0.000495003        -0.115751        0.145804
281700.3               -0.243783      -0.0505746     -0.000562095    -0.000544852         0.107033        0.957369     -0.000492173     0.000316683
                    -0.000602606    -0.000249568       -0.0428451        0.178806     -0.000454143     0.000263867         0.879548        0.417168
                        0.106645        0.957637     -0.000579463     0.000156544         -0.22706         0.10339      0.000194367     0.000542388
                    -0.000515178     0.000357593         0.879549          0.4174       0.00010939     0.000495009        -0.115744        0.145803
281700.4               -0.243783      -0.0505658     -0.000562126    -0.000544827         0.107062        0.957366     -0.000492169     0.000316708
                    -0.000602617    -0.000249555       -0.0428362        0.178803     -0.000454133      0.00026388         0.879563        0.417138
                        0.106675        0.957634     -0.000579468     0.000156567        -0.227055        0.103396      0.000194387     0.000542385
                    -0.000515176     0.000357607         0.879564         0.41737      0.000109406     0.000495015        -0.115737        0.145802
281700.5               -0.243783      -0.0505569     -0.000562156    -0.000544802         0.107092        0.957364     -0.000492164     0.000316734
                    -0.000602628    -0.000249542       -0.0428273          0.1788     -0.000454122     0.000263893         0.879579        0.417108
                        0.106704        0.957631     -0.000579473      0.00015659        -0.227051        0.103401      0.000194408     0.000542383
                    -0.000515174      0.00035762          0.87958         0.41734      0.000109423     0.000495021         -0.11573        0.145801
281700.6               -0.243783      -0.0505481     -0.000562187    -0.000544777         0.107121        0.957361      -0.00049216     0.000316759
                     -0.00060264    -0.000249529       -0.0428184        0.178797     -0.000454112     0.000263906         0.879594        0.417078
                        0.106733        0.957629     -0.000579478     0.000156612        -0.227047        0.103406      0.000194428     0.000542381
                    -0.000515173     0.000357634         0.879595         0.41731      0.000109439     0.000495027        -0.115723          0.1458
281700.7               -0.243783      -0.0505393     -0.000562217    -0.000544752          0.10715        0.957358     -0.000492155     0.000316785
                    -0.000602651    -0.000249516       -0.0428095        0.178793     -0.000454101     0.000263918         0.879609        0.417048
                        0.106762        0.957626     -0.000579483     0.000156635        -0.227043        0.103411      0.000194448     0.000542378
                    -0.000515171     0.000357647          0.87961         0.41728      0.000109456     0.000495033        -0.115716        0.145799
281700.8               -0.243783      -0.0505305     -0.000562248    -0.000544726         0.107179        0.957355     -0.000492151      0.00031681
                    -0.000602662    -0.000249503       -0.0428006         0.17879     -0.000454091     0.000263931         0.879625        0.417018
                        0.106791        0.957623     -0.000579488     0.000156658        -0.227038        0.103416      0.000194468     0.000542376
                    -0.000515169      0.00035766         0.879626         0.41725      0.000109473     0.000495039        -0.115709        0.145797
281700.9               -0.243783      -0.0505217     -0.000562279    -0.000544701         0.107208        0.957352     -0.000492146     0.000316836
                    -0.000602673     -0.00024949       -0.0427917        0.178787      -0.00045408     0.000263944          0.87964        0.416987
                        0.106821         0.95762     -0.000579493     0.000156681        -0.227034        0.103421      0.000194488     0.000542374
                    -0.000515167     0.000357674         0.879641        0.417219      0.000109489     0.000495045        -0.115702        0.145796
281701                 -0.243783      -0.0505129     -0.000562309    -0.000544676         0.107237        0.957349     -0.000492142     0.000316861
                    -0.000602685    -0.000249477       -0.0427829        0.178784     -0.000454069     0.000263957         0.879655        0.416957
                         0.10685        0.957617     -0.000579498     0.000156704         -0.22703        0.103426      0.000194509     0.000542371
                    -0.000515165     0.000357687         0.879656        0.417189      0.000109506      0.00049505        -0.115695        0.145795
281701.1               -0.243783       -0.050504      -0.00056234    -0.000544651         0.107267        0.957347     -0.000492138     0.000316887
                    -0.000602696    -0.000249464        -0.042774         0.17878     -0.000454059      0.00026397         0.879671        0.416927
                        0.106879        0.957614     -0.000579503     0.000156727        -0.227025        0.103432      0.000194529     0.000542369
                    -0.000515163     0.000357701         0.879671        0.417159      0.000109522     0.000495056        -0.115688        0.145794
281701.2               -0.243783      -0.0504952      -0.00056237    -0.000544626         0.107296        0.957344     -0.000492133     0.000316912
                    -0.000602707    -0.000249451       -0.0427651        0.178777     -0.000454048     0.000263983         0.879686        0.416897
                        0.106908        0.957612     -0.000579508      0.00015675        -0.227021        0.103437      0.000194549     0.000542367
                    -0.000515161     0.000357714         0.879687        0.417129      0.000109539     0.000495062        -0.115681        0.145793
281701.3               -0.243783      -0.0504864     -0.000562401    -0.000544601         0.107325        0.957341     -0.000492129     0.000316938
                    -0.000602718    -0.000249438       -0.0427562        0.178774     -0.000454038     0.000263996         0.879701        0.416867
                        0.106937        0.957609     -0.000579513     0.000156773        -0.227017        0.103442      0.000194569     0.000542364
                     -0.00051516     0.000357727         0.879702        0.417099      0.000109556     0.000495068        -0.115674        0.145792
281701.4               -0.243783      -0.0504776     -0.000562432    -0.000544576         0.107354        0.957338     -0.000492124     0.000316963
                     -0.00060273    -0.000249425       -0.0427473        0.178771     -0.000454027     0.000264009         0.879717        0.416837
                        0.106966        0.957606     -0.000579518     0.000156796        -0.227012        0.103447      0.000194589     0.000542362
                    -0.000515158     0.000357741         0.879717        0.417069      0.000109572     0.000495074        -0.115667        0.145791
281701.5               -0.243783      -0.0504688     -0.000562462    -0.000544551         0.107383        0.957335      -0.00049212     0.000316989
                    -0.000602741    -0.000249412       -0.0427384        0.178767     -0.000454017     0.000264021         0.879732        0.416807
                        0.106996        0.957603     -0.000579523     0.000156819        -0.227008        0.103452       0.00019461      0.00054236
                    -0.000515156     0.000357754         0.879733        0.417039      0.000109589      0.00049508         -0.11566         0.14579
281701.6               -0.243783      -0.0504599     -0.000562493    -0.000544526         0.107413        0.957332     -0.000492115     0.000317014
                    -0.000602752    -0.000249399       -0.0427295        0.178764     -0.000454006     0.000264034         0.879747        0.416777
                        0.107025          0.9576     -0.000579528     0.000156842        -0.227004        0.103457       0.00019463     0.000542357
                    -0.000515154     0.000357768         0.879748        0.417009      0.000109605     0.000495086        -0.115653        0.145788
281701.7               -0.243783      -0.0504511     -0.000562523      -0.0005445         0.107442         0.95733     -0.000492111      0.00031704
                    -0.000602764    -0.000249386       -0.0427206        0.178761     -0.000453996     0.000264047         0.879762        0.416747
                        0.107054        0.957598     -0.000579532     0.000156865           -0.227        0.103463       0.00019465     0.000542355
                    -0.000515152     0.000357781         0.879763        0.416979      0.000109622     0.000495092        -0.115646        0.145787
281701.8               -0.243783      -0.0504423     -0.000562554    -0.000544475         0.107471        0.957327     -0.000492106     0.000317065
                    -0.000602775    -0.000249373       -0.0427117        0.178758     -0.000453985      0.00026406         0.879778        0.416717
                        0.107083        0.957595     -0.000579537     0.000156888        -0.226995        0.103468       0.00019467     0.000542353
                     -0.00051515     0.000357794         0.879779        0.416949      0.000109638     0.000495098        -0.115639        0.145786
281701.9               -0.243783      -0.0504335     -0.000562585     -0.00054445           0.1075        0.957324     -0.000492102     0.000317091
                    -0.000602786     -0.00024936       -0.0427028        0.178754     -0.000453974     0.000264073         0.879793        0.416687
                        0.107112        0.957592     -0.000579542     0.000156911        -0.226991        0.103473       0.00019469      0.00054235
                    -0.000515149     0.000357808         0.879794        0.416919      0.000109655     0.000495104        -0.115632        0.145785
281702                 -0.243783      -0.0504247     -0.000562615    -0.000544425         0.107529        0.957321     -0.000492097     0.000317116
                    -0.000602797    -0.000249347       -0.0426939        0.178751     -0.000453964     0.000264086         0.879808        0.416657
                        0.107141        0.957589     -0.000579547     0.000156934        -0.226987        0.103478      0.000194711     0.000542348
                    -0.000515147     0.000357821         0.879809        0.416889      0.000109672      0.00049511        -0.115625        0.145784
281702.1               -0.243783      -0.0504159     -0.000562646      -0.0005444         0.107558        0.957318     -0.000492093     0.000317142
                    -0.000602809    -0.000249334        -0.042685        0.178748     -0.000453953     0.000264099         0.879824        0.416627
                        0.107171        0.957586     -0.000579552     0.000156957        -0.226982        0.103483      0.000194731     0.000542346
                    -0.000515145     0.000357835         0.879824        0.416859      0.000109688     0.000495116        -0.115618        0.145783
281702.2               -0.243783       -0.050407     -0.000562676    -0.000544375         0.107588        0.957315     -0.000492088     0.000317167
                     -0.00060282    -0.000249321       -0.0426761        0.178745     -0.000453943     0.000264112         0.879839        0.416596
                          0.1072        0.957583     -0.000579557      0.00015698        -0.226978        0.103488      0.000194751     0.000542343
                    -0.000515143     0.000357848          0.87984        0.416829      0.000109705     0.000495122        -0.115611        0.145782
281702.3               -0.243783      -0.0503982     -0.000562707     -0.00054435         0.107617        0.957313     -0.000492084     0.000317193
                    -0.000602831    -0.000249308       -0.0426672        0.178741     -0.000453932     0.000264124         0.879854        0.416566
                        0.107229        0.957581     -0.000579562     0.000157003        -0.226974        0.103493      0.000194771     0.000542341
                    -0.000515141     0.000357862         0.879855        0.416798      0.000109721     0.000495127        -0.115604        0.145781
281702.4               -0.243783      -0.0503894     -0.000562738    -0.000544324         0.107646         0.95731     -0.000492079     0.000317218
                    -0.000602843    -0.000249295       -0.0426583        0.178738     -0.000453922     0.000264137          0.87987        0.416536
                        0.107258        0.957578     -0.000579567     0.000157026        -0.226969        0.103499      0.000194791     0.000542339
                    -0.000515139     0.000357875          0.87987        0.416768      0.000109738     0.000495133        -0.115597        0.145779
281702.5               -0.243783      -0.0503806     -0.000562768    -0.000544299         0.107675        0.957307     -0.000492075     0.000317244
                    -0.000602854    -0.000249282       -0.0426494        0.178735     -0.000453911      0.00026415         0.879885        0.416506
                        0.107287        0.957575     -0.000579572     0.000157049        -0.226965        0.103504      0.000194812     0.000542336
                    -0.000515138     0.000357889         0.879886        0.416738      0.000109754     0.000495139         -0.11559        0.145778
281702.6               -0.243783      -0.0503718     -0.000562799    -0.000544274         0.107704        0.957304     -0.000492071     0.000317269
                    -0.000602865    -0.000249269       -0.0426406        0.178731       -0.0004539     0.000264163           0.8799        0.416476
                        0.107316        0.957572     -0.000579577     0.000157072        -0.226961        0.103509      0.000194832     0.000542334
                    -0.000515136     0.000357902         0.879901        0.416708      0.000109771     0.000495145        -0.115583        0.145777
281702.7               -0.243783       -0.050363     -0.000562829    -0.000544249         0.107733        0.957301     -0.000492066     0.000317294
                    -0.000602877    -0.000249256       -0.0426317        0.178728      -0.00045389     0.000264176         0.879915        0.416446
                        0.107346        0.957569     -0.000579582     0.000157095        -0.226957        0.103514      0.000194852     0.000542332
                    -0.000515134     0.000357916         0.879916        0.416678      0.000109788     0.000495151        -0.115576        0.145776
281702.8               -0.243783      -0.0503542      -0.00056286    -0.000544224         0.107763        0.957298     -0.000492062      0.00031732
                    -0.000602888    -0.000249243       -0.0426228        0.178725     -0.000453879     0.000264189         0.879931        0.416416
                        0.107375        0.957566     -0.000579587     0.000157118        -0.226952        0.103519      0.000194872     0.000542329
                    -0.000515132     0.000357929         0.879931        0.416648      0.000109804     0.000495157        -0.115569        0.145775
281702.9               -0.243783      -0.0503453      -0.00056289    -0.000544199         0.107792        0.957296     -0.000492057     0.000317345
                    -0.000602899     -0.00024923       -0.0426139        0.178722     -0.000453869     0.000264202         0.879946        0.416386
                        0.107404        0.957564     -0.000579592     0.000157141        -0.226948        0.103524      0.000194893     0.000542327
                     -0.00051513     0.000357943         0.879947        0.416618      0.000109821     0.000495163        -0.115563        0.145774
281703                 -0.243783      -0.0503365     -0.000562921    -0.000544174         0.107821        0.957293     -0.000492053     0.000317371
                    -0.000602911    -0.000249217        -0.042605        0.178718     -0.000453858     0.000264214         0.879961        0.416356
                        0.107433        0.957561     -0.000579597     0.000157164        -0.226944         0.10353      0.000194913     0.000542325
                    -0.000515129     0.000357956         0.879962        0.416588      0.000109837     0.000495169        -0.115556        0.145773
281703.1               -0.243783      -0.0503277     -0.000562952    -0.000544148          0.10785         0.95729     -0.000492048     0.000317396
                    -0.000602922    -0.000249204       -0.0425961        0.178715     -0.000453848     0.000264227         0.879977        0.416326
                        0.107462        0.957558     -0.000579602     0.000157187        -0.226939        0.103535      0.000194933     0.000542322
