! TOUCHSTONE file generated by CST MICROWAVE STUDIO
! Date and time: Wed Oct  8 07:05:04 2025
! Project name: Teste_Macro_Metasurface_Nanopilar.cst
! Parameters = {H=600; L_x=190; L_y=110; Lambda=1064; Max_L=200; Min_L=70; PathPara=1; Phi=0; Step_L=10; Theta=0; p=520; phaseX=180; phaseY=0}
! Header version: 2018
! Port assignment regex: !\s*Touchstone port\s*([0-9]+)\s*=\s*(CST MWS port|CST DS port)\s*([0-9]+|Zmin|Zmax)\s*\(\"(.*)\"\)(\s*mode\s*([0-9]+))?.*
! Touchstone port assignment:
! Touchstone port 1 = CST MWS port Zmax ("") mode 1
! Touchstone port 2 = CST MWS port Zmax ("") mode 2
! Touchstone port 3 = CST MWS port Zmin ("") mode 1
! Touchstone port 4 = CST MWS port Zmin ("") mode 2
! S-Parameters are not renormalized. Each port impedance will be approximated by the real part at minimum frequency. The values are described via the [Reference] keyword.
! Default impedance is overridden by [Reference]
[Version] 2.0
# GHz S RI R 376.73
[Number of Ports] 4
[Reference]
376.73 376.73 376.73 376.73 
[Number of Frequencies] 1001
[Network Data]
281700                 -0.185182       -0.163247     -0.000939824    -0.000361607         0.437348       -0.855878      0.000712629     0.000868589
                     -0.00106504    -0.000558436        -0.184532        0.373937      0.000761711    -0.000453304        -0.658327       -0.614023
                        0.437439       -0.856113      0.000862116     -0.00035449        -0.241499      -0.0526075     -0.000927406     0.000168098
                     0.000811193     0.000969421        -0.658188       -0.614123     -0.000998745     0.000186308        -0.366204          0.1982
281700.1               -0.185189       -0.163241      -0.00093984    -0.000361563          0.43732       -0.855892      0.000712652     0.000868565
                     -0.00106504    -0.000558389        -0.184518        0.373936      0.000761688    -0.000453324        -0.658349       -0.614004
                        0.437412       -0.856126      0.000862084    -0.000354508        -0.241502      -0.0526014     -0.000927397     0.000168134
                     0.000811216     0.000969374         -0.65821       -0.614105     -0.000998726     0.000186349        -0.366191         0.19821
281700.2               -0.185196       -0.163235     -0.000939857     -0.00036152         0.437292       -0.855905      0.000712675     0.000868541
                     -0.00106504    -0.000558341        -0.184505        0.373935      0.000761664    -0.000453343        -0.658371       -0.613985
                        0.437384        -0.85614      0.000862051    -0.000354526        -0.241505      -0.0525952     -0.000927389      0.00016817
                     0.000811238     0.000969327        -0.658232       -0.614086     -0.000998708      0.00018639        -0.366178        0.198219
281700.3               -0.185204        -0.16323     -0.000939873    -0.000361476         0.437265       -0.855919      0.000712697     0.000868517
                     -0.00106504    -0.000558294        -0.184491        0.373934      0.000761641    -0.000453363        -0.658393       -0.613967
                        0.437356       -0.856154      0.000862019    -0.000354544        -0.241508      -0.0525891      -0.00092738     0.000168207
                     0.000811261      0.00096928        -0.658254       -0.614067     -0.000998689     0.000186432        -0.366165        0.198229
281700.4               -0.185211       -0.163224     -0.000939889    -0.000361432         0.437237       -0.855933       0.00071272     0.000868492
                     -0.00106504    -0.000558247        -0.184477        0.373933      0.000761618    -0.000453383        -0.658415       -0.613948
                        0.437329       -0.856167      0.000861987    -0.000354562        -0.241511       -0.052583     -0.000927371     0.000168243
                     0.000811284     0.000969233        -0.658276       -0.614048     -0.000998671     0.000186473        -0.366152        0.198239
281700.5               -0.185218       -0.163219     -0.000939906    -0.000361389          0.43721       -0.855946      0.000712743     0.000868468
                     -0.00106504    -0.000558199        -0.184463        0.373932      0.000761594    -0.000453403        -0.658437       -0.613929
                        0.437301       -0.856181      0.000861954    -0.000354579        -0.241514      -0.0525769     -0.000927363     0.000168279
                     0.000811307     0.000969186        -0.658298       -0.614029     -0.000998653     0.000186514        -0.366138        0.198248
281700.6               -0.185226       -0.163213     -0.000939922    -0.000361345         0.437182        -0.85596      0.000712765     0.000868444
                     -0.00106504    -0.000558152         -0.18445        0.373931      0.000761571    -0.000453423        -0.658459        -0.61391
                        0.437273       -0.856195      0.000861922    -0.000354597        -0.241517      -0.0525707     -0.000927354     0.000168315
                      0.00081133     0.000969139         -0.65832       -0.614011     -0.000998634     0.000186556        -0.366125        0.198258
281700.7               -0.185233       -0.163207     -0.000939938    -0.000361301         0.437154       -0.855973      0.000712788     0.000868419
                     -0.00106504    -0.000558104        -0.184436         0.37393      0.000761548    -0.000453443        -0.658481       -0.613891
                        0.437246       -0.856208       0.00086189    -0.000354615         -0.24152      -0.0525646     -0.000927346     0.000168351
                     0.000811352     0.000969092        -0.658342       -0.613992     -0.000998616     0.000186597        -0.366112        0.198268
281700.8                -0.18524       -0.163202     -0.000939955    -0.000361258         0.437127       -0.855987       0.00071281     0.000868395
                     -0.00106504    -0.000558057        -0.184422        0.373929      0.000761524    -0.000453463        -0.658503       -0.613873
                        0.437218       -0.856222      0.000861857    -0.000354633        -0.241523      -0.0525585     -0.000927337     0.000168387
                     0.000811375     0.000969045        -0.658364       -0.613973     -0.000998597     0.000186638        -0.366099        0.198277
281700.9               -0.185248       -0.163196     -0.000939971    -0.000361214         0.437099       -0.856001      0.000712833     0.000868371
                     -0.00106504    -0.000558009        -0.184408        0.373928      0.000761501    -0.000453483        -0.658525       -0.613854
                         0.43719       -0.856235      0.000861825    -0.000354651        -0.241527      -0.0525523     -0.000927328     0.000168423
                     0.000811398     0.000968998        -0.658386       -0.613954     -0.000998579      0.00018668        -0.366086        0.198287
281701                 -0.185255        -0.16319     -0.000939987    -0.000361171         0.437071       -0.856014      0.000712856     0.000868346
                     -0.00106504    -0.000557962        -0.184395        0.373927      0.000761478    -0.000453503        -0.658547       -0.613835
                        0.437163       -0.856249      0.000861792    -0.000354668         -0.24153      -0.0525462      -0.00092732      0.00016846
                     0.000811421     0.000968951        -0.658408       -0.613935     -0.000998561     0.000186721        -0.366073        0.198296
281701.1               -0.185262       -0.163185     -0.000940003    -0.000361127         0.437044       -0.856028      0.000712878     0.000868322
                     -0.00106504    -0.000557915        -0.184381        0.373926      0.000761454    -0.000453523        -0.658569       -0.613816
                        0.437135       -0.856263       0.00086176    -0.000354686        -0.241533      -0.0525401     -0.000927311     0.000168496
                     0.000811443     0.000968904        -0.658431       -0.613917     -0.000998542     0.000186762         -0.36606        0.198306
281701.2               -0.185269       -0.163179      -0.00094002    -0.000361083         0.437016       -0.856042      0.000712901     0.000868298
                     -0.00106504    -0.000557867        -0.184367        0.373925      0.000761431    -0.000453543        -0.658591       -0.613797
                        0.437108       -0.856276      0.000861728    -0.000354704        -0.241536       -0.052534     -0.000927302     0.000168532
                     0.000811466     0.000968857        -0.658453       -0.613898     -0.000998524     0.000186804        -0.366047        0.198316
281701.3               -0.185277       -0.163173     -0.000940036     -0.00036104         0.436988       -0.856055      0.000712924     0.000868273
                     -0.00106504     -0.00055782        -0.184353        0.373924      0.000761408    -0.000453563        -0.658613       -0.613778
                         0.43708        -0.85629      0.000861695    -0.000354722        -0.241539      -0.0525278     -0.000927294     0.000168568
                     0.000811489     0.000968809        -0.658475       -0.613879     -0.000998505     0.000186845        -0.366034        0.198325
281701.4               -0.185284       -0.163168     -0.000940052    -0.000360996         0.436961       -0.856069      0.000712946     0.000868249
                     -0.00106504    -0.000557772         -0.18434        0.373923      0.000761384    -0.000453583        -0.658635        -0.61376
                        0.437052       -0.856303      0.000861663    -0.000354739        -0.241542      -0.0525217     -0.000927285     0.000168604
                     0.000811512     0.000968762        -0.658497        -0.61386     -0.000998487     0.000186886        -0.366021        0.198335
281701.5               -0.185291       -0.163162     -0.000940069    -0.000360953         0.436933       -0.856083      0.000712969     0.000868225
                     -0.00106504    -0.000557725        -0.184326        0.373922      0.000761361    -0.000453603        -0.658657       -0.613741
                        0.437025       -0.856317      0.000861631    -0.000354757        -0.241545      -0.0525156     -0.000927277      0.00016864
                     0.000811535     0.000968715        -0.658519       -0.613841     -0.000998469     0.000186928        -0.366008        0.198344
281701.6               -0.185299       -0.163156     -0.000940085    -0.000360909         0.436906       -0.856096      0.000712992     0.000868201
                     -0.00106504    -0.000557677        -0.184312         0.37392      0.000761338    -0.000453623        -0.658679       -0.613722
                        0.436997       -0.856331      0.000861598    -0.000354775        -0.241548      -0.0525095     -0.000927268     0.000168676
                     0.000811557     0.000968668        -0.658541       -0.613823      -0.00099845     0.000186969        -0.365994        0.198354
281701.7               -0.185306       -0.163151     -0.000940101    -0.000360865         0.436878        -0.85611      0.000713014     0.000868176
                     -0.00106504     -0.00055763        -0.184298        0.373919      0.000761314    -0.000453643        -0.658701       -0.613703
                        0.436969       -0.856344      0.000861566    -0.000354793        -0.241551      -0.0525033     -0.000927259     0.000168713
                      0.00081158     0.000968621        -0.658563       -0.613804     -0.000998432      0.00018701        -0.365981        0.198364
281701.8               -0.185313       -0.163145     -0.000940117    -0.000360822          0.43685       -0.856123      0.000713037     0.000868152
                     -0.00106504    -0.000557582        -0.184284        0.373918      0.000761291    -0.000453663        -0.658723       -0.613684
                        0.436942       -0.856358      0.000861534    -0.000354811        -0.241555      -0.0524972     -0.000927251     0.000168749
                     0.000811603     0.000968574        -0.658585       -0.613785     -0.000998413     0.000187052        -0.365968        0.198373
281701.9               -0.185321       -0.163139     -0.000940134    -0.000360778         0.436823       -0.856137       0.00071306     0.000868128
                     -0.00106504    -0.000557535        -0.184271        0.373917      0.000761267    -0.000453683        -0.658745       -0.613666
                        0.436914       -0.856371      0.000861501    -0.000354828        -0.241558      -0.0524911     -0.000927242     0.000168785
                     0.000811626     0.000968527        -0.658607       -0.613766     -0.000998395     0.000187093        -0.365955        0.198383
281702                 -0.185328       -0.163134      -0.00094015    -0.000360734         0.436795       -0.856151      0.000713082     0.000868103
                     -0.00106504    -0.000557487        -0.184257        0.373916      0.000761244    -0.000453703        -0.658767       -0.613647
                        0.436887       -0.856385      0.000861469    -0.000354846        -0.241561      -0.0524849     -0.000927233     0.000168821
                     0.000811648      0.00096848        -0.658629       -0.613747     -0.000998377     0.000187134        -0.365942        0.198392
281702.1               -0.185335       -0.163128     -0.000940166    -0.000360691         0.436767       -0.856164      0.000713105     0.000868079
                     -0.00106504     -0.00055744        -0.184243        0.373915      0.000761221    -0.000453723        -0.658789       -0.613628
                        0.436859       -0.856399      0.000861437    -0.000354864        -0.241564      -0.0524788     -0.000927225     0.000168857
                     0.000811671     0.000968433        -0.658651       -0.613728     -0.000998358     0.000187176        -0.365929        0.198402
281702.2               -0.185343       -0.163122     -0.000940182    -0.000360647          0.43674       -0.856178      0.000713128     0.000868055
                     -0.00106504    -0.000557392        -0.184229        0.373914      0.000761197    -0.000453743        -0.658811       -0.613609
                        0.436831       -0.856412      0.000861404    -0.000354882        -0.241567      -0.0524727     -0.000927216     0.000168893
                     0.000811694     0.000968386        -0.658673        -0.61371      -0.00099834     0.000187217        -0.365916        0.198412
281702.3                -0.18535       -0.163117     -0.000940199    -0.000360604         0.436712       -0.856192       0.00071315      0.00086803
                     -0.00106504    -0.000557345        -0.184216        0.373913      0.000761174    -0.000453762        -0.658833        -0.61359
                        0.436804       -0.856426      0.000861372      -0.0003549         -0.24157      -0.0524666     -0.000927207     0.000168929
                     0.000811716     0.000968339        -0.658695       -0.613691     -0.000998321     0.000187258        -0.365903        0.198421
281702.4               -0.185357       -0.163111     -0.000940215     -0.00036056         0.436684       -0.856205      0.000713173     0.000868006
                     -0.00106504    -0.000557297        -0.184202        0.373912      0.000761151    -0.000453782        -0.658855       -0.613571
                        0.436776       -0.856439      0.000861339    -0.000354917        -0.241573      -0.0524604     -0.000927199     0.000168966
                     0.000811739     0.000968292        -0.658717       -0.613672     -0.000998303       0.0001873         -0.36589        0.198431
281702.5               -0.185365       -0.163106     -0.000940231    -0.000360516         0.436657       -0.856219      0.000713195     0.000867982
                     -0.00106504     -0.00055725        -0.184188        0.373911      0.000761127    -0.000453802        -0.658877       -0.613553
                        0.436748       -0.856453      0.000861307    -0.000354935        -0.241576      -0.0524543      -0.00092719     0.000169002
                     0.000811762     0.000968245        -0.658739       -0.613653     -0.000998284     0.000187341        -0.365877         0.19844
281702.6               -0.185372         -0.1631     -0.000940248    -0.000360473         0.436629       -0.856232      0.000713218     0.000867957
                     -0.00106504    -0.000557202        -0.184174         0.37391      0.000761104    -0.000453822        -0.658899       -0.613534
                        0.436721       -0.856467      0.000861275    -0.000354953        -0.241579      -0.0524482     -0.000927181     0.000169038
                     0.000811785     0.000968198        -0.658761       -0.613634     -0.000998266     0.000187382        -0.365864         0.19845
281702.7               -0.185379       -0.163094     -0.000940264    -0.000360429         0.436602       -0.856246      0.000713241     0.000867933
                     -0.00106504    -0.000557155        -0.184161        0.373909      0.000761081    -0.000453842        -0.658921       -0.613515
                        0.436693        -0.85648      0.000861242    -0.000354971        -0.241583       -0.052442     -0.000927173     0.000169074
                     0.000811807     0.000968151        -0.658783       -0.613616     -0.000998247     0.000187423         -0.36585        0.198459
281702.8               -0.185386       -0.163089      -0.00094028    -0.000360386         0.436574        -0.85626      0.000713263     0.000867909
                     -0.00106504    -0.000557107        -0.184147        0.373908      0.000761057    -0.000453862        -0.658943       -0.613496
                        0.436665       -0.856494       0.00086121    -0.000354989        -0.241586      -0.0524359     -0.000927164      0.00016911
                      0.00081183     0.000968104        -0.658805       -0.613597     -0.000998229     0.000187465        -0.365837        0.198469
281702.9               -0.185394       -0.163083     -0.000940296    -0.000360342         0.436546       -0.856273      0.000713286     0.000867884
                     -0.00106504     -0.00055706        -0.184133        0.373907      0.000761034    -0.000453882        -0.658965       -0.613477
                        0.436638       -0.856507      0.000861178    -0.000355006        -0.241589      -0.0524298     -0.000927156     0.000169146
                     0.000811853     0.000968057        -0.658827       -0.613578     -0.000998211     0.000187506        -0.365824        0.198479
281703                 -0.185401       -0.163077     -0.000940313    -0.000360298         0.436519       -0.856287      0.000713309      0.00086786
                     -0.00106504    -0.000557012        -0.184119        0.373906       0.00076101    -0.000453902        -0.658987       -0.613458
                         0.43661       -0.856521      0.000861145    -0.000355024        -0.241592      -0.0524236     -0.000927147     0.000169182
                     0.000811875      0.00096801        -0.658849       -0.613559     -0.000998192     0.000187547        -0.365811        0.198488
281703.1               -0.185408       -0.163072     -0.000940329    -0.000360255         0.436491         -0.8563      0.000713331     0.000867836
                     -0.00106504    -0.000556965        -0.184106        0.373905      0.000760987    -0.000453922        -0.659009        -0.61344
                        0.436582       -0.856534      0.000861113    -0.000355042        -0.241595      -0.0524175     -0.000927138     0.000169218
