! TOUCHSTONE file generated by CST MICROWAVE STUDIO
! Date and time: Wed Oct  8 06:57:22 2025
! Project name: Teste_Macro_Metasurface_Nanopilar.cst
! Parameters = {H=600; L_x=125; L_y=125; Lambda=1064; Max_L=200; Min_L=70; PathPara=1; Phi=0; Step_L=10; Theta=0; p=520; phaseX=180; phaseY=0}
! Header version: 2018
! Port assignment regex: !\s*Touchstone port\s*([0-9]+)\s*=\s*(CST MWS port|CST DS port)\s*([0-9]+|Zmin|Zmax)\s*\(\"(.*)\"\)(\s*mode\s*([0-9]+))?.*
! Touchstone port assignment:
! Touchstone port 1 = CST MWS port Zmax ("") mode 1
! Touchstone port 2 = CST MWS port Zmax ("") mode 2
! Touchstone port 3 = CST MWS port Zmin ("") mode 1
! Touchstone port 4 = CST MWS port Zmin ("") mode 2
! S-Parameters are not renormalized. Each port impedance will be approximated by the real part at minimum frequency. The values are described via the [Reference] keyword.
! Default impedance is overridden by [Reference]
[Version] 2.0
# GHz S RI R 376.73
[Number of Ports] 4
[Reference]
376.73 376.73 376.73 376.73 
[Number of Frequencies] 1001
[Network Data]
281700                 -0.119768       -0.175155       0.00101627     0.000356298         0.464311       -0.850184      0.000897765     0.000190492
                      0.00110318     0.000155172        -0.119753       -0.175041      0.000695744     0.000302339          0.46691       -0.848835
                        0.464502       -0.850246      0.000651388     0.000473306        -0.213672      -0.0036499      0.000714403     0.000482578
                     0.000931947     0.000155329         0.467004       -0.848688      0.000812432     0.000390008        -0.213616     -0.00506091
281700.1               -0.119777       -0.175151       0.00101627     0.000356273         0.464283       -0.850199      0.000897772     0.000190456
                      0.00110315     0.000155138        -0.119762       -0.175037      0.000695748     0.000302313         0.466882        -0.84885
                        0.464474       -0.850261      0.000651404     0.000473301        -0.213673     -0.00364522      0.000714417      0.00048253
                     0.000931939      0.00015529         0.466976       -0.848703      0.000812443     0.000389959        -0.213617     -0.00505624
281700.2               -0.119785       -0.175147       0.00101628     0.000356247         0.464255       -0.850214      0.000897778     0.000190421
                      0.00110313     0.000155105         -0.11977       -0.175033      0.000695752     0.000302286         0.466854       -0.848865
                        0.464446       -0.850276      0.000651419     0.000473296        -0.213674     -0.00364054      0.000714431     0.000482482
                     0.000931931      0.00015525         0.466949       -0.848718      0.000812453      0.00038991        -0.213618     -0.00505156
281700.3               -0.119793       -0.175143       0.00101628     0.000356222         0.464227       -0.850229      0.000897784     0.000190386
                      0.00110311     0.000155071        -0.119778       -0.175029      0.000695755     0.000302259         0.466826        -0.84888
                        0.464418       -0.850291      0.000651434      0.00047329        -0.213676     -0.00363586      0.000714445     0.000482434
                     0.000931923      0.00015521         0.466921       -0.848734      0.000812464     0.000389861         -0.21362     -0.00504689
281700.4               -0.119801       -0.175139       0.00101629     0.000356197         0.464199       -0.850244      0.000897791     0.000190351
                      0.00110308     0.000155038        -0.119786       -0.175025      0.000695759     0.000302233         0.466798       -0.848895
                        0.464391       -0.850306      0.000651449     0.000473285        -0.213677     -0.00363118      0.000714458     0.000482386
                     0.000931916     0.000155171         0.466893       -0.848749      0.000812475     0.000389811        -0.213621     -0.00504221
281700.5                -0.11981       -0.175135        0.0010163     0.000356172         0.464171       -0.850259      0.000897797     0.000190315
                      0.00110306     0.000155004        -0.119795        -0.17502      0.000695762     0.000302206          0.46677        -0.84891
                        0.464363       -0.850321      0.000651464      0.00047328        -0.213678      -0.0036265      0.000714472     0.000482338
                     0.000931908     0.000155131         0.466865       -0.848764      0.000812486     0.000389762        -0.213622     -0.00503753
281700.6               -0.119818       -0.175131        0.0010163     0.000356147         0.464143       -0.850274      0.000897803      0.00019028
                      0.00110304     0.000154971        -0.119803       -0.175016      0.000695766      0.00030218         0.466742       -0.848925
                        0.464335       -0.850336      0.000651479     0.000473274        -0.213679     -0.00362182      0.000714486      0.00048229
                       0.0009319     0.000155091         0.466837       -0.848779      0.000812497     0.000389713        -0.213624     -0.00503286
281700.7               -0.119826       -0.175127       0.00101631     0.000356122         0.464115       -0.850289       0.00089781     0.000190245
                      0.00110301     0.000154937        -0.119811       -0.175012      0.000695769     0.000302153         0.466715       -0.848941
                        0.464307       -0.850351      0.000651494     0.000473269        -0.213681     -0.00361714        0.0007145     0.000482242
                     0.000931892     0.000155052         0.466809       -0.848794      0.000812508     0.000389664        -0.213625     -0.00502818
281700.8               -0.119834       -0.175122       0.00101631     0.000356097         0.464087       -0.850304      0.000897816     0.000190209
                      0.00110299     0.000154904        -0.119819       -0.175008      0.000695773     0.000302126         0.466687       -0.848956
                        0.464279       -0.850366      0.000651509     0.000473263        -0.213682     -0.00361246      0.000714513     0.000482194
                     0.000931884     0.000155012         0.466781       -0.848809      0.000812519     0.000389615        -0.213626      -0.0050235
281700.9               -0.119843       -0.175118       0.00101632     0.000356072         0.464059       -0.850319      0.000897822     0.000190174
                      0.00110297      0.00015487        -0.119828       -0.175004      0.000695777       0.0003021         0.466659       -0.848971
                        0.464251       -0.850381      0.000651524     0.000473258        -0.213683     -0.00360778      0.000714527     0.000482146
                     0.000931876     0.000154973         0.466753       -0.848824       0.00081253     0.000389565        -0.213627     -0.00501883
281701                 -0.119851       -0.175114       0.00101632     0.000356047         0.464031       -0.850334      0.000897829     0.000190139
                      0.00110294     0.000154837        -0.119836          -0.175       0.00069578     0.000302073         0.466631       -0.848986
                        0.464223       -0.850396      0.000651539     0.000473253        -0.213684      -0.0036031      0.000714541     0.000482098
                     0.000931868     0.000154933         0.466725       -0.848839      0.000812541     0.000389516        -0.213629     -0.00501415
281701.1               -0.119859        -0.17511       0.00101633     0.000356021         0.464003       -0.850349      0.000897835     0.000190104
                      0.00110292     0.000154803        -0.119844       -0.174996      0.000695784     0.000302046         0.466603       -0.849001
                        0.464195       -0.850411      0.000651554     0.000473247        -0.213686     -0.00359842      0.000714555      0.00048205
                      0.00093186     0.000154893         0.466698       -0.848854      0.000812551     0.000389467         -0.21363     -0.00500947
281701.2               -0.119868       -0.175106       0.00101633     0.000355996         0.463975       -0.850364      0.000897841     0.000190068
                       0.0011029      0.00015477        -0.119852       -0.174992      0.000695787      0.00030202         0.466575       -0.849016
                        0.464167       -0.850426      0.000651569     0.000473242        -0.213687     -0.00359374      0.000714568     0.000482002
                     0.000931852     0.000154854          0.46667       -0.848869      0.000812562     0.000389418        -0.213631     -0.00500479
281701.3               -0.119876       -0.175102       0.00101634     0.000355971         0.463947       -0.850379      0.000897848     0.000190033
                      0.00110288     0.000154737        -0.119861       -0.174988      0.000695791     0.000301993         0.466547       -0.849031
                        0.464139       -0.850441      0.000651584     0.000473237        -0.213688     -0.00358906      0.000714582     0.000481954
                     0.000931844     0.000154814         0.466642       -0.848884      0.000812573     0.000389369        -0.213633     -0.00500012
281701.4               -0.119884       -0.175098       0.00101634     0.000355946         0.463919       -0.850394      0.000897854     0.000189998
                      0.00110285     0.000154703        -0.119869       -0.174983      0.000695795     0.000301967         0.466519       -0.849046
                        0.464111       -0.850456        0.0006516     0.000473231         -0.21369     -0.00358437      0.000714596     0.000481906
                     0.000931836     0.000154774         0.466614       -0.848899      0.000812584     0.000389319        -0.213634     -0.00499544
281701.5               -0.119892       -0.175094       0.00101635     0.000355921         0.463891       -0.850409       0.00089786     0.000189962
                      0.00110283      0.00015467        -0.119877       -0.174979      0.000695798      0.00030194         0.466491       -0.849061
                        0.464083       -0.850471      0.000651615     0.000473226        -0.213691     -0.00357969       0.00071461     0.000481858
                     0.000931828     0.000154735         0.466586       -0.848914      0.000812595      0.00038927        -0.213635     -0.00499076
281701.6               -0.119901       -0.175089       0.00101635     0.000355896         0.463863       -0.850424      0.000897867     0.000189927
                      0.00110281     0.000154636        -0.119885       -0.174975      0.000695802     0.000301913         0.466463       -0.849076
                        0.464055       -0.850486       0.00065163      0.00047322        -0.213692     -0.00357501      0.000714623      0.00048181
                      0.00093182     0.000154695         0.466558       -0.848929      0.000812606     0.000389221        -0.213637     -0.00498608
281701.7               -0.119909       -0.175085       0.00101636     0.000355871         0.463836       -0.850439      0.000897873     0.000189892
                      0.00110278     0.000154603        -0.119894       -0.174971      0.000695805     0.000301887         0.466435       -0.849091
                        0.464027       -0.850501      0.000651645     0.000473215        -0.213693     -0.00357033      0.000714637     0.000481762
                     0.000931812     0.000154656          0.46653       -0.848944      0.000812617     0.000389172        -0.213638     -0.00498141
281701.8               -0.119917       -0.175081       0.00101637     0.000355846         0.463808       -0.850454      0.000897879     0.000189856
                      0.00110276      0.00015457        -0.119902       -0.174967      0.000695809      0.00030186         0.466407       -0.849106
                        0.463999       -0.850516       0.00065166      0.00047321        -0.213695     -0.00356565      0.000714651     0.000481714
                     0.000931804     0.000154616         0.466502        -0.84896      0.000812627     0.000389123        -0.213639     -0.00497673
281701.9               -0.119925       -0.175077       0.00101637     0.000355821          0.46378       -0.850469      0.000897886     0.000189821
                      0.00110274     0.000154536         -0.11991       -0.174963      0.000695813     0.000301834         0.466379       -0.849121
                        0.463971       -0.850531      0.000651675     0.000473204        -0.213696     -0.00356097      0.000714665     0.000481666
                     0.000931796     0.000154577         0.466474       -0.848975      0.000812638     0.000389073        -0.213641     -0.00497205
281702                 -0.119934       -0.175073       0.00101638     0.000355796         0.463752       -0.850483      0.000897892     0.000189786
                      0.00110271     0.000154503        -0.119918       -0.174959      0.000695816     0.000301807         0.466351       -0.849137
                        0.463943       -0.850546       0.00065169     0.000473199        -0.213697     -0.00355628      0.000714678     0.000481617
                     0.000931788     0.000154537         0.466446        -0.84899      0.000812649     0.000389024        -0.213642     -0.00496737
281702.1               -0.119942       -0.175069       0.00101638     0.000355771         0.463724       -0.850498      0.000897898     0.000189751
                      0.00110269     0.000154469        -0.119927       -0.174955       0.00069582     0.000301781         0.466323       -0.849152
                        0.463915       -0.850561      0.000651705     0.000473193        -0.213698      -0.0035516      0.000714692     0.000481569
                      0.00093178     0.000154497         0.466419       -0.849005       0.00081266     0.000388975        -0.213643     -0.00496269
281702.2                -0.11995       -0.175065       0.00101639     0.000355745         0.463696       -0.850513      0.000897904     0.000189715
                      0.00110267     0.000154436        -0.119935       -0.174951      0.000695823     0.000301754         0.466295       -0.849167
                        0.463887       -0.850576       0.00065172     0.000473188          -0.2137     -0.00354692      0.000714706     0.000481521
                     0.000931772     0.000154458         0.466391        -0.84902      0.000812671     0.000388926        -0.213645     -0.00495802
281702.3               -0.119958        -0.17506       0.00101639      0.00035572         0.463668       -0.850528      0.000897911      0.00018968
                      0.00110265     0.000154403        -0.119943       -0.174946      0.000695827     0.000301727         0.466268       -0.849182
                        0.463859       -0.850591      0.000651735     0.000473183        -0.213701     -0.00354224       0.00071472     0.000481473
                     0.000931765     0.000154418         0.466363       -0.849035      0.000812682     0.000388877        -0.213646     -0.00495334
281702.4               -0.119967       -0.175056        0.0010164     0.000355695          0.46364       -0.850543      0.000897917     0.000189645
                      0.00110262     0.000154369        -0.119951       -0.174942      0.000695831     0.000301701          0.46624       -0.849197
                        0.463831       -0.850606       0.00065175     0.000473177        -0.213702     -0.00353756      0.000714733     0.000481425
                     0.000931757     0.000154379         0.466335        -0.84905      0.000812692     0.000388828        -0.213647     -0.00494866
281702.5               -0.119975       -0.175052        0.0010164      0.00035567         0.463612       -0.850558      0.000897923     0.000189609
                       0.0011026     0.000154336         -0.11996       -0.174938      0.000695834     0.000301674         0.466212       -0.849212
                        0.463803       -0.850621      0.000651765     0.000473172        -0.213703     -0.00353287      0.000714747     0.000481377
                     0.000931749     0.000154339         0.466307       -0.849065      0.000812703     0.000388778        -0.213649     -0.00494398
281702.6               -0.119983       -0.175048       0.00101641     0.000355645         0.463584       -0.850573       0.00089793     0.000189574
                      0.00110258     0.000154303        -0.119968       -0.174934      0.000695838     0.000301648         0.466184       -0.849227
                        0.463775       -0.850636       0.00065178     0.000473166        -0.213705     -0.00352819      0.000714761     0.000481329
                     0.000931741       0.0001543         0.466279        -0.84908      0.000812714     0.000388729         -0.21365      -0.0049393
281702.7               -0.119991       -0.175044       0.00101641      0.00035562         0.463556       -0.850588      0.000897936     0.000189539
                      0.00110255     0.000154269        -0.119976        -0.17493      0.000695842     0.000301621         0.466156       -0.849242
                        0.463747       -0.850651      0.000651795     0.000473161        -0.213706     -0.00352351      0.000714775     0.000481281
                     0.000931733      0.00015426         0.466251       -0.849095      0.000812725      0.00038868        -0.213651     -0.00493462
281702.8                   -0.12        -0.17504       0.00101642     0.000355595         0.463528       -0.850603      0.000897942     0.000189503
                      0.00110253     0.000154236        -0.119984       -0.174926      0.000695845     0.000301594         0.466128       -0.849257
                         0.46372       -0.850666       0.00065181     0.000473156        -0.213707     -0.00351882      0.000714788     0.000481233
                     0.000931724      0.00015422         0.466223        -0.84911      0.000812736     0.000388631        -0.213652     -0.00492994
281702.9               -0.120008       -0.175036       0.00101642      0.00035557           0.4635       -0.850618      0.000897948     0.000189468
                      0.00110251     0.000154203        -0.119993       -0.174922      0.000695849     0.000301568           0.4661       -0.849272
                        0.463692       -0.850681      0.000651825      0.00047315        -0.213708     -0.00351414      0.000714802     0.000481185
                     0.000931716     0.000154181         0.466195       -0.849125      0.000812746     0.000388582        -0.213654     -0.00492526
281703                 -0.120016       -0.175032       0.00101643     0.000355545         0.463472       -0.850633      0.000897955     0.000189433
                      0.00110248     0.000154169        -0.120001       -0.174918      0.000695852     0.000301541         0.466072       -0.849287
                        0.463664       -0.850696       0.00065184     0.000473145         -0.21371     -0.00350946      0.000714816     0.000481137
                     0.000931708     0.000154141         0.466167        -0.84914      0.000812757     0.000388533        -0.213655     -0.00492059
281703.1               -0.120024       -0.175027       0.00101644      0.00035552         0.463444       -0.850648      0.000897961     0.000189397
                      0.00110246     0.000154136        -0.120009       -0.174913      0.000695856     0.000301515         0.466044       -0.849302
                        0.463636       -0.850711      0.000651855     0.000473139        -0.213711     -0.00350478       0.00071483     0.000481089
