! TOUCHSTONE file generated by CST MICROWAVE STUDIO
! Date and time: Wed Oct  8 07:04:40 2025
! Project name: Teste_Macro_Metasurface_Nanopilar.cst
! Parameters = {H=600; L_x=185; L_y=155; Lambda=1064; Max_L=200; Min_L=70; PathPara=1; Phi=0; Step_L=10; Theta=0; p=520; phaseX=180; phaseY=0}
! Header version: 2018
! Port assignment regex: !\s*Touchstone port\s*([0-9]+)\s*=\s*(CST MWS port|CST DS port)\s*([0-9]+|Zmin|Zmax)\s*\(\"(.*)\"\)(\s*mode\s*([0-9]+))?.*
! Touchstone port assignment:
! Touchstone port 1 = CST MWS port Zmax ("") mode 1
! Touchstone port 2 = CST MWS port Zmax ("") mode 2
! Touchstone port 3 = CST MWS port Zmin ("") mode 1
! Touchstone port 4 = CST MWS port Zmin ("") mode 2
! S-Parameters are not renormalized. Each port impedance will be approximated by the real part at minimum frequency. The values are described via the [Reference] keyword.
! Default impedance is overridden by [Reference]
[Version] 2.0
# GHz S RI R 376.73
[Number of Ports] 4
[Reference]
376.73 376.73 376.73 376.73 
[Number of Frequencies] 1001
[Network Data]
281700                -0.0268398       0.0759545      3.59255e-05     9.23799e-05        -0.935006       -0.333261      0.000106217    -0.000228828
                    -1.72257e-05     5.74568e-05       -0.0289916      -0.0797984      4.44646e-05    -0.000281199        -0.992357    -0.000581935
                       -0.934922        -0.33322      6.96503e-05    -0.000301223       -0.0308815       0.0743684       4.2653e-05     6.40126e-05
                     0.000162383    -0.000163345        -0.992306    -0.000485684      5.94068e-05      0.00024487        0.0246886      -0.0806213
281700.1              -0.0268352       0.0759498      3.59271e-05      9.2375e-05        -0.935017       -0.333233       0.00010621    -0.000228829
                    -1.72216e-05     5.74524e-05       -0.0289935      -0.0798044      4.44571e-05    -0.000281197        -0.992356    -0.000552286
                       -0.934933       -0.333193       6.9636e-05    -0.000301225       -0.0308777       0.0743636      4.26585e-05     6.39936e-05
                     0.000162373    -0.000163353        -0.992305    -0.000456038      5.94165e-05     0.000244869        0.0246857      -0.0806289
281700.2              -0.0268306       0.0759451      3.59286e-05     9.23701e-05        -0.935027       -0.333206      0.000106202    -0.000228829
                    -1.72175e-05      5.7448e-05       -0.0289953      -0.0798103      4.44496e-05    -0.000281195        -0.992356    -0.000522637
                       -0.934943       -0.333165      6.96217e-05    -0.000301227       -0.0308738       0.0743588       4.2664e-05     6.39746e-05
                     0.000162364    -0.000163361        -0.992305    -0.000426392      5.94262e-05     0.000244868        0.0246827      -0.0806364
281700.3              -0.0268259       0.0759404      3.59301e-05     9.23652e-05        -0.935038       -0.333178      0.000106195     -0.00022883
                    -1.72134e-05     5.74435e-05       -0.0289971      -0.0798162       4.4442e-05    -0.000281193        -0.992355    -0.000492988
                       -0.934954       -0.333137      6.96073e-05    -0.000301229       -0.0308699        0.074354      4.26695e-05     6.39555e-05
                     0.000162354    -0.000163368        -0.992304    -0.000396745      5.94359e-05     0.000244867        0.0246798      -0.0806439
281700.4              -0.0268213       0.0759357      3.59317e-05     9.23603e-05        -0.935048        -0.33315      0.000106187     -0.00022883
                    -1.72093e-05     5.74391e-05        -0.028999      -0.0798222      4.44345e-05    -0.000281191        -0.992355     -0.00046334
                       -0.934964        -0.33311       6.9593e-05    -0.000301231       -0.0308661       0.0743492       4.2675e-05     6.39365e-05
                     0.000162345    -0.000163376        -0.992304    -0.000367099      5.94456e-05     0.000244866        0.0246768      -0.0806514
281700.5              -0.0268167        0.075931      3.59332e-05     9.23554e-05        -0.935058       -0.333123       0.00010618     -0.00022883
                    -1.72052e-05     5.74347e-05       -0.0290008      -0.0798281      4.44269e-05    -0.000281189        -0.992354     -0.00043369
                       -0.934974       -0.333082      6.95786e-05    -0.000301233       -0.0308622       0.0743444      4.26805e-05     6.39175e-05
                     0.000162335    -0.000163384        -0.992303    -0.000337453      5.94553e-05     0.000244865        0.0246739      -0.0806589
281700.6               -0.026812       0.0759263      3.59347e-05     9.23505e-05        -0.935069       -0.333095      0.000106172    -0.000228831
                    -1.72011e-05     5.74302e-05       -0.0290027       -0.079834      4.44194e-05    -0.000281187        -0.992354    -0.000404041
                       -0.934985       -0.333054      6.95643e-05    -0.000301235       -0.0308584       0.0743396       4.2686e-05     6.38984e-05
                     0.000162326    -0.000163392        -0.992303    -0.000307807       5.9465e-05     0.000244864         0.024671      -0.0806664
281700.7              -0.0268074       0.0759216      3.59362e-05     9.23456e-05        -0.935079       -0.333067      0.000106165    -0.000228831
                    -1.71969e-05     5.74258e-05       -0.0290045        -0.07984      4.44118e-05    -0.000281185        -0.992353    -0.000374392
                       -0.934995       -0.333027      6.95499e-05    -0.000301236       -0.0308545       0.0743348      4.26915e-05     6.38794e-05
                     0.000162316    -0.000163399        -0.992302     -0.00027816      5.94747e-05     0.000244863         0.024668      -0.0806739
281700.8              -0.0268028       0.0759168      3.59378e-05     9.23407e-05         -0.93509       -0.333039      0.000106157    -0.000228832
                    -1.71928e-05     5.74214e-05       -0.0290064      -0.0798459      4.44043e-05    -0.000281184        -0.992353    -0.000344743
                       -0.935006       -0.332999      6.95356e-05    -0.000301238       -0.0308506         0.07433      4.26969e-05     6.38604e-05
                     0.000162307    -0.000163407        -0.992302    -0.000248514      5.94844e-05     0.000244862        0.0246651      -0.0806814
281700.9              -0.0267981       0.0759121      3.59393e-05     9.23358e-05          -0.9351       -0.333012      0.000106149    -0.000228832
                    -1.71887e-05     5.74169e-05       -0.0290082      -0.0798518      4.43967e-05    -0.000281182        -0.992352    -0.000315094
                       -0.935016       -0.332971      6.95213e-05     -0.00030124       -0.0308468       0.0743252      4.27024e-05     6.38414e-05
                     0.000162297    -0.000163415        -0.992301    -0.000218868      5.94941e-05     0.000244861        0.0246622       -0.080689
281701                -0.0267935       0.0759074      3.59408e-05     9.23309e-05         -0.93511       -0.332984      0.000106142    -0.000228832
                    -1.71846e-05     5.74125e-05       -0.0290101      -0.0798578      4.43891e-05     -0.00028118        -0.992352    -0.000285444
                       -0.935026       -0.332943      6.95069e-05    -0.000301242       -0.0308429       0.0743204      4.27079e-05     6.38224e-05
                     0.000162287    -0.000163423        -0.992301    -0.000189222      5.95038e-05      0.00024486        0.0246592      -0.0806965
281701.1              -0.0267889       0.0759027      3.59424e-05      9.2326e-05        -0.935121       -0.332956      0.000106134    -0.000228833
                    -1.71805e-05     5.74081e-05       -0.0290119      -0.0798637      4.43815e-05    -0.000281178        -0.992351    -0.000255795
                       -0.935037       -0.332916      6.94926e-05    -0.000301244        -0.030839       0.0743156      4.27133e-05     6.38034e-05
                     0.000162278     -0.00016343          -0.9923    -0.000159576      5.95135e-05     0.000244859        0.0246563       -0.080704
281701.2              -0.0267842        0.075898      3.59439e-05      9.2321e-05        -0.935131       -0.332928      0.000106127    -0.000228833
                    -1.71764e-05     5.74037e-05       -0.0290138      -0.0798696      4.43739e-05    -0.000281176        -0.992351    -0.000226145
                       -0.935047       -0.332888      6.94782e-05    -0.000301246       -0.0308352       0.0743108      4.27188e-05     6.37843e-05
                     0.000162268    -0.000163438          -0.9923     -0.00012993      5.95232e-05     0.000244857        0.0246533      -0.0807115
281701.3              -0.0267796       0.0758933      3.59454e-05     9.23161e-05        -0.935142       -0.332901      0.000106119    -0.000228834
                    -1.71723e-05     5.73992e-05       -0.0290156      -0.0798756      4.43663e-05    -0.000281174         -0.99235    -0.000196496
                       -0.935057        -0.33286      6.94639e-05    -0.000301248       -0.0308313        0.074306      4.27242e-05     6.37653e-05
                     0.000162259    -0.000163446        -0.992299    -0.000100284      5.95329e-05     0.000244856        0.0246504       -0.080719
281701.4               -0.026775       0.0758886       3.5947e-05     9.23112e-05        -0.935152       -0.332873      0.000106112    -0.000228834
                    -1.71682e-05     5.73948e-05       -0.0290175      -0.0798815      4.43587e-05    -0.000281172         -0.99235    -0.000166846
                       -0.935068       -0.332833      6.94496e-05     -0.00030125       -0.0308275       0.0743012      4.27297e-05     6.37463e-05
                     0.000162249    -0.000163454        -0.992299    -7.06386e-05      5.95426e-05     0.000244855        0.0246475      -0.0807265
281701.5              -0.0267704       0.0758839      3.59485e-05     9.23063e-05        -0.935162       -0.332845      0.000106104    -0.000228834
                    -1.71641e-05     5.73904e-05       -0.0290193      -0.0798874      4.43511e-05     -0.00028117        -0.992349    -0.000137196
                       -0.935078       -0.332805      6.94352e-05    -0.000301252       -0.0308236       0.0742964      4.27351e-05     6.37273e-05
                      0.00016224    -0.000163462        -0.992298    -4.09928e-05      5.95522e-05     0.000244854        0.0246445       -0.080734
281701.6              -0.0267657       0.0758792        3.595e-05     9.23014e-05        -0.935173       -0.332818      0.000106097    -0.000228835
                      -1.716e-05     5.73859e-05       -0.0290212      -0.0798934      4.43435e-05    -0.000281168        -0.992349    -0.000107547
                       -0.935089       -0.332777      6.94209e-05    -0.000301254       -0.0308198       0.0742915      4.27406e-05     6.37083e-05
                      0.00016223    -0.000163469        -0.992298     -1.1347e-05      5.95619e-05     0.000244853        0.0246416      -0.0807415
281701.7              -0.0267611       0.0758745      3.59516e-05     9.22965e-05        -0.935183        -0.33279      0.000106089    -0.000228835
                    -1.71559e-05     5.73815e-05        -0.029023      -0.0798993      4.43359e-05    -0.000281166        -0.992348    -7.78969e-05
                       -0.935099       -0.332749      6.94066e-05    -0.000301256       -0.0308159       0.0742867       4.2746e-05     6.36893e-05
                     0.000162221    -0.000163477        -0.992297     1.82987e-05      5.95716e-05     0.000244852        0.0246386       -0.080749
281701.8              -0.0267565       0.0758698      3.59531e-05     9.22916e-05        -0.935193       -0.332762      0.000106081    -0.000228836
                    -1.71518e-05     5.73771e-05       -0.0290249      -0.0799052      4.43283e-05    -0.000281164        -0.992348     -4.8247e-05
                       -0.935109       -0.332722      6.93922e-05    -0.000301258        -0.030812       0.0742819      4.27514e-05     6.36703e-05
                     0.000162211    -0.000163485        -0.992296     4.79443e-05      5.95813e-05     0.000244851        0.0246357      -0.0807566
281701.9              -0.0267518       0.0758651      3.59546e-05     9.22867e-05        -0.935204       -0.332734      0.000106074    -0.000228836
                    -1.71476e-05     5.73726e-05       -0.0290267      -0.0799112      4.43206e-05    -0.000281162        -0.992347     -1.8597e-05
                        -0.93512       -0.332694      6.93779e-05    -0.000301259       -0.0308082       0.0742771      4.27569e-05     6.36513e-05
                     0.000162202    -0.000163493        -0.992296       7.759e-05       5.9591e-05      0.00024485        0.0246327      -0.0807641
281702                -0.0267472       0.0758604      3.59562e-05     9.22818e-05        -0.935214       -0.332707      0.000106066    -0.000228836
                    -1.71435e-05     5.73682e-05       -0.0290286      -0.0799171       4.4313e-05     -0.00028116        -0.992346      1.1053e-05
                        -0.93513       -0.332666      6.93635e-05    -0.000301261       -0.0308043       0.0742723      4.27623e-05     6.36323e-05
                     0.000162192      -0.0001635        -0.992295     0.000107236      5.96007e-05     0.000244849        0.0246298      -0.0807716
281702.1              -0.0267426       0.0758556      3.59577e-05     9.22768e-05        -0.935225       -0.332679      0.000106059    -0.000228837
                    -1.71394e-05     5.73638e-05       -0.0290304       -0.079923      4.43053e-05    -0.000281158        -0.992346     4.07031e-05
                       -0.935141       -0.332639      6.93492e-05    -0.000301263       -0.0308005       0.0742675      4.27677e-05     6.36133e-05
                     0.000162182    -0.000163508        -0.992295     0.000136881      5.96104e-05     0.000244848        0.0246269      -0.0807791
281702.2              -0.0267379       0.0758509      3.59592e-05     9.22719e-05        -0.935235       -0.332651      0.000106051    -0.000228837
                    -1.71353e-05     5.73593e-05       -0.0290323       -0.079929      4.42977e-05    -0.000281156        -0.992345     7.03532e-05
                       -0.935151       -0.332611      6.93349e-05    -0.000301265       -0.0307966       0.0742627      4.27731e-05     6.35943e-05
                     0.000162173    -0.000163516        -0.992294     0.000166527      5.96201e-05     0.000244847        0.0246239      -0.0807866
281702.3              -0.0267333       0.0758462      3.59608e-05      9.2267e-05        -0.935245       -0.332623      0.000106044    -0.000228838
                    -1.71312e-05     5.73549e-05       -0.0290341      -0.0799349        4.429e-05    -0.000281154        -0.992345     0.000100003
                       -0.935161       -0.332583      6.93205e-05    -0.000301267       -0.0307928       0.0742579      4.27785e-05     6.35753e-05
                     0.000162163    -0.000163524        -0.992294     0.000196172      5.96298e-05     0.000244846         0.024621      -0.0807941
281702.4              -0.0267287       0.0758415      3.59623e-05     9.22621e-05        -0.935256       -0.332596      0.000106036    -0.000228838
                    -1.71271e-05     5.73504e-05        -0.029036      -0.0799408      4.42824e-05    -0.000281151        -0.992344     0.000129654
                       -0.935172       -0.332556      6.93062e-05    -0.000301269       -0.0307889       0.0742531      4.27839e-05     6.35563e-05
                     0.000162154    -0.000163531        -0.992293     0.000225817      5.96394e-05     0.000244845         0.024618      -0.0808016
281702.5              -0.0267241       0.0758368      3.59638e-05     9.22572e-05        -0.935266       -0.332568      0.000106029    -0.000228838
                     -1.7123e-05      5.7346e-05       -0.0290378      -0.0799468      4.42747e-05    -0.000281149        -0.992344     0.000159304
                       -0.935182       -0.332528      6.92919e-05    -0.000301271        -0.030785       0.0742483      4.27893e-05     6.35373e-05
                     0.000162144    -0.000163539        -0.992293     0.000255463      5.96491e-05     0.000244844        0.0246151      -0.0808091
281702.6              -0.0267194       0.0758321      3.59654e-05     9.22523e-05        -0.935277        -0.33254      0.000106021    -0.000228839
                    -1.71189e-05     5.73416e-05       -0.0290397      -0.0799527       4.4267e-05    -0.000281147        -0.992343     0.000188954
                       -0.935192         -0.3325      6.92775e-05    -0.000301273       -0.0307812       0.0742435      4.27947e-05     6.35183e-05
                     0.000162135    -0.000163547        -0.992292     0.000285108      5.96588e-05     0.000244842        0.0246121      -0.0808166
281702.7              -0.0267148       0.0758274      3.59669e-05     9.22473e-05        -0.935287       -0.332512      0.000106014    -0.000228839
                    -1.71148e-05     5.73371e-05       -0.0290415      -0.0799586      4.42594e-05    -0.000281145        -0.992343     0.000218605
                       -0.935203       -0.332472      6.92632e-05    -0.000301275       -0.0307773       0.0742386      4.28001e-05     6.34993e-05
                     0.000162125    -0.000163555        -0.992292     0.000314753      5.96685e-05     0.000244841        0.0246092      -0.0808242
281702.8              -0.0267102       0.0758227      3.59684e-05     9.22424e-05        -0.935297       -0.332485      0.000106006    -0.000228839
                    -1.71107e-05     5.73327e-05       -0.0290434      -0.0799646      4.42517e-05    -0.000281143        -0.992342     0.000248255
                       -0.935213       -0.332445      6.92489e-05    -0.000301277       -0.0307735       0.0742338      4.28055e-05     6.34803e-05
                     0.000162116    -0.000163562        -0.992291     0.000344399      5.96782e-05      0.00024484        0.0246062      -0.0808317
281702.9              -0.0267056        0.075818        3.597e-05     9.22375e-05        -0.935308       -0.332457      0.000105998     -0.00022884
                    -1.71066e-05     5.73283e-05       -0.0290452      -0.0799705       4.4244e-05    -0.000281141        -0.992342     0.000277906
                       -0.935223       -0.332417      6.92345e-05    -0.000301278       -0.0307696        0.074229      4.28109e-05     6.34614e-05
                     0.000162106     -0.00016357        -0.992291     0.000374044      5.96878e-05     0.000244839        0.0246033      -0.0808392
281703                -0.0267009       0.0758133      3.59715e-05     9.22326e-05        -0.935318       -0.332429      0.000105991     -0.00022884
                    -1.71025e-05     5.73238e-05       -0.0290471      -0.0799764      4.42363e-05    -0.000281139        -0.992341     0.000307556
                       -0.935234       -0.332389      6.92202e-05     -0.00030128       -0.0307658       0.0742242      4.28163e-05     6.34424e-05
                     0.000162096    -0.000163578         -0.99229     0.000403689      5.96975e-05     0.000244838        0.0246003      -0.0808467
281703.1              -0.0266963       0.0758085       3.5973e-05     9.22277e-05        -0.935328       -0.332402      0.000105983    -0.000228841
                    -1.70984e-05     5.73194e-05       -0.0290489      -0.0799824      4.42286e-05    -0.000281137        -0.992341     0.000337207
                       -0.935244       -0.332362      6.92059e-05    -0.000301282       -0.0307619       0.0742194      4.28216e-05     6.34234e-05
