! TOUCHSTONE file generated by CST MICROWAVE STUDIO
! Date and time: Wed Oct  8 07:01:51 2025
! Project name: Teste_Macro_Metasurface_Nanopilar.cst
! Parameters = {H=600; L_x=160; L_y=190; Lambda=1064; Max_L=200; Min_L=70; PathPara=1; Phi=0; Step_L=10; Theta=0; p=520; phaseX=180; phaseY=0}
! Header version: 2018
! Port assignment regex: !\s*Touchstone port\s*([0-9]+)\s*=\s*(CST MWS port|CST DS port)\s*([0-9]+|Zmin|Zmax)\s*\(\"(.*)\"\)(\s*mode\s*([0-9]+))?.*
! Touchstone port assignment:
! Touchstone port 1 = CST MWS port Zmax ("") mode 1
! Touchstone port 2 = CST MWS port Zmax ("") mode 2
! Touchstone port 3 = CST MWS port Zmin ("") mode 1
! Touchstone port 4 = CST MWS port Zmin ("") mode 2
! S-Parameters are not renormalized. Each port impedance will be approximated by the real part at minimum frequency. The values are described via the [Reference] keyword.
! Default impedance is overridden by [Reference]
[Version] 2.0
# GHz S RI R 376.73
[Number of Ports] 4
[Reference]
376.73 376.73 376.73 376.73 
[Number of Frequencies] 1001
[Network Data]
281700                -0.0672306       -0.145742     -0.000407395    -0.000655232        -0.972371        0.144333      8.29351e-05     0.000749267
                    -0.000353065    -0.000836295        0.0712019       0.0436371      3.64063e-05     0.000721157        -0.981215        -0.10129
                       -0.972176        0.144154      8.08895e-05     0.000736145        0.0179378       -0.158959      0.000255732    -0.000612524
                      7.5753e-05     0.000771509        -0.980988        -0.10106      0.000293235    -0.000706685        -0.078823       0.0398579
281700.1               -0.067235       -0.145747     -0.000407424    -0.000655221        -0.972366        0.144362      8.29749e-05     0.000749274
                      -0.0003531    -0.000836304          0.07121       0.0436317      3.64332e-05     0.000721159        -0.981218       -0.101254
                        -0.97217        0.144183      8.09192e-05     0.000736139        0.0179312       -0.158966       0.00025568    -0.000612541
                     7.57935e-05     0.000771502        -0.980991       -0.101025      0.000293213    -0.000706705        -0.078827       0.0398579
281700.2              -0.0672394       -0.145751     -0.000407453     -0.00065521        -0.972361         0.14439      8.30147e-05     0.000749281
                    -0.000353135    -0.000836312        0.0712181       0.0436263      3.64602e-05     0.000721162         -0.98122       -0.101219
                       -0.972165        0.144212      8.09489e-05     0.000736133        0.0179246       -0.158973      0.000255628    -0.000612557
                     7.58341e-05     0.000771496        -0.980994        -0.10099       0.00029319    -0.000706726       -0.0788309       0.0398578
281700.3              -0.0672437       -0.145756     -0.000407482    -0.000655199        -0.972355        0.144419      8.30545e-05     0.000749288
                     -0.00035317    -0.000836321        0.0712263       0.0436209      3.64871e-05     0.000721164        -0.981223       -0.101184
                        -0.97216        0.144241      8.09786e-05     0.000736127        0.0179179        -0.15898      0.000255576    -0.000612574
                     7.58746e-05     0.000771489        -0.980996       -0.100955      0.000293167    -0.000706746       -0.0788348       0.0398578
281700.4              -0.0672481       -0.145761     -0.000407511    -0.000655188         -0.97235        0.144448      8.30942e-05     0.000749295
                    -0.000353205    -0.000836329        0.0712344       0.0436155      3.65141e-05     0.000721167        -0.981226       -0.101149
                       -0.972154        0.144269      8.10084e-05      0.00073612        0.0179113       -0.158987      0.000255524     -0.00061259
                     7.59152e-05     0.000771483        -0.980999        -0.10092      0.000293144    -0.000706766       -0.0788387       0.0398577
281700.5              -0.0672525       -0.145766     -0.000407539    -0.000655177        -0.972345        0.144477       8.3134e-05     0.000749301
                     -0.00035324    -0.000836338        0.0712425       0.0436101       3.6541e-05     0.000721169        -0.981228       -0.101114
                       -0.972149        0.144298      8.10381e-05     0.000736114        0.0179046       -0.158994      0.000255472    -0.000612607
                     7.59557e-05     0.000771476        -0.981002       -0.100885      0.000293121    -0.000706787       -0.0788427       0.0398577
281700.6              -0.0672569        -0.14577     -0.000407568    -0.000655166         -0.97234        0.144506      8.31738e-05     0.000749308
                    -0.000353275    -0.000836346        0.0712506       0.0436047       3.6568e-05     0.000721172        -0.981231       -0.101079
                       -0.972144        0.144327      8.10678e-05     0.000736108         0.017898          -0.159      0.000255419    -0.000612623
                     7.59962e-05      0.00077147        -0.981004       -0.100849      0.000293098    -0.000706807       -0.0788466       0.0398576
281700.7              -0.0672613       -0.145775     -0.000407597    -0.000655155        -0.972334        0.144535      8.32136e-05     0.000749315
                    -0.000353311    -0.000836355        0.0712588       0.0435993      3.65949e-05     0.000721174        -0.981234       -0.101044
                       -0.972138        0.144356      8.10975e-05     0.000736101        0.0178913       -0.159007      0.000255367     -0.00061264
                     7.60368e-05     0.000771464        -0.981007       -0.100814      0.000293075    -0.000706827       -0.0788505       0.0398576
281700.8              -0.0672657        -0.14578     -0.000407626    -0.000655144        -0.972329        0.144563      8.32533e-05     0.000749322
                    -0.000353346    -0.000836363        0.0712669       0.0435939      3.66219e-05     0.000721177        -0.981236       -0.101009
                       -0.972133        0.144385      8.11273e-05     0.000736095        0.0178847       -0.159014      0.000255315    -0.000612656
                     7.60773e-05     0.000771457         -0.98101       -0.100779      0.000293052    -0.000706847       -0.0788545       0.0398575
281700.9              -0.0672701       -0.145785     -0.000407655    -0.000655133        -0.972324        0.144592      8.32931e-05     0.000749329
                    -0.000353381    -0.000836372         0.071275       0.0435885      3.66488e-05     0.000721179        -0.981239       -0.100974
                       -0.972128        0.144414       8.1157e-05     0.000736089        0.0178781       -0.159021      0.000255263    -0.000612673
                     7.61179e-05     0.000771451        -0.981012       -0.100744      0.000293029    -0.000706868       -0.0788584       0.0398575
281701                -0.0672745       -0.145789     -0.000407684    -0.000655122        -0.972318        0.144621      8.33329e-05     0.000749336
                    -0.000353416     -0.00083638        0.0712832       0.0435831      3.66758e-05     0.000721182        -0.981241       -0.100939
                       -0.972123        0.144442      8.11867e-05     0.000736083        0.0178714       -0.159028      0.000255211    -0.000612689
                     7.61584e-05     0.000771444        -0.981015       -0.100709      0.000293006    -0.000706888       -0.0788623       0.0398574
281701.1              -0.0672789       -0.145794     -0.000407712    -0.000655111        -0.972313         0.14465      8.33727e-05     0.000749343
                    -0.000353451    -0.000836389        0.0712913       0.0435778      3.67027e-05     0.000721184        -0.981244       -0.100904
                       -0.972117        0.144471      8.12165e-05     0.000736076        0.0178648       -0.159035      0.000255159    -0.000612706
                      7.6199e-05     0.000771438        -0.981018       -0.100674      0.000292983    -0.000706908       -0.0788662       0.0398574
281701.2              -0.0672833       -0.145799     -0.000407741      -0.0006551        -0.972308        0.144679      8.34124e-05      0.00074935
                    -0.000353486    -0.000836397        0.0712994       0.0435724      3.67296e-05     0.000721186        -0.981247       -0.100869
                       -0.972112          0.1445      8.12462e-05      0.00073607        0.0178581       -0.159042      0.000255106    -0.000612722
                     7.62395e-05     0.000771431         -0.98102       -0.100639       0.00029296    -0.000706928       -0.0788702       0.0398573
281701.3              -0.0672876       -0.145804      -0.00040777    -0.000655089        -0.972303        0.144708      8.34522e-05     0.000749357
                    -0.000353521    -0.000836405        0.0713076        0.043567      3.67566e-05     0.000721189        -0.981249       -0.100834
                       -0.972107        0.144529      8.12759e-05     0.000736064        0.0178515       -0.159049      0.000255054    -0.000612739
                     7.62801e-05     0.000771425        -0.981023       -0.100604      0.000292938    -0.000706948       -0.0788741       0.0398573
281701.4               -0.067292       -0.145808     -0.000407799    -0.000655078        -0.972297        0.144736       8.3492e-05     0.000749363
                    -0.000353556    -0.000836414        0.0713157       0.0435616      3.67835e-05     0.000721191        -0.981252       -0.100799
                       -0.972101        0.144558      8.13057e-05     0.000736057        0.0178448       -0.159056      0.000255002    -0.000612755
                     7.63206e-05     0.000771419        -0.981026       -0.100569      0.000292915    -0.000706969        -0.078878       0.0398572
281701.5              -0.0672964       -0.145813     -0.000407828    -0.000655067        -0.972292        0.144765      8.35318e-05      0.00074937
                    -0.000353591    -0.000836422        0.0713238       0.0435562      3.68105e-05     0.000721194        -0.981254       -0.100764
                       -0.972096        0.144587      8.13354e-05     0.000736051        0.0178382       -0.159063       0.00025495    -0.000612772
                     7.63612e-05     0.000771412        -0.981028       -0.100533      0.000292892    -0.000706989        -0.078882       0.0398572
281701.6              -0.0673008       -0.145818     -0.000407857    -0.000655056        -0.972287        0.144794      8.35716e-05     0.000749377
                    -0.000353626    -0.000836431         0.071332       0.0435508      3.68374e-05     0.000721196        -0.981257       -0.100728
                       -0.972091        0.144615      8.13651e-05     0.000736045        0.0178315        -0.15907      0.000254898    -0.000612789
                     7.64017e-05     0.000771406        -0.981031       -0.100498      0.000292869    -0.000707009       -0.0788859       0.0398571
281701.7              -0.0673052       -0.145822     -0.000407885    -0.000655045        -0.972281        0.144823      8.36113e-05     0.000749384
                    -0.000353661    -0.000836439        0.0713401       0.0435454      3.68643e-05     0.000721198         -0.98126       -0.100693
                       -0.972085        0.144644      8.13949e-05     0.000736038        0.0178249       -0.159077      0.000254845    -0.000612805
                     7.64423e-05     0.000771399        -0.981033       -0.100463      0.000292846    -0.000707029       -0.0788898       0.0398571
281701.8              -0.0673096       -0.145827     -0.000407914    -0.000655034        -0.972276        0.144852      8.36511e-05     0.000749391
                    -0.000353696    -0.000836448        0.0713483         0.04354      3.68913e-05       0.0007212        -0.981262       -0.100658
                        -0.97208        0.144673      8.14246e-05     0.000736032        0.0178182       -0.159084      0.000254793    -0.000612822
                     7.64829e-05     0.000771393        -0.981036       -0.100428      0.000292823    -0.000707049       -0.0788938       0.0398571
281701.9               -0.067314       -0.145832     -0.000407943    -0.000655022        -0.972271        0.144881      8.36909e-05     0.000749398
                    -0.000353731    -0.000836456        0.0713564       0.0435346      3.69182e-05     0.000721203        -0.981265       -0.100623
                       -0.972075        0.144702      8.14543e-05     0.000736026        0.0178116       -0.159091      0.000254741    -0.000612838
                     7.65234e-05     0.000771386        -0.981039       -0.100393        0.0002928    -0.000707069       -0.0788977        0.039857
281702                -0.0673184       -0.145837     -0.000407972    -0.000655011        -0.972266        0.144909      8.37307e-05     0.000749405
                    -0.000353766    -0.000836465        0.0713645       0.0435292      3.69452e-05     0.000721205        -0.981267       -0.100588
                       -0.972069        0.144731      8.14841e-05      0.00073602        0.0178049       -0.159098      0.000254689    -0.000612855
                      7.6564e-05      0.00077138        -0.981041       -0.100358      0.000292777    -0.000707089       -0.0789016        0.039857
281702.1              -0.0673228       -0.145841     -0.000408001       -0.000655         -0.97226        0.144938      8.37705e-05     0.000749412
                    -0.000353801    -0.000836473        0.0713727       0.0435238      3.69721e-05     0.000721207         -0.98127       -0.100553
                       -0.972064         0.14476      8.15138e-05     0.000736013        0.0177983       -0.159105      0.000254636    -0.000612871
                     7.66046e-05     0.000771373        -0.981044       -0.100323      0.000292754    -0.000707109       -0.0789056       0.0398569
281702.2              -0.0673272       -0.145846      -0.00040803    -0.000654989        -0.972255        0.144967      8.38102e-05     0.000749419
                    -0.000353836    -0.000836482        0.0713808       0.0435184       3.6999e-05      0.00072121        -0.981273       -0.100518
                       -0.972059        0.144788      8.15435e-05     0.000736007        0.0177916       -0.159112      0.000254584    -0.000612888
                     7.66451e-05     0.000771367        -0.981047       -0.100288      0.000292731    -0.000707129       -0.0789095       0.0398569
281702.3              -0.0673316       -0.145851     -0.000408058    -0.000654978         -0.97225        0.144996        8.385e-05     0.000749425
                    -0.000353871     -0.00083649        0.0713889        0.043513       3.7026e-05     0.000721212        -0.981275       -0.100483
                       -0.972053        0.144817      8.15733e-05     0.000736001         0.017785       -0.159119      0.000254532    -0.000612904
                     7.66857e-05      0.00077136        -0.981049       -0.100253      0.000292708     -0.00070715       -0.0789134       0.0398569
281702.4               -0.067336       -0.145856     -0.000408087    -0.000654967        -0.972244        0.145025      8.38898e-05     0.000749432
                    -0.000353906    -0.000836499        0.0713971       0.0435076      3.70529e-05     0.000721214        -0.981278       -0.100448
                       -0.972048        0.144846       8.1603e-05     0.000735994        0.0177783       -0.159126       0.00025448    -0.000612921
                     7.67263e-05     0.000771354        -0.981052       -0.100217      0.000292685     -0.00070717       -0.0789174       0.0398568
281702.5              -0.0673404        -0.14586     -0.000408116    -0.000654956        -0.972239        0.145054      8.39296e-05     0.000749439
                    -0.000353941    -0.000836507        0.0714052       0.0435022      3.70798e-05     0.000721216         -0.98128       -0.100413
                       -0.972043        0.144875      8.16327e-05     0.000735988        0.0177717       -0.159133      0.000254428    -0.000612937
                     7.67668e-05     0.000771347        -0.981055       -0.100182      0.000292662     -0.00070719       -0.0789213       0.0398568
281702.6              -0.0673448       -0.145865     -0.000408145    -0.000654945        -0.972234        0.145082      8.39694e-05     0.000749446
                    -0.000353976    -0.000836515        0.0714133       0.0434968      3.71067e-05     0.000721218        -0.981283       -0.100378
                       -0.972038        0.144904      8.16625e-05     0.000735982         0.017765        -0.15914      0.000254375    -0.000612954
                     7.68074e-05     0.000771341        -0.981057       -0.100147      0.000292639     -0.00070721       -0.0789253       0.0398568
281702.7              -0.0673492        -0.14587     -0.000408174    -0.000654934        -0.972229        0.145111      8.40091e-05     0.000749453
                    -0.000354011    -0.000836524        0.0714215       0.0434914      3.71337e-05     0.000721221        -0.981286       -0.100343
                       -0.972032        0.144933      8.16922e-05     0.000735975        0.0177584       -0.159147      0.000254323     -0.00061297
                      7.6848e-05     0.000771335         -0.98106       -0.100112      0.000292616     -0.00070723       -0.0789292       0.0398567
281702.8              -0.0673536       -0.145874     -0.000408203    -0.000654923        -0.972223         0.14514      8.40489e-05      0.00074946
                    -0.000354046    -0.000836532        0.0714296        0.043486      3.71606e-05     0.000721223        -0.981288       -0.100307
                       -0.972027        0.144961       8.1722e-05     0.000735969        0.0177517       -0.159154      0.000254271    -0.000612987
                     7.68885e-05     0.000771328        -0.981062       -0.100077      0.000292593     -0.00070725       -0.0789331       0.0398567
281702.9               -0.067358       -0.145879     -0.000408231    -0.000654912        -0.972218        0.145169      8.40887e-05     0.000749467
                    -0.000354081    -0.000836541        0.0714378       0.0434806      3.71875e-05     0.000721225        -0.981291       -0.100272
                       -0.972022         0.14499      8.17517e-05     0.000735963        0.0177451       -0.159161      0.000254219    -0.000613004
                     7.69291e-05     0.000771322        -0.981065       -0.100042       0.00029257     -0.00070727       -0.0789371       0.0398567
281703                -0.0673624       -0.145884      -0.00040826    -0.000654901        -0.972213        0.145198      8.41285e-05     0.000749474
                    -0.000354116    -0.000836549        0.0714459       0.0434752      3.72144e-05     0.000721227        -0.981293       -0.100237
                       -0.972016        0.145019      8.17814e-05     0.000735956        0.0177384       -0.159168      0.000254166     -0.00061302
                     7.69697e-05     0.000771315        -0.981068       -0.100007      0.000292547    -0.000707289        -0.078941       0.0398566
281703.1              -0.0673668       -0.145889     -0.000408289     -0.00065489        -0.972207        0.145226      8.41683e-05     0.000749481
                    -0.000354152    -0.000836558         0.071454       0.0434698      3.72414e-05     0.000721229        -0.981296       -0.100202
                       -0.972011        0.145048      8.18112e-05      0.00073595        0.0177318       -0.159175      0.000254114    -0.000613037
