! TOUCHSTONE file generated by CST MICROWAVE STUDIO
! Date and time: Wed Oct  8 07:05:18 2025
! Project name: Teste_Macro_Metasurface_Nanopilar.cst
! Parameters = {H=600; L_x=190; L_y=165; Lambda=1064; Max_L=200; Min_L=70; PathPara=1; Phi=0; Step_L=10; Theta=0; p=520; phaseX=180; phaseY=0}
! Header version: 2018
! Port assignment regex: !\s*Touchstone port\s*([0-9]+)\s*=\s*(CST MWS port|CST DS port)\s*([0-9]+|Zmin|Zmax)\s*\(\"(.*)\"\)(\s*mode\s*([0-9]+))?.*
! Touchstone port assignment:
! Touchstone port 1 = CST MWS port Zmax ("") mode 1
! Touchstone port 2 = CST MWS port Zmax ("") mode 2
! Touchstone port 3 = CST MWS port Zmin ("") mode 1
! Touchstone port 4 = CST MWS port Zmin ("") mode 2
! S-Parameters are not renormalized. Each port impedance will be approximated by the real part at minimum frequency. The values are described via the [Reference] keyword.
! Default impedance is overridden by [Reference]
[Version] 2.0
# GHz S RI R 376.73
[Number of Ports] 4
[Reference]
376.73 376.73 376.73 376.73 
[Number of Frequencies] 1001
[Network Data]
281700                 -0.213135       -0.327115      0.000165922     0.000414648         -0.78762       -0.379691     -0.000148009    -0.000139078
                     0.000188021     0.000294726        -0.077679       -0.164579     -0.000138463    -0.000188207        -0.958667        0.200289
                       -0.787439       -0.379767     -0.000174777     -0.00023929         0.377972       0.0519549       -0.0001415     0.000208297
                    -9.33901e-05    -7.70404e-05        -0.958623        0.200279     -0.000140656     0.000203759       0.00156302       -0.181442
281700.1               -0.213134       -0.327074      0.000165921     0.000414602        -0.787733       -0.379653     -0.000147987    -0.000139084
                     0.000234822     0.000271112       -0.0776841       -0.164583     -0.000166175    -0.000218184        -0.958659        0.200317
                       -0.787482       -0.379722     -0.000174751    -0.000239311         0.377943       0.0519071     -0.000141482     0.000208323
                    -5.32218e-05    -4.77974e-05        -0.958616        0.200307     -0.000200555      0.00029049       0.00155524       -0.181448
281700.2               -0.213132       -0.327034      0.000165919     0.000414555        -0.787856       -0.379655     -0.000147964     -0.00013909
                      0.00023869     0.000252331       -0.0776893       -0.164587     -0.000162913    -0.000223875        -0.958652        0.200346
                       -0.787523       -0.379678     -0.000174724    -0.000239332         0.377914       0.0518588     -0.000141464     0.000208349
                    -6.06282e-05     4.60866e-06        -0.958609        0.200335     -0.000200422     0.000307152       0.00154746       -0.181454
281700.3               -0.213131       -0.326993      0.000165918     0.000414509        -0.787947       -0.379704     -0.000147942    -0.000139097
                     0.000237567     0.000243722       -0.0776944       -0.164591     -0.000161364    -0.000225651        -0.958645        0.200374
                       -0.787564       -0.379635     -0.000174698    -0.000239353         0.377885         0.05181     -0.000141446     0.000208375
                    -9.12601e-05     2.17175e-05        -0.958602        0.200364     -0.000199597     0.000313691       0.00153967        -0.18146
281700.4                -0.21313       -0.326952      0.000165917     0.000414462        -0.787977       -0.379757      -0.00014792    -0.000139103
                     0.000236177     0.000239081       -0.0776995       -0.164596     -0.000160502    -0.000226498        -0.958638        0.200402
                       -0.787605       -0.379592     -0.000174671    -0.000239374         0.377856       0.0517609     -0.000141428     0.000208401
                    -0.000111043     2.06768e-05        -0.958595        0.200392     -0.000198957     0.000317164       0.00153189       -0.181466
281700.5               -0.213129       -0.326911      0.000165915     0.000414416         -0.78797       -0.379773     -0.000147897    -0.000139109
                     0.000235021     0.000236231       -0.0777047         -0.1646     -0.000159956    -0.000226993        -0.958631        0.200431
                       -0.787644        -0.37955     -0.000174645    -0.000239396         0.377827       0.0517115     -0.000141411     0.000208426
                    -0.000121996     1.63853e-05        -0.958588         0.20042     -0.000198474     0.000319317       0.00152411       -0.181472
281700.6               -0.213128       -0.326871      0.000165914     0.000414369        -0.787963       -0.379752     -0.000147875    -0.000139115
                     0.000234102     0.000234317       -0.0777098       -0.164604      -0.00015958    -0.000227317        -0.958624        0.200459
                       -0.787684       -0.379508     -0.000174619    -0.000239417         0.377798       0.0516618     -0.000141393     0.000208452
                    -0.000128378     1.22887e-05        -0.958581        0.200449     -0.000198097     0.000320783       0.00151633       -0.181478
281700.7               -0.213127        -0.32683      0.000165913     0.000414323        -0.787969        -0.37971     -0.000147852    -0.000139121
                     0.000233367     0.000232946        -0.077715       -0.164608     -0.000159304    -0.000227547        -0.958617        0.200487
                       -0.787723       -0.379468     -0.000174592    -0.000239438         0.377769        0.051612     -0.000141375     0.000208478
                    -0.000132374     8.90444e-06        -0.958574        0.200477     -0.000197791     0.000321847       0.00150855       -0.181485
281700.8               -0.213126        -0.32679      0.000165912     0.000414276        -0.787987       -0.379661      -0.00014783    -0.000139127
                      0.00023277     0.000231917       -0.0777201       -0.164612     -0.000159093    -0.000227719         -0.95861        0.200515
                       -0.787761       -0.379429     -0.000174566    -0.000239459          0.37774        0.051562     -0.000141357     0.000208503
                     -0.00013504     6.17592e-06        -0.958567        0.200505     -0.000197535     0.000322656       0.00150077       -0.181491
281700.9               -0.213125       -0.326749       0.00016591      0.00041423        -0.788014        -0.37961     -0.000147808    -0.000139134
                     0.000232277     0.000231116       -0.0777252       -0.164617     -0.000158926    -0.000227854        -0.958603        0.200544
                       -0.787799       -0.379391      -0.00017454     -0.00023948         0.377712       0.0515119     -0.000141339     0.000208529
                    -0.000136909     3.96625e-06         -0.95856        0.200534     -0.000197315     0.000323291       0.00149298       -0.181497
281701                 -0.213123       -0.326708      0.000165909     0.000414184        -0.788047       -0.379558     -0.000147785     -0.00013914
                     0.000231864     0.000230475       -0.0777304       -0.164621      -0.00015879    -0.000227962        -0.958596        0.200572
                       -0.787837       -0.379354     -0.000174513    -0.000239501         0.377683       0.0514617     -0.000141321     0.000208555
                    -0.000138274     2.15455e-06        -0.958553        0.200562     -0.000197121     0.000323804        0.0014852       -0.181503
281701.1               -0.213122       -0.326668      0.000165908     0.000414137        -0.788084       -0.379507     -0.000147763    -0.000139146
                     0.000231511      0.00022995       -0.0777355       -0.164625     -0.000158677    -0.000228052        -0.958589          0.2006
                       -0.787876       -0.379319     -0.000174487    -0.000239522         0.377654       0.0514113     -0.000141303      0.00020858
                    -0.000139304     6.48293e-07        -0.958545         0.20059     -0.000196948     0.000324228       0.00147742       -0.181509
281701.2               -0.213121       -0.326627      0.000165906     0.000414091        -0.788124       -0.379457     -0.000147741    -0.000139152
                     0.000231207     0.000229511       -0.0777406       -0.164629     -0.000158581    -0.000228127        -0.958582        0.200629
                       -0.787915       -0.379285     -0.000174461    -0.000239543         0.377626       0.0513609     -0.000141285     0.000208606
                    -0.000140101    -6.21054e-07        -0.958538        0.200619      -0.00019679     0.000324585       0.00146963       -0.181515
281701.3                -0.21312       -0.326587      0.000165905     0.000414044        -0.788167       -0.379408     -0.000147719    -0.000139158
                     0.000230942     0.000229139       -0.0777458       -0.164634     -0.000158499    -0.000228192        -0.958575        0.200657
                       -0.787954       -0.379253     -0.000174435    -0.000239564         0.377597       0.0513104     -0.000141267     0.000208631
                    -0.000140732    -1.70413e-06        -0.958531        0.200647     -0.000196644     0.000324889       0.00146185       -0.181521
281701.4               -0.213119       -0.326546      0.000165904     0.000413998         -0.78821        -0.37936     -0.000147696    -0.000139165
                     0.000230708     0.000228818       -0.0777509       -0.164638     -0.000158428    -0.000228249        -0.958568        0.200685
                       -0.787995       -0.379222     -0.000174408    -0.000239585         0.377569       0.0512599     -0.000141249     0.000208657
                    -0.000141239     -2.6387e-06        -0.958524        0.200675     -0.000196509     0.000325152       0.00145406       -0.181527
281701.5               -0.213118       -0.326505      0.000165903     0.000413952        -0.788255       -0.379312     -0.000147674    -0.000139171
                       0.0002305      0.00022854       -0.0777561       -0.164642     -0.000158365    -0.000228299        -0.958561        0.200714
                       -0.788037       -0.379192     -0.000174382    -0.000239606          0.37754       0.0512093     -0.000141231     0.000208682
                    -0.000141653    -3.45327e-06        -0.958517        0.200704     -0.000196381     0.000325382       0.00144628       -0.181533
281701.6               -0.213117       -0.326465      0.000165901     0.000413905        -0.788301       -0.379265     -0.000147652    -0.000139177
                     0.000230313     0.000228294       -0.0777612       -0.164646     -0.000158309    -0.000228344        -0.958554        0.200742
                       -0.788081       -0.379164     -0.000174356    -0.000239627         0.377512       0.0511586     -0.000141213     0.000208708
                    -0.000141996    -4.16968e-06         -0.95851        0.200732      -0.00019626     0.000325585       0.00143849       -0.181539
281701.7               -0.213115       -0.326424        0.0001659     0.000413859        -0.788347       -0.379218      -0.00014763    -0.000139183
                     0.000230145     0.000228077       -0.0777663        -0.16465     -0.000158259    -0.000228384        -0.958546         0.20077
                       -0.788126       -0.379136      -0.00017433    -0.000239648         0.377483        0.051108     -0.000141195     0.000208733
                    -0.000142282    -4.80488e-06        -0.958503         0.20076     -0.000196145     0.000325766       0.00143071       -0.181546
281701.8               -0.213114       -0.326384      0.000165899     0.000413813        -0.788394       -0.379172     -0.000147607    -0.000139189
                     0.000229991     0.000227882       -0.0777715       -0.164655     -0.000158213    -0.000228421        -0.958539        0.200799
                       -0.788173       -0.379108     -0.000174304    -0.000239669         0.377455       0.0510572     -0.000141177     0.000208759
                    -0.000142522    -5.37217e-06        -0.958496        0.200789     -0.000196034     0.000325928       0.00142292       -0.181552
281701.9               -0.213113       -0.326343      0.000165897     0.000413767        -0.788441       -0.379126     -0.000147585    -0.000139195
                     0.000229851     0.000227707       -0.0777766       -0.164659     -0.000158172    -0.000228454        -0.958532        0.200827
                       -0.788222        -0.37908     -0.000174277     -0.00023969         0.377427       0.0510065     -0.000141159     0.000208784
                    -0.000142726    -5.88217e-06        -0.958489        0.200817     -0.000195928     0.000326075       0.00141513       -0.181558
281702                 -0.213112       -0.326303      0.000165896      0.00041372        -0.788488       -0.379081     -0.000147563    -0.000139202
                     0.000229722     0.000227548       -0.0777818       -0.164663     -0.000158134    -0.000228486        -0.958525        0.200855
                       -0.788273       -0.379052     -0.000174251    -0.000239711         0.377398       0.0509557     -0.000141141      0.00020881
                    -0.000142901     -6.3434e-06        -0.958482        0.200845     -0.000195825     0.000326208       0.00140735       -0.181564
281702.1               -0.213111       -0.326262      0.000165895     0.000413674        -0.788535       -0.379035     -0.000147541    -0.000139208
                     0.000229603     0.000227403       -0.0777869       -0.164667       -0.0001581    -0.000228514        -0.958518        0.200884
                       -0.788326       -0.379023     -0.000174225    -0.000239732          0.37737       0.0509049     -0.000141123     0.000208835
                     -0.00014305    -6.76279e-06        -0.958475        0.200874     -0.000195725      0.00032633       0.00139956        -0.18157
281702.2                -0.21311       -0.326222      0.000165893     0.000413628        -0.788583        -0.37899     -0.000147519    -0.000139214
                     0.000229493      0.00022727        -0.077792       -0.164671     -0.000158067    -0.000228541        -0.958511        0.200912
                        -0.78838       -0.378993     -0.000174199    -0.000239753         0.377342       0.0508541     -0.000141105      0.00020886
                    -0.000143178    -7.14604e-06        -0.958468        0.200902     -0.000195628     0.000326441       0.00139177       -0.181576
281702.3               -0.213109       -0.326181      0.000165892     0.000413582        -0.788631       -0.378946     -0.000147497     -0.00013922
                      0.00022939     0.000227148       -0.0777972       -0.164676     -0.000158038    -0.000228567        -0.958504         0.20094
                       -0.788435       -0.378962     -0.000174173    -0.000239774         0.377313       0.0508033     -0.000141087     0.000208886
                    -0.000143289    -7.49786e-06        -0.958461         0.20093     -0.000195532     0.000326545       0.00138398       -0.181582
281702.4               -0.213107       -0.326141      0.000165891     0.000413535        -0.788679       -0.378901     -0.000147474    -0.000139226
                     0.000229293     0.000227034       -0.0778023        -0.16468      -0.00015801    -0.000228591        -0.958497        0.200968
                       -0.788491        -0.37893     -0.000174147    -0.000239795         0.377285       0.0507524     -0.000141069     0.000208911
                    -0.000143384    -7.82219e-06        -0.958453        0.200959     -0.000195439      0.00032664       0.00137619       -0.181588
281702.5               -0.213106         -0.3261      0.000165889     0.000413489        -0.788727       -0.378857     -0.000147452    -0.000139233
                     0.000229203     0.000226929       -0.0778075       -0.164684     -0.000157983    -0.000228613         -0.95849        0.200997
                       -0.788547       -0.378897     -0.000174121    -0.000239816         0.377257       0.0507016     -0.000141051     0.000208936
                    -0.000143467    -8.12233e-06        -0.958446        0.200987     -0.000195348     0.000326729        0.0013684       -0.181594
281702.6               -0.213105        -0.32606      0.000165888     0.000413443        -0.788775       -0.378813      -0.00014743    -0.000139239
                     0.000229117     0.000226831       -0.0778126       -0.164688     -0.000157959    -0.000228635        -0.958483        0.201025
                       -0.788604       -0.378862     -0.000174095    -0.000239837         0.377228       0.0506507     -0.000141032     0.000208962
                    -0.000143539    -8.40107e-06        -0.958439        0.201015     -0.000195258     0.000326812       0.00136062         -0.1816
281702.7               -0.213104        -0.32602      0.000165887     0.000413397        -0.788824       -0.378768     -0.000147408    -0.000139245
                     0.000229036     0.000226739       -0.0778178       -0.164692     -0.000157935    -0.000228656        -0.958476        0.201053
                       -0.788662       -0.378827     -0.000174069    -0.000239858           0.3772       0.0505999     -0.000141014     0.000208987
                    -0.000143601    -8.66082e-06        -0.958432        0.201044      -0.00019517      0.00032689       0.00135283       -0.181607
281702.8               -0.213103       -0.325979      0.000165885     0.000413351        -0.788872       -0.378724     -0.000147386    -0.000139251
                      0.00022896     0.000226653       -0.0778229       -0.164697     -0.000157913    -0.000228675        -0.958469        0.201082
                       -0.788719        -0.37879     -0.000174043    -0.000239879         0.377172        0.050549     -0.000140996     0.000209012
                    -0.000143654    -8.90362e-06        -0.958425        0.201072     -0.000195083     0.000326963       0.00134504       -0.181613
281702.9               -0.213102       -0.325939      0.000165884     0.000413305         -0.78892        -0.37868     -0.000147364    -0.000139258
                     0.000228887     0.000226572        -0.077828       -0.164701     -0.000157892    -0.000228694        -0.958462         0.20111
                       -0.788776       -0.378752     -0.000174017      -0.0002399         0.377144       0.0504981     -0.000140978     0.000209037
                      -0.0001437    -9.13122e-06        -0.958418          0.2011     -0.000194997     0.000327032       0.00133725       -0.181619
281703                   -0.2131       -0.325898      0.000165883     0.000413259        -0.788969       -0.378637     -0.000147342    -0.000139264
                     0.000228818     0.000226495       -0.0778332       -0.164705     -0.000157872    -0.000228712        -0.958454        0.201138
                       -0.788833       -0.378713     -0.000173991    -0.000239921         0.377115       0.0504472      -0.00014096     0.000209063
                    -0.000143739    -9.34517e-06        -0.958411        0.201129     -0.000194912     0.000327097       0.00132945       -0.181625
281703.1               -0.213099       -0.325858      0.000165881     0.000413213        -0.789017       -0.378593      -0.00014732     -0.00013927
                     0.000228752     0.000226423       -0.0778383       -0.164709     -0.000157853     -0.00022873        -0.958447        0.201167
                        -0.78889       -0.378673     -0.000173965    -0.000239942         0.377087       0.0503963     -0.000140941     0.000209088
