! TOUCHSTONE file generated by CST MICROWAVE STUDIO
! Date and time: Wed Oct  8 07:00:22 2025
! Project name: Teste_Macro_Metasurface_Nanopilar.cst
! Parameters = {H=600; L_x=150; L_y=130; Lambda=1064; Max_L=200; Min_L=70; PathPara=1; Phi=0; Step_L=10; Theta=0; p=520; phaseX=180; phaseY=0}
! Header version: 2018
! Port assignment regex: !\s*Touchstone port\s*([0-9]+)\s*=\s*(CST MWS port|CST DS port)\s*([0-9]+|Zmin|Zmax)\s*\(\"(.*)\"\)(\s*mode\s*([0-9]+))?.*
! Touchstone port assignment:
! Touchstone port 1 = CST MWS port Zmax ("") mode 1
! Touchstone port 2 = CST MWS port Zmax ("") mode 2
! Touchstone port 3 = CST MWS port Zmin ("") mode 1
! Touchstone port 4 = CST MWS port Zmin ("") mode 2
! S-Parameters are not renormalized. Each port impedance will be approximated by the real part at minimum frequency. The values are described via the [Reference] keyword.
! Default impedance is overridden by [Reference]
[Version] 2.0
# GHz S RI R 376.73
[Number of Ports] 4
[Reference]
376.73 376.73 376.73 376.73 
[Number of Frequencies] 1001
[Network Data]
281700                 -0.218536      0.00727626     -0.000619206    -9.38623e-05        -0.356599       -0.903052     -8.62489e-05     0.000521818
                    -0.000680211     -6.6177e-05       -0.0895691       -0.135504     -0.000566877     0.000192158        -0.833861       -0.513598
                       -0.356535       -0.902976     -0.000524748     0.000145863        -0.165421        0.143083      0.000241273     0.000522715
                    -7.95576e-05     0.000549499        -0.834145       -0.513447      0.000161398     0.000615406         0.154608       0.0118217
281700.1               -0.218533      0.00728293     -0.000619223    -9.38581e-05        -0.356627       -0.903042     -8.62167e-05     0.000521818
                    -0.000680223    -6.61666e-05       -0.0895672       -0.135511     -0.000566878     0.000192167        -0.833879       -0.513567
                       -0.356562       -0.902966     -0.000524755     0.000145865        -0.165414        0.143085      0.000241299     0.000522713
                     -7.9527e-05     0.000549498        -0.834163       -0.513416      0.000161432     0.000615409         0.154614        0.011805
281700.2               -0.218529      0.00728959      -0.00061924    -9.38539e-05        -0.356654       -0.903032     -8.61845e-05     0.000521819
                    -0.000680234    -6.61563e-05       -0.0895652       -0.135518      -0.00056688     0.000192177        -0.833897       -0.513536
                        -0.35659       -0.902956     -0.000524761     0.000145866        -0.165407        0.143088      0.000241325      0.00052271
                    -7.94965e-05     0.000549497         -0.83418       -0.513385      0.000161465     0.000615411          0.15462       0.0117883
281700.3               -0.218525      0.00729625     -0.000619257    -9.38497e-05        -0.356682       -0.903022     -8.61523e-05     0.000521819
                    -0.000680246    -6.61459e-05       -0.0895633       -0.135524     -0.000566881     0.000192186        -0.833915       -0.513505
                       -0.356618       -0.902946     -0.000524768     0.000145868        -0.165401         0.14309      0.000241352     0.000522708
                    -7.94659e-05     0.000549496        -0.834198       -0.513354      0.000161499     0.000615413         0.154626       0.0117716
281700.4               -0.218521      0.00730291     -0.000619273    -9.38455e-05         -0.35671       -0.903012     -8.61201e-05     0.000521819
                    -0.000680258    -6.61355e-05       -0.0895613       -0.135531     -0.000566883     0.000192195        -0.833933       -0.513474
                       -0.356645       -0.902936     -0.000524775      0.00014587        -0.165394        0.143093      0.000241378     0.000522706
                    -7.94354e-05     0.000549495        -0.834216       -0.513323      0.000161533     0.000615415         0.154632       0.0117549
281700.5               -0.218517      0.00730957      -0.00061929    -9.38413e-05        -0.356737       -0.903002     -8.60879e-05      0.00052182
                     -0.00068027    -6.61252e-05       -0.0895593       -0.135538     -0.000566884     0.000192204         -0.83395       -0.513443
                       -0.356673       -0.902926     -0.000524782     0.000145872        -0.165387        0.143095      0.000241404     0.000522703
                    -7.94048e-05     0.000549494        -0.834234       -0.513292      0.000161566     0.000615417         0.154638       0.0117382
281700.6               -0.218513      0.00731624     -0.000619307    -9.38371e-05        -0.356765       -0.902992     -8.60558e-05      0.00052182
                    -0.000680282    -6.61148e-05       -0.0895574       -0.135545     -0.000566886     0.000192214        -0.833968       -0.513412
                       -0.356701       -0.902915     -0.000524788     0.000145874         -0.16538        0.143098       0.00024143     0.000522701
                    -7.93743e-05     0.000549493        -0.834252       -0.513261        0.0001616     0.000615419         0.154644       0.0117215
281700.7                -0.21851       0.0073229     -0.000619324     -9.3833e-05        -0.356792       -0.902982     -8.60236e-05      0.00052182
                    -0.000680294    -6.61045e-05       -0.0895554       -0.135552     -0.000566887     0.000192223        -0.833986       -0.513381
                       -0.356728       -0.902905     -0.000524795     0.000145875        -0.165373          0.1431      0.000241456     0.000522699
                    -7.93437e-05     0.000549492         -0.83427        -0.51323      0.000161633     0.000615421          0.15465       0.0117048
281700.8               -0.218506      0.00732956     -0.000619341    -9.38288e-05         -0.35682       -0.902972     -8.59914e-05     0.000521821
                    -0.000680306    -6.60941e-05       -0.0895535       -0.135559     -0.000566889     0.000192232        -0.834004        -0.51335
                       -0.356756       -0.902895     -0.000524802     0.000145877        -0.165366        0.143102      0.000241482     0.000522696
                    -7.93131e-05     0.000549491        -0.834288       -0.513199      0.000161667     0.000615423         0.154656       0.0116881
281700.9               -0.218502      0.00733622     -0.000619358    -9.38245e-05        -0.356848       -0.902962     -8.59592e-05     0.000521821
                    -0.000680318    -6.60837e-05       -0.0895515       -0.135566     -0.000566891     0.000192241        -0.834022       -0.513319
                       -0.356783       -0.902885     -0.000524808     0.000145879        -0.165359        0.143105      0.000241508     0.000522694
                    -7.92826e-05      0.00054949        -0.834306       -0.513168        0.0001617     0.000615425         0.154662       0.0116714
281701                 -0.218498      0.00734288     -0.000619375    -9.38203e-05        -0.356875       -0.902952      -8.5927e-05     0.000521821
                     -0.00068033    -6.60734e-05       -0.0895496       -0.135572     -0.000566892     0.000192251         -0.83404       -0.513288
                       -0.356811       -0.902875     -0.000524815     0.000145881        -0.165352        0.143107      0.000241534     0.000522692
                     -7.9252e-05     0.000549489        -0.834324       -0.513137      0.000161734     0.000615427         0.154668       0.0116547
281701.1               -0.218494      0.00734954     -0.000619392    -9.38161e-05        -0.356903       -0.902941     -8.58948e-05     0.000521822
                    -0.000680342     -6.6063e-05       -0.0895476       -0.135579     -0.000566894      0.00019226        -0.834058       -0.513257
                       -0.356839       -0.902865     -0.000524822     0.000145883        -0.165345         0.14311       0.00024156     0.000522689
                    -7.92215e-05     0.000549488        -0.834342       -0.513106      0.000161768     0.000615429         0.154674        0.011638
281701.2                -0.21849       0.0073562     -0.000619408    -9.38119e-05        -0.356931       -0.902931     -8.58626e-05     0.000521822
                    -0.000680354    -6.60527e-05       -0.0895456       -0.135586     -0.000566895     0.000192269        -0.834076       -0.513226
                       -0.356866       -0.902855     -0.000524829     0.000145884        -0.165338        0.143112      0.000241586     0.000522687
                    -7.91909e-05     0.000549487         -0.83436       -0.513075      0.000161801     0.000615432          0.15468       0.0116213
281701.3               -0.218487      0.00736286     -0.000619425    -9.38077e-05        -0.356958       -0.902921     -8.58304e-05     0.000521822
                    -0.000680365    -6.60423e-05       -0.0895437       -0.135593     -0.000566897     0.000192279        -0.834094       -0.513195
                       -0.356894       -0.902845     -0.000524835     0.000145886        -0.165331        0.143115      0.000241612     0.000522684
                    -7.91604e-05     0.000549486        -0.834378       -0.513044      0.000161835     0.000615434         0.154686       0.0116046
281701.4               -0.218483      0.00736952     -0.000619442    -9.38035e-05        -0.356986       -0.902911     -8.57982e-05     0.000521823
                    -0.000680377    -6.60319e-05       -0.0895417         -0.1356     -0.000566898     0.000192288        -0.834112       -0.513164
                       -0.356922       -0.902835     -0.000524842     0.000145888        -0.165324        0.143117      0.000241638     0.000522682
                    -7.91298e-05     0.000549485        -0.834396       -0.513013      0.000161868     0.000615436         0.154692       0.0115879
281701.5               -0.218479      0.00737618     -0.000619459    -9.37993e-05        -0.357013       -0.902901      -8.5766e-05     0.000521823
                    -0.000680389    -6.60216e-05       -0.0895398       -0.135607       -0.0005669     0.000192297         -0.83413       -0.513133
                       -0.356949       -0.902825     -0.000524849      0.00014589        -0.165318        0.143119      0.000241664      0.00052268
                    -7.90992e-05     0.000549484        -0.834414       -0.512982      0.000161902     0.000615438         0.154698       0.0115712
281701.6               -0.218475      0.00738284     -0.000619476    -9.37951e-05        -0.357041       -0.902891     -8.57338e-05     0.000521823
                    -0.000680401    -6.60112e-05       -0.0895378       -0.135613     -0.000566901     0.000192306        -0.834148       -0.513102
                       -0.356977       -0.902815     -0.000524856     0.000145891        -0.165311        0.143122       0.00024169     0.000522677
                    -7.90687e-05     0.000549483        -0.834432       -0.512951      0.000161935      0.00061544         0.154704       0.0115545
281701.7               -0.218471       0.0073895     -0.000619493    -9.37909e-05        -0.357069       -0.902881     -8.57016e-05     0.000521824
                    -0.000680413    -6.60008e-05       -0.0895359        -0.13562     -0.000566903     0.000192316        -0.834165       -0.513071
                       -0.357004       -0.902805     -0.000524862     0.000145893        -0.165304        0.143124      0.000241716     0.000522675
                    -7.90381e-05     0.000549482         -0.83445        -0.51292      0.000161969     0.000615442          0.15471       0.0115378
281701.8               -0.218467      0.00739615      -0.00061951    -9.37866e-05        -0.357096       -0.902871     -8.56694e-05     0.000521824
                    -0.000680425    -6.59905e-05       -0.0895339       -0.135627     -0.000566904     0.000192325        -0.834183        -0.51304
                       -0.357032       -0.902795     -0.000524869     0.000145895        -0.165297        0.143127      0.000241742     0.000522673
                    -7.90076e-05     0.000549481        -0.834467       -0.512888      0.000162003     0.000615444         0.154716       0.0115211
281701.9               -0.218464      0.00740281     -0.000619527    -9.37824e-05        -0.357124       -0.902861     -8.56371e-05     0.000521824
                    -0.000680437    -6.59801e-05        -0.089532       -0.135634     -0.000566906     0.000192334        -0.834201       -0.513009
                        -0.35706       -0.902785     -0.000524876     0.000145897         -0.16529        0.143129      0.000241768      0.00052267
                     -7.8977e-05      0.00054948        -0.834485       -0.512857      0.000162036     0.000615446         0.154722       0.0115044
281702                  -0.21846      0.00740947     -0.000619543    -9.37782e-05        -0.357151       -0.902851     -8.56049e-05     0.000521824
                    -0.000680449    -6.59697e-05         -0.08953       -0.135641     -0.000566907     0.000192343        -0.834219       -0.512978
                       -0.357087       -0.902775     -0.000524883     0.000145899        -0.165283        0.143132      0.000241795     0.000522668
                    -7.89464e-05     0.000549479        -0.834503       -0.512826       0.00016207     0.000615448         0.154728       0.0114876
281702.1               -0.218456      0.00741613      -0.00061956     -9.3774e-05        -0.357179       -0.902841     -8.55727e-05     0.000521825
                    -0.000680461    -6.59594e-05       -0.0895281       -0.135648     -0.000566909     0.000192353        -0.834237       -0.512947
                       -0.357115       -0.902765     -0.000524889       0.0001459        -0.165276        0.143134      0.000241821     0.000522666
                    -7.89159e-05     0.000549478        -0.834521       -0.512795      0.000162103      0.00061545         0.154734       0.0114709
281702.2               -0.218452      0.00742279     -0.000619577    -9.37697e-05        -0.357207       -0.902831     -8.55405e-05     0.000521825
                    -0.000680473     -6.5949e-05       -0.0895261       -0.135654      -0.00056691     0.000192362        -0.834255       -0.512916
                       -0.357142       -0.902755     -0.000524896     0.000145902        -0.165269        0.143136      0.000241847     0.000522663
                    -7.88853e-05     0.000549477        -0.834539       -0.512764      0.000162137     0.000615452          0.15474       0.0114542
281702.3               -0.218448      0.00742944     -0.000619594    -9.37655e-05        -0.357234       -0.902821     -8.55083e-05     0.000521825
                    -0.000680485    -6.59386e-05       -0.0895242       -0.135661     -0.000566912     0.000192371        -0.834273       -0.512885
                        -0.35717       -0.902745     -0.000524903     0.000145904        -0.165262        0.143139      0.000241873     0.000522661
                    -7.88547e-05     0.000549476        -0.834557       -0.512733      0.000162171     0.000615454         0.154746       0.0114375
281702.4               -0.218444       0.0074361     -0.000619611    -9.37613e-05        -0.357262       -0.902811     -8.54761e-05     0.000521826
                    -0.000680497    -6.59283e-05       -0.0895222       -0.135668     -0.000566913      0.00019238        -0.834291       -0.512854
                       -0.357198       -0.902735      -0.00052491     0.000145906        -0.165255        0.143141      0.000241899     0.000522659
                    -7.88242e-05     0.000549475        -0.834575       -0.512702      0.000162204     0.000615456         0.154752       0.0114208
281702.5                -0.21844      0.00744276     -0.000619628     -9.3757e-05        -0.357289       -0.902801     -8.54439e-05     0.000521826
                    -0.000680508    -6.59179e-05       -0.0895203       -0.135675     -0.000566915      0.00019239        -0.834309       -0.512823
                       -0.357225       -0.902725     -0.000524916     0.000145908        -0.165248        0.143144      0.000241925     0.000522656
                    -7.87936e-05     0.000549474        -0.834593       -0.512671      0.000162238     0.000615458         0.154758       0.0114041
281702.6               -0.218437      0.00744941     -0.000619645    -9.37528e-05        -0.357317       -0.902791     -8.54116e-05     0.000521826
                     -0.00068052    -6.59075e-05       -0.0895183       -0.135682     -0.000566916     0.000192399        -0.834327       -0.512792
                       -0.357253       -0.902715     -0.000524923     0.000145909        -0.165241        0.143146      0.000241951     0.000522654
                    -7.87631e-05     0.000549473        -0.834611        -0.51264      0.000162271      0.00061546         0.154764       0.0113874
281702.7               -0.218433      0.00745607     -0.000619662    -9.37486e-05        -0.357345       -0.902781     -8.53794e-05     0.000521826
                    -0.000680532    -6.58972e-05       -0.0895164       -0.135689     -0.000566918     0.000192408        -0.834344       -0.512761
                        -0.35728       -0.902705      -0.00052493     0.000145911        -0.165235        0.143149      0.000241977     0.000522651
                    -7.87325e-05     0.000549472        -0.834629       -0.512609      0.000162305     0.000615462          0.15477       0.0113706
281702.8               -0.218429      0.00746273     -0.000619679    -9.37443e-05        -0.357372       -0.902771     -8.53472e-05     0.000521827
                    -0.000680544    -6.58868e-05       -0.0895144       -0.135696     -0.000566919     0.000192417        -0.834362        -0.51273
                       -0.357308       -0.902695     -0.000524937     0.000145913        -0.165228        0.143151      0.000242003     0.000522649
                    -7.87019e-05     0.000549471        -0.834647       -0.512578      0.000162338     0.000615464         0.154776       0.0113539
281702.9               -0.218425      0.00746938     -0.000619696    -9.37401e-05          -0.3574       -0.902761      -8.5315e-05     0.000521827
                    -0.000680556    -6.58764e-05       -0.0895125       -0.135702     -0.000566921     0.000192427         -0.83438       -0.512699
                       -0.357336       -0.902685     -0.000524943     0.000145915        -0.165221        0.143154      0.000242029     0.000522647
                    -7.86714e-05      0.00054947        -0.834665       -0.512547      0.000162372     0.000615466         0.154782       0.0113372
281703                 -0.218421      0.00747604     -0.000619712    -9.37358e-05        -0.357427       -0.902751     -8.52827e-05     0.000521827
                    -0.000680568    -6.58661e-05       -0.0895105       -0.135709     -0.000566922     0.000192436        -0.834398       -0.512668
                       -0.357363       -0.902675      -0.00052495     0.000145917        -0.165214        0.143156      0.000242055     0.000522644
                    -7.86408e-05     0.000549469        -0.834682       -0.512516      0.000162406     0.000615468         0.154788       0.0113205
281703.1               -0.218417      0.00748269     -0.000619729    -9.37316e-05        -0.357455       -0.902741     -8.52505e-05     0.000521828
                     -0.00068058    -6.58557e-05       -0.0895086       -0.135716     -0.000566924     0.000192445        -0.834416       -0.512637
                       -0.357391       -0.902665     -0.000524957     0.000145918        -0.165207        0.143158      0.000242081     0.000522642
