! TOUCHSTONE file generated by CST MICROWAVE STUDIO
! Date and time: Wed Oct  8 06:52:55 2025
! Project name: Teste_Macro_Metasurface_Nanopilar.cst
! Parameters = {H=600; L_x=85; L_y=195; Lambda=1064; Max_L=200; Min_L=70; PathPara=1; Phi=0; Step_L=10; Theta=0; p=520; phaseX=180; phaseY=0}
! Header version: 2018
! Port assignment regex: !\s*Touchstone port\s*([0-9]+)\s*=\s*(CST MWS port|CST DS port)\s*([0-9]+|Zmin|Zmax)\s*\(\"(.*)\"\)(\s*mode\s*([0-9]+))?.*
! Touchstone port assignment:
! Touchstone port 1 = CST MWS port Zmax ("") mode 1
! Touchstone port 2 = CST MWS port Zmax ("") mode 2
! Touchstone port 3 = CST MWS port Zmin ("") mode 1
! Touchstone port 4 = CST MWS port Zmin ("") mode 2
! S-Parameters are not renormalized. Each port impedance will be approximated by the real part at minimum frequency. The values are described via the [Reference] keyword.
! Default impedance is overridden by [Reference]
[Version] 2.0
# GHz S RI R 376.73
[Number of Ports] 4
[Reference]
376.73 376.73 376.73 376.73 
[Number of Frequencies] 1001
[Network Data]
281700                 -0.377056       -0.512787      5.18676e-05    -0.000222563        -0.753575       0.0455667      0.000150909    -0.000130494
                     6.55655e-05    -0.000192765       -0.0997168       -0.171321     -0.000184208      0.00021183        -0.347963        0.914272
                       -0.753615       0.0455485     -8.20416e-05     0.000294241         0.285344       -0.563425     -0.000269883     0.000146774
                      0.00018931    -0.000282517         -0.34751        0.913934     -0.000394223     0.000239819        -0.188401        0.062057
281700.1               -0.377077       -0.512788      5.18477e-05    -0.000222569        -0.753561       0.0456001      0.000150911    -0.000130497
                     6.55509e-05    -0.000192776       -0.0997226       -0.171317     -0.000184196     0.000211852        -0.347937        0.914282
                       -0.753601        0.045582     -8.20112e-05     0.000294243         0.285314       -0.563456     -0.000269886     0.000146775
                     0.000189299    -0.000282523        -0.347484        0.913944     -0.000394219     0.000239829        -0.188399       0.0620604
281700.2               -0.377099       -0.512789      5.18278e-05    -0.000222574        -0.753547       0.0456336      0.000150913      -0.0001305
                     6.55364e-05    -0.000192788       -0.0997284       -0.171312     -0.000184183     0.000211873        -0.347911        0.914292
                       -0.753587       0.0456154     -8.19807e-05     0.000294246         0.285283       -0.563487     -0.000269889     0.000146777
                     0.000189288    -0.000282528        -0.347459        0.913954     -0.000394215     0.000239838        -0.188397       0.0620638
281700.3                -0.37712        -0.51279      5.18078e-05     -0.00022258        -0.753533        0.045667      0.000150915    -0.000130503
                     6.55219e-05    -0.000192799       -0.0997342       -0.171308     -0.000184171     0.000211894        -0.347885        0.914302
                       -0.753573       0.0456489     -8.19503e-05     0.000294248         0.285253       -0.563518     -0.000269892     0.000146778
                     0.000189277    -0.000282534        -0.347433        0.913964     -0.000394211     0.000239847        -0.188395       0.0620672
281700.4               -0.377142       -0.512792      5.17879e-05    -0.000222586        -0.753519       0.0457004      0.000150917    -0.000130506
                     6.55073e-05    -0.000192811         -0.09974       -0.171303     -0.000184159     0.000211916         -0.34786        0.914312
                       -0.753559       0.0456823     -8.19198e-05     0.000294251         0.285222        -0.56355     -0.000269895     0.000146779
                     0.000189265     -0.00028254        -0.347407        0.913974     -0.000394207     0.000239856        -0.188392       0.0620706
281700.5               -0.377163       -0.512793       5.1768e-05    -0.000222591        -0.753505       0.0457339      0.000150919    -0.000130509
                     6.54928e-05    -0.000192822       -0.0997458       -0.171298     -0.000184146     0.000211937        -0.347834        0.914322
                       -0.753545       0.0457157     -8.18894e-05     0.000294253         0.285191       -0.563581     -0.000269898     0.000146781
                     0.000189254    -0.000282545        -0.347381        0.913984     -0.000394203     0.000239865         -0.18839        0.062074
281700.6               -0.377185       -0.512794       5.1748e-05    -0.000222597        -0.753491       0.0457673      0.000150921    -0.000130512
                     6.54782e-05    -0.000192834       -0.0997516       -0.171294     -0.000184134     0.000211959        -0.347808        0.914332
                       -0.753531       0.0457492      -8.1859e-05     0.000294255         0.285161       -0.563612     -0.000269901     0.000146782
                     0.000189243    -0.000282551        -0.347355        0.913994     -0.000394199     0.000239874        -0.188388       0.0620774
281700.7               -0.377206       -0.512796      5.17281e-05    -0.000222603        -0.753477       0.0458008      0.000150924    -0.000130515
                     6.54637e-05    -0.000192845       -0.0997573       -0.171289     -0.000184122      0.00021198        -0.347782        0.914342
                       -0.753517       0.0457826     -8.18285e-05     0.000294258          0.28513       -0.563643     -0.000269904     0.000146784
                     0.000189232    -0.000282557         -0.34733        0.914004     -0.000394194     0.000239883        -0.188386       0.0620808
281700.8               -0.377228       -0.512797      5.17082e-05    -0.000222608        -0.753463       0.0458342      0.000150926    -0.000130519
                     6.54491e-05    -0.000192857       -0.0997631       -0.171285     -0.000184109     0.000212002        -0.347756        0.914352
                       -0.753503       0.0458161     -8.17981e-05      0.00029426           0.2851       -0.563674     -0.000269907     0.000146785
                     0.000189221    -0.000282562        -0.347304        0.914014      -0.00039419     0.000239892        -0.188384       0.0620842
281700.9               -0.377249       -0.512798      5.16882e-05    -0.000222614        -0.753449       0.0458676      0.000150928    -0.000130522
                     6.54346e-05    -0.000192868       -0.0997689        -0.17128     -0.000184097     0.000212023         -0.34773        0.914362
                       -0.753489       0.0458495     -8.17676e-05     0.000294263         0.285069       -0.563705      -0.00026991     0.000146787
                     0.000189209    -0.000282568        -0.347278        0.914024     -0.000394186     0.000239901        -0.188381       0.0620876
281701                 -0.377271         -0.5128      5.16683e-05    -0.000222619        -0.753435       0.0459011       0.00015093    -0.000130525
                       6.542e-05     -0.00019288       -0.0997747       -0.171276     -0.000184085     0.000212044        -0.347705        0.914372
                       -0.753475        0.045883     -8.17372e-05     0.000294265         0.285039       -0.563736     -0.000269913     0.000146788
                     0.000189198    -0.000282574        -0.347252        0.914034     -0.000394182      0.00023991        -0.188379        0.062091
281701.1               -0.377292       -0.512801      5.16483e-05    -0.000222625        -0.753421       0.0459345      0.000150932    -0.000130528
                     6.54055e-05    -0.000192891       -0.0997805       -0.171271     -0.000184072     0.000212066        -0.347679        0.914382
                       -0.753461       0.0459164     -8.17067e-05     0.000294267         0.285008       -0.563767     -0.000269916      0.00014679
                     0.000189187    -0.000282579        -0.347226        0.914044     -0.000394178     0.000239919        -0.188377       0.0620944
281701.2               -0.377314       -0.512802      5.16284e-05    -0.000222631        -0.753407       0.0459679      0.000150934    -0.000130531
                     6.53909e-05    -0.000192903       -0.0997863       -0.171267      -0.00018406     0.000212087        -0.347653        0.914392
                       -0.753447       0.0459498     -8.16763e-05      0.00029427         0.284977       -0.563799     -0.000269919     0.000146791
                     0.000189176    -0.000282585        -0.347201        0.914054     -0.000394174     0.000239928        -0.188375       0.0620978
281701.3               -0.377335       -0.512804      5.16085e-05    -0.000222636        -0.753393       0.0460013      0.000150936    -0.000130534
                     6.53764e-05    -0.000192914        -0.099792       -0.171262     -0.000184048     0.000212109        -0.347627        0.914402
                       -0.753433       0.0459833     -8.16458e-05     0.000294272         0.284947        -0.56383     -0.000269922     0.000146793
                     0.000189164     -0.00028259        -0.347175        0.914064      -0.00039417     0.000239937        -0.188373       0.0621012
281701.4               -0.377357       -0.512805      5.15885e-05    -0.000222642        -0.753379       0.0460348      0.000150939    -0.000130537
                     6.53618e-05    -0.000192926       -0.0997978       -0.171258     -0.000184035      0.00021213        -0.347601        0.914412
                       -0.753419       0.0460167     -8.16154e-05     0.000294275         0.284916       -0.563861     -0.000269925     0.000146794
                     0.000189153    -0.000282596        -0.347149        0.914074     -0.000394166     0.000239946         -0.18837       0.0621046
281701.5               -0.377378       -0.512806      5.15686e-05    -0.000222648        -0.753365       0.0460682      0.000150941    -0.000130541
                     6.53473e-05    -0.000192937       -0.0998036       -0.171253     -0.000184023     0.000212152        -0.347576        0.914422
                       -0.753405       0.0460501     -8.15849e-05     0.000294277         0.284886       -0.563892     -0.000269928     0.000146796
                     0.000189142    -0.000282602        -0.347123        0.914084     -0.000394162     0.000239956        -0.188368        0.062108
281701.6                 -0.3774       -0.512807      5.15486e-05    -0.000222653        -0.753351       0.0461016      0.000150943    -0.000130544
                     6.53327e-05    -0.000192949       -0.0998094       -0.171248     -0.000184011     0.000212173         -0.34755        0.914432
                       -0.753391       0.0460836     -8.15545e-05     0.000294279         0.284855       -0.563923     -0.000269931     0.000146797
                     0.000189131    -0.000282607        -0.347097        0.914094     -0.000394158     0.000239965        -0.188366       0.0621114
281701.7               -0.377421       -0.512809      5.15287e-05    -0.000222659        -0.753337       0.0461351      0.000150945    -0.000130547
                     6.53182e-05     -0.00019296       -0.0998152       -0.171244     -0.000183998     0.000212194        -0.347524        0.914442
                       -0.753377        0.046117      -8.1524e-05     0.000294282         0.284824       -0.563954     -0.000269934     0.000146798
                      0.00018912    -0.000282613        -0.347072        0.914104     -0.000394154     0.000239974        -0.188364       0.0621148
281701.8               -0.377443        -0.51281      5.15088e-05    -0.000222664        -0.753323       0.0461685      0.000150947     -0.00013055
                     6.53036e-05    -0.000192972       -0.0998209       -0.171239     -0.000183986     0.000212216        -0.347498        0.914452
                       -0.753363       0.0461504     -8.14936e-05     0.000294284         0.284794       -0.563985     -0.000269937       0.0001468
                     0.000189108    -0.000282619        -0.347046        0.914114      -0.00039415     0.000239983        -0.188362       0.0621182
281701.9               -0.377465       -0.512811      5.14888e-05     -0.00022267        -0.753309       0.0462019      0.000150949    -0.000130553
                      6.5289e-05    -0.000192983       -0.0998267       -0.171235     -0.000183973     0.000212237        -0.347472        0.914462
                       -0.753349       0.0461839     -8.14631e-05     0.000294287         0.284763       -0.564016      -0.00026994     0.000146801
                     0.000189097    -0.000282624         -0.34702        0.914124     -0.000394146     0.000239992        -0.188359       0.0621216
281702                 -0.377486       -0.512813      5.14689e-05    -0.000222676        -0.753295       0.0462353      0.000150951    -0.000130556
                     6.52745e-05    -0.000192995       -0.0998325        -0.17123     -0.000183961     0.000212259        -0.347447        0.914472
                       -0.753335       0.0462173     -8.14327e-05     0.000294289         0.284733       -0.564048     -0.000269943     0.000146803
                     0.000189086     -0.00028263        -0.346994        0.914134     -0.000394142     0.000240001        -0.188357        0.062125
281702.1               -0.377508       -0.512814      5.14489e-05    -0.000222681        -0.753281       0.0462687      0.000150954    -0.000130559
                     6.52599e-05    -0.000193006       -0.0998383       -0.171226     -0.000183949      0.00021228        -0.347421        0.914482
                       -0.753321       0.0462507     -8.14022e-05     0.000294291         0.284702       -0.564079     -0.000269946     0.000146804
                     0.000189075    -0.000282635        -0.346968        0.914144     -0.000394138      0.00024001        -0.188355       0.0621284
281702.2               -0.377529       -0.512815       5.1429e-05    -0.000222687        -0.753267       0.0463022      0.000150956    -0.000130562
                     6.52454e-05    -0.000193017       -0.0998441       -0.171221     -0.000183936     0.000212302        -0.347395        0.914492
                       -0.753307       0.0462841     -8.13718e-05     0.000294294         0.284671        -0.56411     -0.000269949     0.000146806
                     0.000189063    -0.000282641        -0.346943        0.914154     -0.000394134     0.000240019        -0.188353       0.0621318
281702.3               -0.377551       -0.512816       5.1409e-05    -0.000222692        -0.753253       0.0463356      0.000150958    -0.000130566
                     6.52308e-05    -0.000193029       -0.0998499       -0.171217     -0.000183924     0.000212323        -0.347369        0.914502
                       -0.753293       0.0463176     -8.13413e-05     0.000294296         0.284641       -0.564141     -0.000269952     0.000146807
                     0.000189052    -0.000282647        -0.346917        0.914164      -0.00039413     0.000240028         -0.18835       0.0621352
281702.4               -0.377572       -0.512818      5.13891e-05    -0.000222698        -0.753239        0.046369       0.00015096    -0.000130569
                     6.52162e-05     -0.00019304       -0.0998556       -0.171212     -0.000183912     0.000212344        -0.347343        0.914512
                       -0.753279        0.046351     -8.13109e-05     0.000294298          0.28461       -0.564172     -0.000269955     0.000146809
                     0.000189041    -0.000282652        -0.346891        0.914175     -0.000394126     0.000240037        -0.188348       0.0621386
281702.5               -0.377594       -0.512819      5.13692e-05    -0.000222704        -0.753225       0.0464024      0.000150962    -0.000130572
                     6.52016e-05    -0.000193052       -0.0998614       -0.171208     -0.000183899     0.000212366        -0.347318        0.914522
                       -0.753265       0.0463844     -8.12804e-05     0.000294301          0.28458       -0.564203     -0.000269958      0.00014681
                      0.00018903    -0.000282658        -0.346865        0.914185     -0.000394122     0.000240046        -0.188346        0.062142
281702.6               -0.377615        -0.51282      5.13492e-05    -0.000222709        -0.753211       0.0464358      0.000150964    -0.000130575
                     6.51871e-05    -0.000193063       -0.0998672       -0.171203     -0.000183887     0.000212387        -0.347292        0.914532
                       -0.753251       0.0464178     -8.12499e-05     0.000294303         0.284549       -0.564234     -0.000269961     0.000146812
                     0.000189019    -0.000282664        -0.346839        0.914195     -0.000394118     0.000240055        -0.188344       0.0621454
281702.7               -0.377637       -0.512822      5.13293e-05    -0.000222715        -0.753197       0.0464692      0.000150966    -0.000130578
                     6.51725e-05    -0.000193075        -0.099873       -0.171198     -0.000183875     0.000212409        -0.347266        0.914542
                       -0.753237       0.0464512     -8.12195e-05     0.000294306         0.284518       -0.564265     -0.000269964     0.000146813
                     0.000189007    -0.000282669        -0.346814        0.914205     -0.000394114     0.000240064        -0.188342       0.0621488
281702.8               -0.377658       -0.512823      5.13093e-05     -0.00022272        -0.753183       0.0465027      0.000150969    -0.000130581
                     6.51579e-05    -0.000193086       -0.0998788       -0.171194     -0.000183862      0.00021243         -0.34724        0.914552
                       -0.753223       0.0464847      -8.1189e-05     0.000294308         0.284488       -0.564296     -0.000269967     0.000146814
                     0.000188996    -0.000282675        -0.346788        0.914215      -0.00039411     0.000240073        -0.188339       0.0621522
281702.9                -0.37768       -0.512824      5.12894e-05    -0.000222726        -0.753169       0.0465361      0.000150971    -0.000130584
                     6.51434e-05    -0.000193098       -0.0998845       -0.171189      -0.00018385     0.000212452        -0.347214        0.914562
                       -0.753209       0.0465181     -8.11586e-05      0.00029431         0.284457       -0.564327      -0.00026997     0.000146816
                     0.000188985     -0.00028268        -0.346762        0.914225     -0.000394106     0.000240083        -0.188337       0.0621556
281703                 -0.377701       -0.512825      5.12694e-05    -0.000222732        -0.753155       0.0465695      0.000150973    -0.000130588
                     6.51288e-05    -0.000193109       -0.0998903       -0.171185     -0.000183837     0.000212473        -0.347188        0.914572
                       -0.753195       0.0465515     -8.11281e-05     0.000294313         0.284426       -0.564359     -0.000269973     0.000146817
                     0.000188974    -0.000282686        -0.346736        0.914235     -0.000394102     0.000240092        -0.188335        0.062159
281703.1               -0.377723       -0.512827      5.12495e-05    -0.000222737        -0.753141       0.0466029      0.000150975    -0.000130591
                     6.51142e-05    -0.000193121       -0.0998961        -0.17118     -0.000183825     0.000212494        -0.347163        0.914582
                       -0.753181       0.0465849     -8.10977e-05     0.000294315         0.284396        -0.56439     -0.000269976     0.000146819
