! TOUCHSTONE file generated by CST MICROWAVE STUDIO
! Date and time: Wed Oct  8 07:02:58 2025
! Project name: Teste_Macro_Metasurface_Nanopilar.cst
! Parameters = {H=600; L_x=170; L_y=175; Lambda=1064; Max_L=200; Min_L=70; PathPara=1; Phi=0; Step_L=10; Theta=0; p=520; phaseX=180; phaseY=0}
! Header version: 2018
! Port assignment regex: !\s*Touchstone port\s*([0-9]+)\s*=\s*(CST MWS port|CST DS port)\s*([0-9]+|Zmin|Zmax)\s*\(\"(.*)\"\)(\s*mode\s*([0-9]+))?.*
! Touchstone port assignment:
! Touchstone port 1 = CST MWS port Zmax ("") mode 1
! Touchstone port 2 = CST MWS port Zmax ("") mode 2
! Touchstone port 3 = CST MWS port Zmin ("") mode 1
! Touchstone port 4 = CST MWS port Zmin ("") mode 2
! S-Parameters are not renormalized. Each port impedance will be approximated by the real part at minimum frequency. The values are described via the [Reference] keyword.
! Default impedance is overridden by [Reference]
[Version] 2.0
# GHz S RI R 376.73
[Number of Ports] 4
[Reference]
376.73 376.73 376.73 376.73 
[Number of Frequencies] 1001
[Network Data]
281700                -0.0169099      -0.0556141     -0.000580483    -0.000682654        -0.993181      -0.0458762     -6.34456e-05     0.000745573
                    -0.000569067    -0.000683621      -0.00939891       -0.029564      1.01865e-05     0.000741821        -0.990553      -0.0982796
                       -0.993523      -0.0458298      2.33338e-05     0.000756992        0.0182729      -0.0541875       0.00054834    -0.000666616
                    -4.11292e-05     0.000775621        -0.990867      -0.0981325      0.000535473    -0.000673235        0.0114765      -0.0274913
281700.1              -0.0169106        -0.05562     -0.000580505    -0.000682648        -0.993182      -0.0458466     -6.34203e-05     0.000745577
                    -0.000569085     -0.00068361      -0.00939844        -0.02957      1.02081e-05     0.000741823        -0.990556      -0.0982501
                       -0.993524      -0.0458002      2.33644e-05     0.000756998        0.0182709      -0.0541945      0.000548313    -0.000666635
                    -4.11023e-05     0.000775629         -0.99087      -0.0981029      0.000535448    -0.000673251        0.0114756       -0.027498
281700.2              -0.0169112       -0.055626     -0.000580528    -0.000682642        -0.993183       -0.045817      -6.3395e-05     0.000745582
                    -0.000569104      -0.0006836      -0.00939797      -0.0295759      1.02298e-05     0.000741824        -0.990559      -0.0982205
                       -0.993525      -0.0457706      2.33951e-05     0.000757004        0.0182689      -0.0542016      0.000548286    -0.000666653
                    -4.10753e-05     0.000775637        -0.990873      -0.0980734      0.000535423    -0.000673268        0.0114747      -0.0275047
281700.3              -0.0169119      -0.0556319      -0.00058055    -0.000682636        -0.993184      -0.0457874     -6.33697e-05     0.000745586
                    -0.000569123    -0.000683589      -0.00939749      -0.0295819      1.02515e-05     0.000741825        -0.990562       -0.098191
                       -0.993526       -0.045741      2.34257e-05      0.00075701        0.0182668      -0.0542086      0.000548259    -0.000666672
                    -4.10483e-05     0.000775645        -0.990875      -0.0980438      0.000535397    -0.000673285        0.0114738      -0.0275114
281700.4              -0.0169125      -0.0556379     -0.000580572     -0.00068263        -0.993185      -0.0457578     -6.33444e-05     0.000745591
                    -0.000569142    -0.000683579      -0.00939702      -0.0295878      1.02732e-05     0.000741827        -0.990564      -0.0981615
                       -0.993527      -0.0457114      2.34563e-05     0.000757015        0.0182648      -0.0542156      0.000548232     -0.00066669
                    -4.10214e-05     0.000775653        -0.990878      -0.0980143      0.000535372    -0.000673301        0.0114728      -0.0275181
281700.5              -0.0169131      -0.0556438     -0.000580595    -0.000682624        -0.993186      -0.0457282     -6.33191e-05     0.000745595
                    -0.000569161    -0.000683568      -0.00939655      -0.0295938      1.02949e-05     0.000741828        -0.990567      -0.0981319
                       -0.993528      -0.0456818      2.34869e-05     0.000757021        0.0182628      -0.0542227      0.000548204    -0.000666709
                    -4.09944e-05     0.000775662        -0.990881      -0.0979847      0.000535347    -0.000673318        0.0114719      -0.0275248
281700.6              -0.0169138      -0.0556498     -0.000580617    -0.000682618        -0.993187      -0.0456986     -6.32938e-05       0.0007456
                     -0.00056918    -0.000683558      -0.00939608      -0.0295998      1.03166e-05      0.00074183         -0.99057      -0.0981024
                       -0.993529      -0.0456522      2.35176e-05     0.000757027        0.0182608      -0.0542297      0.000548177    -0.000666727
                    -4.09675e-05      0.00077567        -0.990884      -0.0979552      0.000535322    -0.000673335         0.011471      -0.0275315
281700.7              -0.0169144      -0.0556558     -0.000580639    -0.000682613        -0.993188       -0.045669     -6.32685e-05     0.000745604
                    -0.000569199    -0.000683547      -0.00939561      -0.0296057      1.03382e-05     0.000741831        -0.990573      -0.0980728
                        -0.99353      -0.0456226      2.35482e-05     0.000757032        0.0182587      -0.0542367       0.00054815    -0.000666746
                    -4.09405e-05     0.000775678        -0.990886      -0.0979256      0.000535297    -0.000673352        0.0114701      -0.0275382
281700.8              -0.0169151      -0.0556617     -0.000580662    -0.000682607        -0.993189      -0.0456394     -6.32431e-05     0.000745608
                    -0.000569217    -0.000683537      -0.00939514      -0.0296117      1.03599e-05     0.000741832        -0.990575      -0.0980433
                       -0.993531       -0.045593      2.35788e-05     0.000757038        0.0182567      -0.0542438      0.000548123    -0.000666764
                    -4.09135e-05     0.000775686        -0.990889      -0.0978961      0.000535271    -0.000673368        0.0114692      -0.0275449
281700.9              -0.0169157      -0.0556677     -0.000580684    -0.000682601         -0.99319      -0.0456098     -6.32178e-05     0.000745613
                    -0.000569236    -0.000683526      -0.00939467      -0.0296176      1.03816e-05     0.000741834        -0.990578      -0.0980138
                       -0.993532      -0.0455634      2.36095e-05     0.000757044        0.0182547      -0.0542508      0.000548096    -0.000666783
                    -4.08866e-05     0.000775694        -0.990892      -0.0978665      0.000535246    -0.000673385        0.0114682      -0.0275516
281701                -0.0169163      -0.0556736     -0.000580706    -0.000682595        -0.993191      -0.0455802     -6.31925e-05     0.000745617
                    -0.000569255    -0.000683516       -0.0093942      -0.0296236      1.04033e-05     0.000741835        -0.990581      -0.0979842
                       -0.993533      -0.0455338      2.36401e-05      0.00075705        0.0182527      -0.0542579      0.000548069    -0.000666801
                    -4.08596e-05     0.000775702        -0.990895       -0.097837      0.000535221    -0.000673402        0.0114673      -0.0275582
281701.1               -0.016917      -0.0556796     -0.000580729    -0.000682589        -0.993192      -0.0455507     -6.31672e-05     0.000745622
                    -0.000569274    -0.000683505      -0.00939373      -0.0296295       1.0425e-05     0.000741836        -0.990584      -0.0979547
                       -0.993534      -0.0455043      2.36707e-05     0.000757055        0.0182506      -0.0542649      0.000548042    -0.000666819
                    -4.08326e-05      0.00077571        -0.990897      -0.0978074      0.000535196    -0.000673419        0.0114664      -0.0275649
281701.2              -0.0169176      -0.0556855     -0.000580751    -0.000682583        -0.993193      -0.0455211     -6.31419e-05     0.000745626
                    -0.000569293    -0.000683495      -0.00939326      -0.0296355      1.04467e-05     0.000741838        -0.990586      -0.0979251
                       -0.993535      -0.0454747      2.37014e-05     0.000757061        0.0182486      -0.0542719      0.000548014    -0.000666838
                    -4.08057e-05     0.000775718          -0.9909      -0.0977779      0.000535171    -0.000673435        0.0114655      -0.0275716
281701.3              -0.0169183      -0.0556915     -0.000580774    -0.000682577        -0.993194      -0.0454915     -6.31165e-05      0.00074563
                    -0.000569312    -0.000683484      -0.00939279      -0.0296414      1.04684e-05     0.000741839        -0.990589      -0.0978956
                       -0.993536      -0.0454451       2.3732e-05     0.000757067        0.0182466       -0.054279      0.000547987    -0.000666856
                    -4.07787e-05     0.000775726        -0.990903      -0.0977483      0.000535146    -0.000673452        0.0114646      -0.0275783
281701.4              -0.0169189      -0.0556974     -0.000580796    -0.000682571        -0.993195      -0.0454619     -6.30912e-05     0.000745635
                    -0.000569331    -0.000683474      -0.00939232      -0.0296474      1.04901e-05      0.00074184        -0.990592       -0.097866
                       -0.993537      -0.0454155      2.37626e-05     0.000757072        0.0182446       -0.054286       0.00054796    -0.000666875
                    -4.07518e-05     0.000775734        -0.990906      -0.0977188       0.00053512    -0.000673469        0.0114636       -0.027585
281701.5              -0.0169196      -0.0557034     -0.000580818    -0.000682566        -0.993196      -0.0454323     -6.30659e-05     0.000745639
                    -0.000569349    -0.000683463      -0.00939186      -0.0296533      1.05118e-05     0.000741842        -0.990595      -0.0978365
                       -0.993538      -0.0453859      2.37933e-05     0.000757078        0.0182425       -0.054293      0.000547933    -0.000666893
                    -4.07248e-05     0.000775742        -0.990908      -0.0976892      0.000535095    -0.000673485        0.0114627      -0.0275917
281701.6              -0.0169202      -0.0557093     -0.000580841     -0.00068256        -0.993197      -0.0454027     -6.30406e-05     0.000745644
                    -0.000569368    -0.000683453      -0.00939139      -0.0296593      1.05335e-05     0.000741843        -0.990597       -0.097807
                       -0.993539      -0.0453563      2.38239e-05     0.000757084        0.0182405      -0.0543001      0.000547906    -0.000666912
                    -4.06978e-05      0.00077575        -0.990911      -0.0976597       0.00053507    -0.000673502        0.0114618      -0.0275984
281701.7              -0.0169208      -0.0557153     -0.000580863    -0.000682554        -0.993198      -0.0453731     -6.30152e-05     0.000745648
                    -0.000569387    -0.000683442      -0.00939092      -0.0296652      1.05552e-05     0.000741845          -0.9906      -0.0977774
                        -0.99354      -0.0453267      2.38545e-05      0.00075709        0.0182385      -0.0543071      0.000547878     -0.00066693
                    -4.06709e-05     0.000775759        -0.990914      -0.0976301      0.000535045    -0.000673519        0.0114609      -0.0276051
281701.8              -0.0169215      -0.0557212     -0.000580885    -0.000682548        -0.993199      -0.0453435     -6.29899e-05     0.000745652
                    -0.000569406    -0.000683431      -0.00939046      -0.0296712      1.05769e-05     0.000741846        -0.990603      -0.0977479
                       -0.993541      -0.0452971      2.38852e-05     0.000757095        0.0182364      -0.0543141      0.000547851    -0.000666948
                    -4.06439e-05     0.000775767        -0.990917      -0.0976006       0.00053502    -0.000673536        0.0114599      -0.0276118
281701.9              -0.0169221      -0.0557272     -0.000580908    -0.000682542          -0.9932      -0.0453139     -6.29646e-05     0.000745657
                    -0.000569425    -0.000683421      -0.00938999      -0.0296771      1.05986e-05     0.000741847        -0.990606      -0.0977183
                       -0.993542      -0.0452675      2.39158e-05     0.000757101        0.0182344      -0.0543212      0.000547824    -0.000666967
                    -4.06169e-05     0.000775775        -0.990919       -0.097571      0.000534994    -0.000673552         0.011459      -0.0276184
281702                -0.0169228      -0.0557331      -0.00058093    -0.000682536        -0.993201      -0.0452843     -6.29392e-05     0.000745661
                    -0.000569444     -0.00068341      -0.00938952      -0.0296831      1.06203e-05     0.000741849        -0.990608      -0.0976888
                       -0.993543      -0.0452379      2.39465e-05     0.000757107        0.0182324      -0.0543282      0.000547797    -0.000666985
                      -4.059e-05     0.000775783        -0.990922      -0.0975415      0.000534969    -0.000673569        0.0114581      -0.0276251
281702.1              -0.0169234      -0.0557391     -0.000580953     -0.00068253        -0.993202      -0.0452547     -6.29139e-05     0.000745665
                    -0.000569463      -0.0006834      -0.00938906       -0.029689      1.06421e-05      0.00074185        -0.990611      -0.0976592
                       -0.993544      -0.0452083      2.39771e-05     0.000757112        0.0182303      -0.0543353       0.00054777    -0.000667004
                     -4.0563e-05     0.000775791        -0.990925      -0.0975119      0.000534944    -0.000673586        0.0114572      -0.0276318
281702.2              -0.0169241       -0.055745     -0.000580975    -0.000682524        -0.993203      -0.0452251     -6.28886e-05      0.00074567
                    -0.000569481    -0.000683389      -0.00938859       -0.029695      1.06638e-05     0.000741851        -0.990614      -0.0976297
                       -0.993545      -0.0451787      2.40077e-05     0.000757118        0.0182283      -0.0543423      0.000547742    -0.000667022
                     -4.0536e-05     0.000775799        -0.990928      -0.0974824      0.000534919    -0.000673602        0.0114562      -0.0276385
281702.3              -0.0169247       -0.055751     -0.000580997    -0.000682519        -0.993204      -0.0451955     -6.28632e-05     0.000745674
                      -0.0005695    -0.000683379      -0.00938813      -0.0297009      1.06855e-05     0.000741853        -0.990617      -0.0976001
                       -0.993546      -0.0451491      2.40384e-05     0.000757124        0.0182263      -0.0543493      0.000547715     -0.00066704
                    -4.05091e-05     0.000775807         -0.99093      -0.0974528      0.000534894    -0.000673619        0.0114553      -0.0276452
281702.4              -0.0169254      -0.0557569      -0.00058102    -0.000682513        -0.993205      -0.0451659     -6.28379e-05     0.000745678
                    -0.000569519    -0.000683368      -0.00938766      -0.0297069      1.07072e-05     0.000741854        -0.990619      -0.0975706
                       -0.993547      -0.0451195       2.4069e-05     0.000757129        0.0182242      -0.0543564      0.000547688    -0.000667059
                    -4.04821e-05     0.000775815        -0.990933      -0.0974233      0.000534868    -0.000673636        0.0114544      -0.0276519
281702.5               -0.016926      -0.0557629     -0.000581042    -0.000682507        -0.993206      -0.0451363     -6.28125e-05     0.000745683
                    -0.000569538    -0.000683358       -0.0093872      -0.0297128      1.07289e-05     0.000741855        -0.990622      -0.0975411
                       -0.993548      -0.0450899      2.40997e-05     0.000757135        0.0182222      -0.0543634      0.000547661    -0.000667077
                    -4.04551e-05     0.000775823        -0.990936      -0.0973937      0.000534843    -0.000673652        0.0114535      -0.0276586
281702.6              -0.0169266      -0.0557688     -0.000581064    -0.000682501        -0.993207      -0.0451067     -6.27872e-05     0.000745687
                    -0.000569557    -0.000683347      -0.00938673      -0.0297188      1.07506e-05     0.000741857        -0.990625      -0.0975115
                       -0.993549      -0.0450603      2.41303e-05     0.000757141        0.0182202      -0.0543704      0.000547633    -0.000667096
                    -4.04281e-05     0.000775831        -0.990939      -0.0973642      0.000534818    -0.000673669        0.0114525      -0.0276653
281702.7              -0.0169273      -0.0557748     -0.000581087    -0.000682495        -0.993208      -0.0450772     -6.27618e-05     0.000745692
                    -0.000569576    -0.000683337      -0.00938627      -0.0297248      1.07724e-05     0.000741858        -0.990628       -0.097482
                        -0.99355      -0.0450307       2.4161e-05     0.000757146        0.0182181      -0.0543775      0.000547606    -0.000667114
                    -4.04012e-05     0.000775839        -0.990941      -0.0973346      0.000534793    -0.000673686        0.0114516       -0.027672
281702.8              -0.0169279      -0.0557807     -0.000581109    -0.000682489        -0.993209      -0.0450476     -6.27365e-05     0.000745696
                    -0.000569594    -0.000683326      -0.00938581      -0.0297307      1.07941e-05     0.000741859         -0.99063      -0.0974524
                       -0.993551      -0.0450011      2.41916e-05     0.000757152        0.0182161      -0.0543845      0.000547579    -0.000667132
                    -4.03742e-05     0.000775847        -0.990944      -0.0973051      0.000534767    -0.000673702        0.0114507      -0.0276786
281702.9              -0.0169286      -0.0557867     -0.000581132    -0.000682483         -0.99321       -0.045018     -6.27111e-05       0.0007457
                    -0.000569613    -0.000683316      -0.00938534      -0.0297367      1.08158e-05     0.000741861        -0.990633      -0.0974229
                       -0.993552      -0.0449715      2.42222e-05     0.000757158        0.0182141      -0.0543915      0.000547552    -0.000667151
                    -4.03472e-05     0.000775855        -0.990947      -0.0972755      0.000534742    -0.000673719        0.0114497      -0.0276853
281703                -0.0169292      -0.0557926     -0.000581154    -0.000682477        -0.993211      -0.0449884     -6.26858e-05     0.000745705
                    -0.000569632    -0.000683305      -0.00938488      -0.0297426      1.08375e-05     0.000741862        -0.990636      -0.0973933
                       -0.993553      -0.0449419      2.42529e-05     0.000757163         0.018212      -0.0543986      0.000547524    -0.000667169
                    -4.03203e-05     0.000775864         -0.99095       -0.097246      0.000534717    -0.000673736        0.0114488       -0.027692
281703.1              -0.0169299      -0.0557986     -0.000581176    -0.000682471        -0.993212      -0.0449588     -6.26604e-05     0.000745709
                    -0.000569651    -0.000683295      -0.00938442      -0.0297486      1.08593e-05     0.000741863        -0.990639      -0.0973638
                       -0.993554      -0.0449123      2.42835e-05     0.000757169          0.01821      -0.0544056      0.000547497    -0.000667187
