! TOUCHSTONE file generated by CST MICROWAVE STUDIO
! Date and time: Wed Oct  8 07:05:02 2025
! Project name: Teste_Macro_Metasurface_Nanopilar.cst
! Parameters = {H=600; L_x=190; L_y=105; Lambda=1064; Max_L=200; Min_L=70; PathPara=1; Phi=0; Step_L=10; Theta=0; p=520; phaseX=180; phaseY=0}
! Header version: 2018
! Port assignment regex: !\s*Touchstone port\s*([0-9]+)\s*=\s*(CST MWS port|CST DS port)\s*([0-9]+|Zmin|Zmax)\s*\(\"(.*)\"\)(\s*mode\s*([0-9]+))?.*
! Touchstone port assignment:
! Touchstone port 1 = CST MWS port Zmax ("") mode 1
! Touchstone port 2 = CST MWS port Zmax ("") mode 2
! Touchstone port 3 = CST MWS port Zmin ("") mode 1
! Touchstone port 4 = CST MWS port Zmin ("") mode 2
! S-Parameters are not renormalized. Each port impedance will be approximated by the real part at minimum frequency. The values are described via the [Reference] keyword.
! Default impedance is overridden by [Reference]
[Version] 2.0
# GHz S RI R 376.73
[Number of Ports] 4
[Reference]
376.73 376.73 376.73 376.73 
[Number of Frequencies] 1001
[Network Data]
281700                -0.0407343        -0.13096     -1.83811e-06    -0.000504897         0.872011       -0.450416     -0.000385824     0.000341206
                     6.16853e-06    -0.000492208        -0.348421         0.44578      4.60076e-05    -0.000270729        -0.454473       -0.672792
                        0.871982       -0.450509      0.000132072    -0.000213453       -0.0865439       -0.106254     -0.000376808     0.000433451
                    -0.000222337     0.000252662        -0.454491       -0.672857      -0.00037031     0.000383783        -0.547855        0.136334
281700.1              -0.0407411       -0.130964     -1.86047e-06    -0.000504904         0.871995       -0.450446      -0.00038582     0.000341223
                     6.15014e-06    -0.000492217        -0.348403        0.445784      4.60494e-05    -0.000270739        -0.454499       -0.672781
                        0.871966       -0.450539      0.000132062    -0.000213463       -0.0865502       -0.106256     -0.000376804     0.000433477
                    -0.000222331     0.000252681        -0.454517       -0.672846     -0.000370299     0.000383779        -0.547843        0.136354
281700.2              -0.0407479       -0.130967     -1.88283e-06    -0.000504911         0.871978       -0.450475     -0.000385815     0.000341241
                     6.13175e-06    -0.000492226        -0.348385        0.445788      4.60912e-05     -0.00027075        -0.454525        -0.67277
                         0.87195       -0.450568      0.000132051    -0.000213473       -0.0865565       -0.106258     -0.000376801     0.000433504
                    -0.000222325     0.000252699        -0.454544       -0.672835     -0.000370288     0.000383776         -0.54783        0.136374
281700.3              -0.0407547       -0.130971     -1.90519e-06    -0.000504918         0.871962       -0.450505     -0.000385811     0.000341258
                     6.11336e-06    -0.000492235        -0.348368        0.445791       4.6133e-05     -0.00027076        -0.454551       -0.672759
                        0.871934       -0.450598       0.00013204    -0.000213482       -0.0865628        -0.10626     -0.000376797      0.00043353
                    -0.000222318     0.000252718         -0.45457       -0.672824     -0.000370276     0.000383773        -0.547817        0.136394
281700.4              -0.0407616       -0.130974     -1.92755e-06    -0.000504925         0.871946       -0.450534     -0.000385807     0.000341275
                     6.09497e-06    -0.000492245         -0.34835        0.445795      4.61748e-05     -0.00027077        -0.454577       -0.672748
                        0.871918       -0.450628      0.000132029    -0.000213492       -0.0865691       -0.106261     -0.000376793     0.000433556
                    -0.000222312     0.000252737        -0.454596       -0.672813     -0.000370265      0.00038377        -0.547804        0.136413
281700.5              -0.0407684       -0.130978     -1.94991e-06    -0.000504932          0.87193       -0.450564     -0.000385802     0.000341292
                     6.07658e-06    -0.000492254        -0.348333        0.445799      4.62167e-05    -0.000270781        -0.454603       -0.672738
                        0.871902       -0.450657      0.000132019    -0.000213502       -0.0865754       -0.106263      -0.00037679     0.000433583
                    -0.000222306     0.000252756        -0.454622       -0.672802     -0.000370254     0.000383766        -0.547791        0.136433
281700.6              -0.0407752       -0.130981     -1.97228e-06    -0.000504939         0.871914       -0.450594     -0.000385798     0.000341309
                     6.05819e-06    -0.000492263        -0.348315        0.445803      4.62585e-05    -0.000270791        -0.454629       -0.672727
                        0.871886       -0.450687      0.000132008    -0.000213512       -0.0865817       -0.106265     -0.000376786     0.000433609
                    -0.000222299     0.000252774        -0.454648       -0.672791     -0.000370243     0.000383763        -0.547778        0.136453
281700.7               -0.040782       -0.130985     -1.99464e-06    -0.000504947         0.871898       -0.450623     -0.000385793     0.000341326
                     6.03979e-06    -0.000492272        -0.348297        0.445807      4.63003e-05    -0.000270801        -0.454655       -0.672716
                        0.871869       -0.450716      0.000131997    -0.000213521        -0.086588       -0.106267     -0.000376782     0.000433635
                    -0.000222293     0.000252793        -0.454674       -0.672781     -0.000370232      0.00038376        -0.547765        0.136473
281700.8              -0.0407888       -0.130988       -2.017e-06    -0.000504954         0.871882       -0.450653     -0.000385789     0.000341343
                      6.0214e-06    -0.000492281         -0.34828         0.44581      4.63421e-05    -0.000270811        -0.454681       -0.672705
                        0.871853       -0.450746      0.000131986    -0.000213531       -0.0865943       -0.106269     -0.000376779     0.000433662
                    -0.000222287     0.000252812          -0.4547        -0.67277     -0.000370221     0.000383756        -0.547752        0.136493
281700.9              -0.0407956       -0.130992     -2.03936e-06    -0.000504961         0.871866       -0.450683     -0.000385785     0.000341361
                     6.00301e-06    -0.000492291        -0.348262        0.445814      4.63839e-05    -0.000270822        -0.454707       -0.672694
                        0.871837       -0.450776      0.000131976    -0.000213541       -0.0866006        -0.10627     -0.000376775     0.000433688
                     -0.00022228      0.00025283        -0.454726       -0.672759      -0.00037021     0.000383753        -0.547739        0.136513
281701                -0.0408024       -0.130995     -2.06172e-06    -0.000504968         0.871849       -0.450712      -0.00038578     0.000341378
                     5.98461e-06      -0.0004923        -0.348245        0.445818      4.64258e-05    -0.000270832        -0.454733       -0.672683
                        0.871821       -0.450805      0.000131965     -0.00021355        -0.086607       -0.106272     -0.000376771     0.000433714
                    -0.000222274     0.000252849        -0.454752       -0.672748     -0.000370199      0.00038375        -0.547726        0.136532
281701.1              -0.0408092       -0.130999     -2.08409e-06    -0.000504975         0.871833       -0.450742     -0.000385776     0.000341395
                     5.96622e-06    -0.000492309        -0.348227        0.445822      4.64676e-05    -0.000270842        -0.454759       -0.672672
                        0.871805       -0.450835      0.000131954     -0.00021356       -0.0866133       -0.106274     -0.000376768     0.000433741
                    -0.000222268     0.000252868        -0.454778       -0.672737     -0.000370188     0.000383747        -0.547714        0.136552
281701.2               -0.040816       -0.131003     -2.10645e-06    -0.000504982         0.871817       -0.450771     -0.000385772     0.000341412
                     5.94783e-06    -0.000492318        -0.348209        0.445826      4.65094e-05    -0.000270853        -0.454785       -0.672661
                        0.871789       -0.450864      0.000131944     -0.00021357       -0.0866196       -0.106276     -0.000376764     0.000433767
                    -0.000222261     0.000252886        -0.454804       -0.672726     -0.000370177     0.000383743        -0.547701        0.136572
281701.3              -0.0408228       -0.131006     -2.12881e-06    -0.000504989         0.871801       -0.450801     -0.000385767     0.000341429
                     5.92943e-06    -0.000492327        -0.348192        0.445829      4.65513e-05    -0.000270863        -0.454811        -0.67265
                        0.871773       -0.450894      0.000131933     -0.00021358       -0.0866259       -0.106278      -0.00037676     0.000433793
                    -0.000222255     0.000252905         -0.45483       -0.672715     -0.000370166      0.00038374        -0.547688        0.136592
281701.4              -0.0408296        -0.13101     -2.15118e-06    -0.000504996         0.871785       -0.450831     -0.000385763     0.000341446
                     5.91104e-06    -0.000492337        -0.348174        0.445833      4.65931e-05    -0.000270873        -0.454838        -0.67264
                        0.871756       -0.450924      0.000131922    -0.000213589       -0.0866322        -0.10628     -0.000376757      0.00043382
                    -0.000222249     0.000252924        -0.454856       -0.672704     -0.000370155     0.000383737        -0.547675        0.136612
281701.5              -0.0408364       -0.131013     -2.17354e-06    -0.000505004         0.871769        -0.45086     -0.000385759     0.000341463
                     5.89265e-06    -0.000492346        -0.348157        0.445837      4.66349e-05    -0.000270884        -0.454864       -0.672629
                         0.87174       -0.450953      0.000131911    -0.000213599       -0.0866385       -0.106281     -0.000376753     0.000433846
                    -0.000222242     0.000252942        -0.454882       -0.672693     -0.000370144     0.000383734        -0.547662        0.136632
281701.6              -0.0408432       -0.131017      -2.1959e-06    -0.000505011         0.871753        -0.45089     -0.000385754      0.00034148
                     5.87425e-06    -0.000492355        -0.348139        0.445841      4.66768e-05    -0.000270894         -0.45489       -0.672618
                        0.871724       -0.450983      0.000131901    -0.000213609       -0.0866448       -0.106283     -0.000376749     0.000433872
                    -0.000222236     0.000252961        -0.454908       -0.672682     -0.000370133      0.00038373        -0.547649        0.136651
281701.7                -0.04085        -0.13102     -2.21827e-06    -0.000505018         0.871737       -0.450919      -0.00038575     0.000341497
                     5.85586e-06    -0.000492364        -0.348121        0.445845      4.67186e-05    -0.000270904        -0.454916       -0.672607
                        0.871708       -0.451013       0.00013189    -0.000213619       -0.0866511       -0.106285     -0.000376746     0.000433899
                     -0.00022223      0.00025298        -0.454934       -0.672672     -0.000370122     0.000383727        -0.547636        0.136671
281701.8              -0.0408568       -0.131024     -2.24063e-06    -0.000505025          0.87172       -0.450949     -0.000385745     0.000341514
                     5.83746e-06    -0.000492373        -0.348104        0.445848      4.67605e-05    -0.000270914        -0.454942       -0.672596
                        0.871692       -0.451042      0.000131879    -0.000213628       -0.0866574       -0.106287     -0.000376742     0.000433925
                    -0.000222223     0.000252998         -0.45496       -0.672661     -0.000370111     0.000383724        -0.547623        0.136691
281701.9              -0.0408636       -0.131027       -2.263e-06    -0.000505032         0.871704       -0.450979     -0.000385741     0.000341531
                     5.81907e-06    -0.000492383        -0.348086        0.445852      4.68023e-05    -0.000270925        -0.454968       -0.672585
                        0.871676       -0.451072      0.000131868    -0.000213638       -0.0866637       -0.106289     -0.000376738     0.000433951
                    -0.000222217     0.000253017        -0.454986        -0.67265       -0.0003701      0.00038372         -0.54761        0.136711
281702                -0.0408704       -0.131031     -2.28536e-06    -0.000505039         0.871688       -0.451008     -0.000385737     0.000341548
                     5.80067e-06    -0.000492392        -0.348069        0.445856      4.68442e-05    -0.000270935        -0.454994       -0.672574
                        0.871659       -0.451101      0.000131858    -0.000213648         -0.08667        -0.10629     -0.000376735     0.000433978
                    -0.000222211     0.000253036        -0.455012       -0.672639     -0.000370089     0.000383717        -0.547597        0.136731
281702.1              -0.0408772       -0.131034     -2.30773e-06    -0.000505046         0.871672       -0.451038     -0.000385732     0.000341565
                     5.78227e-06    -0.000492401        -0.348051         0.44586       4.6886e-05    -0.000270945         -0.45502       -0.672563
                        0.871643       -0.451131      0.000131847    -0.000213657       -0.0866763       -0.106292     -0.000376731     0.000434004
                    -0.000222204     0.000253054        -0.455038       -0.672628     -0.000370078     0.000383714        -0.547584        0.136751
281702.2               -0.040884       -0.131038      -2.3301e-06    -0.000505053         0.871656       -0.451068     -0.000385728     0.000341582
                     5.76388e-06     -0.00049241        -0.348033        0.445864      4.69279e-05    -0.000270956        -0.455046       -0.672552
                        0.871627       -0.451161      0.000131836    -0.000213667       -0.0866826       -0.106294     -0.000376727      0.00043403
                    -0.000222198     0.000253073        -0.455064       -0.672617     -0.000370067     0.000383711        -0.547571         0.13677
281702.3              -0.0408908       -0.131041     -2.35246e-06    -0.000505061          0.87164       -0.451097     -0.000385724     0.000341599
                     5.74548e-06    -0.000492419        -0.348016        0.445867      4.69698e-05    -0.000270966        -0.455072       -0.672541
                        0.871611        -0.45119      0.000131826    -0.000213677       -0.0866889       -0.106296     -0.000376724     0.000434057
                    -0.000222192     0.000253092         -0.45509       -0.672606     -0.000370056     0.000383707        -0.547559         0.13679
281702.4              -0.0408976       -0.131045     -2.37483e-06    -0.000505068         0.871624       -0.451127     -0.000385719     0.000341617
                     5.72709e-06    -0.000492429        -0.347998        0.445871      4.70116e-05    -0.000270976        -0.455098        -0.67253
                        0.871595        -0.45122      0.000131815    -0.000213687       -0.0866952       -0.106298      -0.00037672     0.000434083
                    -0.000222185      0.00025311        -0.455116       -0.672595     -0.000370045     0.000383704        -0.547546         0.13681
281702.5              -0.0409044       -0.131049      -2.3972e-06    -0.000505075         0.871608       -0.451156     -0.000385715     0.000341634
                     5.70869e-06    -0.000492438        -0.347981        0.445875      4.70535e-05    -0.000270986        -0.455124        -0.67252
                        0.871579       -0.451249      0.000131804    -0.000213696       -0.0867015       -0.106299     -0.000376717      0.00043411
                    -0.000222179     0.000253129        -0.455142       -0.672584     -0.000370034     0.000383701        -0.547533         0.13683
281702.6              -0.0409112       -0.131052     -2.41956e-06    -0.000505082         0.871591       -0.451186     -0.000385711     0.000341651
                     5.69029e-06    -0.000492447        -0.347963        0.445879      4.70954e-05    -0.000270997         -0.45515       -0.672509
                        0.871562       -0.451279      0.000131793    -0.000213706       -0.0867078       -0.106301     -0.000376713     0.000434136
                    -0.000222173     0.000253148        -0.455168       -0.672573     -0.000370023     0.000383697         -0.54752         0.13685
281702.7               -0.040918       -0.131056     -2.44193e-06    -0.000505089         0.871575       -0.451216     -0.000385706     0.000341668
                     5.67189e-06    -0.000492456        -0.347945        0.445883      4.71373e-05    -0.000271007        -0.455176       -0.672498
                        0.871546       -0.451309      0.000131783    -0.000213716       -0.0867141       -0.106303     -0.000376709     0.000434162
                    -0.000222166     0.000253166        -0.455194       -0.672562     -0.000370012     0.000383694        -0.547507        0.136869
281702.8              -0.0409248       -0.131059      -2.4643e-06    -0.000505096         0.871559       -0.451245     -0.000385702     0.000341685
                      5.6535e-06    -0.000492465        -0.347928        0.445886      4.71791e-05    -0.000271017        -0.455202       -0.672487
                         0.87153       -0.451338      0.000131772    -0.000213725       -0.0867205       -0.106305     -0.000376706     0.000434189
                     -0.00022216     0.000253185         -0.45522       -0.672552     -0.000370001     0.000383691        -0.547494        0.136889
281702.9              -0.0409317       -0.131063     -2.48667e-06    -0.000505103         0.871543       -0.451275     -0.000385698     0.000341702
                      5.6351e-06    -0.000492475         -0.34791         0.44589       4.7221e-05    -0.000271027        -0.455228       -0.672476
                        0.871514       -0.451368      0.000131761    -0.000213735       -0.0867268       -0.106307     -0.000376702     0.000434215
                    -0.000222154     0.000253204        -0.455246       -0.672541      -0.00036999     0.000383688        -0.547481        0.136909
281703                -0.0409385       -0.131066     -2.50903e-06     -0.00050511         0.871527       -0.451304     -0.000385693     0.000341719
                      5.6167e-06    -0.000492484        -0.347893        0.445894      4.72629e-05    -0.000271038        -0.455254       -0.672465
                        0.871498       -0.451397       0.00013175    -0.000213745       -0.0867331       -0.106308     -0.000376698     0.000434241
                    -0.000222147     0.000253222        -0.455272        -0.67253      -0.00036998     0.000383684        -0.547468        0.136929
281703.1              -0.0409453        -0.13107      -2.5314e-06    -0.000505118         0.871511       -0.451334     -0.000385689     0.000341735
                      5.5983e-06    -0.000492493        -0.347875        0.445898      4.73048e-05    -0.000271048         -0.45528       -0.672454
                        0.871482       -0.451427       0.00013174    -0.000213755       -0.0867394        -0.10631     -0.000376695     0.000434268
