! TOUCHSTONE file generated by CST MICROWAVE STUDIO
! Date and time: Wed Oct  8 07:04:04 2025
! Project name: Teste_Macro_Metasurface_Nanopilar.cst
! Parameters = {H=600; L_x=180; L_y=155; Lambda=1064; Max_L=200; Min_L=70; PathPara=1; Phi=0; Step_L=10; Theta=0; p=520; phaseX=180; phaseY=0}
! Header version: 2018
! Port assignment regex: !\s*Touchstone port\s*([0-9]+)\s*=\s*(CST MWS port|CST DS port)\s*([0-9]+|Zmin|Zmax)\s*\(\"(.*)\"\)(\s*mode\s*([0-9]+))?.*
! Touchstone port assignment:
! Touchstone port 1 = CST MWS port Zmax ("") mode 1
! Touchstone port 2 = CST MWS port Zmax ("") mode 2
! Touchstone port 3 = CST MWS port Zmin ("") mode 1
! Touchstone port 4 = CST MWS port Zmin ("") mode 2
! S-Parameters are not renormalized. Each port impedance will be approximated by the real part at minimum frequency. The values are described via the [Reference] keyword.
! Default impedance is overridden by [Reference]
[Version] 2.0
# GHz S RI R 376.73
[Number of Ports] 4
[Reference]
376.73 376.73 376.73 376.73 
[Number of Frequencies] 1001
[Network Data]
281700                -0.0403457       0.0954534      0.000242142      0.00129106        -0.915945       -0.377147      0.000509165      -0.0019069
                     0.000434525      0.00137962       -0.0157104      -0.0299345      0.000530646     -0.00192994        -0.990867      -0.0980391
                       -0.915715       -0.377105      0.000360772     -0.00184349       -0.0423204       0.0939909      -0.00121504       0.0010614
                     0.000551433        -0.00196        -0.990425      -0.0979236      -0.00107051      0.00124547        0.0169489      -0.0275447
281700.1              -0.0403405       0.0954491      0.000242232       0.0012911        -0.915956        -0.37712      0.000509105     -0.00190694
                     0.000434548      0.00137961       -0.0157103      -0.0299407      0.000530657        -0.00193         -0.99087      -0.0980094
                       -0.915727       -0.377077      0.000360774     -0.00184355       -0.0423154       0.0939867      -0.00121498      0.00106142
                     0.000551377     -0.00196004        -0.990428      -0.0978939      -0.00107061      0.00124512        0.0169484      -0.0275519
281700.2              -0.0403353       0.0954447      0.000242321      0.00129114        -0.915967       -0.377093      0.000509044     -0.00190697
                      0.00043457      0.00137961       -0.0157103      -0.0299469      0.000530668     -0.00193005        -0.990873      -0.0979796
                       -0.915739        -0.37705      0.000360776     -0.00184362       -0.0423103       0.0939824      -0.00121493      0.00106143
                     0.000551321     -0.00196007         -0.99043      -0.0978643      -0.00107072      0.00124476        0.0169479       -0.027559
281700.3                -0.04033       0.0954403       0.00024241      0.00129118        -0.915978       -0.377065      0.000508984     -0.00190701
                     0.000434592       0.0013796       -0.0157102      -0.0299531       0.00053068     -0.00193011        -0.990875      -0.0979498
                       -0.915751       -0.377023      0.000360777     -0.00184369       -0.0423053       0.0939782      -0.00121488      0.00106145
                     0.000551266      -0.0019601        -0.990433      -0.0978347      -0.00107082      0.00124439        0.0169475      -0.0275661
281700.4              -0.0403248       0.0954359      0.000242499      0.00129122        -0.915989       -0.377038      0.000508924     -0.00190704
                     0.000434615       0.0013796       -0.0157101      -0.0299593      0.000530693     -0.00193017        -0.990878        -0.09792
                       -0.915763       -0.376996      0.000360778     -0.00184375       -0.0423002       0.0939739      -0.00121483      0.00106146
                      0.00055121     -0.00196014        -0.990436       -0.097805      -0.00107093      0.00124403         0.016947      -0.0275733
281700.5              -0.0403195       0.0954316      0.000242589      0.00129125        -0.916001       -0.377011      0.000508863     -0.00190708
                     0.000434637       0.0013796       -0.0157101      -0.0299655      0.000530707     -0.00193022        -0.990881      -0.0978903
                       -0.915775       -0.376969      0.000360778     -0.00184382       -0.0422952       0.0939696      -0.00121478      0.00106147
                     0.000551155     -0.00196017        -0.990439      -0.0977754      -0.00107103      0.00124366        0.0169466      -0.0275804
281700.6              -0.0403143       0.0954272      0.000242678      0.00129129        -0.916012       -0.376983      0.000508803     -0.00190711
                      0.00043466      0.00137959         -0.01571      -0.0299717      0.000530722     -0.00193028        -0.990883      -0.0978605
                       -0.915786       -0.376942      0.000360777     -0.00184389       -0.0422902       0.0939654      -0.00121472      0.00106149
                     0.000551099      -0.0019602        -0.990441      -0.0977458      -0.00107113      0.00124329        0.0169461      -0.0275876
281700.7              -0.0403091       0.0954228      0.000242767      0.00129133        -0.916023       -0.376956      0.000508743     -0.00190715
                     0.000434682      0.00137959       -0.0157099      -0.0299778      0.000530737     -0.00193033        -0.990886      -0.0978307
                       -0.915798       -0.376915      0.000360776     -0.00184396       -0.0422851       0.0939611      -0.00121467       0.0010615
                     0.000551044     -0.00196024        -0.990444      -0.0977162      -0.00107124      0.00124292        0.0169457      -0.0275947
281700.8              -0.0403038       0.0954184      0.000242856      0.00129137        -0.916034       -0.376929      0.000508682     -0.00190718
                     0.000434705      0.00137958       -0.0157099       -0.029984      0.000530754     -0.00193039        -0.990889       -0.097801
                        -0.91581       -0.376888      0.000360774     -0.00184402       -0.0422801       0.0939569      -0.00121462      0.00106152
                     0.000550988     -0.00196027        -0.990447      -0.0976865      -0.00107134      0.00124254        0.0169452      -0.0276018
281700.9              -0.0402986       0.0954141      0.000242945       0.0012914        -0.916045       -0.376901      0.000508622     -0.00190722
                     0.000434727      0.00137958       -0.0157098      -0.0299902      0.000530772     -0.00193045        -0.990892      -0.0977712
                       -0.915822       -0.376861      0.000360772     -0.00184409       -0.0422751       0.0939526      -0.00121457      0.00106153
                     0.000550933      -0.0019603         -0.99045      -0.0976569      -0.00107145      0.00124216        0.0169447       -0.027609
281701                -0.0402934       0.0954097      0.000243034      0.00129144        -0.916056       -0.376874      0.000508561     -0.00190725
                      0.00043475      0.00137957       -0.0157097      -0.0299964      0.000530791      -0.0019305        -0.990894      -0.0977414
                       -0.915834       -0.376834      0.000360769     -0.00184416       -0.0422701       0.0939483      -0.00121451      0.00106155
                     0.000550877     -0.00196034        -0.990453      -0.0976273      -0.00107155      0.00124178        0.0169443      -0.0276161
281701.1              -0.0402881       0.0954053      0.000243123      0.00129147        -0.916067       -0.376847      0.000508501     -0.00190729
                     0.000434772      0.00137957       -0.0157097      -0.0300026      0.000530812     -0.00193056        -0.990897      -0.0977117
                       -0.915845       -0.376807      0.000360765     -0.00184423        -0.042265       0.0939441      -0.00121446      0.00106156
                     0.000550822     -0.00196037        -0.990455      -0.0975977      -0.00107166       0.0012414        0.0169438      -0.0276233
281701.2              -0.0402829       0.0954009      0.000243212      0.00129151        -0.916078       -0.376819       0.00050844     -0.00190732
                     0.000434795      0.00137956       -0.0157096      -0.0300088      0.000530833     -0.00193061          -0.9909      -0.0976819
                       -0.915857       -0.376779      0.000360761      -0.0018443         -0.04226       0.0939398      -0.00121441      0.00106157
                     0.000550766      -0.0019604        -0.990458      -0.0975681      -0.00107176      0.00124101        0.0169434      -0.0276304
281701.3              -0.0402776       0.0953966      0.000243301      0.00129154         -0.91609       -0.376792       0.00050838     -0.00190736
                     0.000434817      0.00137956       -0.0157095       -0.030015      0.000530855     -0.00193067        -0.990902      -0.0976521
                       -0.915869       -0.376752      0.000360756     -0.00184437        -0.042255       0.0939355      -0.00121435      0.00106159
                     0.000550711     -0.00196044        -0.990461      -0.0975384      -0.00107187      0.00124062        0.0169429      -0.0276375
281701.4              -0.0402724       0.0953922       0.00024339      0.00129158        -0.916101       -0.376765      0.000508319     -0.00190739
                      0.00043484      0.00137955       -0.0157094      -0.0300211      0.000530879     -0.00193072        -0.990905      -0.0976223
                       -0.915881       -0.376725      0.000360751     -0.00184444       -0.0422499       0.0939313       -0.0012143       0.0010616
                     0.000550655     -0.00196047        -0.990464      -0.0975088      -0.00107197      0.00124022        0.0169424      -0.0276447
281701.5              -0.0402672       0.0953878      0.000243479      0.00129161        -0.916112       -0.376738      0.000508259     -0.00190743
                     0.000434863      0.00137955       -0.0157094      -0.0300273      0.000530903     -0.00193078        -0.990908      -0.0975926
                       -0.915893       -0.376698      0.000360745     -0.00184451       -0.0422449        0.093927      -0.00121425      0.00106162
                       0.0005506      -0.0019605        -0.990466      -0.0974792      -0.00107208      0.00123982         0.016942      -0.0276518
281701.6              -0.0402619       0.0953834      0.000243567      0.00129165        -0.916123        -0.37671      0.000508198     -0.00190746
                     0.000434885      0.00137954       -0.0157093      -0.0300335      0.000530929     -0.00193083         -0.99091      -0.0975628
                       -0.915904       -0.376671      0.000360738     -0.00184458       -0.0422399       0.0939227       -0.0012142      0.00106163
                     0.000550544     -0.00196053        -0.990469      -0.0974496      -0.00107218      0.00123942        0.0169415       -0.027659
281701.7              -0.0402567       0.0953791      0.000243656      0.00129168        -0.916134       -0.376683      0.000508137      -0.0019075
                     0.000434908      0.00137954       -0.0157092      -0.0300397      0.000530956     -0.00193088        -0.990913       -0.097533
                       -0.915916       -0.376644       0.00036073     -0.00184465       -0.0422349       0.0939185      -0.00121414      0.00106164
                     0.000550489     -0.00196057        -0.990472        -0.09742      -0.00107229      0.00123902         0.016941      -0.0276661
281701.8              -0.0402515       0.0953747      0.000243745      0.00129171        -0.916145       -0.376656      0.000508077     -0.00190753
                     0.000434931      0.00137953       -0.0157092      -0.0300459      0.000530984     -0.00193094        -0.990916      -0.0975033
                       -0.915928       -0.376617      0.000360722     -0.00184472       -0.0422298       0.0939142      -0.00121409      0.00106166
                     0.000550433      -0.0019606        -0.990475      -0.0973904       -0.0010724      0.00123861        0.0169406      -0.0276732
281701.9              -0.0402462       0.0953703      0.000243833      0.00129174        -0.916157       -0.376628      0.000508016     -0.00190757
                     0.000434954      0.00137953       -0.0157091      -0.0300521      0.000531014     -0.00193099        -0.990919      -0.0974735
                        -0.91594        -0.37659      0.000360713     -0.00184479       -0.0422248       0.0939099      -0.00121404      0.00106167
                     0.000550378     -0.00196063        -0.990477      -0.0973608       -0.0010725       0.0012382        0.0169401      -0.0276804
281702                 -0.040241       0.0953659      0.000243922      0.00129177        -0.916168       -0.376601      0.000507955      -0.0019076
                     0.000434976      0.00137952       -0.0157091      -0.0300583      0.000531045     -0.00193104        -0.990921      -0.0974437
                       -0.915952       -0.376563      0.000360703     -0.00184487       -0.0422198       0.0939057      -0.00121398      0.00106168
                     0.000550323     -0.00196067         -0.99048      -0.0973311      -0.00107261      0.00123779        0.0169396      -0.0276875
281702.1              -0.0402358       0.0953616       0.00024401      0.00129181        -0.916179       -0.376574      0.000507894     -0.00190764
                     0.000434999      0.00137952        -0.015709      -0.0300644      0.000531077      -0.0019311        -0.990924       -0.097414
                       -0.915963       -0.376536      0.000360693     -0.00184494       -0.0422148       0.0939014      -0.00121393       0.0010617
                     0.000550267      -0.0019607        -0.990483      -0.0973015      -0.00107271      0.00123737        0.0169392      -0.0276947
281702.2              -0.0402305       0.0953572      0.000244098      0.00129184         -0.91619       -0.376547      0.000507834     -0.00190767
                     0.000435022      0.00137951       -0.0157089      -0.0300706      0.000531111     -0.00193115        -0.990927      -0.0973842
                       -0.915975       -0.376509      0.000360682     -0.00184501       -0.0422097       0.0938971      -0.00121388      0.00106171
                     0.000550212     -0.00196073        -0.990486      -0.0972719      -0.00107282      0.00123695        0.0169387      -0.0277018
281702.3              -0.0402253       0.0953528      0.000244187      0.00129187        -0.916202       -0.376519      0.000507773     -0.00190771
                     0.000435045      0.00137951       -0.0157089      -0.0300768      0.000531145      -0.0019312        -0.990929      -0.0973544
                       -0.915987       -0.376481       0.00036067     -0.00184508       -0.0422047       0.0938928      -0.00121382      0.00106172
                     0.000550156     -0.00196077        -0.990488      -0.0972423      -0.00107292      0.00123652        0.0169382       -0.027709
281702.4              -0.0402201       0.0953484      0.000244275      0.00129189        -0.916213       -0.376492      0.000507712     -0.00190774
                     0.000435068       0.0013795       -0.0157088       -0.030083      0.000531182     -0.00193125        -0.990932      -0.0973247
                       -0.915999       -0.376454      0.000360657     -0.00184516       -0.0421997       0.0938886      -0.00121377      0.00106174
                     0.000550101      -0.0019608        -0.990491      -0.0972127      -0.00107303       0.0012361        0.0169378      -0.0277161
281702.5              -0.0402148        0.095344      0.000244363      0.00129192        -0.916224       -0.376465      0.000507651     -0.00190778
                     0.000435091       0.0013795       -0.0157087      -0.0300892      0.000531219      -0.0019313        -0.990935      -0.0972949
                       -0.916011       -0.376427      0.000360644     -0.00184523       -0.0421947       0.0938843      -0.00121372      0.00106175
                     0.000550046     -0.00196083        -0.990494      -0.0971831      -0.00107313      0.00123566        0.0169373      -0.0277233
281702.6              -0.0402096       0.0953397      0.000244451      0.00129195        -0.916235       -0.376437       0.00050759     -0.00190781
                     0.000435114       0.0013795       -0.0157087      -0.0300954      0.000531258     -0.00193135        -0.990937      -0.0972651
                       -0.916022         -0.3764       0.00036063      -0.0018453       -0.0421897         0.09388      -0.00121366      0.00106176
                      0.00054999     -0.00196086        -0.990497      -0.0971535      -0.00107324      0.00123523        0.0169368      -0.0277304
281702.7              -0.0402044       0.0953353      0.000244539      0.00129198        -0.916247        -0.37641      0.000507529     -0.00190785
                     0.000435137      0.00137949       -0.0157086      -0.0301015      0.000531299      -0.0019314         -0.99094      -0.0972353
                       -0.916034       -0.376373      0.000360615     -0.00184538       -0.0421847       0.0938757      -0.00121361      0.00106178
                     0.000549935      -0.0019609        -0.990499      -0.0971239      -0.00107334      0.00123479        0.0169364      -0.0277375
281702.8              -0.0401991       0.0953309      0.000244627      0.00129201        -0.916258       -0.376383      0.000507468     -0.00190788
                      0.00043516      0.00137949       -0.0157085      -0.0301077      0.000531341     -0.00193145        -0.990943      -0.0972056
                       -0.916046       -0.376346      0.000360599     -0.00184545       -0.0421796       0.0938715      -0.00121356      0.00106179
                      0.00054988     -0.00196093        -0.990502      -0.0970943      -0.00107345      0.00123435        0.0169359      -0.0277447
281702.9              -0.0401939       0.0953265      0.000244714      0.00129203        -0.916269       -0.376356      0.000507407     -0.00190792
                     0.000435183      0.00137948       -0.0157085      -0.0301139      0.000531384      -0.0019315        -0.990946      -0.0971758
                       -0.916058       -0.376319      0.000360582     -0.00184553       -0.0421746       0.0938672       -0.0012135       0.0010618
                     0.000549824     -0.00196096        -0.990505      -0.0970647      -0.00107355       0.0012339        0.0169354      -0.0277518
281703                -0.0401887       0.0953221      0.000244802      0.00129206         -0.91628       -0.376328      0.000507346     -0.00190795
                     0.000435206      0.00137948       -0.0157084      -0.0301201      0.000531429     -0.00193155        -0.990948       -0.097146
                        -0.91607       -0.376292      0.000360565      -0.0018456       -0.0421696       0.0938629      -0.00121345      0.00106182
                     0.000549769       -0.001961        -0.990508      -0.0970351      -0.00107366      0.00123345        0.0169349       -0.027759
281703.1              -0.0401834       0.0953178       0.00024489      0.00129208        -0.916292       -0.376301      0.000507285     -0.00190799
                     0.000435229      0.00137947       -0.0157083      -0.0301263      0.000531476     -0.00193159        -0.990951      -0.0971163
                       -0.916081       -0.376265      0.000360547     -0.00184568       -0.0421646       0.0938586      -0.00121339      0.00106183
