! TOUCHSTONE file generated by CST MICROWAVE STUDIO
! Date and time: Wed Oct  8 07:02:22 2025
! Project name: Teste_Macro_Metasurface_Nanopilar.cst
! Parameters = {H=600; L_x=165; L_y=175; Lambda=1064; Max_L=200; Min_L=70; PathPara=1; Phi=0; Step_L=10; Theta=0; p=520; phaseX=180; phaseY=0}
! Header version: 2018
! Port assignment regex: !\s*Touchstone port\s*([0-9]+)\s*=\s*(CST MWS port|CST DS port)\s*([0-9]+|Zmin|Zmax)\s*\(\"(.*)\"\)(\s*mode\s*([0-9]+))?.*
! Touchstone port assignment:
! Touchstone port 1 = CST MWS port Zmax ("") mode 1
! Touchstone port 2 = CST MWS port Zmax ("") mode 2
! Touchstone port 3 = CST MWS port Zmin ("") mode 1
! Touchstone port 4 = CST MWS port Zmin ("") mode 2
! S-Parameters are not renormalized. Each port impedance will be approximated by the real part at minimum frequency. The values are described via the [Reference] keyword.
! Default impedance is overridden by [Reference]
[Version] 2.0
# GHz S RI R 376.73
[Number of Ports] 4
[Reference]
376.73 376.73 376.73 376.73 
[Number of Frequencies] 1001
[Network Data]
281700                -0.0149348      -0.0340513      0.000433403     0.000107197        -0.990956       -0.093898     -0.000171343    -0.000227266
                     0.000303722     0.000122546       -0.0111676       0.0173437      0.000248585    -0.000172712        -0.975223       -0.202492
                       -0.990987      -0.0938293      0.000196174     -7.2909e-05        0.0171197      -0.0315468     -0.000450144     3.78379e-06
                    -7.53366e-05    -0.000129004        -0.975095       -0.202497     -0.000510391     5.83621e-05     -0.000356327       0.0192542
281700.1              -0.0149346      -0.0340574      0.000433422     0.000107176        -0.990959      -0.0938686     -0.000171393    -0.000227272
                     0.000303881     0.000122666       -0.0111655       0.0173376      0.000248576    -0.000172757        -0.975229       -0.202463
                       -0.990989      -0.0937998      0.000196155    -7.28994e-05         0.017119      -0.0315539     -0.000450193     3.77982e-06
                    -7.54637e-05    -0.000129228        -0.975102       -0.202468     -0.000510404     5.84005e-05     -0.000354967       0.0192479
281700.2              -0.0149345      -0.0340636      0.000433441     0.000107154        -0.990962      -0.0938391     -0.000171444    -0.000227278
                      0.00030404     0.000122788       -0.0111634       0.0173315      0.000248566    -0.000172802        -0.975235       -0.202433
                       -0.990992      -0.0937703      0.000196136    -7.28898e-05        0.0171184       -0.031561     -0.000450243     3.77572e-06
                    -7.55895e-05    -0.000129456        -0.975108        -0.20244     -0.000510417      5.8439e-05     -0.000353607       0.0192416
281700.3              -0.0149344      -0.0340697       0.00043346     0.000107133        -0.990964      -0.0938097     -0.000171494    -0.000227284
                     0.000304199     0.000122915       -0.0111613       0.0173255      0.000248557    -0.000172848        -0.975242       -0.202404
                       -0.990995      -0.0937407      0.000196117    -7.28801e-05        0.0171178      -0.0315681     -0.000450293      3.7715e-06
                    -7.57142e-05    -0.000129689        -0.975114       -0.202411      -0.00051043     5.84775e-05     -0.000352248       0.0192353
281700.4              -0.0149342      -0.0340758      0.000433479     0.000107111        -0.990967      -0.0937802     -0.000171545     -0.00022729
                     0.000304358     0.000123044       -0.0111592       0.0173194      0.000248547    -0.000172893        -0.975248       -0.202375
                       -0.990997      -0.0937112      0.000196098    -7.28705e-05        0.0171171      -0.0315752     -0.000450342     3.76716e-06
                    -7.58374e-05    -0.000129925         -0.97512       -0.202382     -0.000510443     5.85161e-05     -0.000350888        0.019229
281700.5              -0.0149341      -0.0340819      0.000433498      0.00010709        -0.990969      -0.0937508     -0.000171596    -0.000227295
                     0.000304517     0.000123176       -0.0111571       0.0173134      0.000248538    -0.000172938        -0.975254       -0.202346
                          -0.991      -0.0936816      0.000196079    -7.28609e-05        0.0171165      -0.0315823     -0.000450391     3.76271e-06
                    -7.59592e-05    -0.000130166        -0.975126       -0.202353     -0.000510456     5.85548e-05     -0.000349529       0.0192227
281700.6              -0.0149339      -0.0340881      0.000433518     0.000107068        -0.990972      -0.0937213     -0.000171647    -0.000227301
                     0.000304676     0.000123312        -0.011155       0.0173073      0.000248528    -0.000172983         -0.97526       -0.202317
                       -0.991003      -0.0936521       0.00019606    -7.28512e-05        0.0171158      -0.0315893      -0.00045044     3.75813e-06
                    -7.60794e-05    -0.000130412        -0.975132       -0.202324     -0.000510469     5.85935e-05      -0.00034817       0.0192165
281700.7              -0.0149338      -0.0340942      0.000433537     0.000107047        -0.990975      -0.0936919     -0.000171698    -0.000227306
                     0.000304835     0.000123451       -0.0111528       0.0173013      0.000248518    -0.000173029        -0.975266       -0.202287
                       -0.991005      -0.0936225      0.000196041    -7.28415e-05        0.0171152      -0.0315964     -0.000450488     3.75344e-06
                    -7.61979e-05    -0.000130662        -0.975138       -0.202295     -0.000510482     5.86322e-05     -0.000346812       0.0192102
281700.8              -0.0149337      -0.0341003      0.000433556     0.000107025        -0.990977      -0.0936624     -0.000171749    -0.000227311
                     0.000304993     0.000123594       -0.0111507       0.0172952      0.000248508    -0.000173074        -0.975273       -0.202258
                       -0.991008       -0.093593      0.000196022    -7.28318e-05        0.0171145      -0.0316035     -0.000450537     3.74863e-06
                    -7.63146e-05    -0.000130916        -0.975144       -0.202266     -0.000510495      5.8671e-05     -0.000345453       0.0192039
281700.9              -0.0149335      -0.0341064      0.000433575     0.000107004         -0.99098       -0.093633       -0.0001718    -0.000227316
                     0.000305151      0.00012374       -0.0111486       0.0172892      0.000248499    -0.000173119        -0.975279       -0.202229
                       -0.991011      -0.0935635      0.000196003    -7.28221e-05        0.0171139      -0.0316106     -0.000450585     3.74371e-06
                    -7.64293e-05    -0.000131175         -0.97515       -0.202238     -0.000510508     5.87099e-05     -0.000344095       0.0191976
281701                -0.0149334      -0.0341126      0.000433594     0.000106982        -0.990983      -0.0936035     -0.000171851     -0.00022732
                     0.000305309     0.000123889       -0.0111465       0.0172831      0.000248489    -0.000173165        -0.975285         -0.2022
                       -0.991013      -0.0935339      0.000195984    -7.28124e-05        0.0171132      -0.0316177     -0.000450633     3.73867e-06
                    -7.65419e-05    -0.000131439        -0.975157       -0.202209     -0.000510521     5.87488e-05     -0.000342737       0.0191913
281701.1              -0.0149332      -0.0341187      0.000433614      0.00010696        -0.990985      -0.0935741     -0.000171903    -0.000227325
                     0.000305466     0.000124042       -0.0111444       0.0172771      0.000248479     -0.00017321        -0.975291        -0.20217
                       -0.991016      -0.0935044      0.000195965    -7.28027e-05        0.0171126      -0.0316248     -0.000450681     3.73352e-06
                    -7.66524e-05    -0.000131707        -0.975163        -0.20218     -0.000510534     5.87878e-05     -0.000341379        0.019185
281701.2              -0.0149331      -0.0341248      0.000433633     0.000106939        -0.990988      -0.0935446     -0.000171955    -0.000227329
                     0.000305623     0.000124199       -0.0111422       0.0172711      0.000248469    -0.000173256        -0.975297       -0.202141
                       -0.991018      -0.0934748      0.000195946     -7.2793e-05        0.0171119      -0.0316319     -0.000450729     3.72825e-06
                    -7.67604e-05     -0.00013198        -0.975169       -0.202151     -0.000510547     5.88269e-05     -0.000340021       0.0191788
281701.3               -0.014933       -0.034131      0.000433652     0.000106917        -0.990991      -0.0935152     -0.000172006    -0.000227334
                     0.000305779     0.000124359       -0.0111401        0.017265      0.000248459    -0.000173301        -0.975303       -0.202112
                       -0.991021      -0.0934453      0.000195927    -7.27832e-05        0.0171113       -0.031639     -0.000450776     3.72287e-06
                     -7.6866e-05    -0.000132258        -0.975175       -0.202122     -0.000510561      5.8866e-05     -0.000338664       0.0191725
281701.4              -0.0149328      -0.0341371      0.000433671     0.000106895        -0.990993      -0.0934857     -0.000172058    -0.000227338
                     0.000305935     0.000124523        -0.011138        0.017259      0.000248449    -0.000173347         -0.97531       -0.202083
                       -0.991024      -0.0934157      0.000195908    -7.27734e-05        0.0171106      -0.0316461     -0.000450824     3.71737e-06
                    -7.69689e-05     -0.00013254        -0.975181       -0.202093     -0.000510574     5.89051e-05     -0.000337306       0.0191662
281701.5              -0.0149327      -0.0341432      0.000433691     0.000106873        -0.990996      -0.0934563      -0.00017211    -0.000227342
                     0.000306089     0.000124691       -0.0111359        0.017253      0.000248438    -0.000173392        -0.975316       -0.202053
                       -0.991026      -0.0933862      0.000195888    -7.27637e-05        0.0171099      -0.0316532     -0.000450871     3.71177e-06
                     -7.7069e-05    -0.000132828        -0.975187       -0.202064     -0.000510587     5.89444e-05     -0.000335949       0.0191599
281701.6              -0.0149326      -0.0341493       0.00043371     0.000106852        -0.990998      -0.0934268     -0.000172162    -0.000227345
                     0.000306243     0.000124862       -0.0111337        0.017247      0.000248428    -0.000173438        -0.975322       -0.202024
                       -0.991029      -0.0933567      0.000195869    -7.27539e-05        0.0171093      -0.0316602     -0.000450918     3.70606e-06
                    -7.71661e-05     -0.00013312        -0.975193       -0.202036       -0.0005106     5.89836e-05     -0.000334592       0.0191536
281701.7              -0.0149324      -0.0341555      0.000433729      0.00010683        -0.991001      -0.0933974     -0.000172214    -0.000227349
                     0.000306396     0.000125038       -0.0111316       0.0172409      0.000248418    -0.000173484        -0.975328       -0.201995
                       -0.991032      -0.0933271       0.00019585    -7.27441e-05        0.0171086      -0.0316673     -0.000450964     3.70023e-06
                    -7.72601e-05    -0.000133417        -0.975199       -0.202007     -0.000510613      5.9023e-05     -0.000333235       0.0191473
281701.8              -0.0149323      -0.0341616      0.000433748     0.000106808        -0.991004      -0.0933679     -0.000172267    -0.000227352
                     0.000306547     0.000125217       -0.0111295       0.0172349      0.000248408     -0.00017353        -0.975334       -0.201966
                       -0.991034      -0.0932976      0.000195831    -7.27342e-05         0.017108      -0.0316744     -0.000451011      3.6943e-06
                    -7.73508e-05    -0.000133719        -0.975205       -0.201978     -0.000510626     5.90624e-05     -0.000331878        0.019141
281701.9              -0.0149322      -0.0341677      0.000433768     0.000106786        -0.991006      -0.0933385     -0.000172319    -0.000227356
                     0.000306698       0.0001254       -0.0111273       0.0172289      0.000248397    -0.000173575         -0.97534       -0.201937
                       -0.991037       -0.093268      0.000195812    -7.27244e-05        0.0171073      -0.0316815     -0.000451057     3.68826e-06
                    -7.74381e-05    -0.000134025        -0.975211       -0.201949     -0.000510639     5.91019e-05     -0.000330522       0.0191348
281702                 -0.014932      -0.0341738      0.000433787     0.000106765        -0.991009       -0.093309     -0.000172372    -0.000227359
                     0.000306847     0.000125587       -0.0111252       0.0172229      0.000248387    -0.000173621        -0.975347       -0.201907
                        -0.99104      -0.0932385      0.000195792    -7.27145e-05        0.0171066      -0.0316886     -0.000451103     3.68211e-06
                    -7.75217e-05    -0.000134337        -0.975217        -0.20192     -0.000510652     5.91414e-05     -0.000329166       0.0191285
281702.1              -0.0149319        -0.03418      0.000433806     0.000106743        -0.991012      -0.0932795     -0.000172424    -0.000227361
                     0.000306994     0.000125778       -0.0111231       0.0172169      0.000248376    -0.000173667        -0.975353       -0.201878
                       -0.991042      -0.0932089      0.000195773    -7.27047e-05         0.017106      -0.0316957     -0.000451149     3.67585e-06
                    -7.76014e-05    -0.000134654        -0.975224       -0.201891     -0.000510665      5.9181e-05      -0.00032781       0.0191222
281702.2              -0.0149317      -0.0341861      0.000433826     0.000106721        -0.991014      -0.0932501     -0.000172477    -0.000227364
                     0.000307141     0.000125973       -0.0111209       0.0172109      0.000248366    -0.000173713        -0.975359       -0.201849
                       -0.991045      -0.0931794      0.000195754    -7.26948e-05        0.0171053      -0.0317028     -0.000451194     3.66949e-06
                    -7.76771e-05    -0.000134975         -0.97523       -0.201862     -0.000510679     5.92206e-05     -0.000326454       0.0191159
281702.3              -0.0149316      -0.0341922      0.000433845     0.000106699        -0.991017      -0.0932206      -0.00017253    -0.000227367
                     0.000307285     0.000126173       -0.0111188       0.0172049      0.000248355    -0.000173759        -0.975365        -0.20182
                       -0.991048      -0.0931499      0.000195735    -7.26849e-05        0.0171046      -0.0317099      -0.00045124     3.66303e-06
                    -7.77486e-05    -0.000135302        -0.975236       -0.201833     -0.000510692     5.92603e-05     -0.000325098       0.0191096
281702.4              -0.0149315      -0.0341983      0.000433864     0.000106677        -0.991019      -0.0931912     -0.000172583    -0.000227369
                     0.000307428     0.000126376       -0.0111167       0.0171989      0.000248344    -0.000173805        -0.975371        -0.20179
                        -0.99105      -0.0931203      0.000195715     -7.2675e-05        0.0171039       -0.031717     -0.000451285     3.65646e-06
                    -7.78157e-05    -0.000135633        -0.975242       -0.201805     -0.000510705     5.93001e-05     -0.000323743       0.0191033
281702.5              -0.0149313      -0.0342045      0.000433883     0.000106655        -0.991022      -0.0931617     -0.000172636    -0.000227371
                     0.000307569     0.000126583       -0.0111145       0.0171929      0.000248333    -0.000173851        -0.975377       -0.201761
                       -0.991053      -0.0930908      0.000195696     -7.2665e-05        0.0171033      -0.0317241      -0.00045133     3.64979e-06
                    -7.78781e-05    -0.000135969        -0.975248       -0.201776     -0.000510718       5.934e-05     -0.000322387       0.0190971
281702.6              -0.0149312      -0.0342106      0.000433903     0.000106633        -0.991025      -0.0931323     -0.000172689    -0.000227373
                     0.000307708     0.000126794       -0.0111124       0.0171869      0.000248323    -0.000173897        -0.975384       -0.201732
                       -0.991055      -0.0930612      0.000195677    -7.26551e-05        0.0171026      -0.0317312     -0.000451375     3.64301e-06
                    -7.79358e-05     -0.00013631        -0.975254       -0.201747     -0.000510731     5.93799e-05     -0.000321032       0.0190908
281702.7              -0.0149311      -0.0342167      0.000433922     0.000106611        -0.991027      -0.0931028     -0.000172743    -0.000227375
                     0.000307844      0.00012701       -0.0111102       0.0171809      0.000248312    -0.000173943         -0.97539       -0.201703
                       -0.991058      -0.0930317      0.000195657    -7.26451e-05        0.0171019      -0.0317383     -0.000451419     3.63614e-06
                    -7.79884e-05    -0.000136656         -0.97526       -0.201718     -0.000510744     5.94199e-05     -0.000319677       0.0190845
281702.8               -0.014931      -0.0342228      0.000433941     0.000106589         -0.99103      -0.0930734     -0.000172796    -0.000227376
                     0.000307979     0.000127229       -0.0111081       0.0171749      0.000248301    -0.000173989        -0.975396       -0.201674
                       -0.991061      -0.0930021      0.000195638    -7.26351e-05        0.0171012      -0.0317454     -0.000451464     3.62916e-06
                    -7.80357e-05    -0.000137007        -0.975266       -0.201689     -0.000510758     5.94599e-05     -0.000318323       0.0190782
281702.9              -0.0149308       -0.034229      0.000433961     0.000106567        -0.991032      -0.0930439      -0.00017285    -0.000227377
                     0.000308111     0.000127453       -0.0111059       0.0171689       0.00024829    -0.000174035        -0.975402       -0.201644
                       -0.991063      -0.0929726      0.000195618    -7.26252e-05        0.0171006      -0.0317525     -0.000451508     3.62208e-06
                    -7.80776e-05    -0.000137362        -0.975272        -0.20166     -0.000510771        5.95e-05     -0.000316968       0.0190719
281703                -0.0149307      -0.0342351       0.00043398     0.000106545        -0.991035      -0.0930144     -0.000172903    -0.000227378
                     0.000308241     0.000127681       -0.0111038       0.0171629      0.000248279    -0.000174082        -0.975408       -0.201615
                       -0.991066       -0.092943      0.000195599    -7.26151e-05        0.0170999      -0.0317596     -0.000451552     3.61491e-06
                    -7.81138e-05    -0.000137722        -0.975278       -0.201631     -0.000510784     5.95402e-05     -0.000315614       0.0190656
281703.1              -0.0149306      -0.0342412         0.000434     0.000106523        -0.991038       -0.092985     -0.000172957    -0.000227379
                     0.000308367     0.000127913       -0.0111016       0.0171569      0.000248267    -0.000174128        -0.975414       -0.201586
                       -0.991069      -0.0929135      0.000195579    -7.26051e-05        0.0170992      -0.0317667     -0.000451596     3.60764e-06
