! TOUCHSTONE file generated by CST MICROWAVE STUDIO
! Date and time: Wed Oct  8 06:55:12 2025
! Project name: Teste_Macro_Metasurface_Nanopilar.cst
! Parameters = {H=600; L_x=105; L_y=175; Lambda=1064; Max_L=200; Min_L=70; PathPara=1; Phi=0; Step_L=10; Theta=0; p=520; phaseX=180; phaseY=0}
! Header version: 2018
! Port assignment regex: !\s*Touchstone port\s*([0-9]+)\s*=\s*(CST MWS port|CST DS port)\s*([0-9]+|Zmin|Zmax)\s*\(\"(.*)\"\)(\s*mode\s*([0-9]+))?.*
! Touchstone port assignment:
! Touchstone port 1 = CST MWS port Zmax ("") mode 1
! Touchstone port 2 = CST MWS port Zmax ("") mode 2
! Touchstone port 3 = CST MWS port Zmin ("") mode 1
! Touchstone port 4 = CST MWS port Zmin ("") mode 2
! S-Parameters are not renormalized. Each port impedance will be approximated by the real part at minimum frequency. The values are described via the [Reference] keyword.
! Default impedance is overridden by [Reference]
[Version] 2.0
# GHz S RI R 376.73
[Number of Ports] 4
[Reference]
376.73 376.73 376.73 376.73 
[Number of Frequencies] 1001
[Network Data]
281700                 -0.671205       -0.486213     -0.000397177    -0.000217456        -0.466625        0.207568     -0.000206952     0.000215925
                     -0.00010535    -0.000272088      -0.00165322      -0.0523781      0.000262997    -0.000276075         0.979406       -0.138165
                       -0.466872        0.208173       0.00038729    -0.000346292       -0.0146605       -0.821803     -0.000148866     0.000344669
                    -0.000149839     0.000179351          0.97936       -0.138317     -0.000260545     0.000349732       -0.0176339      -0.0489739
281700.1               -0.671242       -0.486193     -0.000397178     -0.00021742        -0.466584        0.207583     -0.000206941     0.000215959
                    -0.000105348     -0.00027208      -0.00165535      -0.0523847      0.000262934    -0.000276095         0.979401       -0.138199
                       -0.466831        0.208187      0.000387285    -0.000346343       -0.0147259       -0.821821     -0.000148875     0.000344635
                    -0.000149824     0.000179363         0.979354       -0.138352     -0.000260542     0.000349735       -0.0176372      -0.0489798
281700.2               -0.671279       -0.486173     -0.000397179    -0.000217385        -0.466544        0.207598      -0.00020693     0.000215993
                    -0.000105346    -0.000272071      -0.00165749      -0.0523913       0.00026287    -0.000276116         0.979396       -0.138233
                       -0.466791        0.208202      0.000387279    -0.000346394       -0.0147913       -0.821838     -0.000148884     0.000344601
                     -0.00014981     0.000179375         0.979349       -0.138386     -0.000260538     0.000349737       -0.0176404      -0.0489857
281700.3               -0.671317       -0.486153      -0.00039718    -0.000217349        -0.466503        0.207613     -0.000206919     0.000216027
                    -0.000105345    -0.000272063      -0.00165962      -0.0523979      0.000262806    -0.000276136         0.979391       -0.138268
                        -0.46675        0.208217      0.000387274    -0.000346445       -0.0148566       -0.821856     -0.000148892     0.000344566
                    -0.000149795     0.000179388         0.979344       -0.138421     -0.000260534      0.00034974       -0.0176437      -0.0489916
281700.4               -0.671354       -0.486133     -0.000397182    -0.000217314        -0.466463        0.207628     -0.000206908     0.000216062
                    -0.000105343    -0.000272055      -0.00166176      -0.0524045      0.000262742    -0.000276156         0.979386       -0.138302
                        -0.46671        0.208231      0.000387269    -0.000346496        -0.014922       -0.821873     -0.000148901     0.000344532
                    -0.000149781       0.0001794         0.979339       -0.138455     -0.000260531     0.000349743        -0.017647      -0.0489975
281700.5               -0.671391       -0.486113     -0.000397183    -0.000217279        -0.466422        0.207643     -0.000206898     0.000216096
                    -0.000105341    -0.000272047       -0.0016639      -0.0524111      0.000262679    -0.000276176          0.97938       -0.138337
                       -0.466669        0.208246      0.000387263    -0.000346547       -0.0149874        -0.82189      -0.00014891     0.000344498
                    -0.000149766     0.000179412         0.979334       -0.138489     -0.000260527     0.000349745       -0.0176502      -0.0490034
281700.6               -0.671428       -0.486093     -0.000397184    -0.000217243        -0.466382        0.207658     -0.000206887      0.00021613
                     -0.00010534    -0.000272039      -0.00166604      -0.0524177      0.000262615    -0.000276197         0.979375       -0.138371
                       -0.466629        0.208261      0.000387258    -0.000346598       -0.0150528       -0.821908     -0.000148919     0.000344464
                    -0.000149752     0.000179424         0.979328       -0.138524     -0.000260523     0.000349748       -0.0176535      -0.0490093
281700.7               -0.671465       -0.486073     -0.000397185    -0.000217208        -0.466341        0.207673     -0.000206876     0.000216164
                    -0.000105338     -0.00027203      -0.00166817      -0.0524243      0.000262551    -0.000276217          0.97937       -0.138406
                       -0.466588        0.208275      0.000387253    -0.000346649       -0.0151182       -0.821925     -0.000148927      0.00034443
                    -0.000149737     0.000179437         0.979323       -0.138558      -0.00026052     0.000349751       -0.0176567      -0.0490151
281700.8               -0.671502       -0.486052     -0.000397187    -0.000217172        -0.466301        0.207688     -0.000206865     0.000216198
                    -0.000105336    -0.000272022      -0.00167031      -0.0524309      0.000262487    -0.000276237         0.979365        -0.13844
                       -0.466547         0.20829      0.000387248      -0.0003467       -0.0151836       -0.821943     -0.000148936     0.000344395
                    -0.000149722     0.000179449         0.979318       -0.138593     -0.000260516     0.000349753         -0.01766       -0.049021
281700.9               -0.671539       -0.486032     -0.000397188    -0.000217137         -0.46626        0.207702     -0.000206855     0.000216232
                    -0.000105335    -0.000272014      -0.00167245      -0.0524375      0.000262424    -0.000276257          0.97936       -0.138474
                       -0.466507        0.208304      0.000387242    -0.000346751       -0.0152489        -0.82196     -0.000148945     0.000344361
                    -0.000149708     0.000179461         0.979313       -0.138627     -0.000260513     0.000349756       -0.0176633      -0.0490269
281701                 -0.671577       -0.486012     -0.000397189    -0.000217101        -0.466219        0.207717     -0.000206844     0.000216266
                    -0.000105333    -0.000272006      -0.00167459      -0.0524441       0.00026236    -0.000276278         0.979354       -0.138509
                       -0.466466        0.208319      0.000387237    -0.000346802       -0.0153143       -0.821977     -0.000148953     0.000344327
                    -0.000149693     0.000179473         0.979307       -0.138661     -0.000260509     0.000349758       -0.0176665      -0.0490328
281701.1               -0.671614       -0.485992      -0.00039719    -0.000217066        -0.466179        0.207732     -0.000206833       0.0002163
                    -0.000105331    -0.000271998      -0.00167673      -0.0524507      0.000262296    -0.000276298         0.979349       -0.138543
                       -0.466426        0.208334      0.000387232    -0.000346853       -0.0153797       -0.821995     -0.000148962     0.000344293
                    -0.000149679     0.000179485         0.979302       -0.138696     -0.000260506     0.000349761       -0.0176698      -0.0490387
281701.2               -0.671651       -0.485972     -0.000397191     -0.00021703        -0.466138        0.207747     -0.000206822     0.000216335
                     -0.00010533     -0.00027199      -0.00167887      -0.0524573      0.000262233    -0.000276318         0.979344       -0.138578
                       -0.466385        0.208348      0.000387226    -0.000346904       -0.0154451       -0.822012     -0.000148971     0.000344259
                    -0.000149664     0.000179498         0.979297        -0.13873     -0.000260502     0.000349764       -0.0176731      -0.0490446
281701.3               -0.671688       -0.485952     -0.000397193    -0.000216995        -0.466098        0.207762     -0.000206811     0.000216369
                    -0.000105328    -0.000271981      -0.00168101      -0.0524639      0.000262169    -0.000276339         0.979339       -0.138612
                       -0.466345        0.208363      0.000387221    -0.000346956       -0.0155105       -0.822029      -0.00014898     0.000344224
                     -0.00014965      0.00017951         0.979292       -0.138765     -0.000260498     0.000349766       -0.0176763      -0.0490504
281701.4               -0.671725       -0.485932     -0.000397194     -0.00021696        -0.466057        0.207777       -0.0002068     0.000216403
                    -0.000105326    -0.000271973      -0.00168315      -0.0524705      0.000262106    -0.000276359         0.979333       -0.138647
                       -0.466304        0.208377      0.000387216    -0.000347007       -0.0155759       -0.822047     -0.000148988      0.00034419
                    -0.000149635     0.000179522         0.979287       -0.138799     -0.000260495     0.000349769       -0.0176796      -0.0490563
281701.5               -0.671762       -0.485911     -0.000397195    -0.000216924        -0.466017        0.207792      -0.00020679     0.000216437
                    -0.000105325    -0.000271965      -0.00168529      -0.0524771      0.000262042    -0.000276379         0.979328       -0.138681
                       -0.466263        0.208392       0.00038721    -0.000347058       -0.0156413       -0.822064     -0.000148997     0.000344156
                    -0.000149621     0.000179534         0.979281       -0.138834     -0.000260491     0.000349771       -0.0176828      -0.0490622
281701.6               -0.671799       -0.485891     -0.000397196    -0.000216889        -0.465976        0.207807     -0.000206779     0.000216471
                    -0.000105323    -0.000271957      -0.00168744      -0.0524837      0.000261979    -0.000276399         0.979323       -0.138715
                       -0.466223        0.208407      0.000387205    -0.000347109       -0.0157067       -0.822081     -0.000149006     0.000344122
                    -0.000149606     0.000179547         0.979276       -0.138868     -0.000260488     0.000349774       -0.0176861      -0.0490681
281701.7               -0.671837       -0.485871     -0.000397197    -0.000216853        -0.465935        0.207822     -0.000206768     0.000216505
                    -0.000105321    -0.000271949      -0.00168958      -0.0524903      0.000261915     -0.00027642         0.979318        -0.13875
                       -0.466182        0.208421        0.0003872     -0.00034716       -0.0157721       -0.822099     -0.000149015     0.000344087
                    -0.000149592     0.000179559         0.979271       -0.138902     -0.000260484     0.000349777       -0.0176894       -0.049074
281701.8               -0.671874       -0.485851     -0.000397198    -0.000216818        -0.465895        0.207837     -0.000206757     0.000216539
                     -0.00010532    -0.000271941      -0.00169172      -0.0524969      0.000261851     -0.00027644         0.979312       -0.138784
                       -0.466142        0.208436      0.000387194    -0.000347211       -0.0158376       -0.822116     -0.000149024     0.000344053
                    -0.000149577     0.000179571         0.979266       -0.138937     -0.000260481     0.000349779       -0.0176926      -0.0490799
281701.9               -0.671911       -0.485831       -0.0003972    -0.000216782        -0.465854        0.207852     -0.000206746     0.000216573
                    -0.000105318    -0.000271932      -0.00169387      -0.0525035      0.000261788     -0.00027646         0.979307       -0.138819
                       -0.466101         0.20845      0.000387189    -0.000347262        -0.015903       -0.822133     -0.000149032     0.000344019
                    -0.000149563     0.000179583          0.97926       -0.138971     -0.000260477     0.000349782       -0.0176959      -0.0490857
281702                 -0.671948        -0.48581     -0.000397201    -0.000216747        -0.465814        0.207867     -0.000206735     0.000216607
                    -0.000105316    -0.000271924      -0.00169601      -0.0525101      0.000261725    -0.000276481         0.979302       -0.138853
                       -0.466061        0.208465      0.000387184    -0.000347313       -0.0159684       -0.822151     -0.000149041     0.000343985
                    -0.000149548     0.000179595         0.979255       -0.139006     -0.000260473     0.000349784       -0.0176992      -0.0490916
281702.1               -0.671985        -0.48579     -0.000397202    -0.000216711        -0.465773        0.207881     -0.000206725     0.000216641
                    -0.000105314    -0.000271916      -0.00169815      -0.0525167      0.000261661    -0.000276501         0.979297       -0.138888
                        -0.46602        0.208479      0.000387178    -0.000347364       -0.0160338       -0.822168      -0.00014905     0.000343951
                    -0.000149534     0.000179608          0.97925        -0.13904      -0.00026047     0.000349787       -0.0177024      -0.0490975
281702.2               -0.672022        -0.48577     -0.000397203    -0.000216676        -0.465733        0.207896     -0.000206714     0.000216676
                    -0.000105313    -0.000271908       -0.0017003      -0.0525233      0.000261598    -0.000276521         0.979291       -0.138922
                       -0.465979        0.208494      0.000387173    -0.000347415       -0.0160992       -0.822185     -0.000149059     0.000343916
                    -0.000149519      0.00017962         0.979245       -0.139074     -0.000260466     0.000349789       -0.0177057      -0.0491034
281702.3               -0.672059        -0.48575     -0.000397204     -0.00021664        -0.465692        0.207911     -0.000206703      0.00021671
                    -0.000105311      -0.0002719      -0.00170244      -0.0525299      0.000261534    -0.000276542         0.979286       -0.138956
                       -0.465939        0.208509      0.000387167    -0.000347466       -0.0161647       -0.822202     -0.000149068     0.000343882
                    -0.000149505     0.000179632         0.979239       -0.139109     -0.000260463     0.000349792        -0.017709      -0.0491093
281702.4               -0.672097        -0.48573     -0.000397205    -0.000216605        -0.465651        0.207926     -0.000206692     0.000216744
                    -0.000105309    -0.000271891      -0.00170459      -0.0525365      0.000261471    -0.000276562         0.979281       -0.138991
                       -0.465898        0.208523      0.000387162    -0.000347517       -0.0162301        -0.82222     -0.000149077     0.000343848
                     -0.00014949     0.000179644         0.979234       -0.139143     -0.000260459     0.000349795       -0.0177122      -0.0491151
281702.5               -0.672134        -0.48571     -0.000397206     -0.00021657        -0.465611        0.207941     -0.000206681     0.000216778
                    -0.000105308    -0.000271883      -0.00170674      -0.0525431      0.000261407    -0.000276582         0.979276       -0.139025
                       -0.465858        0.208538      0.000387156    -0.000347568       -0.0162955       -0.822237     -0.000149085     0.000343814
                    -0.000149475     0.000179656         0.979229       -0.139178     -0.000260456     0.000349797       -0.0177155       -0.049121
281702.6               -0.672171       -0.485689     -0.000397207    -0.000216534         -0.46557        0.207956      -0.00020667     0.000216812
                    -0.000105306    -0.000271875      -0.00170888      -0.0525497      0.000261344    -0.000276603         0.979271        -0.13906
                       -0.465817        0.208552      0.000387151     -0.00034762       -0.0163609       -0.822254     -0.000149094     0.000343779
                    -0.000149461     0.000179669         0.979224       -0.139212     -0.000260452       0.0003498       -0.0177188      -0.0491269
281702.7               -0.672208       -0.485669     -0.000397209    -0.000216499         -0.46553        0.207971     -0.000206659     0.000216846
                    -0.000105304    -0.000271867      -0.00171103      -0.0525563      0.000261281    -0.000276623         0.979265       -0.139094
                       -0.465777        0.208567      0.000387146    -0.000347671       -0.0164264       -0.822271     -0.000149103     0.000343745
                    -0.000149446     0.000179681         0.979218       -0.139246     -0.000260449     0.000349802       -0.0177221      -0.0491328
281702.8               -0.672245       -0.485649      -0.00039721    -0.000216463        -0.465489        0.207985     -0.000206648      0.00021688
                    -0.000105303    -0.000271859      -0.00171318      -0.0525629      0.000261217    -0.000276643          0.97926       -0.139129
                       -0.465736        0.208581       0.00038714    -0.000347722       -0.0164918       -0.822289     -0.000149112     0.000343711
                    -0.000149432     0.000179693         0.979213       -0.139281     -0.000260445     0.000349805       -0.0177253      -0.0491387
281702.9               -0.672282       -0.485629     -0.000397211    -0.000216428        -0.465449           0.208     -0.000206638     0.000216914
                    -0.000105301    -0.000271851      -0.00171533      -0.0525695      0.000261154    -0.000276664         0.979255       -0.139163
                       -0.465695        0.208596      0.000387135    -0.000347773       -0.0165573       -0.822306     -0.000149121     0.000343677
                    -0.000149417     0.000179705         0.979208       -0.139315     -0.000260442     0.000349807       -0.0177286      -0.0491446
281703                 -0.672319       -0.485608     -0.000397212    -0.000216392        -0.465408        0.208015     -0.000206627     0.000216948
                    -0.000105299    -0.000271842      -0.00171748      -0.0525761      0.000261091    -0.000276684          0.97925       -0.139197
                       -0.465655         0.20861      0.000387129    -0.000347824       -0.0166227       -0.822323      -0.00014913     0.000343642
                    -0.000149403     0.000179717         0.979203        -0.13935     -0.000260438      0.00034981       -0.0177319      -0.0491504
281703.1               -0.672357       -0.485588     -0.000397213    -0.000216357        -0.465367         0.20803     -0.000206616     0.000216982
                    -0.000105298    -0.000271834      -0.00171963      -0.0525827      0.000261028    -0.000276704         0.979244       -0.139232
                       -0.465614        0.208625      0.000387124    -0.000347875       -0.0166882        -0.82234     -0.000149139     0.000343608
