! TOUCHSTONE file generated by CST MICROWAVE STUDIO
! Date and time: Wed Oct  8 07:00:20 2025
! Project name: Teste_Macro_Metasurface_Nanopilar.cst
! Parameters = {H=600; L_x=150; L_y=120; Lambda=1064; Max_L=200; Min_L=70; PathPara=1; Phi=0; Step_L=10; Theta=0; p=520; phaseX=180; phaseY=0}
! Header version: 2018
! Port assignment regex: !\s*Touchstone port\s*([0-9]+)\s*=\s*(CST MWS port|CST DS port)\s*([0-9]+|Zmin|Zmax)\s*\(\"(.*)\"\)(\s*mode\s*([0-9]+))?.*
! Touchstone port assignment:
! Touchstone port 1 = CST MWS port Zmax ("") mode 1
! Touchstone port 2 = CST MWS port Zmax ("") mode 2
! Touchstone port 3 = CST MWS port Zmin ("") mode 1
! Touchstone port 4 = CST MWS port Zmin ("") mode 2
! S-Parameters are not renormalized. Each port impedance will be approximated by the real part at minimum frequency. The values are described via the [Reference] keyword.
! Default impedance is overridden by [Reference]
[Version] 2.0
# GHz S RI R 376.73
[Number of Ports] 4
[Reference]
376.73 376.73 376.73 376.73 
[Number of Frequencies] 1001
[Network Data]
281700                 -0.201795       -0.134111       0.00027083     0.000589278         0.247533       -0.930457     -0.000430355     0.000298473
                     0.000248136     0.000643757         -0.12844      -0.0277967     -0.000432203     -1.3514e-05        -0.673369       -0.720807
                        0.247411       -0.930602     -0.000472475     7.48437e-05        -0.242317       0.0174698      2.06186e-05    -0.000641952
                     -0.00026878     0.000177258        -0.673144       -0.720945     -0.000235108    -0.000469311        0.0167607        0.127368
281700.1                 -0.2018       -0.134104      0.000270857     0.000589274         0.247503       -0.930465     -0.000430353     0.000298485
                     0.000248151     0.000643753        -0.128435      -0.0277963     -0.000432201    -1.34988e-05        -0.673393       -0.720786
                        0.247382       -0.930609     -0.000472481     7.48452e-05        -0.242316        0.017476       2.0604e-05    -0.000641916
                    -0.000268835     0.000177292        -0.673168       -0.720924     -0.000235121    -0.000469306        0.0167689        0.127362
281700.2               -0.201805       -0.134096      0.000270885     0.000589269         0.247474       -0.930473     -0.000430352     0.000298497
                     0.000248167     0.000643748         -0.12843       -0.027796     -0.000432199    -1.34835e-05        -0.673416       -0.720764
                        0.247352       -0.930617     -0.000472488     7.48467e-05        -0.242316       0.0174822      2.05895e-05    -0.000641881
                     -0.00026889     0.000177326        -0.673191       -0.720903     -0.000235134      -0.0004693         0.016777        0.127355
281700.3               -0.201811       -0.134089      0.000270912     0.000589264         0.247444       -0.930481      -0.00043035     0.000298509
                     0.000248182     0.000643743        -0.128424      -0.0277956     -0.000432196    -1.34683e-05         -0.67344       -0.720743
                        0.247323       -0.930625     -0.000472494     7.48483e-05        -0.242316       0.0174884       2.0575e-05    -0.000641845
                    -0.000268946      0.00017736        -0.673215       -0.720881     -0.000235146    -0.000469294        0.0167852        0.127349
281700.4               -0.201816       -0.134081      0.000270939      0.00058926         0.247415       -0.930488     -0.000430349      0.00029852
                     0.000248197     0.000643738        -0.128419      -0.0277952     -0.000432194    -1.34531e-05        -0.673464       -0.720722
                        0.247294       -0.930633     -0.000472501     7.48498e-05        -0.242316       0.0174946      2.05604e-05     -0.00064181
                    -0.000269001     0.000177394        -0.673238        -0.72086     -0.000235159    -0.000469288        0.0167934        0.127343
281700.5               -0.201821       -0.134074      0.000270966     0.000589255         0.247385       -0.930496     -0.000430347     0.000298532
                     0.000248212     0.000643733        -0.128414      -0.0277948     -0.000432191    -1.34379e-05        -0.673487       -0.720701
                        0.247264       -0.930641     -0.000472507     7.48513e-05        -0.242316       0.0175008      2.05459e-05    -0.000641775
                    -0.000269056     0.000177428        -0.673262       -0.720839     -0.000235172    -0.000469282        0.0168015        0.127336
281700.6               -0.201826       -0.134067      0.000270993     0.000589251         0.247356       -0.930504     -0.000430346     0.000298544
                     0.000248227     0.000643729        -0.128409      -0.0277945     -0.000432189    -1.34227e-05        -0.673511        -0.72068
                        0.247235       -0.930648     -0.000472513     7.48528e-05        -0.242315        0.017507      2.05314e-05    -0.000641739
                    -0.000269112     0.000177462        -0.673285       -0.720818     -0.000235185    -0.000469276        0.0168097         0.12733
281700.7               -0.201832       -0.134059      0.000271021     0.000589246         0.247327       -0.930512     -0.000430344     0.000298556
                     0.000248242     0.000643724        -0.128404      -0.0277941     -0.000432186    -1.34075e-05        -0.673534       -0.720659
                        0.247205       -0.930656      -0.00047252     7.48544e-05        -0.242315       0.0175132      2.05169e-05    -0.000641704
                    -0.000269167     0.000177496        -0.673309       -0.720797     -0.000235197    -0.000469271        0.0168178        0.127324
281700.8               -0.201837       -0.134052      0.000271048     0.000589242         0.247297       -0.930519     -0.000430343     0.000298567
                     0.000248257     0.000643719        -0.128399      -0.0277937     -0.000432184    -1.33923e-05        -0.673558       -0.720638
                        0.247176       -0.930664     -0.000472526     7.48559e-05        -0.242315       0.0175194      2.05024e-05    -0.000641668
                    -0.000269222      0.00017753        -0.673332       -0.720776      -0.00023521    -0.000469265         0.016826        0.127317
281700.9               -0.201842       -0.134044      0.000271075     0.000589237         0.247268       -0.930527     -0.000430341     0.000298579
                     0.000248273     0.000643714        -0.128394      -0.0277934     -0.000432181     -1.3377e-05        -0.673581       -0.720617
                        0.247146       -0.930672     -0.000472533     7.48574e-05        -0.242315       0.0175256      2.04879e-05    -0.000641633
                    -0.000269278     0.000177564        -0.673356       -0.720755     -0.000235223    -0.000469259        0.0168341        0.127311
281701                 -0.201847       -0.134037      0.000271102     0.000589233         0.247238       -0.930535     -0.000430339     0.000298591
                     0.000248288      0.00064371        -0.128389       -0.027793     -0.000432179    -1.33618e-05        -0.673605       -0.720596
                        0.247117        -0.93068     -0.000472539     7.48589e-05        -0.242315       0.0175317      2.04734e-05    -0.000641598
                    -0.000269333     0.000177598        -0.673379       -0.720734     -0.000235235    -0.000469253        0.0168423        0.127305
281701.1               -0.201853        -0.13403       0.00027113     0.000589228         0.247209       -0.930543     -0.000430338     0.000298603
                     0.000248303     0.000643705        -0.128383      -0.0277926     -0.000432176    -1.33466e-05        -0.673628       -0.720575
                        0.247087       -0.930688     -0.000472545     7.48604e-05        -0.242314       0.0175379      2.04589e-05    -0.000641562
                    -0.000269388     0.000177632        -0.673403       -0.720713     -0.000235248    -0.000469247        0.0168504        0.127298
281701.2               -0.201858       -0.134022      0.000271157     0.000589224         0.247179       -0.930551     -0.000430336     0.000298615
                     0.000248318       0.0006437        -0.128378      -0.0277922     -0.000432174    -1.33314e-05        -0.673652       -0.720554
                        0.247058       -0.930695     -0.000472552     7.48619e-05        -0.242314       0.0175441      2.04444e-05    -0.000641527
                    -0.000269444     0.000177666        -0.673426       -0.720691     -0.000235261    -0.000469242        0.0168586        0.127292
281701.3               -0.201863       -0.134015      0.000271184     0.000589219          0.24715       -0.930558     -0.000430335     0.000298626
                     0.000248333     0.000643695        -0.128373      -0.0277919     -0.000432172    -1.33162e-05        -0.673675       -0.720533
                        0.247028       -0.930703     -0.000472558     7.48634e-05        -0.242314       0.0175503      2.04299e-05    -0.000641492
                    -0.000269499       0.0001777         -0.67345        -0.72067     -0.000235274    -0.000469236        0.0168667        0.127285
281701.4               -0.201868       -0.134007      0.000271211     0.000589215         0.247121       -0.930566     -0.000430333     0.000298638
                     0.000248348      0.00064369        -0.128368      -0.0277915     -0.000432169     -1.3301e-05        -0.673699       -0.720511
                        0.246999       -0.930711     -0.000472565     7.48649e-05        -0.242314       0.0175565      2.04155e-05    -0.000641456
                    -0.000269554     0.000177734        -0.673473       -0.720649     -0.000235286     -0.00046923        0.0168749        0.127279
281701.5               -0.201874          -0.134      0.000271238      0.00058921         0.247091       -0.930574     -0.000430332      0.00029865
                     0.000248363     0.000643686        -0.128363      -0.0277911     -0.000432167    -1.32858e-05        -0.673722        -0.72049
                        0.246969       -0.930719     -0.000472571     7.48665e-05        -0.242314       0.0175627       2.0401e-05    -0.000641421
                     -0.00026961     0.000177768        -0.673497       -0.720628     -0.000235299    -0.000469224         0.016883        0.127273
281701.6               -0.201879       -0.133992      0.000271266     0.000589206         0.247062       -0.930582      -0.00043033     0.000298662
                     0.000248378     0.000643681        -0.128358      -0.0277908     -0.000432164    -1.32706e-05        -0.673746       -0.720469
                         0.24694       -0.930727     -0.000472577      7.4868e-05        -0.242313       0.0175689      2.03866e-05    -0.000641385
                    -0.000269665     0.000177802         -0.67352       -0.720607     -0.000235312    -0.000469218        0.0168912        0.127266
281701.7               -0.201884       -0.133985      0.000271293     0.000589201         0.247032       -0.930589     -0.000430329     0.000298673
                     0.000248394     0.000643676        -0.128353      -0.0277904     -0.000432162    -1.32554e-05         -0.67377       -0.720448
                         0.24691       -0.930734     -0.000472584     7.48695e-05        -0.242313       0.0175751      2.03721e-05     -0.00064135
                     -0.00026972     0.000177836        -0.673544       -0.720586     -0.000235325    -0.000469212        0.0168993         0.12726
281701.8               -0.201889       -0.133978       0.00027132     0.000589196         0.247003       -0.930597     -0.000430327     0.000298685
                     0.000248409     0.000643671        -0.128348        -0.02779     -0.000432159    -1.32402e-05        -0.673793       -0.720427
                        0.246881       -0.930742      -0.00047259      7.4871e-05        -0.242313       0.0175813      2.03577e-05    -0.000641315
                    -0.000269776      0.00017787        -0.673567       -0.720565     -0.000235337    -0.000469207        0.0169075        0.127254
281701.9               -0.201895        -0.13397      0.000271347     0.000589192         0.246973       -0.930605     -0.000430326     0.000298697
                     0.000248424     0.000643666        -0.128342      -0.0277897     -0.000432157     -1.3225e-05        -0.673817       -0.720406
                        0.246852        -0.93075     -0.000472596     7.48724e-05        -0.242313       0.0175875      2.03432e-05    -0.000641279
                    -0.000269831     0.000177904        -0.673591       -0.720544      -0.00023535    -0.000469201        0.0169156        0.127247
281702                   -0.2019       -0.133963      0.000271375     0.000589187         0.246944       -0.930613     -0.000430324     0.000298709
                     0.000248439     0.000643661        -0.128337      -0.0277893     -0.000432154    -1.32098e-05         -0.67384       -0.720385
                        0.246822       -0.930758     -0.000472603     7.48739e-05        -0.242312       0.0175936      2.03288e-05    -0.000641244
                    -0.000269886     0.000177938        -0.673614       -0.720523     -0.000235363    -0.000469195        0.0169238        0.127241
281702.1               -0.201905       -0.133955      0.000271402     0.000589183         0.246914        -0.93062     -0.000430323      0.00029872
                     0.000248454     0.000643657        -0.128332      -0.0277889     -0.000432152    -1.31946e-05        -0.673864       -0.720364
                        0.246793       -0.930765     -0.000472609     7.48754e-05        -0.242312       0.0175998      2.03144e-05    -0.000641209
                    -0.000269941     0.000177972        -0.673638       -0.720501     -0.000235376    -0.000469189        0.0169319        0.127234
281702.2                -0.20191       -0.133948      0.000271429     0.000589178         0.246885       -0.930628     -0.000430321     0.000298732
                     0.000248469     0.000643652        -0.128327      -0.0277885     -0.000432149    -1.31794e-05        -0.673887       -0.720343
                        0.246763       -0.930773     -0.000472616     7.48769e-05        -0.242312        0.017606      2.02999e-05    -0.000641173
                    -0.000269997     0.000178006        -0.673661        -0.72048     -0.000235388    -0.000469183          0.01694        0.127228
281702.3               -0.201915       -0.133941      0.000271456     0.000589174         0.246856       -0.930636      -0.00043032     0.000298744
                     0.000248484     0.000643647        -0.128322      -0.0277882     -0.000432147    -1.31642e-05        -0.673911       -0.720322
                        0.246734       -0.930781     -0.000472622     7.48784e-05        -0.242312       0.0176122      2.02855e-05    -0.000641138
                    -0.000270052      0.00017804        -0.673685       -0.720459     -0.000235401    -0.000469177        0.0169482        0.127222
281702.4               -0.201921       -0.133933      0.000271484     0.000589169         0.246826       -0.930644     -0.000430318     0.000298756
                     0.000248499     0.000643642        -0.128317      -0.0277878     -0.000432144     -1.3149e-05        -0.673934       -0.720301
                        0.246704       -0.930789     -0.000472628     7.48799e-05        -0.242312       0.0176184      2.02711e-05    -0.000641103
                    -0.000270107     0.000178074        -0.673708       -0.720438     -0.000235414    -0.000469171        0.0169563        0.127215
281702.5               -0.201926       -0.133926      0.000271511     0.000589165         0.246797       -0.930652     -0.000430317     0.000298768
                     0.000248515     0.000643637        -0.128312      -0.0277874     -0.000432142    -1.31338e-05        -0.673958       -0.720279
                        0.246675       -0.930797     -0.000472635     7.48814e-05        -0.242311       0.0176246      2.02567e-05    -0.000641067
                    -0.000270163     0.000178108        -0.673732       -0.720417     -0.000235426    -0.000469166        0.0169645        0.127209
281702.6               -0.201931       -0.133918      0.000271538      0.00058916         0.246767       -0.930659     -0.000430315     0.000298779
                      0.00024853     0.000643632        -0.128307      -0.0277871      -0.00043214    -1.31186e-05        -0.673981       -0.720258
                        0.246645       -0.930804     -0.000472641     7.48829e-05        -0.242311       0.0176308      2.02423e-05    -0.000641032
                    -0.000270218     0.000178142        -0.673755       -0.720396     -0.000235439     -0.00046916        0.0169726        0.127203
281702.7               -0.201936       -0.133911      0.000271565     0.000589155         0.246738       -0.930667     -0.000430314     0.000298791
                     0.000248545     0.000643627        -0.128301      -0.0277867     -0.000432137    -1.31034e-05        -0.674005       -0.720237
                        0.246616       -0.930812     -0.000472647     7.48843e-05        -0.242311        0.017637      2.02279e-05    -0.000640997
                    -0.000270273     0.000178176        -0.673779       -0.720375     -0.000235452    -0.000469154        0.0169808        0.127196
281702.8               -0.201942       -0.133904      0.000271593     0.000589151         0.246708       -0.930675     -0.000430312     0.000298803
                      0.00024856     0.000643623        -0.128296      -0.0277864     -0.000432135    -1.30882e-05        -0.674028       -0.720216
                        0.246586        -0.93082     -0.000472654     7.48858e-05        -0.242311       0.0176432      2.02135e-05    -0.000640962
                    -0.000270328      0.00017821        -0.673802       -0.720354     -0.000235465    -0.000469148        0.0169889         0.12719
281702.9               -0.201947       -0.133896       0.00027162     0.000589146         0.246679       -0.930683     -0.000430311     0.000298815
                     0.000248575     0.000643618        -0.128291       -0.027786     -0.000432132     -1.3073e-05        -0.674052       -0.720195
                        0.246557       -0.930828      -0.00047266     7.48873e-05        -0.242311       0.0176494      2.01991e-05    -0.000640926
                    -0.000270384     0.000178244        -0.673826       -0.720332     -0.000235477    -0.000469142        0.0169971        0.127183
281703                 -0.201952       -0.133889      0.000271647     0.000589142         0.246649        -0.93069     -0.000430309     0.000298826
                      0.00024859     0.000643613        -0.128286      -0.0277856      -0.00043213    -1.30578e-05        -0.674075       -0.720174
                        0.246527       -0.930836     -0.000472666     7.48888e-05         -0.24231       0.0176556      2.01848e-05    -0.000640891
                    -0.000270439     0.000178278        -0.673849       -0.720311      -0.00023549    -0.000469136        0.0170052        0.127177
281703.1               -0.201957       -0.133881      0.000271675     0.000589137          0.24662       -0.930698     -0.000430308     0.000298838
                     0.000248605     0.000643608        -0.128281      -0.0277853     -0.000432127    -1.30426e-05        -0.674099       -0.720153
                        0.246498       -0.930843     -0.000472673     7.48902e-05         -0.24231       0.0176617      2.01704e-05    -0.000640856
