! TOUCHSTONE file generated by CST MICROWAVE STUDIO
! Date and time: Wed Oct  8 06:56:14 2025
! Project name: Teste_Macro_Metasurface_Nanopilar.cst
! Parameters = {H=600; L_x=115; L_y=140; Lambda=1064; Max_L=200; Min_L=70; PathPara=1; Phi=0; Step_L=10; Theta=0; p=520; phaseX=180; phaseY=0}
! Header version: 2018
! Port assignment regex: !\s*Touchstone port\s*([0-9]+)\s*=\s*(CST MWS port|CST DS port)\s*([0-9]+|Zmin|Zmax)\s*\(\"(.*)\"\)(\s*mode\s*([0-9]+))?.*
! Touchstone port assignment:
! Touchstone port 1 = CST MWS port Zmax ("") mode 1
! Touchstone port 2 = CST MWS port Zmax ("") mode 2
! Touchstone port 3 = CST MWS port Zmin ("") mode 1
! Touchstone port 4 = CST MWS port Zmin ("") mode 2
! S-Parameters are not renormalized. Each port impedance will be approximated by the real part at minimum frequency. The values are described via the [Reference] keyword.
! Default impedance is overridden by [Reference]
[Version] 2.0
# GHz S RI R 376.73
[Number of Ports] 4
[Reference]
376.73 376.73 376.73 376.73 
[Number of Frequencies] 1001
[Network Data]
281700                 -0.220231      -0.0515918     -0.000898845     0.000148038        -0.189777       -0.949372     -0.000248499    -0.000604066
                    -0.000906498    -3.12617e-05       0.00951203       -0.115681     -0.000693275     0.000231677         0.859247        -0.47847
                       -0.189915       -0.949568     -0.000851842     0.000304673        -0.184101        0.132129     -0.000349513    -0.000547789
                    -0.000423269    -0.000746532         0.859389       -0.478353     -0.000443159    -0.000568144        -0.107196      -0.0499877
281700.1                -0.22023      -0.0515839     -0.000898824     0.000148066        -0.189806       -0.949366     -0.000248522    -0.000604064
                     -0.00091141      -1.008e-05         0.009505       -0.115686     -0.000693277     0.000231702          0.85923         -0.4785
                       -0.189944       -0.949563     -0.000851826     0.000304704        -0.184095        0.132133     -0.000349535    -0.000547772
                    -0.000432772    -0.000750632         0.859372       -0.478382     -0.000443177     -0.00056812        -0.107199      -0.0499889
281700.2               -0.220229       -0.051576     -0.000898802     0.000148093        -0.189835       -0.949361     -0.000248545    -0.000604062
                    -0.000912991     1.51437e-05       0.00949797       -0.115691     -0.000693278     0.000231727         0.859213        -0.47853
                       -0.189974       -0.949558     -0.000851811     0.000304735        -0.184089        0.132136     -0.000349557    -0.000547755
                    -0.000442846    -0.000755687         0.859355       -0.478412     -0.000443194    -0.000568096        -0.107203      -0.0499901
281700.3               -0.220228      -0.0515681     -0.000898781     0.000148121        -0.189865       -0.949356     -0.000248568    -0.000604059
                    -0.000909228     4.41278e-05       0.00949094       -0.115695      -0.00069328     0.000231753         0.859196       -0.478559
                       -0.190003       -0.949552     -0.000851795     0.000304766        -0.184083         0.13214     -0.000349579    -0.000547739
                     -0.00045347    -0.000761882         0.859338       -0.478442     -0.000443212    -0.000568072        -0.107207      -0.0499912
281700.4               -0.220227      -0.0515602     -0.000898759     0.000148148        -0.189894       -0.949351     -0.000248591    -0.000604057
                    -0.000897781     7.55172e-05        0.0094839         -0.1157     -0.000693282     0.000231778         0.859179       -0.478589
                       -0.190033       -0.949547      -0.00085178     0.000304796        -0.184077        0.132143     -0.000349601    -0.000547722
                    -0.000464587    -0.000769434         0.859321       -0.478471      -0.00044323    -0.000568048        -0.107211      -0.0499924
281700.5               -0.220226      -0.0515523     -0.000898738     0.000148176        -0.189923       -0.949346     -0.000248614    -0.000604055
                    -0.000876664     0.000106429       0.00947687       -0.115705     -0.000693283     0.000231803         0.859162       -0.478619
                       -0.190062       -0.949542     -0.000851764     0.000304827         -0.18407        0.132147     -0.000349623    -0.000547705
                    -0.000476099     -0.00077859         0.859304       -0.478501     -0.000443247    -0.000568024        -0.107215      -0.0499936
281700.6               -0.220225      -0.0515444     -0.000898716     0.000148203        -0.189953        -0.94934     -0.000248637    -0.000604052
                     -0.00084541     0.000132531       0.00946984       -0.115709     -0.000693285     0.000231828         0.859145       -0.478648
                       -0.190092       -0.949537     -0.000851748     0.000304858        -0.184064        0.132151     -0.000349645    -0.000547688
                    -0.000487839    -0.000789625         0.859287       -0.478531     -0.000443265       -0.000568        -0.107218      -0.0499948
281700.7               -0.220224      -0.0515366     -0.000898695     0.000148231        -0.189982       -0.949335      -0.00024866     -0.00060405
                    -0.000806181     0.000149194       0.00946281       -0.115714     -0.000693287     0.000231853         0.859128       -0.478678
                       -0.190121       -0.949531     -0.000851733     0.000304889        -0.184058        0.132154     -0.000349668    -0.000547671
                    -0.000499561    -0.000802831          0.85927        -0.47856     -0.000443283    -0.000567976        -0.107222       -0.049996
281700.8               -0.220223      -0.0515287     -0.000898673     0.000148258        -0.190011        -0.94933     -0.000248684    -0.000604048
                    -0.000763706     0.000153475       0.00945577       -0.115719     -0.000693288     0.000231878         0.859111       -0.478708
                       -0.190151       -0.949526     -0.000851717     0.000304919        -0.184052        0.132158      -0.00034969    -0.000547655
                    -0.000510906    -0.000818497         0.859253        -0.47859       -0.0004433    -0.000567952        -0.107226      -0.0499971
281700.9               -0.220222      -0.0515208     -0.000898652     0.000148286        -0.190041       -0.949325     -0.000248707    -0.000604045
                    -0.000723569     0.000145557       0.00944874       -0.115723      -0.00069329     0.000231903         0.859094       -0.478737
                        -0.19018       -0.949521     -0.000851702      0.00030495        -0.184046        0.132161     -0.000349712    -0.000547638
                    -0.000521386    -0.000836881         0.859236        -0.47862     -0.000443318    -0.000567928         -0.10723      -0.0499983
281701                 -0.220221      -0.0515129      -0.00089863     0.000148313         -0.19007        -0.94932      -0.00024873    -0.000604043
                    -0.000689996     0.000128405       0.00944171       -0.115728     -0.000693292     0.000231929         0.859076       -0.478767
                        -0.19021       -0.949515     -0.000851686     0.000304981         -0.18404        0.132165     -0.000349734    -0.000547621
                    -0.000530364    -0.000858153         0.859219       -0.478649     -0.000443335    -0.000567904        -0.107233      -0.0499995
281701.1                -0.22022       -0.051505     -0.000898609     0.000148341        -0.190099       -0.949315     -0.000248753     -0.00060404
                    -0.000664755     0.000106071       0.00943467       -0.115733     -0.000693293     0.000231954         0.859059       -0.478797
                       -0.190239        -0.94951     -0.000851671     0.000305012        -0.184034        0.132168     -0.000349756    -0.000547604
                    -0.000537057    -0.000882333         0.859202       -0.478679     -0.000443353     -0.00056788        -0.107237      -0.0500007
281701.2               -0.220219      -0.0514971     -0.000898587     0.000148368        -0.190129       -0.949309     -0.000248776    -0.000604038
                    -0.000647529     8.21127e-05       0.00942764       -0.115737     -0.000693295     0.000231979         0.859042       -0.478826
                       -0.190268       -0.949505     -0.000851655     0.000305042        -0.184028        0.132172     -0.000349778    -0.000547587
                    -0.000540564    -0.000909207         0.859185       -0.478709     -0.000443371    -0.000567856        -0.107241      -0.0500018
281701.3               -0.220218      -0.0514892     -0.000898565     0.000148396        -0.190158       -0.949304     -0.000248799    -0.000604036
                    -0.000636907     5.89042e-05        0.0094206       -0.115742     -0.000693296     0.000232004         0.859025       -0.478856
                       -0.190298       -0.949499     -0.000851639     0.000305073        -0.184022        0.132175       -0.0003498    -0.000547571
                    -0.000539951    -0.000938243         0.859168       -0.478738     -0.000443388    -0.000567832        -0.107245       -0.050003
281701.4               -0.220217      -0.0514813     -0.000898544     0.000148423        -0.190187       -0.949299     -0.000248822    -0.000604033
                    -0.000631228     3.76968e-05       0.00941357       -0.115747     -0.000693298     0.000232029         0.859008       -0.478885
                       -0.190327       -0.949494     -0.000851624     0.000305104        -0.184016        0.132179     -0.000349822    -0.000547554
                    -0.000534372    -0.000968541         0.859151       -0.478768     -0.000443406    -0.000567808        -0.107249      -0.0500042
281701.5               -0.220216      -0.0514734     -0.000898522     0.000148451        -0.190217       -0.949294     -0.000248845    -0.000604031
                    -0.000629014     1.89577e-05       0.00940653       -0.115751       -0.0006933     0.000232054         0.858991       -0.478915
                       -0.190357       -0.949489     -0.000851608     0.000305135         -0.18401        0.132182     -0.000349844    -0.000547537
                    -0.000523247    -0.000998842         0.859133       -0.478797     -0.000443423    -0.000567784        -0.107252      -0.0500054
281701.6               -0.220215      -0.0514655     -0.000898501     0.000148478        -0.190246       -0.949289     -0.000248868    -0.000604029
                    -0.000629117     2.70419e-06        0.0093995       -0.115756     -0.000693301      0.00023208         0.858974       -0.478945
                       -0.190386       -0.949483     -0.000851593     0.000305165        -0.184003        0.132186     -0.000349867     -0.00054752
                    -0.000506435     -0.00102763         0.859116       -0.478827     -0.000443441    -0.000567759        -0.107256      -0.0500065
281701.7               -0.220214      -0.0514576     -0.000898479     0.000148506        -0.190275       -0.949284     -0.000248891    -0.000604026
                    -0.000630709    -1.12632e-05       0.00939246       -0.115761     -0.000693303     0.000232105         0.858957       -0.478974
                       -0.190416       -0.949478     -0.000851577     0.000305196        -0.183997        0.132189     -0.000349889    -0.000547503
                     -0.00048435     -0.00105335         0.859099       -0.478857     -0.000443459    -0.000567735         -0.10726      -0.0500077
281701.8               -0.220213      -0.0514497     -0.000898458     0.000148533        -0.190305       -0.949278     -0.000248914    -0.000604024
                    -0.000633213    -2.32244e-05       0.00938543       -0.115765     -0.000693304      0.00023213          0.85894       -0.479004
                       -0.190445       -0.949473     -0.000851561     0.000305227        -0.183991        0.132193     -0.000349911    -0.000547487
                    -0.000457961     -0.00107463         0.859082       -0.478886     -0.000443476    -0.000567711        -0.107264      -0.0500089
281701.9               -0.220212      -0.0514418     -0.000898436     0.000148561        -0.190334       -0.949273     -0.000248937    -0.000604022
                     -0.00063624    -3.34686e-05       0.00937839        -0.11577     -0.000693306     0.000232155         0.858923       -0.479034
                       -0.190474       -0.949468     -0.000851546     0.000305258        -0.183985        0.132197     -0.000349933     -0.00054747
                    -0.000428659     -0.00109053         0.859065       -0.478916     -0.000443494    -0.000567687        -0.107268      -0.0500101
281702                 -0.220211      -0.0514339     -0.000898415     0.000148588        -0.190363       -0.949268      -0.00024896    -0.000604019
                    -0.000639534    -4.22628e-05       0.00937135       -0.115775     -0.000693308      0.00023218         0.858906       -0.479063
                       -0.190504       -0.949462      -0.00085153     0.000305288        -0.183979          0.1322     -0.000349955    -0.000547453
                    -0.000398023      -0.0011007         0.859048       -0.478946     -0.000443512    -0.000567663        -0.107271      -0.0500112
281702.1                -0.22021       -0.051426     -0.000898393     0.000148615        -0.190393       -0.949263     -0.000248983    -0.000604017
                    -0.000642928    -4.98396e-05       0.00936432       -0.115779     -0.000693309     0.000232205         0.858889       -0.479093
                       -0.190533       -0.949457     -0.000851514     0.000305319        -0.183973        0.132204     -0.000349977    -0.000547436
                    -0.000367567     -0.00110531         0.859031       -0.478975     -0.000443529    -0.000567639        -0.107275      -0.0500124
281702.2               -0.220208      -0.0514182     -0.000898371     0.000148643        -0.190422       -0.949258     -0.000249006    -0.000604015
                    -0.000646315    -5.63959e-05       0.00935728       -0.115784     -0.000693311      0.00023223         0.858872       -0.479123
                       -0.190563       -0.949452     -0.000851499      0.00030535        -0.183967        0.132207     -0.000349999     -0.00054742
                    -0.000338535     -0.00110499         0.859014       -0.479005     -0.000443547    -0.000567615        -0.107279      -0.0500136
281702.3               -0.220207      -0.0514103      -0.00089835      0.00014867        -0.190451       -0.949252     -0.000249029    -0.000604012
                    -0.000649627    -6.20962e-05       0.00935024       -0.115789     -0.000693313     0.000232256         0.858855       -0.479152
                       -0.190592       -0.949446     -0.000851483     0.000305381        -0.183961        0.132211     -0.000350022    -0.000547403
                    -0.000311806     -0.00110061         0.858997       -0.479034     -0.000443564    -0.000567591        -0.107283      -0.0500148
281702.4               -0.220206      -0.0514024     -0.000898328     0.000148698        -0.190481       -0.949247     -0.000249052     -0.00060401
                    -0.000652826    -6.70763e-05        0.0093432       -0.115793     -0.000693314     0.000232281         0.858838       -0.479182
                       -0.190622       -0.949441     -0.000851467     0.000305411        -0.183955        0.132214     -0.000350044    -0.000547386
                    -0.000287884     -0.00109313          0.85898       -0.479064     -0.000443582    -0.000567567        -0.107287      -0.0500159
281702.5               -0.220205      -0.0513945     -0.000898307     0.000148725         -0.19051       -0.949242     -0.000249075    -0.000604008
                     -0.00065589    -7.14484e-05       0.00933617       -0.115798     -0.000693316     0.000232306         0.858821       -0.479211
                       -0.190651       -0.949436     -0.000851452     0.000305442        -0.183949        0.132218     -0.000350066    -0.000547369
                    -0.000266957     -0.00108345         0.858963       -0.479094       -0.0004436    -0.000567543         -0.10729      -0.0500171
281702.6               -0.220204      -0.0513866     -0.000898285     0.000148753        -0.190539       -0.949237     -0.000249098    -0.000604005
                    -0.000658806    -7.53048e-05       0.00932913       -0.115803     -0.000693317     0.000232331         0.858804       -0.479241
                       -0.190681        -0.94943     -0.000851436     0.000305473        -0.183942        0.132221     -0.000350088    -0.000547352
                    -0.000248981     -0.00107237         0.858946       -0.479123     -0.000443617    -0.000567519        -0.107294      -0.0500183
281702.7               -0.220203      -0.0513787     -0.000898264      0.00014878        -0.190569       -0.949232     -0.000249121    -0.000604003
                    -0.000661573     -7.8722e-05       0.00932209       -0.115807     -0.000693319     0.000232356         0.858787       -0.479271
                        -0.19071       -0.949425      -0.00085142     0.000305504        -0.183936        0.132225      -0.00035011    -0.000547336
                    -0.000233761     -0.00106051         0.858929       -0.479153     -0.000443635    -0.000567495        -0.107298      -0.0500195
281702.8               -0.220202      -0.0513708     -0.000898242     0.000148808        -0.190598       -0.949226     -0.000249144    -0.000604001
                    -0.000664191    -8.17632e-05       0.00931505       -0.115812     -0.000693321     0.000232381          0.85877         -0.4793
                       -0.190739        -0.94942     -0.000851405     0.000305534         -0.18393        0.132228     -0.000350132    -0.000547319
                    -0.000221022     -0.00104837         0.858912       -0.479183     -0.000443652    -0.000567471        -0.107302      -0.0500206
281702.9               -0.220201      -0.0513629     -0.000898221     0.000148835        -0.190627       -0.949221     -0.000249167    -0.000603998
                    -0.000666665    -8.44812e-05       0.00930801       -0.115817     -0.000693322     0.000232407         0.858753        -0.47933
                       -0.190769       -0.949415     -0.000851389     0.000305565        -0.183924        0.132232     -0.000350154    -0.000547302
                    -0.000210462      -0.0010363         0.858895       -0.479212      -0.00044367    -0.000567447        -0.107306      -0.0500218
281703                   -0.2202       -0.051355     -0.000898199     0.000148863        -0.190656       -0.949216      -0.00024919    -0.000603996
                    -0.000669001    -8.69198e-05       0.00930097       -0.115821     -0.000693324     0.000232432         0.858736        -0.47936
                       -0.190798       -0.949409     -0.000851373     0.000305596        -0.183918        0.132235     -0.000350177    -0.000547285
                    -0.000201777     -0.00102452         0.858878       -0.479242     -0.000443688    -0.000567423        -0.107309       -0.050023
281703.1               -0.220199      -0.0513471     -0.000898177      0.00014889        -0.190686       -0.949211     -0.000249213    -0.000603993
                    -0.000671207    -8.91159e-05       0.00929393       -0.115826     -0.000693325     0.000232457         0.858719       -0.479389
                       -0.190828       -0.949404     -0.000851358     0.000305627        -0.183912        0.132239     -0.000350199    -0.000547269
