! TOUCHSTONE file generated by CST MICROWAVE STUDIO
! Date and time: Wed Oct  8 06:52:56 2025
! Project name: Teste_Macro_Metasurface_Nanopilar.cst
! Parameters = {H=600; L_x=85; L_y=200; Lambda=1064; Max_L=200; Min_L=70; PathPara=1; Phi=0; Step_L=10; Theta=0; p=520; phaseX=180; phaseY=0}
! Header version: 2018
! Port assignment regex: !\s*Touchstone port\s*([0-9]+)\s*=\s*(CST MWS port|CST DS port)\s*([0-9]+|Zmin|Zmax)\s*\(\"(.*)\"\)(\s*mode\s*([0-9]+))?.*
! Touchstone port assignment:
! Touchstone port 1 = CST MWS port Zmax ("") mode 1
! Touchstone port 2 = CST MWS port Zmax ("") mode 2
! Touchstone port 3 = CST MWS port Zmin ("") mode 1
! Touchstone port 4 = CST MWS port Zmin ("") mode 2
! S-Parameters are not renormalized. Each port impedance will be approximated by the real part at minimum frequency. The values are described via the [Reference] keyword.
! Default impedance is overridden by [Reference]
[Version] 2.0
# GHz S RI R 376.73
[Number of Ports] 4
[Reference]
376.73 376.73 376.73 376.73 
[Number of Frequencies] 1001
[Network Data]
281700                 -0.777561        -0.44232      0.000355988    -0.000211141        -0.350433        0.211594     -0.000240747     0.000229364
                     0.000225063     0.000284075        -0.107339       -0.169861     -0.000238554    -0.000424169        -0.311901        0.926172
                       -0.350581        0.211116      -0.00071571     4.21192e-06        -0.100034       -0.884667      0.000404632     -0.00013272
                    -0.000234231     0.000291037        -0.311506        0.926284      0.000458607    -0.000232435        -0.188114       0.0708759
281700.1               -0.777584       -0.442297      0.000355946    -0.000211152        -0.350406          0.2116     -0.000240731     0.000229399
                     0.000225079     0.000284084        -0.107345       -0.169856     -0.000238572    -0.000424167        -0.311875        0.926181
                       -0.350554        0.211122       -0.0007157      4.3189e-06        -0.100091        -0.88467      0.000404615    -0.000132765
                    -0.000234222     0.000291054         -0.31148        0.926293      0.000458591     -0.00023246        -0.188112       0.0708793
281700.2               -0.777607       -0.442275      0.000355904    -0.000211163        -0.350379        0.211607     -0.000240716     0.000229433
                     0.000225094     0.000284092         -0.10735       -0.169851      -0.00023859    -0.000424165        -0.311849         0.92619
                       -0.350527        0.211128      -0.00071569     4.42589e-06        -0.100147       -0.884673      0.000404598     -0.00013281
                    -0.000234212     0.000291071        -0.311454        0.926302      0.000458575    -0.000232485        -0.188109       0.0708827
281700.3                -0.77763       -0.442253      0.000355863    -0.000211174        -0.350352        0.211613       -0.0002407     0.000229468
                      0.00022511     0.000284101        -0.107356       -0.169846     -0.000238608    -0.000424163        -0.311822        0.926199
                         -0.3505        0.211134     -0.000715679     4.53288e-06        -0.100204       -0.884676      0.000404581    -0.000132855
                    -0.000234203     0.000291088        -0.311427        0.926311      0.000458559     -0.00023251        -0.188107       0.0708862
281700.4               -0.777653        -0.44223      0.000355821    -0.000211184        -0.350325        0.211619     -0.000240685     0.000229503
                     0.000225126     0.000284109        -0.107361       -0.169841     -0.000238626    -0.000424162        -0.311796        0.926208
                       -0.350472         0.21114     -0.000715669     4.63988e-06        -0.100261       -0.884679      0.000404564      -0.0001329
                    -0.000234193     0.000291105        -0.311401         0.92632      0.000458543    -0.000232536        -0.188104       0.0708896
281700.5               -0.777677       -0.442208      0.000355779    -0.000211195        -0.350298        0.211625     -0.000240669     0.000229537
                     0.000225142     0.000284118        -0.107367       -0.169836     -0.000238644     -0.00042416         -0.31177        0.926217
                       -0.350445        0.211146     -0.000715658     4.74688e-06        -0.100317       -0.884682      0.000404547    -0.000132945
                    -0.000234184     0.000291122        -0.311375        0.926329      0.000458527    -0.000232561        -0.188101        0.070893
281700.6                 -0.7777       -0.442186      0.000355737    -0.000211206         -0.35027        0.211631     -0.000240654     0.000229572
                     0.000225158     0.000284126        -0.107372       -0.169831     -0.000238662    -0.000424158        -0.311743        0.926226
                       -0.350418        0.211152     -0.000715648     4.85389e-06        -0.100374       -0.884685       0.00040453     -0.00013299
                    -0.000234174     0.000291139        -0.311349        0.926339      0.000458512    -0.000232586        -0.188099       0.0708965
281700.7               -0.777723       -0.442163      0.000355695    -0.000211217        -0.350243        0.211637     -0.000240638     0.000229606
                     0.000225174     0.000284135        -0.107378       -0.169826      -0.00023868    -0.000424156        -0.311717        0.926235
                       -0.350391        0.211158     -0.000715637      4.9609e-06         -0.10043       -0.884688      0.000404513    -0.000133034
                    -0.000234165     0.000291156        -0.311322        0.926348      0.000458496    -0.000232611        -0.188096       0.0708999
281700.8               -0.777746       -0.442141      0.000355653    -0.000211227        -0.350216        0.211643     -0.000240623     0.000229641
                     0.000225189     0.000284143        -0.107383       -0.169821     -0.000238698    -0.000424154        -0.311691        0.926244
                       -0.350364        0.211164     -0.000715627     5.06791e-06        -0.100487       -0.884691      0.000404496    -0.000133079
                    -0.000234155     0.000291173        -0.311296        0.926357       0.00045848    -0.000232636        -0.188094       0.0709033
281700.9               -0.777769       -0.442118      0.000355611    -0.000211238        -0.350189        0.211649     -0.000240608     0.000229676
                     0.000225205     0.000284152        -0.107389       -0.169817     -0.000238716    -0.000424152        -0.311664        0.926253
                       -0.350337         0.21117     -0.000715616     5.17492e-06        -0.100543       -0.884694      0.000404479    -0.000133124
                    -0.000234146      0.00029119         -0.31127        0.926366      0.000458464    -0.000232661        -0.188091       0.0709068
281701                 -0.777792       -0.442096      0.000355569    -0.000211249        -0.350162        0.211655     -0.000240592      0.00022971
                     0.000225221      0.00028416        -0.107394       -0.169812     -0.000238734     -0.00042415        -0.311638        0.926263
                        -0.35031        0.211176     -0.000715606     5.28194e-06          -0.1006       -0.884697      0.000404462    -0.000133169
                    -0.000234137     0.000291207        -0.311243        0.926375      0.000458448    -0.000232686        -0.188088       0.0709102
281701.1               -0.777816       -0.442074      0.000355527     -0.00021126        -0.350135        0.211661     -0.000240577     0.000229745
                     0.000225237     0.000284169          -0.1074       -0.169807     -0.000238753    -0.000424148        -0.311612        0.926272
                       -0.350282        0.211182     -0.000715595     5.38897e-06        -0.100657       -0.884699      0.000404445    -0.000133214
                    -0.000234127     0.000291224        -0.311217        0.926384      0.000458432    -0.000232711        -0.188086       0.0709136
281701.2               -0.777839       -0.442051      0.000355485    -0.000211271        -0.350107        0.211667     -0.000240561     0.000229779
                     0.000225253     0.000284177        -0.107405       -0.169802     -0.000238771    -0.000424146        -0.311585        0.926281
                       -0.350255        0.211188     -0.000715584     5.49599e-06        -0.100713       -0.884702      0.000404428    -0.000133259
                    -0.000234118     0.000291242        -0.311191        0.926393      0.000458416    -0.000232736        -0.188083       0.0709171
281701.3               -0.777862       -0.442029      0.000355443    -0.000211281         -0.35008        0.211673     -0.000240546     0.000229814
                     0.000225269     0.000284186        -0.107411       -0.169797     -0.000238789    -0.000424145        -0.311559         0.92629
                       -0.350228        0.211194     -0.000715574     5.60303e-06         -0.10077       -0.884705      0.000404411    -0.000133304
                    -0.000234108     0.000291259        -0.311165        0.926402      0.000458401    -0.000232762        -0.188081       0.0709205
281701.4               -0.777885       -0.442007      0.000355401    -0.000211292        -0.350053        0.211679      -0.00024053     0.000229848
                     0.000225285     0.000284194        -0.107416       -0.169792     -0.000238807    -0.000424143        -0.311533        0.926299
                       -0.350201          0.2112     -0.000715563     5.71006e-06        -0.100826       -0.884708      0.000404394    -0.000133349
                    -0.000234099     0.000291276        -0.311138        0.926411      0.000458385    -0.000232787        -0.188078       0.0709239
281701.5               -0.777908       -0.441984      0.000355359    -0.000211303        -0.350026        0.211685     -0.000240515     0.000229883
                       0.0002253     0.000284203        -0.107422       -0.169787     -0.000238825    -0.000424141        -0.311506        0.926308
                       -0.350174        0.211206     -0.000715552      5.8171e-06        -0.100883       -0.884711      0.000404377    -0.000133394
                    -0.000234089     0.000291293        -0.311112        0.926421      0.000458369    -0.000232812        -0.188075       0.0709274
281701.6               -0.777931       -0.441962      0.000355317    -0.000211314        -0.349999         0.21169     -0.000240499     0.000229918
                     0.000225316     0.000284211        -0.107427       -0.169782     -0.000238843    -0.000424139         -0.31148        0.926317
                       -0.350147        0.211212     -0.000715541     5.92414e-06         -0.10094       -0.884714      0.000404359    -0.000133439
                     -0.00023408      0.00029131        -0.311086         0.92643      0.000458353    -0.000232837        -0.188073       0.0709308
281701.7               -0.777954       -0.441939      0.000355275    -0.000211324        -0.349972        0.211696     -0.000240483     0.000229952
                     0.000225332      0.00028422        -0.107433       -0.169777     -0.000238861    -0.000424137        -0.311454        0.926326
                        -0.35012        0.211218     -0.000715531     6.03119e-06        -0.100996       -0.884717      0.000404342    -0.000133484
                     -0.00023407     0.000291327        -0.311059        0.926439      0.000458337    -0.000232862         -0.18807       0.0709342
281701.8               -0.777978       -0.441917      0.000355233    -0.000211335        -0.349944        0.211702     -0.000240468     0.000229987
                     0.000225348     0.000284228        -0.107438       -0.169772     -0.000238879    -0.000424135        -0.311427        0.926335
                       -0.350092        0.211224      -0.00071552     6.13824e-06        -0.101053        -0.88472      0.000404325    -0.000133529
                    -0.000234061     0.000291344        -0.311033        0.926448      0.000458321    -0.000232887        -0.188068       0.0709376
281701.9               -0.778001       -0.441895      0.000355191    -0.000211346        -0.349917        0.211708     -0.000240452     0.000230021
                     0.000225364     0.000284237        -0.107444       -0.169767     -0.000238897    -0.000424133        -0.311401        0.926344
                       -0.350065         0.21123     -0.000715509     6.24529e-06        -0.101109       -0.884723      0.000404308    -0.000133574
                    -0.000234051     0.000291361        -0.311007        0.926457      0.000458305    -0.000232912        -0.188065       0.0709411
281702                 -0.778024       -0.441872       0.00035515    -0.000211357         -0.34989        0.211714     -0.000240437     0.000230056
                      0.00022538     0.000284245        -0.107449       -0.169762     -0.000238915    -0.000424131        -0.311375        0.926353
                       -0.350038        0.211236     -0.000715498     6.35235e-06        -0.101166       -0.884725      0.000404291    -0.000133619
                    -0.000234042     0.000291378         -0.31098        0.926466       0.00045829    -0.000232937        -0.188062       0.0709445
281702.1               -0.778047        -0.44185      0.000355108    -0.000211367        -0.349863         0.21172     -0.000240421      0.00023009
                     0.000225396     0.000284254        -0.107455       -0.169757     -0.000238933    -0.000424129        -0.311348        0.926362
                       -0.350011        0.211242     -0.000715487     6.45941e-06        -0.101222       -0.884728      0.000404274    -0.000133664
                    -0.000234032     0.000291395        -0.310954        0.926475      0.000458274    -0.000232962         -0.18806       0.0709479
281702.2                -0.77807       -0.441827      0.000355066    -0.000211378        -0.349836        0.211726     -0.000240406     0.000230125
                     0.000225411     0.000284262         -0.10746       -0.169753     -0.000238951    -0.000424127        -0.311322        0.926372
                       -0.349984        0.211248     -0.000715476     6.56647e-06        -0.101279       -0.884731      0.000404257    -0.000133709
                    -0.000234023     0.000291412        -0.310928        0.926484      0.000458258    -0.000232987        -0.188057       0.0709514
281702.3               -0.778093       -0.441805      0.000355024    -0.000211389        -0.349809        0.211732      -0.00024039     0.000230159
                     0.000225427     0.000284271        -0.107466       -0.169748     -0.000238969    -0.000424126        -0.311296        0.926381
                       -0.349957        0.211253     -0.000715465     6.67354e-06        -0.101336       -0.884734       0.00040424    -0.000133754
                    -0.000234013     0.000291429        -0.310902        0.926493      0.000458242    -0.000233012        -0.188055       0.0709548
281702.4               -0.778116       -0.441783      0.000354982      -0.0002114        -0.349781        0.211738     -0.000240374     0.000230194
                     0.000225443     0.000284279        -0.107471       -0.169743     -0.000238987    -0.000424124        -0.311269         0.92639
                        -0.34993        0.211259     -0.000715454     6.78061e-06        -0.101392       -0.884737      0.000404223    -0.000133799
                    -0.000234004     0.000291447        -0.310875        0.926502      0.000458226    -0.000233037        -0.188052       0.0709582
281702.5                -0.77814        -0.44176       0.00035494     -0.00021141        -0.349754        0.211744     -0.000240359     0.000230229
                     0.000225459     0.000284288        -0.107477       -0.169738     -0.000239005    -0.000424122        -0.311243        0.926399
                       -0.349902        0.211265     -0.000715443     6.88769e-06        -0.101449        -0.88474      0.000404205    -0.000133844
                    -0.000233994     0.000291464        -0.310849        0.926512       0.00045821    -0.000233062        -0.188049       0.0709617
281702.6               -0.778163       -0.441738      0.000354898    -0.000211421        -0.349727         0.21175     -0.000240343     0.000230263
                     0.000225475     0.000284296        -0.107482       -0.169733     -0.000239023     -0.00042412        -0.311217        0.926408
                       -0.349875        0.211271     -0.000715432     6.99477e-06        -0.101505       -0.884742      0.000404188    -0.000133888
                    -0.000233985     0.000291481        -0.310823        0.926521      0.000458194    -0.000233088        -0.188047       0.0709651
281702.7               -0.778186       -0.441715      0.000354856    -0.000211432          -0.3497        0.211756     -0.000240328     0.000230298
                     0.000225491     0.000284305        -0.107488       -0.169728     -0.000239041    -0.000424118         -0.31119        0.926417
                       -0.349848        0.211277     -0.000715421     7.10185e-06        -0.101562       -0.884745      0.000404171    -0.000133933
                    -0.000233975     0.000291498        -0.310796         0.92653      0.000458179    -0.000233113        -0.188044       0.0709685
281702.8               -0.778209       -0.441693      0.000354814    -0.000211443        -0.349673        0.211762     -0.000240312     0.000230332
                     0.000225507     0.000284313        -0.107493       -0.169723     -0.000239059    -0.000424116        -0.311164        0.926426
                       -0.349821        0.211283      -0.00071541     7.20894e-06        -0.101619       -0.884748      0.000404154    -0.000133978
                    -0.000233966     0.000291515         -0.31077        0.926539      0.000458163    -0.000233138        -0.188042        0.070972
281702.9               -0.778232       -0.441671      0.000354772    -0.000211453        -0.349646        0.211768     -0.000240296     0.000230367
                     0.000225523     0.000284321        -0.107499       -0.169718     -0.000239077    -0.000424114        -0.311138        0.926435
                       -0.349794        0.211289     -0.000715398     7.31603e-06        -0.101675       -0.884751      0.000404137    -0.000134023
                    -0.000233956     0.000291532        -0.310744        0.926548      0.000458147    -0.000233163        -0.188039       0.0709754
281703                 -0.778255       -0.441648       0.00035473    -0.000211464        -0.349618        0.211774     -0.000240281     0.000230401
                     0.000225539      0.00028433        -0.107504       -0.169713     -0.000239095    -0.000424112        -0.311111        0.926444
                       -0.349767        0.211295     -0.000715387     7.42312e-06        -0.101732       -0.884754       0.00040412    -0.000134068
                    -0.000233947     0.000291549        -0.310718        0.926557      0.000458131    -0.000233188        -0.188036       0.0709788
281703.1               -0.778278       -0.441626      0.000354688    -0.000211475        -0.349591         0.21178     -0.000240265     0.000230436
                     0.000225554     0.000284338         -0.10751       -0.169708     -0.000239113     -0.00042411        -0.311085        0.926453
                        -0.34974        0.211301     -0.000715376     7.53022e-06        -0.101788       -0.884757      0.000404102    -0.000134113
