! TOUCHSTONE file generated by CST MICROWAVE STUDIO
! Date and time: Wed Oct  8 07:00:21 2025
! Project name: Teste_Macro_Metasurface_Nanopilar.cst
! Parameters = {H=600; L_x=150; L_y=125; Lambda=1064; Max_L=200; Min_L=70; PathPara=1; Phi=0; Step_L=10; Theta=0; p=520; phaseX=180; phaseY=0}
! Header version: 2018
! Port assignment regex: !\s*Touchstone port\s*([0-9]+)\s*=\s*(CST MWS port|CST DS port)\s*([0-9]+|Zmin|Zmax)\s*\(\"(.*)\"\)(\s*mode\s*([0-9]+))?.*
! Touchstone port assignment:
! Touchstone port 1 = CST MWS port Zmax ("") mode 1
! Touchstone port 2 = CST MWS port Zmax ("") mode 2
! Touchstone port 3 = CST MWS port Zmin ("") mode 1
! Touchstone port 4 = CST MWS port Zmin ("") mode 2
! S-Parameters are not renormalized. Each port impedance will be approximated by the real part at minimum frequency. The values are described via the [Reference] keyword.
! Default impedance is overridden by [Reference]
[Version] 2.0
# GHz S RI R 376.73
[Number of Ports] 4
[Reference]
376.73 376.73 376.73 376.73 
[Number of Frequencies] 1001
[Network Data]
281700                 -0.238311      -0.0499505     -0.000376903     0.000713142       -0.0926674       -0.959844      4.74485e-06    -0.000140918
                    -0.000357855     0.000568713        -0.104355      -0.0660537     -1.02527e-05     0.000175176        -0.755287       -0.635257
                      -0.0925064       -0.959743     -6.89706e-05     0.000320614        -0.224845       0.0944016     -0.000533563    -9.20092e-05
                    -0.000212867     7.74502e-06         -0.75534       -0.635242     -0.000737246     7.70559e-05        0.0795842        0.087315
281700.1               -0.238311       -0.049942      -0.00037687     0.000713154       -0.0926968       -0.959842      4.74585e-06    -0.000140908
                    -0.000357827     0.000568729         -0.10435      -0.0660563     -1.02467e-05     0.000175175        -0.755308       -0.635232
                      -0.0925358       -0.959741      -6.8962e-05     0.000320573        -0.224841       0.0944069     -0.000533562    -9.20111e-05
                     -0.00021286      7.7589e-06        -0.755361       -0.635217     -0.000737238     7.70734e-05        0.0795918       0.0873047
281700.2               -0.238311      -0.0499335     -0.000376836     0.000713165       -0.0927261       -0.959839      4.74686e-06    -0.000140897
                      -0.0003578     0.000568744        -0.104346      -0.0660588     -1.02407e-05     0.000175175        -0.755329       -0.635207
                      -0.0925652       -0.959739     -6.89534e-05     0.000320533        -0.224837       0.0944122     -0.000533561     -9.2013e-05
                    -0.000212854     7.77278e-06        -0.755382       -0.635192      -0.00073723     7.70909e-05        0.0795994       0.0872944
281700.3                -0.23831       -0.049925     -0.000376803     0.000713177       -0.0927555       -0.959837      4.74787e-06    -0.000140887
                    -0.000357772      0.00056876        -0.104342      -0.0660614     -1.02348e-05     0.000175174        -0.755351       -0.635181
                      -0.0925946       -0.959736     -6.89449e-05     0.000320492        -0.224833       0.0944175      -0.00053356    -9.20148e-05
                    -0.000212847     7.78667e-06        -0.755404       -0.635167     -0.000737221     7.71083e-05         0.079607       0.0872841
281700.4                -0.23831      -0.0499165     -0.000376769     0.000713188       -0.0927849       -0.959835      4.74889e-06    -0.000140876
                    -0.000357745     0.000568775        -0.104337      -0.0660639     -1.02288e-05     0.000175173        -0.755372       -0.635156
                       -0.092624       -0.959734     -6.89363e-05     0.000320452        -0.224828       0.0944228     -0.000533559    -9.20167e-05
                    -0.000212841     7.80056e-06        -0.755425       -0.635142     -0.000737213     7.71258e-05        0.0796146       0.0872738
281700.5                -0.23831       -0.049908     -0.000376736       0.0007132       -0.0928143       -0.959832      4.74991e-06    -0.000140865
                    -0.000357718     0.000568791        -0.104333      -0.0660665     -1.02228e-05     0.000175173        -0.755394       -0.635131
                      -0.0926534       -0.959732     -6.89277e-05     0.000320412        -0.224824       0.0944281     -0.000533558    -9.20186e-05
                    -0.000212835     7.81445e-06        -0.755447       -0.635117     -0.000737205     7.71432e-05        0.0796222       0.0872635
281700.6                -0.23831      -0.0498995     -0.000376702     0.000713212       -0.0928436        -0.95983      4.75093e-06    -0.000140855
                     -0.00035769     0.000568806        -0.104329       -0.066069     -1.02168e-05     0.000175172        -0.755415       -0.635106
                      -0.0926828       -0.959729     -6.89192e-05     0.000320371         -0.22482       0.0944333     -0.000533557    -9.20204e-05
                    -0.000212828     7.82835e-06        -0.755468       -0.635091     -0.000737196     7.71607e-05        0.0796299       0.0872532
281700.7                -0.23831      -0.0498909     -0.000376669     0.000713223        -0.092873       -0.959827      4.75196e-06    -0.000140844
                    -0.000357663     0.000568822        -0.104324      -0.0660716     -1.02108e-05     0.000175171        -0.755436       -0.635081
                      -0.0927122       -0.959727     -6.89106e-05      0.00032033        -0.224815       0.0944386     -0.000533556    -9.20222e-05
                    -0.000212822     7.84225e-06        -0.755489       -0.635066     -0.000737188     7.71781e-05        0.0796375       0.0872429
281700.8                -0.23831      -0.0498824     -0.000376635     0.000713235       -0.0929024       -0.959825        4.753e-06    -0.000140833
                    -0.000357635     0.000568837         -0.10432      -0.0660741     -1.02048e-05     0.000175171        -0.755458       -0.635056
                      -0.0927416       -0.959725      -6.8902e-05      0.00032029        -0.224811       0.0944439     -0.000533555    -9.20241e-05
                    -0.000212815     7.85615e-06        -0.755511       -0.635041      -0.00073718     7.71955e-05        0.0796451       0.0872327
281700.9                -0.23831      -0.0498739     -0.000376602     0.000713246       -0.0929317       -0.959823      4.75404e-06    -0.000140823
                    -0.000357608     0.000568853        -0.104316      -0.0660767     -1.01988e-05      0.00017517        -0.755479       -0.635031
                      -0.0927711       -0.959722     -6.88934e-05     0.000320249        -0.224807       0.0944492     -0.000533554    -9.20259e-05
                    -0.000212809     7.87006e-06        -0.755532       -0.635016     -0.000737171      7.7213e-05        0.0796527       0.0872224
281701                 -0.238309      -0.0498654     -0.000376569     0.000713258       -0.0929611        -0.95982      4.75509e-06    -0.000140812
                    -0.000357581     0.000568868        -0.104311      -0.0660792     -1.01928e-05     0.000175169        -0.755501       -0.635006
                      -0.0928005        -0.95972     -6.88849e-05     0.000320209        -0.224802       0.0944545     -0.000533553    -9.20277e-05
                    -0.000212803     7.88397e-06        -0.755553       -0.634991     -0.000737163     7.72304e-05        0.0796603       0.0872121
281701.1               -0.238309      -0.0498569     -0.000376535      0.00071327       -0.0929905       -0.959818      4.75614e-06    -0.000140801
                    -0.000357553     0.000568884        -0.104307      -0.0660818     -1.01867e-05     0.000175168        -0.755522       -0.634981
                      -0.0928299       -0.959718     -6.88763e-05     0.000320168        -0.224798       0.0944598     -0.000533552    -9.20295e-05
                    -0.000212796     7.89788e-06        -0.755575       -0.634966     -0.000737155     7.72478e-05        0.0796679       0.0872018
281701.2               -0.238309      -0.0498484     -0.000376502     0.000713281       -0.0930199       -0.959816       4.7572e-06    -0.000140791
                    -0.000357526     0.000568899        -0.104303      -0.0660843     -1.01807e-05     0.000175168        -0.755543       -0.634955
                      -0.0928593       -0.959715     -6.88677e-05     0.000320128        -0.224794       0.0944651     -0.000533551    -9.20313e-05
                     -0.00021279      7.9118e-06        -0.755596        -0.63494     -0.000737147     7.72653e-05        0.0796755       0.0871915
281701.3               -0.238309      -0.0498399     -0.000376468     0.000713293       -0.0930492       -0.959813      4.75826e-06     -0.00014078
                    -0.000357498     0.000568915        -0.104298      -0.0660869     -1.01747e-05     0.000175167        -0.755565        -0.63493
                      -0.0928887       -0.959713     -6.88591e-05     0.000320087         -0.22479       0.0944704      -0.00053355    -9.20331e-05
                    -0.000212783     7.92571e-06        -0.755617       -0.634915     -0.000737138     7.72827e-05        0.0796832       0.0871812
281701.4               -0.238309      -0.0498314     -0.000376435     0.000713304       -0.0930786       -0.959811      4.75933e-06    -0.000140769
                    -0.000357471      0.00056893        -0.104294      -0.0660894     -1.01687e-05     0.000175167        -0.755586       -0.634905
                      -0.0929181       -0.959711     -6.88505e-05     0.000320046        -0.224785       0.0944757     -0.000533549    -9.20349e-05
                    -0.000212777     7.93964e-06        -0.755639        -0.63489      -0.00073713     7.73001e-05        0.0796908       0.0871709
281701.5               -0.238309      -0.0498229     -0.000376402     0.000713316        -0.093108       -0.959809       4.7604e-06    -0.000140758
                    -0.000357444     0.000568946         -0.10429       -0.066092     -1.01627e-05     0.000175166        -0.755608        -0.63488
                      -0.0929475       -0.959708     -6.88419e-05     0.000320006        -0.224781       0.0944809     -0.000533548    -9.20366e-05
                    -0.000212771     7.95356e-06         -0.75566       -0.634865     -0.000737122     7.73175e-05        0.0796984       0.0871606
281701.6               -0.238308      -0.0498144     -0.000376368     0.000713327       -0.0931374       -0.959806      4.76148e-06    -0.000140748
                    -0.000357416     0.000568962        -0.104285      -0.0660945     -1.01566e-05     0.000175165        -0.755629       -0.634855
                      -0.0929769       -0.959706     -6.88333e-05     0.000319965        -0.224777       0.0944862     -0.000533547    -9.20384e-05
                    -0.000212764     7.96749e-06        -0.755682        -0.63484     -0.000737114      7.7335e-05         0.079706       0.0871503
281701.7               -0.238308      -0.0498059     -0.000376335     0.000713339       -0.0931667       -0.959804      4.76256e-06    -0.000140737
                    -0.000357389     0.000568977        -0.104281      -0.0660971     -1.01506e-05     0.000175165         -0.75565        -0.63483
                      -0.0930063       -0.959704     -6.88247e-05     0.000319924        -0.224772       0.0944915     -0.000533546    -9.20402e-05
                    -0.000212758     7.98142e-06        -0.755703       -0.634815     -0.000737105     7.73524e-05        0.0797136         0.08714
281701.8               -0.238308      -0.0497974     -0.000376301      0.00071335       -0.0931961       -0.959802      4.76365e-06    -0.000140726
                    -0.000357362     0.000568993        -0.104277      -0.0660996     -1.01446e-05     0.000175164        -0.755672       -0.634805
                      -0.0930357       -0.959701     -6.88161e-05     0.000319884        -0.224768       0.0944968     -0.000533545    -9.20419e-05
                    -0.000212751     7.99535e-06        -0.755724        -0.63479     -0.000737097     7.73698e-05        0.0797212       0.0871297
281701.9               -0.238308      -0.0497889     -0.000376268     0.000713362       -0.0932255       -0.959799      4.76475e-06    -0.000140715
                    -0.000357334     0.000569008        -0.104272      -0.0661022     -1.01385e-05     0.000175163        -0.755693        -0.63478
                      -0.0930651       -0.959699     -6.88075e-05     0.000319843        -0.224764       0.0945021     -0.000533544    -9.20436e-05
                    -0.000212745     8.00929e-06        -0.755746       -0.634764     -0.000737089     7.73872e-05        0.0797288       0.0871194
281702                 -0.238308      -0.0497804     -0.000376235     0.000713373       -0.0932548       -0.959797      4.76584e-06    -0.000140705
                    -0.000357307     0.000569024        -0.104268      -0.0661047     -1.01325e-05     0.000175163        -0.755715       -0.634754
                      -0.0930945       -0.959697     -6.87989e-05     0.000319802        -0.224759       0.0945074     -0.000533543    -9.20454e-05
                    -0.000212739     8.02323e-06        -0.755767       -0.634739     -0.000737081     7.74046e-05        0.0797364       0.0871091
281702.1               -0.238308      -0.0497719     -0.000376201     0.000713385       -0.0932842       -0.959795      4.76695e-06    -0.000140694
                    -0.000357279     0.000569039        -0.104264      -0.0661073     -1.01265e-05     0.000175162        -0.755736       -0.634729
                      -0.0931239       -0.959694     -6.87903e-05     0.000319761        -0.224755       0.0945127     -0.000533541    -9.20471e-05
                    -0.000212732     8.03717e-06        -0.755788       -0.634714     -0.000737072      7.7422e-05         0.079744       0.0870988
281702.2               -0.238307      -0.0497634     -0.000376168     0.000713396       -0.0933136       -0.959792      4.76806e-06    -0.000140683
                    -0.000357252     0.000569055        -0.104259      -0.0661098     -1.01204e-05     0.000175161        -0.755757       -0.634704
                      -0.0931533       -0.959692     -6.87817e-05      0.00031972        -0.224751        0.094518      -0.00053354    -9.20488e-05
                    -0.000212726     8.05112e-06         -0.75581       -0.634689     -0.000737064     7.74394e-05        0.0797517       0.0870885
281702.3               -0.238307      -0.0497549     -0.000376134     0.000713408        -0.093343        -0.95979      4.76917e-06    -0.000140672
                    -0.000357225      0.00056907        -0.104255      -0.0661124     -1.01144e-05     0.000175161        -0.755779       -0.634679
                      -0.0931827        -0.95969     -6.87731e-05      0.00031968        -0.224747       0.0945232     -0.000533539    -9.20505e-05
                    -0.000212719     8.06507e-06        -0.755831       -0.634664     -0.000737056     7.74568e-05        0.0797593       0.0870782
281702.4               -0.238307      -0.0497464     -0.000376101     0.000713419       -0.0933723       -0.959787       4.7703e-06    -0.000140661
                    -0.000357197     0.000569086        -0.104251       -0.066115     -1.01083e-05      0.00017516          -0.7558       -0.634654
                      -0.0932121       -0.959687     -6.87645e-05     0.000319639        -0.224742       0.0945285     -0.000533538    -9.20522e-05
                    -0.000212713     8.07902e-06        -0.755852       -0.634639     -0.000737048     7.74742e-05        0.0797669       0.0870679
281702.5               -0.238307      -0.0497379     -0.000376068     0.000713431       -0.0934017       -0.959785      4.77142e-06     -0.00014065
                     -0.00035717     0.000569101        -0.104246      -0.0661175     -1.01022e-05     0.000175159        -0.755822       -0.634629
                      -0.0932415       -0.959685     -6.87558e-05     0.000319598        -0.224738       0.0945338     -0.000533537    -9.20539e-05
                    -0.000212706     8.09298e-06        -0.755874       -0.634613      -0.00073704     7.74916e-05        0.0797745       0.0870576
281702.6               -0.238307      -0.0497294     -0.000376034     0.000713442       -0.0934311       -0.959783      4.77255e-06    -0.000140639
                    -0.000357142     0.000569117        -0.104242      -0.0661201     -1.00962e-05     0.000175159        -0.755843       -0.634604
                      -0.0932709       -0.959682     -6.87472e-05     0.000319557        -0.224734       0.0945391     -0.000533536    -9.20556e-05
                      -0.0002127     8.10693e-06        -0.755895       -0.634588     -0.000737032      7.7509e-05        0.0797821       0.0870473
281702.7               -0.238307      -0.0497209     -0.000376001     0.000713453       -0.0934605        -0.95978      4.77369e-06    -0.000140629
                    -0.000357115     0.000569132        -0.104238      -0.0661226     -1.00901e-05     0.000175158        -0.755864       -0.634578
                      -0.0933003        -0.95968     -6.87386e-05     0.000319516        -0.224729       0.0945444     -0.000533535    -9.20572e-05
                    -0.000212694      8.1209e-06        -0.755916       -0.634563     -0.000737023     7.75264e-05        0.0797897        0.087037
281702.8               -0.238306      -0.0497124     -0.000375968     0.000713465       -0.0934898       -0.959778      4.77483e-06    -0.000140618
                    -0.000357088     0.000569148        -0.104233      -0.0661252      -1.0084e-05     0.000175157        -0.755886       -0.634553
                      -0.0933297       -0.959678       -6.873e-05     0.000319475        -0.224725       0.0945497     -0.000533534    -9.20589e-05
                    -0.000212687     8.13486e-06        -0.755938       -0.634538     -0.000737015     7.75438e-05        0.0797973       0.0870267
281702.9               -0.238306      -0.0497039     -0.000375934     0.000713476       -0.0935192       -0.959776      4.77598e-06    -0.000140607
                     -0.00035706     0.000569163        -0.104229      -0.0661277      -1.0078e-05     0.000175157        -0.755907       -0.634528
                      -0.0933591       -0.959675     -6.87213e-05     0.000319434        -0.224721        0.094555     -0.000533532    -9.20606e-05
                    -0.000212681     8.14883e-06        -0.755959       -0.634513     -0.000737007     7.75612e-05        0.0798049       0.0870163
281703                 -0.238306      -0.0496954     -0.000375901     0.000713488       -0.0935486       -0.959773      4.77713e-06    -0.000140596
                    -0.000357033     0.000569179        -0.104225      -0.0661303     -1.00719e-05     0.000175156        -0.755929       -0.634503
                      -0.0933885       -0.959673     -6.87127e-05     0.000319394        -0.224716       0.0945602     -0.000533531    -9.20622e-05
                    -0.000212674      8.1628e-06        -0.755981       -0.634488     -0.000736999     7.75786e-05        0.0798125        0.087006
281703.1               -0.238306      -0.0496869     -0.000375868     0.000713499       -0.0935779       -0.959771      4.77829e-06    -0.000140585
                    -0.000357006     0.000569194         -0.10422      -0.0661329     -1.00658e-05     0.000175156         -0.75595       -0.634478
                      -0.0934179       -0.959671     -6.87041e-05     0.000319353        -0.224712       0.0945655      -0.00053353    -9.20638e-05
