! TOUCHSTONE file generated by CST MICROWAVE STUDIO
! Date and time: Wed Oct  8 06:58:45 2025
! Project name: Teste_Macro_Metasurface_Nanopilar.cst
! Parameters = {H=600; L_x=135; L_y=170; Lambda=1064; Max_L=200; Min_L=70; PathPara=1; Phi=0; Step_L=10; Theta=0; p=520; phaseX=180; phaseY=0}
! Header version: 2018
! Port assignment regex: !\s*Touchstone port\s*([0-9]+)\s*=\s*(CST MWS port|CST DS port)\s*([0-9]+|Zmin|Zmax)\s*\(\"(.*)\"\)(\s*mode\s*([0-9]+))?.*
! Touchstone port assignment:
! Touchstone port 1 = CST MWS port Zmax ("") mode 1
! Touchstone port 2 = CST MWS port Zmax ("") mode 2
! Touchstone port 3 = CST MWS port Zmin ("") mode 1
! Touchstone port 4 = CST MWS port Zmin ("") mode 2
! S-Parameters are not renormalized. Each port impedance will be approximated by the real part at minimum frequency. The values are described via the [Reference] keyword.
! Default impedance is overridden by [Reference]
[Version] 2.0
# GHz S RI R 376.73
[Number of Ports] 4
[Reference]
376.73 376.73 376.73 376.73 
[Number of Frequencies] 1001
[Network Data]
281700                 -0.101728         0.23749     -0.000253001      -0.0011947        -0.794408       -0.538604     -0.000463807     0.000245854
                    -0.000166625     -0.00111921       -0.0903732       -0.088613      2.93431e-05     0.000490829        -0.793196       -0.583603
                       -0.793891       -0.538817     -1.29123e-05     0.000491626        -0.188461        0.175716       0.00115598    -7.43449e-05
                    -0.000417884     4.11762e-05        -0.793191       -0.583674       0.00104664    -6.02576e-05         0.105553       0.0526748
281700.1               -0.101719        0.237487     -0.000253035     -0.00119471        -0.794426       -0.538581     -0.000463836     0.000245894
                    -0.000166662     -0.00111922       -0.0903694      -0.0886188      2.93618e-05     0.000490845        -0.793216       -0.583574
                       -0.793909       -0.538793     -1.28989e-05     0.000491649        -0.188451        0.175717       0.00115599    -7.43876e-05
                     -0.00041789     4.12024e-05        -0.793212       -0.583646       0.00104664    -6.03028e-05         0.105561       0.0526612
281700.2               -0.101709        0.237484     -0.000253068     -0.00119472        -0.794444       -0.538557     -0.000463864     0.000245934
                    -0.000166698     -0.00111923       -0.0903655      -0.0886246      2.93805e-05     0.000490862        -0.793237       -0.583546
                       -0.793927        -0.53877     -1.28855e-05     0.000491673         -0.18844        0.175719       0.00115601    -7.44303e-05
                    -0.000417896     4.12286e-05        -0.793232       -0.583617       0.00104664    -6.03479e-05         0.105569       0.0526476
281700.3                 -0.1017         0.23748     -0.000253102     -0.00119473        -0.794462       -0.538534     -0.000463892     0.000245974
                    -0.000166735     -0.00111924       -0.0903616      -0.0886304      2.93993e-05     0.000490878        -0.793258       -0.583517
                       -0.793945       -0.538746     -1.28721e-05     0.000491696         -0.18843         0.17572       0.00115602     -7.4473e-05
                    -0.000417902     4.12547e-05        -0.793253       -0.583588       0.00104664    -6.03931e-05         0.105577       0.0526339
281700.4                -0.10169        0.237477     -0.000253136     -0.00119473        -0.794481        -0.53851      -0.00046392     0.000246014
                    -0.000166772     -0.00111925       -0.0903577      -0.0886362       2.9418e-05     0.000490895        -0.793278       -0.583488
                       -0.793963       -0.538723     -1.28587e-05      0.00049172         -0.18842        0.175722       0.00115603    -7.45158e-05
                    -0.000417909     4.12809e-05        -0.793274       -0.583559       0.00104664    -6.04382e-05         0.105585       0.0526203
281700.5                -0.10168        0.237474      -0.00025317     -0.00119474        -0.794499       -0.538487     -0.000463948     0.000246054
                    -0.000166809     -0.00111926       -0.0903538       -0.088642      2.94367e-05     0.000490911        -0.793299       -0.583459
                       -0.793981       -0.538699     -1.28453e-05     0.000491743        -0.188409        0.175723       0.00115604    -7.45585e-05
                    -0.000417915     4.13071e-05        -0.793295        -0.58353       0.00104663    -6.04833e-05         0.105593       0.0526066
281700.6               -0.101671        0.237471     -0.000253203     -0.00119475        -0.794517       -0.538463     -0.000463976     0.000246094
                    -0.000166845     -0.00111927       -0.0903499      -0.0886478      2.94554e-05     0.000490928         -0.79332        -0.58343
                       -0.793999       -0.538676     -1.28319e-05     0.000491766        -0.188399        0.175725       0.00115605    -7.46012e-05
                    -0.000417921     4.13332e-05        -0.793315       -0.583502       0.00104663    -6.05285e-05         0.105601        0.052593
281700.7               -0.101661        0.237468     -0.000253237     -0.00119476        -0.794535        -0.53844     -0.000464004     0.000246134
                    -0.000166882     -0.00111928        -0.090346      -0.0886536      2.94742e-05     0.000490944         -0.79334       -0.583402
                       -0.794017       -0.538652     -1.28185e-05      0.00049179        -0.188389        0.175726       0.00115606     -7.4644e-05
                    -0.000417927     4.13594e-05        -0.793336       -0.583473       0.00104663    -6.05736e-05         0.105609       0.0525793
281700.8               -0.101651        0.237465     -0.000253271     -0.00119477        -0.794553       -0.538416     -0.000464032     0.000246174
                    -0.000166919     -0.00111929       -0.0903422      -0.0886594      2.94929e-05     0.000490961        -0.793361       -0.583373
                       -0.794035       -0.538629     -1.28051e-05     0.000491813        -0.188378        0.175727       0.00115607    -7.46867e-05
                    -0.000417933     4.13855e-05        -0.793357       -0.583444       0.00104663    -6.06188e-05         0.105617       0.0525657
281700.9               -0.101642        0.237462     -0.000253305     -0.00119478        -0.794571       -0.538393      -0.00046406     0.000246214
                    -0.000166955     -0.00111931       -0.0903383      -0.0886652      2.95116e-05     0.000490978        -0.793382       -0.583344
                       -0.794054       -0.538606     -1.27917e-05     0.000491837        -0.188368        0.175729       0.00115609    -7.47295e-05
                    -0.000417939     4.14117e-05        -0.793377       -0.583415       0.00104663    -6.06639e-05         0.105625       0.0525521
281701                 -0.101632        0.237459     -0.000253338     -0.00119479        -0.794589        -0.53837     -0.000464089     0.000246254
                    -0.000166992     -0.00111932       -0.0903344       -0.088671      2.95304e-05     0.000490994        -0.793402       -0.583315
                       -0.794072       -0.538582     -1.27783e-05      0.00049186        -0.188358         0.17573        0.0011561    -7.47722e-05
                    -0.000417945     4.14379e-05        -0.793398       -0.583386       0.00104663    -6.07091e-05         0.105634       0.0525384
281701.1               -0.101623        0.237456     -0.000253372      -0.0011948        -0.794607       -0.538346     -0.000464117     0.000246294
                    -0.000167029     -0.00111933       -0.0903305      -0.0886768      2.95491e-05     0.000491011        -0.793423       -0.583286
                        -0.79409       -0.538559     -1.27649e-05     0.000491883        -0.188347        0.175732       0.00115611     -7.4815e-05
                    -0.000417951      4.1464e-05        -0.793419       -0.583358       0.00104663    -6.07542e-05         0.105642       0.0525248
281701.2               -0.101613        0.237453     -0.000253406      -0.0011948        -0.794625       -0.538323     -0.000464145     0.000246334
                    -0.000167066     -0.00111934       -0.0903266      -0.0886826      2.95678e-05     0.000491027        -0.793444       -0.583258
                       -0.794108       -0.538535     -1.27515e-05     0.000491907        -0.188337        0.175733       0.00115612    -7.48578e-05
                    -0.000417957     4.14902e-05        -0.793439       -0.583329       0.00104662    -6.07994e-05          0.10565       0.0525111
281701.3               -0.101603         0.23745      -0.00025344     -0.00119481        -0.794644       -0.538299     -0.000464173     0.000246374
                    -0.000167102     -0.00111935       -0.0903228      -0.0886884      2.95866e-05     0.000491044        -0.793464       -0.583229
                       -0.794126       -0.538512     -1.27381e-05      0.00049193        -0.188327        0.175735       0.00115613    -7.49005e-05
                    -0.000417964     4.15163e-05         -0.79346         -0.5833       0.00104662    -6.08445e-05         0.105658       0.0524975
281701.4               -0.101594        0.237447     -0.000253474     -0.00119482        -0.794662       -0.538276     -0.000464201     0.000246414
                    -0.000167139     -0.00111936       -0.0903189      -0.0886942      2.96053e-05      0.00049106        -0.793485         -0.5832
                       -0.794144       -0.538488     -1.27247e-05     0.000491954        -0.188316        0.175736       0.00115614    -7.49433e-05
                     -0.00041797     4.15424e-05        -0.793481       -0.583271       0.00104662    -6.08897e-05         0.105666       0.0524838
281701.5               -0.101584        0.237444     -0.000253507     -0.00119483         -0.79468       -0.538252     -0.000464229     0.000246454
                    -0.000167176     -0.00111937        -0.090315         -0.0887      2.96241e-05     0.000491077        -0.793506       -0.583171
                       -0.794162       -0.538465     -1.27113e-05     0.000491977        -0.188306        0.175738       0.00115615    -7.49861e-05
                    -0.000417976     4.15686e-05        -0.793501       -0.583242       0.00104662    -6.09348e-05         0.105674       0.0524701
281701.6               -0.101575         0.23744     -0.000253541     -0.00119484        -0.794698       -0.538229     -0.000464257     0.000246494
                    -0.000167213     -0.00111938       -0.0903111      -0.0887058      2.96428e-05     0.000491093        -0.793526       -0.583142
                        -0.79418       -0.538441     -1.26979e-05        0.000492        -0.188296        0.175739       0.00115617    -7.50289e-05
                    -0.000417982     4.15947e-05        -0.793522       -0.583214       0.00104662      -6.098e-05         0.105682       0.0524565
281701.7               -0.101565        0.237437     -0.000253575     -0.00119485        -0.794716       -0.538205     -0.000464286     0.000246534
                    -0.000167249     -0.00111939       -0.0903072      -0.0887116      2.96616e-05      0.00049111        -0.793547       -0.583114
                       -0.794198       -0.538418     -1.26845e-05     0.000492024        -0.188285        0.175741       0.00115618    -7.50717e-05
                    -0.000417988     4.16208e-05        -0.793543       -0.583185       0.00104662    -6.10251e-05          0.10569       0.0524428
281701.8               -0.101555        0.237434     -0.000253609     -0.00119486        -0.794734       -0.538182     -0.000464314     0.000246574
                    -0.000167286      -0.0011194       -0.0903033      -0.0887174      2.96803e-05     0.000491126        -0.793568       -0.583085
                       -0.794216       -0.538394      -1.2671e-05     0.000492047        -0.188275        0.175742       0.00115619    -7.51145e-05
                    -0.000417994      4.1647e-05        -0.793563       -0.583156       0.00104661    -6.10703e-05         0.105698       0.0524292
281701.9               -0.101546        0.237431     -0.000253642     -0.00119486        -0.794752       -0.538158     -0.000464342     0.000246614
                    -0.000167323     -0.00111941       -0.0902995      -0.0887232      2.96991e-05     0.000491143        -0.793588       -0.583056
                       -0.794234       -0.538371     -1.26576e-05     0.000492071        -0.188265        0.175744        0.0011562    -7.51573e-05
                       -0.000418     4.16731e-05        -0.793584       -0.583127       0.00104661    -6.11155e-05         0.105706       0.0524155
281702                 -0.101536        0.237428     -0.000253676     -0.00119487         -0.79477       -0.538135      -0.00046437     0.000246654
                     -0.00016736     -0.00111943       -0.0902956       -0.088729      2.97179e-05     0.000491159        -0.793609       -0.583027
                       -0.794253       -0.538347     -1.26442e-05     0.000492094        -0.188254        0.175745       0.00115621    -7.52001e-05
                    -0.000418006     4.16992e-05        -0.793605       -0.583098       0.00104661    -6.11606e-05         0.105714       0.0524019
281702.1               -0.101526        0.237425      -0.00025371     -0.00119488        -0.794788       -0.538111     -0.000464398     0.000246694
                    -0.000167396     -0.00111944       -0.0902917      -0.0887348      2.97366e-05     0.000491176         -0.79363       -0.582998
                       -0.794271       -0.538324     -1.26308e-05     0.000492117        -0.188244        0.175747       0.00115622    -7.52429e-05
                    -0.000418012     4.17254e-05        -0.793625        -0.58307       0.00104661    -6.12058e-05         0.105722       0.0523882
281702.2               -0.101517        0.237422     -0.000253744     -0.00119489        -0.794806       -0.538088     -0.000464426     0.000246734
                    -0.000167433     -0.00111945       -0.0902878      -0.0887406      2.97554e-05     0.000491192         -0.79365       -0.582969
                       -0.794289         -0.5383     -1.26174e-05     0.000492141        -0.188234        0.175748       0.00115623    -7.52857e-05
                    -0.000418019     4.17515e-05        -0.793646       -0.583041       0.00104661    -6.12509e-05          0.10573       0.0523746
281702.3               -0.101507        0.237419     -0.000253778      -0.0011949        -0.794825       -0.538064     -0.000464454     0.000246774
                     -0.00016747     -0.00111946        -0.090284      -0.0887464      2.97742e-05     0.000491209        -0.793671       -0.582941
                       -0.794307       -0.538277     -1.26039e-05     0.000492164        -0.188223        0.175749       0.00115625    -7.53285e-05
                    -0.000418025     4.17776e-05        -0.793667       -0.583012       0.00104661    -6.12961e-05         0.105738       0.0523609
281702.4               -0.101498        0.237416     -0.000253811     -0.00119491        -0.794843       -0.538041     -0.000464483     0.000246814
                    -0.000167507     -0.00111947       -0.0902801      -0.0887522      2.97929e-05     0.000491225        -0.793691       -0.582912
                       -0.794325       -0.538253     -1.25905e-05     0.000492188        -0.188213        0.175751       0.00115626    -7.53714e-05
                    -0.000418031     4.18037e-05        -0.793687       -0.582983        0.0010466    -6.13412e-05         0.105746       0.0523472
281702.5               -0.101488        0.237413     -0.000253845     -0.00119492        -0.794861       -0.538017     -0.000464511     0.000246854
                    -0.000167543     -0.00111948       -0.0902762       -0.088758      2.98117e-05     0.000491242        -0.793712       -0.582883
                       -0.794343        -0.53823     -1.25771e-05     0.000492211        -0.188203        0.175752       0.00115627    -7.54142e-05
                    -0.000418037     4.18298e-05        -0.793708       -0.582954        0.0010466    -6.13864e-05         0.105755       0.0523336
281702.6               -0.101478         0.23741     -0.000253879     -0.00119492        -0.794879       -0.537994     -0.000464539     0.000246894
                     -0.00016758     -0.00111949       -0.0902723      -0.0887638      2.98305e-05     0.000491258        -0.793733       -0.582854
                       -0.794361       -0.538206     -1.25637e-05     0.000492234        -0.188193        0.175754       0.00115628     -7.5457e-05
                    -0.000418043     4.18559e-05        -0.793728       -0.582926        0.0010466    -6.14315e-05         0.105763       0.0523199
281702.7               -0.101469        0.237406     -0.000253913     -0.00119493        -0.794897        -0.53797     -0.000464567     0.000246934
                    -0.000167617      -0.0011195       -0.0902684      -0.0887696      2.98492e-05     0.000491275        -0.793753       -0.582825
                       -0.794379       -0.538183     -1.25502e-05     0.000492258        -0.188182        0.175755       0.00115629    -7.54999e-05
                    -0.000418049      4.1882e-05        -0.793749       -0.582897        0.0010466    -6.14767e-05         0.105771       0.0523063
281702.8               -0.101459        0.237403     -0.000253947     -0.00119494        -0.794915       -0.537947     -0.000464595     0.000246974
                    -0.000167654     -0.00111951       -0.0902646      -0.0887755       2.9868e-05     0.000491291        -0.793774       -0.582796
                       -0.794397        -0.53816     -1.25368e-05     0.000492281        -0.188172        0.175757        0.0011563    -7.55427e-05
                    -0.000418055     4.19082e-05         -0.79377       -0.582868        0.0010466    -6.15219e-05         0.105779       0.0522926
281702.9               -0.101449          0.2374      -0.00025398     -0.00119495        -0.794933       -0.537923     -0.000464623     0.000247014
                    -0.000167691     -0.00111952       -0.0902607      -0.0887813      2.98868e-05     0.000491308        -0.793795       -0.582768
                       -0.794415       -0.538136     -1.25234e-05     0.000492305        -0.188162        0.175758       0.00115631    -7.55856e-05
                    -0.000418061     4.19343e-05         -0.79379       -0.582839        0.0010466     -6.1567e-05         0.105787       0.0522789
281703                  -0.10144        0.237397     -0.000254014     -0.00119496        -0.794951         -0.5379     -0.000464652     0.000247054
                    -0.000167727     -0.00111953       -0.0902568      -0.0887871      2.99056e-05     0.000491324        -0.793815       -0.582739
                       -0.794433       -0.538113       -1.251e-05     0.000492328        -0.188151         0.17576       0.00115633    -7.56284e-05
                    -0.000418068     4.19604e-05        -0.793811        -0.58281        0.0010466    -6.16122e-05         0.105795       0.0522653
281703.1                -0.10143        0.237394     -0.000254048     -0.00119497        -0.794969       -0.537877      -0.00046468     0.000247094
                    -0.000167764     -0.00111954       -0.0902529      -0.0887929      2.99244e-05     0.000491341        -0.793836        -0.58271
                       -0.794452       -0.538089     -1.24965e-05     0.000492351        -0.188141        0.175761       0.00115634    -7.56713e-05
