! TOUCHSTONE file generated by CST MICROWAVE STUDIO
! Date and time: Wed Oct  8 06:54:54 2025
! Project name: Teste_Macro_Metasurface_Nanopilar.cst
! Parameters = {H=600; L_x=105; L_y=110; Lambda=1064; Max_L=200; Min_L=70; PathPara=1; Phi=0; Step_L=10; Theta=0; p=520; phaseX=180; phaseY=0}
! Header version: 2018
! Port assignment regex: !\s*Touchstone port\s*([0-9]+)\s*=\s*(CST MWS port|CST DS port)\s*([0-9]+|Zmin|Zmax)\s*\(\"(.*)\"\)(\s*mode\s*([0-9]+))?.*
! Touchstone port assignment:
! Touchstone port 1 = CST MWS port Zmax ("") mode 1
! Touchstone port 2 = CST MWS port Zmax ("") mode 2
! Touchstone port 3 = CST MWS port Zmin ("") mode 1
! Touchstone port 4 = CST MWS port Zmin ("") mode 2
! S-Parameters are not renormalized. Each port impedance will be approximated by the real part at minimum frequency. The values are described via the [Reference] keyword.
! Default impedance is overridden by [Reference]
[Version] 2.0
# GHz S RI R 376.73
[Number of Ports] 4
[Reference]
376.73 376.73 376.73 376.73 
[Number of Frequencies] 1001
[Network Data]
281700                  -0.26158      -0.0468695     -0.000716452     -0.00119968        0.0783734        0.955509     -0.000953445    -0.000298913
                    -0.000452769      -0.0011176        -0.206979       -0.126113      -0.00114475    -0.000425673        -0.158849         0.95268
                       0.0783436         0.95574     -0.000863483    -0.000405983        -0.251057       0.0890223     -0.000970979     0.000773329
                    -0.000815275    -0.000401814        -0.159341        0.952583     -0.000675704     0.000774882        -0.237065       0.0527917
281700.1                -0.26158      -0.0468603     -0.000716501     -0.00119966        0.0784023        0.955507     -0.000953454    -0.000298881
                    -0.000452845     -0.00111756        -0.206983       -0.126106      -0.00114476     -0.00042563        -0.158822        0.952685
                       0.0783725        0.955738     -0.000863507    -0.000405963        -0.251053       0.0890284     -0.000970965     0.000773352
                     -0.00081528    -0.000401768        -0.159313        0.952588     -0.000675704     0.000774878        -0.237063       0.0527971
281700.2               -0.261581      -0.0468511      -0.00071655     -0.00119965        0.0784312        0.955505     -0.000953462     -0.00029885
                    -0.000452921     -0.00111753        -0.206987       -0.126098      -0.00114477    -0.000425588        -0.158794         0.95269
                       0.0784014        0.955736      -0.00086353    -0.000405943        -0.251049       0.0890344     -0.000970951     0.000773375
                    -0.000815285    -0.000401723        -0.159286        0.952593     -0.000675704     0.000774875        -0.237062       0.0528025
281700.3               -0.261581      -0.0468419       -0.0007166     -0.00119964        0.0784601        0.955503     -0.000953471    -0.000298819
                    -0.000452997      -0.0011175        -0.206991       -0.126091      -0.00114478    -0.000425545        -0.158766        0.952695
                       0.0784303        0.955734     -0.000863554    -0.000405923        -0.251046       0.0890405     -0.000970937     0.000773398
                    -0.000815289    -0.000401677        -0.159258        0.952598     -0.000675704     0.000774871         -0.23706       0.0528079
281700.4               -0.261581      -0.0468326     -0.000716649     -0.00119962        0.0784889        0.955501      -0.00095348    -0.000298788
                    -0.000453073     -0.00111746        -0.206995       -0.126083      -0.00114479    -0.000425502        -0.158738        0.952699
                       0.0784591        0.955732     -0.000863577    -0.000405903        -0.251042       0.0890466     -0.000970923      0.00077342
                    -0.000815294    -0.000401632         -0.15923        0.952603     -0.000675704     0.000774867        -0.237058       0.0528133
281700.5               -0.261582      -0.0468234     -0.000716698     -0.00119961        0.0785178        0.955499     -0.000953488    -0.000298757
                    -0.000453149     -0.00111743        -0.206999       -0.126076       -0.0011448    -0.000425459         -0.15871        0.952704
                        0.078488         0.95573     -0.000863601    -0.000405882        -0.251039       0.0890526     -0.000970909     0.000773443
                    -0.000815299    -0.000401586        -0.159202        0.952607     -0.000675704     0.000774864        -0.237056       0.0528187
281700.6               -0.261582      -0.0468142     -0.000716748      -0.0011996        0.0785467        0.955497     -0.000953497    -0.000298726
                    -0.000453225     -0.00111739        -0.207002       -0.126068      -0.00114481    -0.000425416        -0.158682        0.952709
                       0.0785169        0.955728     -0.000863624    -0.000405862        -0.251035       0.0890587     -0.000970895     0.000773466
                    -0.000815304    -0.000401541        -0.159174        0.952612     -0.000675703      0.00077486        -0.237054        0.052824
281700.7               -0.261582       -0.046805     -0.000716797     -0.00119958        0.0785756        0.955495     -0.000953505    -0.000298695
                    -0.000453301     -0.00111736        -0.207006        -0.12606      -0.00114482    -0.000425373        -0.158654        0.952714
                       0.0785458        0.955726     -0.000863648    -0.000405842        -0.251032       0.0890648     -0.000970881     0.000773489
                    -0.000815309    -0.000401495        -0.159146        0.952617     -0.000675703     0.000774856        -0.237053       0.0528294
281700.8               -0.261583      -0.0467958     -0.000716846     -0.00119957        0.0786045        0.955493     -0.000953514    -0.000298663
                    -0.000453377     -0.00111733         -0.20701       -0.126053      -0.00114483     -0.00042533        -0.158626        0.952719
                       0.0785746        0.955724     -0.000863671    -0.000405822        -0.251028       0.0890708     -0.000970867     0.000773511
                    -0.000815314     -0.00040145        -0.159118        0.952622     -0.000675703     0.000774852        -0.237051       0.0528348
281700.9               -0.261583      -0.0467866     -0.000716896     -0.00119956        0.0786334        0.955491     -0.000953522    -0.000298632
                    -0.000453453     -0.00111729        -0.207014       -0.126045      -0.00114484    -0.000425287        -0.158599        0.952723
                       0.0786035        0.955722     -0.000863695    -0.000405802        -0.251025       0.0890769     -0.000970852     0.000773534
                    -0.000815319    -0.000401404         -0.15909        0.952626     -0.000675703     0.000774849        -0.237049       0.0528402
281701                 -0.261583      -0.0467774     -0.000716945     -0.00119954        0.0786623        0.955489     -0.000953531    -0.000298601
                    -0.000453529     -0.00111726        -0.207018       -0.126038      -0.00114485    -0.000425244        -0.158571        0.952728
                       0.0786324         0.95572     -0.000863718    -0.000405782        -0.251021        0.089083     -0.000970838     0.000773557
                    -0.000815324    -0.000401359        -0.159062        0.952631     -0.000675703     0.000774845        -0.237047       0.0528456
281701.1               -0.261583      -0.0467682     -0.000716994     -0.00119953        0.0786911        0.955487      -0.00095354     -0.00029857
                    -0.000453605     -0.00111722        -0.207022        -0.12603      -0.00114485    -0.000425201        -0.158543        0.952733
                       0.0786612        0.955718     -0.000863742    -0.000405762        -0.251017        0.089089     -0.000970824      0.00077358
                    -0.000815329    -0.000401313        -0.159034        0.952636     -0.000675703     0.000774841        -0.237045        0.052851
281701.2               -0.261584       -0.046759     -0.000717044     -0.00119952          0.07872        0.955485     -0.000953548    -0.000298539
                    -0.000453681     -0.00111719        -0.207026       -0.126023      -0.00114486    -0.000425158        -0.158515        0.952738
                       0.0786901        0.955716     -0.000863765    -0.000405742        -0.251014       0.0890951      -0.00097081     0.000773602
                    -0.000815334    -0.000401267        -0.159007        0.952641     -0.000675703     0.000774838        -0.237044       0.0528563
281701.3               -0.261584      -0.0467498     -0.000717093      -0.0011995        0.0787489        0.955483     -0.000953557    -0.000298508
                    -0.000453757     -0.00111716         -0.20703       -0.126015      -0.00114487    -0.000425116        -0.158487        0.952743
                        0.078719        0.955714     -0.000863789    -0.000405722         -0.25101       0.0891012     -0.000970796     0.000773625
                    -0.000815339    -0.000401222        -0.158979        0.952646     -0.000675703     0.000774834        -0.237042       0.0528617
281701.4               -0.261584      -0.0467406     -0.000717142     -0.00119949        0.0787778        0.955481     -0.000953565    -0.000298477
                    -0.000453832     -0.00111712        -0.207034       -0.126007      -0.00114488    -0.000425073        -0.158459        0.952747
                       0.0787479        0.955712     -0.000863812    -0.000405702        -0.251007       0.0891072     -0.000970782     0.000773648
                    -0.000815344    -0.000401176        -0.158951         0.95265     -0.000675702      0.00077483         -0.23704       0.0528671
281701.5               -0.261585      -0.0467314     -0.000717192     -0.00119948        0.0788067        0.955479     -0.000953574    -0.000298446
                    -0.000453908     -0.00111709        -0.207038          -0.126      -0.00114489     -0.00042503        -0.158431        0.952752
                       0.0787767         0.95571     -0.000863836    -0.000405682        -0.251003       0.0891133     -0.000970768     0.000773671
                    -0.000815349    -0.000401131        -0.158923        0.952655     -0.000675702     0.000774827        -0.237038       0.0528725
281701.6               -0.261585      -0.0467221     -0.000717241     -0.00119946        0.0788356        0.955477     -0.000953582    -0.000298415
                    -0.000453984     -0.00111705        -0.207042       -0.125992       -0.0011449    -0.000424987        -0.158403        0.952757
                       0.0788056        0.955708     -0.000863859    -0.000405661           -0.251       0.0891194     -0.000970754     0.000773693
                    -0.000815354    -0.000401085        -0.158895         0.95266     -0.000675702     0.000774823        -0.237036       0.0528779
281701.7               -0.261585      -0.0467129      -0.00071729     -0.00119945        0.0788645        0.955475     -0.000953591    -0.000298384
                     -0.00045406     -0.00111702        -0.207046       -0.125985      -0.00114491    -0.000424944        -0.158375        0.952762
                       0.0788345        0.955706     -0.000863883    -0.000405641        -0.250996       0.0891254      -0.00097074     0.000773716
                    -0.000815359     -0.00040104        -0.158867        0.952665     -0.000675702     0.000774819        -0.237035       0.0528833
281701.8               -0.261586      -0.0467037      -0.00071734     -0.00119944        0.0788934        0.955473     -0.000953599    -0.000298353
                    -0.000454136     -0.00111698         -0.20705       -0.125977      -0.00114492    -0.000424901        -0.158348        0.952766
                       0.0788634        0.955704     -0.000863906    -0.000405621        -0.250992       0.0891315     -0.000970726     0.000773739
                    -0.000815364    -0.000400994        -0.158839        0.952669     -0.000675702     0.000774816        -0.237033       0.0528886
281701.9               -0.261586      -0.0466945     -0.000717389     -0.00119942        0.0789222        0.955471     -0.000953608    -0.000298322
                    -0.000454212     -0.00111695        -0.207054       -0.125969      -0.00114493    -0.000424858         -0.15832        0.952771
                       0.0788922        0.955702      -0.00086393    -0.000405601        -0.250989       0.0891375     -0.000970712     0.000773761
                    -0.000815369    -0.000400949        -0.158811        0.952674     -0.000675702     0.000774812        -0.237031        0.052894
281702                 -0.261586      -0.0466853     -0.000717438     -0.00119941        0.0789511        0.955469     -0.000953616    -0.000298291
                    -0.000454288     -0.00111692        -0.207058       -0.125962      -0.00114494    -0.000424815        -0.158292        0.952776
                       0.0789211          0.9557     -0.000863953    -0.000405581        -0.250985       0.0891436     -0.000970698     0.000773784
                    -0.000815374    -0.000400903        -0.158783        0.952679     -0.000675701     0.000774808        -0.237029       0.0528994
281702.1               -0.261586      -0.0466761     -0.000717488      -0.0011994          0.07898        0.955467     -0.000953625     -0.00029826
                    -0.000454364     -0.00111688        -0.207062       -0.125954      -0.00114495    -0.000424772        -0.158264        0.952781
                         0.07895        0.955698     -0.000863977    -0.000405561        -0.250982       0.0891497     -0.000970683     0.000773807
                    -0.000815379    -0.000400858        -0.158755        0.952684     -0.000675701     0.000774805        -0.237027       0.0529048
281702.2               -0.261587      -0.0466669     -0.000717537     -0.00119938        0.0790089        0.955465     -0.000953633    -0.000298229
                     -0.00045444     -0.00111685        -0.207066       -0.125947      -0.00114496     -0.00042473        -0.158236        0.952786
                       0.0789788        0.955696        -0.000864    -0.000405541        -0.250978       0.0891557     -0.000970669      0.00077383
                    -0.000815384    -0.000400812        -0.158727        0.952689     -0.000675701     0.000774801        -0.237025       0.0529102
281702.3               -0.261587      -0.0466577     -0.000717586     -0.00119937        0.0790378        0.955463     -0.000953642    -0.000298198
                    -0.000454516     -0.00111681         -0.20707       -0.125939      -0.00114497    -0.000424687        -0.158208         0.95279
                       0.0790077        0.955694     -0.000864024    -0.000405521        -0.250975       0.0891618     -0.000970655     0.000773852
                    -0.000815389    -0.000400767          -0.1587        0.952693     -0.000675701     0.000774797        -0.237024       0.0529156
281702.4               -0.261587      -0.0466485     -0.000717636     -0.00119936        0.0790667        0.955461      -0.00095365    -0.000298168
                    -0.000454591     -0.00111678        -0.207074       -0.125932      -0.00114498    -0.000424644         -0.15818        0.952795
                       0.0790366        0.955692     -0.000864047    -0.000405501        -0.250971       0.0891679     -0.000970641     0.000773875
                    -0.000815394    -0.000400721        -0.158672        0.952698     -0.000675701     0.000774794        -0.237022       0.0529209
281702.5               -0.261588      -0.0466393     -0.000717685     -0.00119934        0.0790956        0.955459     -0.000953659    -0.000298137
                    -0.000454667     -0.00111675        -0.207077       -0.125924      -0.00114499    -0.000424601        -0.158152          0.9528
                       0.0790655        0.955691     -0.000864071    -0.000405481        -0.250967       0.0891739     -0.000970627     0.000773898
                      -0.0008154    -0.000400675        -0.158644        0.952703     -0.000675701      0.00077479         -0.23702       0.0529263
281702.6               -0.261588      -0.0466301     -0.000717734     -0.00119933        0.0791244        0.955457     -0.000953667    -0.000298106
                    -0.000454743     -0.00111671        -0.207081       -0.125916        -0.001145    -0.000424558        -0.158124        0.952805
                       0.0790943        0.955689     -0.000864094     -0.00040546        -0.250964         0.08918     -0.000970613     0.000773921
                    -0.000815405     -0.00040063        -0.158616        0.952708       -0.0006757     0.000774786        -0.237018       0.0529317
281702.7               -0.261588      -0.0466209     -0.000717784     -0.00119932        0.0791533        0.955455     -0.000953676    -0.000298075
                    -0.000454819     -0.00111668        -0.207085       -0.125909      -0.00114501    -0.000424515        -0.158097        0.952809
                       0.0791232        0.955687     -0.000864118     -0.00040544         -0.25096       0.0891861     -0.000970599     0.000773943
                     -0.00081541    -0.000400584        -0.158588        0.952712       -0.0006757     0.000774783        -0.237016       0.0529371
281702.8               -0.261589      -0.0466116     -0.000717833      -0.0011993        0.0791822        0.955453     -0.000953684    -0.000298044
                    -0.000454895     -0.00111664        -0.207089       -0.125901      -0.00114502    -0.000424472        -0.158069        0.952814
                       0.0791521        0.955685     -0.000864141     -0.00040542        -0.250957       0.0891921     -0.000970585     0.000773966
                    -0.000815415    -0.000400539         -0.15856        0.952717       -0.0006757     0.000774779        -0.237015       0.0529425
281702.9               -0.261589      -0.0466024     -0.000717882     -0.00119929        0.0792111        0.955451     -0.000953692    -0.000298013
                    -0.000454971     -0.00111661        -0.207093       -0.125894      -0.00114503    -0.000424429        -0.158041        0.952819
                       0.0791809        0.955683     -0.000864165      -0.0004054        -0.250953       0.0891982     -0.000970571     0.000773989
                     -0.00081542    -0.000400493        -0.158532        0.952722       -0.0006757     0.000774775        -0.237013       0.0529479
281703                 -0.261589      -0.0465932     -0.000717931     -0.00119928          0.07924        0.955449     -0.000953701    -0.000297982
                    -0.000455047     -0.00111658        -0.207097       -0.125886      -0.00114504    -0.000424387        -0.158013        0.952824
                       0.0792098        0.955681     -0.000864188     -0.00040538         -0.25095       0.0892043     -0.000970557     0.000774012
                    -0.000815425    -0.000400448        -0.158504        0.952727       -0.0006757     0.000774772        -0.237011       0.0529532
281703.1               -0.261589       -0.046584     -0.000717981     -0.00119926        0.0792689        0.955447     -0.000953709    -0.000297951
                    -0.000455122     -0.00111654        -0.207101       -0.125878      -0.00114504    -0.000424344        -0.157985        0.952829
                       0.0792387        0.955679     -0.000864211     -0.00040536        -0.250946       0.0892103     -0.000970543     0.000774034
