! TOUCHSTONE file generated by CST MICROWAVE STUDIO
! Date and time: Wed Oct  8 06:52:40 2025
! Project name: Teste_Macro_Metasurface_Nanopilar.cst
! Parameters = {H=600; L_x=85; L_y=140; Lambda=1064; Max_L=200; Min_L=70; PathPara=1; Phi=0; Step_L=10; Theta=0; p=520; phaseX=180; phaseY=0}
! Header version: 2018
! Port assignment regex: !\s*Touchstone port\s*([0-9]+)\s*=\s*(CST MWS port|CST DS port)\s*([0-9]+|Zmin|Zmax)\s*\(\"(.*)\"\)(\s*mode\s*([0-9]+))?.*
! Touchstone port assignment:
! Touchstone port 1 = CST MWS port Zmax ("") mode 1
! Touchstone port 2 = CST MWS port Zmax ("") mode 2
! Touchstone port 3 = CST MWS port Zmin ("") mode 1
! Touchstone port 4 = CST MWS port Zmin ("") mode 2
! S-Parameters are not renormalized. Each port impedance will be approximated by the real part at minimum frequency. The values are described via the [Reference] keyword.
! Default impedance is overridden by [Reference]
[Version] 2.0
# GHz S RI R 376.73
[Number of Ports] 4
[Reference]
376.73 376.73 376.73 376.73 
[Number of Frequencies] 1001
[Network Data]
281700                  0.135334     -0.00349929     -0.000664951    -0.000763752         0.931852       -0.303732      0.000324625    -0.000178584
                     -0.00071285    -0.000772136         0.035921       -0.135886      0.000255605     5.38044e-05        -0.741192        0.653967
                        0.932057       -0.303692      0.000610469    -4.43129e-05        -0.116753       0.0790794      0.000525524      0.00125485
                     8.88468e-05     -0.00025765        -0.741622        0.653978      0.000414002      0.00104569        -0.139607       0.0191319
281700.1                0.135331     -0.00350873     -0.000664973    -0.000763744         0.931841       -0.303765      0.000324622    -0.000178597
                    -0.000712883    -0.000772132        0.0359146       -0.135888       0.00025561     5.38096e-05        -0.741175        0.653987
                        0.932046       -0.303725      0.000610476    -4.43419e-05         -0.11675       0.0790779      0.000525573      0.00125484
                     8.88439e-05    -0.000257645        -0.741604        0.653998      0.000414031      0.00104568        -0.139607       0.0191328
281700.2                0.135328     -0.00351817     -0.000664995    -0.000763736         0.931831       -0.303798       0.00032462     -0.00017861
                    -0.000712916    -0.000772128        0.0359081       -0.135889      0.000255615     5.38147e-05        -0.741157        0.654007
                        0.932036       -0.303758      0.000610483    -4.43709e-05        -0.116748       0.0790764      0.000525623      0.00125483
                      8.8841e-05     -0.00025764        -0.741586        0.654018       0.00041406      0.00104566        -0.139607       0.0191338
281700.3                0.135325     -0.00352761     -0.000665017    -0.000763727         0.931821       -0.303831      0.000324617    -0.000178623
                    -0.000712949    -0.000772124        0.0359016        -0.13589      0.000255621     5.38198e-05        -0.741139        0.654028
                        0.932026        -0.30379      0.000610489    -4.43999e-05        -0.116745       0.0790748      0.000525672      0.00125482
                      8.8838e-05    -0.000257634        -0.741568        0.654039      0.000414089      0.00104564        -0.139606       0.0191348
281700.4                0.135322     -0.00353705      -0.00066504    -0.000763719         0.931811       -0.303863      0.000324614    -0.000178637
                    -0.000712982     -0.00077212        0.0358951       -0.135892      0.000255626     5.38249e-05        -0.741121        0.654048
                        0.932016       -0.303823      0.000610496    -4.44289e-05        -0.116743       0.0790733      0.000525721      0.00125481
                     8.88351e-05    -0.000257629         -0.74155        0.654059      0.000414118      0.00104563        -0.139606       0.0191358
281700.5                0.135319     -0.00354649     -0.000665062    -0.000763711           0.9318       -0.303896      0.000324611     -0.00017865
                    -0.000713015    -0.000772116        0.0358886       -0.135893      0.000255631       5.383e-05        -0.741103        0.654068
                        0.932005       -0.303856      0.000610502    -4.44579e-05         -0.11674       0.0790718       0.00052577       0.0012548
                     8.88322e-05    -0.000257624        -0.741533        0.654079      0.000414147      0.00104561        -0.139605       0.0191368
281700.6                0.135315     -0.00355593     -0.000665084    -0.000763703          0.93179       -0.303929      0.000324608    -0.000178663
                    -0.000713048    -0.000772112        0.0358821       -0.135895      0.000255636     5.38352e-05        -0.741085        0.654088
                        0.931995       -0.303889      0.000610509    -4.44869e-05        -0.116738       0.0790703      0.000525819      0.00125479
                     8.88293e-05    -0.000257619        -0.741515          0.6541      0.000414176      0.00104559        -0.139605       0.0191377
281700.7                0.135312     -0.00356537     -0.000665106    -0.000763694          0.93178       -0.303962      0.000324605    -0.000178676
                    -0.000713081    -0.000772108        0.0358756       -0.135896      0.000255641     5.38403e-05        -0.741068        0.654109
                        0.931985       -0.303922      0.000610515    -4.45158e-05        -0.116735       0.0790687      0.000525869      0.00125478
                     8.88264e-05    -0.000257613        -0.741497         0.65412      0.000414205      0.00104558        -0.139605       0.0191387
281700.8                0.135309      -0.0035748     -0.000665128    -0.000763686          0.93177       -0.303995      0.000324603     -0.00017869
                    -0.000713113    -0.000772104        0.0358691       -0.135898      0.000255647     5.38454e-05         -0.74105        0.654129
                        0.931975       -0.303954      0.000610522    -4.45448e-05        -0.116733       0.0790672      0.000525918      0.00125477
                     8.88234e-05    -0.000257608        -0.741479         0.65414      0.000414234      0.00104556        -0.139604       0.0191397
281700.9                0.135306     -0.00358424      -0.00066515    -0.000763678         0.931759       -0.304028        0.0003246    -0.000178703
                    -0.000713146      -0.0007721        0.0358626       -0.135899      0.000255652     5.38506e-05        -0.741032        0.654149
                        0.931964       -0.303987      0.000610529    -4.45738e-05         -0.11673       0.0790657      0.000525967      0.00125476
                     8.88205e-05    -0.000257603        -0.741461         0.65416      0.000414263      0.00104555        -0.139604       0.0191407
281701                  0.135303     -0.00359368     -0.000665172    -0.000763669         0.931749        -0.30406      0.000324597    -0.000178716
                    -0.000713179    -0.000772097        0.0358561       -0.135901      0.000255657     5.38557e-05        -0.741014        0.654169
                        0.931954        -0.30402      0.000610535    -4.46028e-05        -0.116728       0.0790642      0.000526016      0.00125475
                     8.88176e-05    -0.000257598        -0.741443        0.654181      0.000414292      0.00104553        -0.139604       0.0191417
281701.1                0.135299     -0.00360312     -0.000665194    -0.000763661         0.931739       -0.304093      0.000324594     -0.00017873
                    -0.000713212    -0.000772093        0.0358496       -0.135902      0.000255662     5.38608e-05        -0.740996         0.65419
                        0.931944       -0.304053      0.000610542    -4.46318e-05        -0.116725       0.0790626      0.000526065      0.00125474
                     8.88147e-05    -0.000257592        -0.741425        0.654201      0.000414321      0.00104551        -0.139603       0.0191426
281701.2                0.135296     -0.00361255     -0.000665216    -0.000763653         0.931729       -0.304126      0.000324591    -0.000178743
                    -0.000713245    -0.000772089        0.0358431       -0.135904      0.000255667      5.3866e-05        -0.740978         0.65421
                        0.931933       -0.304086      0.000610548    -4.46607e-05        -0.116723       0.0790611      0.000526115      0.00125474
                     8.88118e-05    -0.000257587        -0.741408        0.654221       0.00041435       0.0010455        -0.139603       0.0191436
281701.3                0.135293     -0.00362199     -0.000665238    -0.000763644         0.931718       -0.304159      0.000324588    -0.000178756
                    -0.000713278    -0.000772085        0.0358366       -0.135905      0.000255672     5.38711e-05         -0.74096         0.65423
                        0.931923       -0.304118      0.000610555    -4.46897e-05         -0.11672       0.0790596      0.000526164      0.00125473
                     8.88089e-05    -0.000257582         -0.74139        0.654242      0.000414378      0.00104548        -0.139602       0.0191446
281701.4                 0.13529     -0.00363143      -0.00066526    -0.000763636         0.931708       -0.304192      0.000324586    -0.000178769
                    -0.000713311    -0.000772081        0.0358301       -0.135907      0.000255678     5.38763e-05        -0.740943        0.654251
                        0.931913       -0.304151      0.000610561    -4.47187e-05        -0.116718       0.0790581      0.000526213      0.00125472
                     8.88059e-05    -0.000257576        -0.741372        0.654262      0.000414407      0.00104546        -0.139602       0.0191456
281701.5                0.135287     -0.00364086     -0.000665282    -0.000763628         0.931698       -0.304224      0.000324583    -0.000178783
                    -0.000713344    -0.000772077        0.0358236       -0.135908      0.000255683     5.38814e-05        -0.740925        0.654271
                        0.931903       -0.304184      0.000610568    -4.47476e-05        -0.116715       0.0790565      0.000526262      0.00125471
                      8.8803e-05    -0.000257571        -0.741354        0.654282      0.000414436      0.00104545        -0.139602       0.0191466
281701.6                0.135284      -0.0036503     -0.000665304    -0.000763619         0.931688       -0.304257       0.00032458    -0.000178796
                    -0.000713376    -0.000772073        0.0358171        -0.13591      0.000255688     5.38866e-05        -0.740907        0.654291
                        0.931892       -0.304217      0.000610574    -4.47766e-05        -0.116713        0.079055      0.000526311       0.0012547
                     8.88001e-05    -0.000257566        -0.741336        0.654302      0.000414465      0.00104543        -0.139601       0.0191475
281701.7                 0.13528     -0.00365974     -0.000665326    -0.000763611         0.931677        -0.30429      0.000324577    -0.000178809
                    -0.000713409    -0.000772069        0.0358106       -0.135911      0.000255693     5.38917e-05        -0.740889        0.654311
                        0.931882        -0.30425      0.000610581    -4.48056e-05         -0.11671       0.0790535      0.000526361      0.00125469
                     8.87972e-05    -0.000257561        -0.741318        0.654323      0.000414494      0.00104542        -0.139601       0.0191485
281701.8                0.135277     -0.00366917     -0.000665348    -0.000763602         0.931667       -0.304323      0.000324574    -0.000178822
                    -0.000713442    -0.000772065        0.0358041       -0.135913      0.000255699     5.38969e-05        -0.740871        0.654332
                        0.931872       -0.304282      0.000610587    -4.48345e-05        -0.116708        0.079052       0.00052641      0.00125468
                     8.87943e-05    -0.000257555        -0.741301        0.654343      0.000414523       0.0010454        -0.139601       0.0191495
281701.9                0.135274     -0.00367861      -0.00066537    -0.000763594         0.931657       -0.304356      0.000324572    -0.000178836
                    -0.000713475    -0.000772061        0.0357976       -0.135914      0.000255704      5.3902e-05        -0.740853        0.654352
                        0.931861       -0.304315      0.000610594    -4.48635e-05        -0.116705       0.0790504      0.000526459      0.00125467
                     8.87914e-05     -0.00025755        -0.741283        0.654363      0.000414552      0.00104538          -0.1396       0.0191505
281702                  0.135271     -0.00368804     -0.000665392    -0.000763586         0.931647       -0.304389      0.000324569    -0.000178849
                    -0.000713508    -0.000772057        0.0357911       -0.135916      0.000255709     5.39072e-05        -0.740835        0.654372
                        0.931851       -0.304348        0.0006106    -4.48925e-05        -0.116703       0.0790489      0.000526508      0.00125466
                     8.87884e-05    -0.000257545        -0.741265        0.654384      0.000414581      0.00104537          -0.1396       0.0191515
281702.1                0.135268     -0.00369747     -0.000665414    -0.000763577         0.931636       -0.304421      0.000324566    -0.000178862
                    -0.000713541    -0.000772053        0.0357846       -0.135917      0.000255714     5.39123e-05        -0.740818        0.654392
                        0.931841       -0.304381      0.000610607    -4.49214e-05          -0.1167       0.0790474      0.000526557      0.00125465
                     8.87855e-05     -0.00025754        -0.741247        0.654404       0.00041461      0.00104535        -0.139599       0.0191524
281702.2                0.135265     -0.00370691     -0.000665436    -0.000763569         0.931626       -0.304454      0.000324563    -0.000178876
                    -0.000713574     -0.00077205        0.0357782       -0.135919      0.000255719     5.39175e-05          -0.7408        0.654413
                        0.931831       -0.304413      0.000610613    -4.49504e-05        -0.116698       0.0790458      0.000526607      0.00125464
                     8.87826e-05    -0.000257534        -0.741229        0.654424      0.000414639      0.00104533        -0.139599       0.0191534
281702.3                0.135261     -0.00371634     -0.000665459    -0.000763561         0.931616       -0.304487       0.00032456    -0.000178889
                    -0.000713607    -0.000772046        0.0357717        -0.13592      0.000255725     5.39227e-05        -0.740782        0.654433
                         0.93182       -0.304446       0.00061062    -4.49793e-05        -0.116695       0.0790443      0.000526656      0.00125463
                     8.87797e-05    -0.000257529        -0.741211        0.654444      0.000414668      0.00104532        -0.139599       0.0191544
281702.4                0.135258     -0.00372578     -0.000665481    -0.000763552         0.931605        -0.30452      0.000324557    -0.000178902
                     -0.00071364    -0.000772042        0.0357652       -0.135922       0.00025573     5.39278e-05        -0.740764        0.654453
                         0.93181       -0.304479      0.000610626    -4.50083e-05        -0.116693       0.0790428      0.000526705      0.00125462
                     8.87768e-05    -0.000257524        -0.741193        0.654465      0.000414697       0.0010453        -0.139598       0.0191554
281702.5                0.135255     -0.00373521     -0.000665503    -0.000763544         0.931595       -0.304553      0.000324555    -0.000178915
                    -0.000713672    -0.000772038        0.0357587       -0.135923      0.000255735      5.3933e-05        -0.740746        0.654473
                          0.9318       -0.304512      0.000610633    -4.50372e-05         -0.11669       0.0790413      0.000526754      0.00125462
                     8.87739e-05    -0.000257519        -0.741176        0.654485      0.000414726      0.00104528        -0.139598       0.0191564
281702.6                0.135252     -0.00374464     -0.000665525    -0.000763535         0.931585       -0.304585      0.000324552    -0.000178929
                    -0.000713705    -0.000772034        0.0357522       -0.135925       0.00025574     5.39382e-05        -0.740728        0.654494
                        0.931789       -0.304545      0.000610639    -4.50661e-05        -0.116688       0.0790397      0.000526803      0.00125461
                      8.8771e-05    -0.000257513        -0.741158        0.654505      0.000414755      0.00104527        -0.139598       0.0191573
281702.7                0.135249     -0.00375407     -0.000665547    -0.000763527         0.931575       -0.304618      0.000324549    -0.000178942
                    -0.000713738     -0.00077203        0.0357457       -0.135926      0.000255746     5.39433e-05         -0.74071        0.654514
                        0.931779       -0.304577      0.000610645    -4.50951e-05        -0.116685       0.0790382      0.000526853       0.0012546
                     8.87681e-05    -0.000257508         -0.74114        0.654525      0.000414784      0.00104525        -0.139597       0.0191583
281702.8                0.135246     -0.00376351     -0.000665569    -0.000763519         0.931564       -0.304651      0.000324546    -0.000178955
                    -0.000713771    -0.000772026        0.0357392       -0.135928      0.000255751     5.39485e-05        -0.740693        0.654534
                        0.931769        -0.30461      0.000610652     -4.5124e-05        -0.116683       0.0790367      0.000526902      0.00125459
                     8.87651e-05    -0.000257503        -0.741122        0.654546      0.000414813      0.00104524        -0.139597       0.0191593
281702.9                0.135242     -0.00377294     -0.000665591     -0.00076351         0.931554       -0.304684      0.000324543    -0.000178969
                    -0.000713804    -0.000772022        0.0357327       -0.135929      0.000255756     5.39537e-05        -0.740675        0.654555
                        0.931759       -0.304643      0.000610658     -4.5153e-05         -0.11668       0.0790352      0.000526951      0.00125458
                     8.87622e-05    -0.000257498        -0.741104        0.654566      0.000414842      0.00104522        -0.139597       0.0191603
281703                  0.135239     -0.00378237     -0.000665613    -0.000763502         0.931544       -0.304717      0.000324541    -0.000178982
                    -0.000713837    -0.000772018        0.0357262       -0.135931      0.000255761     5.39589e-05        -0.740657        0.654575
                        0.931748       -0.304676      0.000610665    -4.51819e-05        -0.116678       0.0790336         0.000527      0.00125457
                     8.87593e-05    -0.000257492        -0.741086        0.654586      0.000414871       0.0010452        -0.139596       0.0191613
281703.1                0.135236      -0.0037918     -0.000665635    -0.000763493         0.931534        -0.30475      0.000324538    -0.000178995
                     -0.00071387    -0.000772014        0.0357197       -0.135932      0.000255767      5.3964e-05        -0.740639        0.654595
                        0.931738       -0.304709      0.000610671    -4.52108e-05        -0.116675       0.0790321      0.000527049      0.00125456
