! TOUCHSTONE file generated by CST MICROWAVE STUDIO
! Date and time: Wed Oct  8 07:05:54 2025
! Project name: Teste_Macro_Metasurface_Nanopilar.cst
! Parameters = {H=600; L_x=195; L_y=165; Lambda=1064; Max_L=200; Min_L=70; PathPara=1; Phi=0; Step_L=10; Theta=0; p=520; phaseX=180; phaseY=0}
! Header version: 2018
! Port assignment regex: !\s*Touchstone port\s*([0-9]+)\s*=\s*(CST MWS port|CST DS port)\s*([0-9]+|Zmin|Zmax)\s*\(\"(.*)\"\)(\s*mode\s*([0-9]+))?.*
! Touchstone port assignment:
! Touchstone port 1 = CST MWS port Zmax ("") mode 1
! Touchstone port 2 = CST MWS port Zmax ("") mode 2
! Touchstone port 3 = CST MWS port Zmin ("") mode 1
! Touchstone port 4 = CST MWS port Zmin ("") mode 2
! S-Parameters are not renormalized. Each port impedance will be approximated by the real part at minimum frequency. The values are described via the [Reference] keyword.
! Default impedance is overridden by [Reference]
[Version] 2.0
# GHz S RI R 376.73
[Number of Ports] 4
[Reference]
376.73 376.73 376.73 376.73 
[Number of Frequencies] 1001
[Network Data]
281700                 -0.082318      -0.0973314     -0.000214036    -0.000400503        -0.979185       -0.129633     -0.000101414     0.000234294
                    -0.000211962    -0.000311815        -0.116658       -0.198027      0.000181239     0.000285426        -0.924636        0.290126
                       -0.979555       -0.129658      0.000110306     0.000130386         0.102113      -0.0719423       0.00015585    -0.000497059
                     9.73591e-05     0.000175984        -0.924739        0.290247      6.02733e-05     -0.00044902       -0.0210547       -0.228224
281700.1              -0.0823181      -0.0973353     -0.000214054    -0.000400492        -0.979188       -0.129603       -0.0001014      0.00023428
                    -0.000211973    -0.000311804        -0.116665       -0.198029      0.000181227     0.000285389        -0.924626        0.290153
                       -0.979558       -0.129628      0.000110308     0.000130377         0.102109      -0.0719523      0.000155844    -0.000497057
                     9.73641e-05     0.000175974        -0.924729        0.290274      6.02735e-05    -0.000449008       -0.0210646       -0.228229
281700.2              -0.0823182      -0.0973391     -0.000214072    -0.000400482        -0.979192       -0.129573     -0.000101385     0.000234267
                    -0.000211984    -0.000311793        -0.116671       -0.198032      0.000181215     0.000285353        -0.924616         0.29018
                       -0.979562       -0.129598       0.00011031     0.000130368         0.102106      -0.0719623      0.000155838    -0.000497054
                      9.7369e-05     0.000175965        -0.924719        0.290301      6.02738e-05    -0.000448996       -0.0210745       -0.228234
281700.3              -0.0823182      -0.0973429     -0.000214089    -0.000400471        -0.979195       -0.129543      -0.00010137     0.000234254
                    -0.000211995    -0.000311782        -0.116678       -0.198035      0.000181203     0.000285316        -0.924606        0.290207
                       -0.979565       -0.129569      0.000110313     0.000130359         0.102103      -0.0719724      0.000155832    -0.000497052
                      9.7374e-05     0.000175956        -0.924709        0.290328      6.02741e-05    -0.000448984       -0.0210844       -0.228239
281700.4              -0.0823183      -0.0973468     -0.000214107    -0.000400461        -0.979199       -0.129514     -0.000101355      0.00023424
                    -0.000212006    -0.000311771        -0.116684       -0.198038      0.000181191     0.000285279        -0.924596        0.290234
                       -0.979569       -0.129539      0.000110315      0.00013035         0.102099      -0.0719824      0.000155827    -0.000497049
                      9.7379e-05     0.000175946        -0.924699        0.290355      6.02743e-05    -0.000448971       -0.0210943       -0.228244
281700.5              -0.0823184      -0.0973506     -0.000214125     -0.00040045        -0.979203       -0.129484     -0.000101341     0.000234227
                    -0.000212017     -0.00031176        -0.116691       -0.198041      0.000181179     0.000285242        -0.924586        0.290261
                       -0.979573       -0.129509      0.000110317     0.000130342         0.102096      -0.0719924      0.000155821    -0.000497047
                     9.73839e-05     0.000175937        -0.924689        0.290382      6.02746e-05    -0.000448959       -0.0211041       -0.228249
281700.6              -0.0823184      -0.0973544     -0.000214142     -0.00040044        -0.979206       -0.129454     -0.000101326     0.000234214
                    -0.000212028     -0.00031175        -0.116697       -0.198044      0.000181167     0.000285206        -0.924576        0.290288
                       -0.979576       -0.129479      0.000110319     0.000130333         0.102093      -0.0720025      0.000155815    -0.000497044
                     9.73889e-05     0.000175928        -0.924679        0.290409      6.02749e-05    -0.000448947        -0.021114       -0.228254
281700.7              -0.0823185      -0.0973583      -0.00021416    -0.000400429         -0.97921       -0.129424     -0.000101311     0.000234201
                    -0.000212039    -0.000311739        -0.116704       -0.198047      0.000181155     0.000285169        -0.924566        0.290316
                        -0.97958       -0.129449      0.000110321     0.000130324         0.102089      -0.0720125      0.000155809    -0.000497041
                     9.73939e-05     0.000175919        -0.924669        0.290436      6.02752e-05    -0.000448934       -0.0211239       -0.228259
281700.8              -0.0823186      -0.0973621     -0.000214178    -0.000400419        -0.979213       -0.129394     -0.000101296     0.000234187
                     -0.00021205    -0.000311728         -0.11671        -0.19805      0.000181144     0.000285132        -0.924556        0.290343
                       -0.979583        -0.12942      0.000110323     0.000130315         0.102086      -0.0720225      0.000155803    -0.000497039
                     9.73988e-05     0.000175909        -0.924659        0.290463      6.02754e-05    -0.000448922       -0.0211338       -0.228264
281700.9              -0.0823187       -0.097366     -0.000214196    -0.000400409        -0.979217       -0.129365     -0.000101282     0.000234174
                    -0.000212061    -0.000311717        -0.116717       -0.198053      0.000181132     0.000285096        -0.924546         0.29037
                       -0.979587        -0.12939      0.000110325     0.000130306         0.102083      -0.0720325      0.000155797    -0.000497036
                     9.74038e-05       0.0001759        -0.924649        0.290491      6.02757e-05     -0.00044891       -0.0211437       -0.228269
281701                -0.0823187      -0.0973698     -0.000214213    -0.000400398         -0.97922       -0.129335     -0.000101267     0.000234161
                    -0.000212072    -0.000311706        -0.116723       -0.198056       0.00018112     0.000285059        -0.924536        0.290397
                        -0.97959        -0.12936      0.000110327     0.000130298         0.102079      -0.0720426      0.000155792    -0.000497034
                     9.74088e-05     0.000175891        -0.924639        0.290518       6.0276e-05    -0.000448897       -0.0211536       -0.228274
281701.1              -0.0823188      -0.0973736     -0.000214231    -0.000400388        -0.979224       -0.129305     -0.000101252     0.000234147
                    -0.000212083    -0.000311695         -0.11673       -0.198059      0.000181108     0.000285022        -0.924526        0.290424
                       -0.979594        -0.12933      0.000110329     0.000130289         0.102076      -0.0720526      0.000155786    -0.000497031
                     9.74138e-05     0.000175881        -0.924629        0.290545      6.02763e-05    -0.000448885       -0.0211635       -0.228279
281701.2              -0.0823189      -0.0973775     -0.000214249    -0.000400377        -0.979228       -0.129275     -0.000101237     0.000234134
                    -0.000212094    -0.000311684        -0.116736       -0.198062      0.000181096     0.000284985        -0.924516        0.290451
                       -0.979598         -0.1293      0.000110331      0.00013028         0.102073      -0.0720626       0.00015578    -0.000497028
                     9.74187e-05     0.000175872        -0.924619        0.290572      6.02766e-05    -0.000448873       -0.0211734       -0.228283
281701.3               -0.082319      -0.0973813     -0.000214267    -0.000400367        -0.979231       -0.129245     -0.000101223     0.000234121
                    -0.000212105    -0.000311673        -0.116743       -0.198064      0.000181084     0.000284949        -0.924506        0.290478
                       -0.979601       -0.129271      0.000110333     0.000130272         0.102069      -0.0720727      0.000155774    -0.000497026
                     9.74237e-05     0.000175863        -0.924609        0.290599      6.02769e-05     -0.00044886       -0.0211833       -0.228288
281701.4               -0.082319      -0.0973851     -0.000214284    -0.000400356        -0.979235       -0.129216     -0.000101208     0.000234107
                    -0.000212116    -0.000311663        -0.116749       -0.198067      0.000181072     0.000284912        -0.924496        0.290505
                       -0.979605       -0.129241      0.000110335     0.000130263         0.102066      -0.0720827      0.000155768    -0.000497023
                     9.74287e-05     0.000175853        -0.924599        0.290626      6.02772e-05    -0.000448848       -0.0211932       -0.228293
281701.5              -0.0823191       -0.097389     -0.000214302    -0.000400346        -0.979238       -0.129186     -0.000101193     0.000234094
                    -0.000212127    -0.000311652        -0.116756        -0.19807       0.00018106     0.000284875        -0.924486        0.290532
                       -0.979608       -0.129211      0.000110337     0.000130254         0.102063      -0.0720927      0.000155763     -0.00049702
                     9.74337e-05     0.000175844        -0.924589        0.290653      6.02775e-05    -0.000448836       -0.0212031       -0.228298
281701.6              -0.0823192      -0.0973928      -0.00021432    -0.000400335        -0.979242       -0.129156     -0.000101178     0.000234081
                    -0.000212138    -0.000311641        -0.116762       -0.198073      0.000181048     0.000284838        -0.924476        0.290559
                       -0.979612       -0.129181      0.000110339     0.000130246         0.102059      -0.0721027      0.000155757    -0.000497018
                     9.74387e-05     0.000175835        -0.924579         0.29068      6.02778e-05    -0.000448823        -0.021213       -0.228303
281701.7              -0.0823193      -0.0973966     -0.000214338    -0.000400325        -0.979245       -0.129126     -0.000101164     0.000234067
                    -0.000212149     -0.00031163        -0.116769       -0.198076      0.000181036     0.000284802        -0.924466        0.290586
                       -0.979615       -0.129151      0.000110342     0.000130237         0.102056      -0.0721128      0.000155751    -0.000497015
                     9.74436e-05     0.000175826        -0.924569        0.290707      6.02781e-05    -0.000448811       -0.0212229       -0.228308
281701.8              -0.0823193      -0.0974005     -0.000214355    -0.000400314        -0.979249       -0.129096     -0.000101149     0.000234054
                     -0.00021216    -0.000311619        -0.116775       -0.198079      0.000181024     0.000284765        -0.924456        0.290614
                       -0.979619       -0.129122      0.000110344     0.000130228         0.102053      -0.0721228      0.000155745    -0.000497012
                     9.74486e-05     0.000175816        -0.924559        0.290735      6.02784e-05    -0.000448799       -0.0212328       -0.228313
281701.9              -0.0823194      -0.0974043     -0.000214373    -0.000400304        -0.979253       -0.129067     -0.000101134     0.000234041
                    -0.000212171    -0.000311608        -0.116782       -0.198082      0.000181012     0.000284728        -0.924446        0.290641
                       -0.979623       -0.129092      0.000110346      0.00013022         0.102049      -0.0721328      0.000155739     -0.00049701
                     9.74536e-05     0.000175807        -0.924549        0.290762      6.02787e-05    -0.000448786       -0.0212427       -0.228318
281702                -0.0823195      -0.0974081     -0.000214391    -0.000400293        -0.979256       -0.129037     -0.000101119     0.000234028
                    -0.000212182    -0.000311597        -0.116789       -0.198085         0.000181     0.000284691        -0.924436        0.290668
                       -0.979626       -0.129062      0.000110348     0.000130211         0.102046      -0.0721429      0.000155734    -0.000497007
                     9.74586e-05     0.000175798        -0.924539        0.290789      6.02791e-05    -0.000448774       -0.0212526       -0.228323
281702.1              -0.0823196       -0.097412     -0.000214409    -0.000400283         -0.97926       -0.129007     -0.000101105     0.000234014
                    -0.000212193    -0.000311586        -0.116795       -0.198088      0.000180988     0.000284654        -0.924426        0.290695
                        -0.97963       -0.129032       0.00011035     0.000130203         0.102043      -0.0721529      0.000155728    -0.000497004
                     9.74636e-05     0.000175788        -0.924529        0.290816      6.02794e-05    -0.000448762       -0.0212625       -0.228328
281702.2              -0.0823196      -0.0974158     -0.000214427    -0.000400272        -0.979263       -0.128977      -0.00010109     0.000234001
                    -0.000212204    -0.000311575        -0.116802       -0.198091      0.000180976     0.000284618        -0.924416        0.290722
                       -0.979633       -0.129002      0.000110352     0.000130194         0.102039      -0.0721629      0.000155722    -0.000497002
                     9.74686e-05     0.000175779        -0.924519        0.290843      6.02797e-05    -0.000448749       -0.0212724       -0.228333
281702.3              -0.0823197      -0.0974197     -0.000214444    -0.000400262        -0.979267       -0.128947     -0.000101075     0.000233988
                    -0.000212215    -0.000311565        -0.116808       -0.198094      0.000180964     0.000284581        -0.924406        0.290749
                       -0.979637       -0.128973      0.000110354     0.000130186         0.102036      -0.0721729      0.000155716    -0.000496999
                     9.74736e-05      0.00017577        -0.924509         0.29087        6.028e-05    -0.000448737       -0.0212822       -0.228338
281702.4              -0.0823198      -0.0974235     -0.000214462    -0.000400251         -0.97927       -0.128918      -0.00010106     0.000233974
                    -0.000212226    -0.000311554        -0.116815       -0.198096      0.000180952     0.000284544        -0.924396        0.290776
                        -0.97964       -0.128943      0.000110356     0.000130177         0.102033       -0.072183      0.000155711    -0.000496996
                     9.74786e-05      0.00017576        -0.924499        0.290897      6.02804e-05    -0.000448724       -0.0212921       -0.228343
281702.5              -0.0823199      -0.0974273      -0.00021448    -0.000400241        -0.979274       -0.128888     -0.000101046     0.000233961
                    -0.000212237    -0.000311543        -0.116821       -0.198099       0.00018094     0.000284507        -0.924386        0.290803
                       -0.979644       -0.128913      0.000110358     0.000130169         0.102029       -0.072193      0.000155705    -0.000496993
                     9.74835e-05     0.000175751        -0.924489        0.290924      6.02807e-05    -0.000448712        -0.021302       -0.228348
281702.6                -0.08232      -0.0974312     -0.000214498     -0.00040023        -0.979277       -0.128858     -0.000101031     0.000233947
                    -0.000212248    -0.000311532        -0.116828       -0.198102      0.000180928     0.000284471        -0.924376         0.29083
                       -0.979648       -0.128883      0.000110361      0.00013016         0.102026       -0.072203      0.000155699    -0.000496991
                     9.74885e-05     0.000175742        -0.924479        0.290951       6.0281e-05      -0.0004487       -0.0213119       -0.228353
281702.7                -0.08232       -0.097435     -0.000214516     -0.00040022        -0.979281       -0.128828     -0.000101016     0.000233934
                    -0.000212259    -0.000311521        -0.116834       -0.198105      0.000180916     0.000284434        -0.924366        0.290857
                       -0.979651       -0.128853      0.000110363     0.000130152         0.102023       -0.072213      0.000155693    -0.000496988
                     9.74935e-05     0.000175732        -0.924469        0.290979      6.02814e-05    -0.000448687       -0.0213218       -0.228358
281702.8              -0.0823201      -0.0974388     -0.000214533    -0.000400209        -0.979285       -0.128799     -0.000101001     0.000233921
                     -0.00021227     -0.00031151        -0.116841       -0.198108      0.000180904     0.000284397        -0.924356        0.290884
                       -0.979655       -0.128824      0.000110365     0.000130143         0.102019      -0.0722231      0.000155687    -0.000496985
                     9.74985e-05     0.000175723        -0.924459        0.291006      6.02817e-05    -0.000448675       -0.0213317       -0.228363
281702.9              -0.0823202      -0.0974427     -0.000214551    -0.000400199        -0.979288       -0.128769     -0.000100987     0.000233907
                    -0.000212281    -0.000311499        -0.116847       -0.198111      0.000180892      0.00028436        -0.924346        0.290911
                       -0.979658       -0.128794      0.000110367     0.000130135         0.102016      -0.0722331      0.000155682    -0.000496983
                     9.75035e-05     0.000175714        -0.924449        0.291033      6.02821e-05    -0.000448663       -0.0213416       -0.228368
281703                -0.0823203      -0.0974465     -0.000214569    -0.000400188        -0.979292       -0.128739     -0.000100972     0.000233894
                    -0.000212292    -0.000311488        -0.116854       -0.198114       0.00018088     0.000284323        -0.924336        0.290939
                       -0.979662       -0.128764      0.000110369     0.000130126         0.102013      -0.0722431      0.000155676     -0.00049698
                     9.75085e-05     0.000175705        -0.924439         0.29106      6.02824e-05     -0.00044865       -0.0213515       -0.228373
281703.1              -0.0823204      -0.0974504     -0.000214587    -0.000400178        -0.979295       -0.128709     -0.000100957     0.000233881
                    -0.000212303    -0.000311477         -0.11686       -0.198117      0.000180868     0.000284286        -0.924326        0.290966
                       -0.979665       -0.128734      0.000110371     0.000130118         0.102009      -0.0722532       0.00015567    -0.000496977
