! TOUCHSTONE file generated by CST MICROWAVE STUDIO
! Date and time: Wed Oct  8 06:50:51 2025
! Project name: Teste_Macro_Metasurface_Nanopilar.cst
! Parameters = {H=600; L_x=70; L_y=135; Lambda=1064; Max_L=200; Min_L=70; PathPara=1; Phi=0; Step_L=10; Theta=0; p=520; phaseX=180; phaseY=0}
! Header version: 2018
! Port assignment regex: !\s*Touchstone port\s*([0-9]+)\s*=\s*(CST MWS port|CST DS port)\s*([0-9]+|Zmin|Zmax)\s*\(\"(.*)\"\)(\s*mode\s*([0-9]+))?.*
! Touchstone port assignment:
! Touchstone port 1 = CST MWS port Zmax ("") mode 1
! Touchstone port 2 = CST MWS port Zmax ("") mode 2
! Touchstone port 3 = CST MWS port Zmin ("") mode 1
! Touchstone port 4 = CST MWS port Zmin ("") mode 2
! S-Parameters are not renormalized. Each port impedance will be approximated by the real part at minimum frequency. The values are described via the [Reference] keyword.
! Default impedance is overridden by [Reference]
[Version] 2.0
# GHz S RI R 376.73
[Number of Ports] 4
[Reference]
376.73 376.73 376.73 376.73 
[Number of Frequencies] 1001
[Network Data]
281700                 -0.315661       0.0996893      0.000549188    -0.000270312         0.276352           0.896     -0.000530853    -0.000371322
                     0.000299906    -6.96293e-05         0.121747       0.0128661     -0.000557366    -0.000178907        -0.954147        0.272392
                        0.276579        0.896031     -0.000846386    -0.000130038        -0.317975       0.0959056       0.00027644     0.000103944
                    -0.000422557    -0.000456266        -0.953915        0.272271      0.000179074     0.000181854       -0.0967245       0.0752834
281700.1               -0.315657        0.099699      0.000549165    -0.000270336         0.276379        0.895992     -0.000530862    -0.000371295
                       0.0002999    -6.96372e-05         0.121745       0.0128603     -0.000557371    -0.000178892         -0.95414        0.272417
                        0.276606        0.896023     -0.000846369    -0.000129991        -0.317971       0.0959142      0.000276417     0.000103981
                     -0.00042256    -0.000456261        -0.953908        0.272296       0.00017908     0.000181849       -0.0967219       0.0752826
281700.2               -0.315652       0.0997088      0.000549142    -0.000270361         0.276406        0.895984      -0.00053087    -0.000371267
                     0.000299894    -6.96451e-05         0.121743       0.0128546     -0.000557375    -0.000178876        -0.954133        0.272443
                        0.276634        0.896015     -0.000846352    -0.000129944        -0.317968       0.0959228      0.000276394     0.000104017
                    -0.000422562    -0.000456257        -0.953901        0.272321      0.000179087     0.000181845       -0.0967194       0.0752819
281700.3               -0.315648       0.0997186      0.000549118    -0.000270386         0.276433        0.895976     -0.000530879     -0.00037124
                     0.000299888    -6.96531e-05         0.121741       0.0128488      -0.00055738    -0.000178861        -0.954126        0.272468
                        0.276661        0.896007     -0.000846335    -0.000129897        -0.317964       0.0959315      0.000276371     0.000104054
                    -0.000422565    -0.000456252        -0.953894        0.272347      0.000179093      0.00018184       -0.0967168       0.0752811
281700.4               -0.315644       0.0997284      0.000549095    -0.000270411         0.276461        0.895968     -0.000530887    -0.000371213
                     0.000299882     -6.9661e-05         0.121739        0.012843     -0.000557384    -0.000178846        -0.954119        0.272494
                        0.276688        0.895999     -0.000846318     -0.00012985         -0.31796       0.0959401      0.000276348     0.000104091
                    -0.000422568    -0.000456247        -0.953887        0.272372        0.0001791     0.000181836       -0.0967142       0.0752803
281700.5               -0.315639       0.0997381      0.000549071    -0.000270435         0.276488         0.89596     -0.000530895    -0.000371186
                     0.000299876    -6.96689e-05         0.121737       0.0128373     -0.000557389     -0.00017883        -0.954112        0.272519
                        0.276715        0.895991     -0.000846301    -0.000129804        -0.317956       0.0959487      0.000276326     0.000104128
                    -0.000422571    -0.000456242         -0.95388        0.272398      0.000179106     0.000181831       -0.0967116       0.0752795
281700.6               -0.315635       0.0997479      0.000549048     -0.00027046         0.276515        0.895952     -0.000530904    -0.000371159
                      0.00029987    -6.96768e-05         0.121735       0.0128315     -0.000557394    -0.000178815        -0.954105        0.272544
                        0.276743        0.895983     -0.000846283    -0.000129757        -0.317952       0.0959574      0.000276303     0.000104165
                    -0.000422574    -0.000456237        -0.953873        0.272423      0.000179113     0.000181827        -0.096709       0.0752787
281700.7               -0.315631       0.0997577      0.000549025    -0.000270485         0.276542        0.895944     -0.000530912    -0.000371132
                     0.000299865    -6.96847e-05         0.121733       0.0128257     -0.000557398    -0.000178799        -0.954098         0.27257
                         0.27677        0.895975     -0.000846266     -0.00012971        -0.317948        0.095966       0.00027628     0.000104202
                    -0.000422577    -0.000456233        -0.953867        0.272448      0.000179119     0.000181822       -0.0967064       0.0752779
281700.8               -0.315626       0.0997675      0.000549001     -0.00027051          0.27657        0.895936     -0.000530921    -0.000371104
                     0.000299859    -6.96926e-05         0.121732         0.01282     -0.000557403    -0.000178784        -0.954091        0.272595
                        0.276797        0.895967     -0.000846249    -0.000129663        -0.317944       0.0959746      0.000276257     0.000104239
                    -0.000422579    -0.000456228         -0.95386        0.272474      0.000179126     0.000181818       -0.0967038       0.0752772
281700.9               -0.315622       0.0997772      0.000548978    -0.000270535         0.276597        0.895928     -0.000530929    -0.000371077
                     0.000299853    -6.97005e-05          0.12173       0.0128142     -0.000557407    -0.000178768        -0.954084         0.27262
                        0.276824        0.895959     -0.000846232    -0.000129616         -0.31794       0.0959833      0.000276234     0.000104276
                    -0.000422582    -0.000456223        -0.953853        0.272499      0.000179132     0.000181813       -0.0967013       0.0752764
281701                 -0.315617        0.099787      0.000548954    -0.000270559         0.276624         0.89592     -0.000530938     -0.00037105
                     0.000299847    -6.97084e-05         0.121728       0.0128084     -0.000557412    -0.000178753        -0.954077        0.272646
                        0.276852        0.895951     -0.000846214    -0.000129569        -0.317937       0.0959919      0.000276211     0.000104313
                    -0.000422585    -0.000456218        -0.953846        0.272525      0.000179139     0.000181809       -0.0966987       0.0752756
281701.1               -0.315613       0.0997968      0.000548931    -0.000270584         0.276651        0.895912     -0.000530946    -0.000371023
                     0.000299841    -6.97164e-05         0.121726       0.0128027     -0.000557416    -0.000178738        -0.954071        0.272671
                        0.276879        0.895943     -0.000846197    -0.000129522        -0.317933       0.0960005      0.000276189      0.00010435
                    -0.000422588    -0.000456213        -0.953839         0.27255      0.000179145     0.000181804       -0.0966961       0.0752748
281701.2               -0.315609       0.0998065      0.000548908    -0.000270609         0.276678        0.895904     -0.000530954    -0.000370996
                     0.000299835    -6.97243e-05         0.121724       0.0127969     -0.000557421    -0.000178722        -0.954064        0.272697
                        0.276906        0.895935      -0.00084618    -0.000129476        -0.317929       0.0960092      0.000276166     0.000104386
                    -0.000422591    -0.000456208        -0.953832        0.272576      0.000179152       0.0001818       -0.0966935        0.075274
281701.3               -0.315604       0.0998163      0.000548884    -0.000270633         0.276706        0.895896     -0.000530963    -0.000370969
                     0.000299829    -6.97322e-05         0.121722       0.0127912     -0.000557425    -0.000178707        -0.954057        0.272722
                        0.276933        0.895927     -0.000846163    -0.000129429        -0.317925       0.0960178      0.000276143     0.000104423
                    -0.000422594    -0.000456204        -0.953825        0.272601      0.000179158     0.000181795       -0.0966909       0.0752732
281701.4                 -0.3156       0.0998261      0.000548861    -0.000270658         0.276733        0.895888     -0.000530971    -0.000370941
                     0.000299824    -6.97401e-05          0.12172       0.0127854      -0.00055743    -0.000178691         -0.95405        0.272747
                        0.276961        0.895919     -0.000846146    -0.000129382        -0.317921       0.0960264       0.00027612      0.00010446
                    -0.000422597    -0.000456199        -0.953818        0.272626      0.000179165      0.00018179       -0.0966883       0.0752724
281701.5               -0.315596       0.0998359      0.000548837    -0.000270683          0.27676         0.89588      -0.00053098    -0.000370914
                     0.000299818     -6.9748e-05         0.121718       0.0127796     -0.000557434    -0.000178676        -0.954043        0.272773
                        0.276988        0.895911     -0.000846128    -0.000129335        -0.317917       0.0960351      0.000276098     0.000104497
                    -0.000422599    -0.000456194        -0.953811        0.272652      0.000179171     0.000181786       -0.0966857       0.0752717
281701.6               -0.315591       0.0998456      0.000548814    -0.000270708         0.276787        0.895872     -0.000530988    -0.000370887
                     0.000299812    -6.97559e-05         0.121716       0.0127739     -0.000557439    -0.000178661        -0.954036        0.272798
                        0.277015        0.895903     -0.000846111    -0.000129288        -0.317913       0.0960437      0.000276075     0.000104534
                    -0.000422602    -0.000456189        -0.953804        0.272677      0.000179177     0.000181781       -0.0966832       0.0752709
281701.7               -0.315587       0.0998554      0.000548791    -0.000270732         0.276815        0.895864     -0.000530996     -0.00037086
                     0.000299806    -6.97638e-05         0.121714       0.0127681     -0.000557443    -0.000178645        -0.954029        0.272824
                        0.277042        0.895895     -0.000846094    -0.000129241        -0.317909       0.0960524      0.000276052     0.000104571
                    -0.000422605    -0.000456184        -0.953797        0.272703      0.000179184     0.000181777       -0.0966806       0.0752701
281701.8               -0.315582       0.0998652      0.000548767    -0.000270757         0.276842        0.895856     -0.000531005    -0.000370833
                       0.0002998    -6.97717e-05         0.121712       0.0127623     -0.000557448     -0.00017863        -0.954022        0.272849
                         0.27707        0.895887     -0.000846076    -0.000129194        -0.317905        0.096061      0.000276029     0.000104608
                    -0.000422608     -0.00045618         -0.95379        0.272728       0.00017919     0.000181772        -0.096678       0.0752693
281701.9               -0.315578        0.099875      0.000548744    -0.000270782         0.276869        0.895848     -0.000531013    -0.000370805
                     0.000299794    -6.97796e-05          0.12171       0.0127566     -0.000557453    -0.000178614        -0.954015        0.272874
                        0.277097        0.895879     -0.000846059    -0.000129148        -0.317902       0.0960696      0.000276006     0.000104645
                    -0.000422611    -0.000456175        -0.953783        0.272753      0.000179197     0.000181768       -0.0966754       0.0752685
281702                 -0.315574       0.0998847       0.00054872    -0.000270806         0.276896         0.89584     -0.000531022    -0.000370778
                     0.000299788    -6.97875e-05         0.121708       0.0127508     -0.000557457    -0.000178599        -0.954008          0.2729
                        0.277124        0.895871     -0.000846042    -0.000129101        -0.317898       0.0960783      0.000275984     0.000104682
                    -0.000422614     -0.00045617        -0.953776        0.272779      0.000179203     0.000181763       -0.0966728       0.0752677
281702.1               -0.315569       0.0998945      0.000548697    -0.000270831         0.276924        0.895832      -0.00053103    -0.000370751
                     0.000299783    -6.97954e-05         0.121706        0.012745     -0.000557462    -0.000178583        -0.954001        0.272925
                        0.277151        0.895863     -0.000846025    -0.000129054        -0.317894       0.0960869      0.000275961     0.000104719
                    -0.000422617    -0.000456165        -0.953769        0.272804       0.00017921     0.000181759       -0.0966702        0.075267
281702.2               -0.315565       0.0999043      0.000548673    -0.000270856         0.276951        0.895824     -0.000531039    -0.000370724
                     0.000299777    -6.98033e-05         0.121705       0.0127393     -0.000557466    -0.000178568        -0.953994        0.272951
                        0.277179        0.895855     -0.000846007    -0.000129007         -0.31789       0.0960955      0.000275938     0.000104756
                    -0.000422619     -0.00045616        -0.953762         0.27283      0.000179216     0.000181754       -0.0966676       0.0752662
281702.3               -0.315561        0.099914       0.00054865     -0.00027088         0.276978        0.895816     -0.000531047    -0.000370697
                     0.000299771    -6.98112e-05         0.121703       0.0127335     -0.000557471    -0.000178553        -0.953987        0.272976
                        0.277206        0.895847      -0.00084599     -0.00012896        -0.317886       0.0961042      0.000275915     0.000104793
                    -0.000422622    -0.000456156        -0.953755        0.272855      0.000179223      0.00018175       -0.0966651       0.0752654
281702.4               -0.315556       0.0999238      0.000548626    -0.000270905         0.277005        0.895808     -0.000531055     -0.00037067
                     0.000299765    -6.98191e-05         0.121701       0.0127278     -0.000557475    -0.000178537         -0.95398        0.273001
                        0.277233        0.895839     -0.000845973    -0.000128913        -0.317882       0.0961128      0.000275893     0.000104829
                    -0.000422625    -0.000456151        -0.953749        0.272881      0.000179229     0.000181745       -0.0966625       0.0752646
281702.5               -0.315552       0.0999336      0.000548603     -0.00027093         0.277033          0.8958     -0.000531064    -0.000370642
                     0.000299759     -6.9827e-05         0.121699        0.012722      -0.00055748    -0.000178522        -0.953973        0.273027
                         0.27726        0.895831     -0.000845955    -0.000128866        -0.317878       0.0961214       0.00027587     0.000104866
                    -0.000422628    -0.000456146        -0.953742        0.272906      0.000179236     0.000181741       -0.0966599       0.0752638
281702.6               -0.315548       0.0999433      0.000548579    -0.000270955          0.27706        0.895792     -0.000531072    -0.000370615
                     0.000299753    -6.98349e-05         0.121697       0.0127162     -0.000557484    -0.000178506        -0.953966        0.273052
                        0.277288        0.895823     -0.000845938    -0.000128819        -0.317874       0.0961301      0.000275847     0.000104903
                    -0.000422631    -0.000456141        -0.953735        0.272931      0.000179242     0.000181736       -0.0966573        0.075263
281702.7               -0.315543       0.0999531      0.000548556    -0.000270979         0.277087        0.895784     -0.000531081    -0.000370588
                     0.000299747    -6.98428e-05         0.121695       0.0127105     -0.000557489    -0.000178491        -0.953959        0.273078
                        0.277315        0.895815     -0.000845921    -0.000128772         -0.31787       0.0961387      0.000275825      0.00010494
                    -0.000422634    -0.000456136        -0.953728        0.272957      0.000179249     0.000181731       -0.0966547       0.0752622
281702.8               -0.315539       0.0999629      0.000548532    -0.000271004         0.277114        0.895776     -0.000531089    -0.000370561
                     0.000299742    -6.98507e-05         0.121693       0.0127047     -0.000557493    -0.000178476        -0.953952        0.273103
                        0.277342        0.895807     -0.000845903    -0.000128726        -0.317867       0.0961473      0.000275802     0.000104977
                    -0.000422636    -0.000456132        -0.953721        0.272982      0.000179255     0.000181727       -0.0966521       0.0752615
281702.9               -0.315534       0.0999727      0.000548509    -0.000271028         0.277142        0.895768     -0.000531098    -0.000370534
                     0.000299736    -6.98586e-05         0.121691       0.0126989     -0.000557498     -0.00017846        -0.953945        0.273128
                        0.277369        0.895799     -0.000845886    -0.000128679        -0.317863       0.0961559      0.000275779     0.000105014
                    -0.000422639    -0.000456127        -0.953714        0.273008      0.000179262     0.000181722       -0.0966495       0.0752607
281703                  -0.31553       0.0999824      0.000548485    -0.000271053         0.277169         0.89576     -0.000531106    -0.000370506
                      0.00029973    -6.98665e-05         0.121689       0.0126932     -0.000557503    -0.000178445        -0.953939        0.273154
                        0.277397        0.895791     -0.000845869    -0.000128632        -0.317859       0.0961646      0.000275756     0.000105051
                    -0.000422642    -0.000456122        -0.953707        0.273033      0.000179268     0.000181718        -0.096647       0.0752599
281703.1               -0.315526       0.0999922      0.000548462    -0.000271078         0.277196        0.895752     -0.000531114    -0.000370479
                     0.000299724    -6.98744e-05         0.121687       0.0126874     -0.000557507    -0.000178429        -0.953932        0.273179
                        0.277424        0.895783     -0.000845851    -0.000128585        -0.317855       0.0961732      0.000275734     0.000105088
