! TOUCHSTONE file generated by CST MICROWAVE STUDIO
! Date and time: Wed Oct  8 06:51:18 2025
! Project name: Teste_Macro_Metasurface_Nanopilar.cst
! Parameters = {H=600; L_x=75; L_y=100; Lambda=1064; Max_L=200; Min_L=70; PathPara=1; Phi=0; Step_L=10; Theta=0; p=520; phaseX=180; phaseY=0}
! Header version: 2018
! Port assignment regex: !\s*Touchstone port\s*([0-9]+)\s*=\s*(CST MWS port|CST DS port)\s*([0-9]+|Zmin|Zmax)\s*\(\"(.*)\"\)(\s*mode\s*([0-9]+))?.*
! Touchstone port assignment:
! Touchstone port 1 = CST MWS port Zmax ("") mode 1
! Touchstone port 2 = CST MWS port Zmax ("") mode 2
! Touchstone port 3 = CST MWS port Zmin ("") mode 1
! Touchstone port 4 = CST MWS port Zmin ("") mode 2
! S-Parameters are not renormalized. Each port impedance will be approximated by the real part at minimum frequency. The values are described via the [Reference] keyword.
! Default impedance is overridden by [Reference]
[Version] 2.0
# GHz S RI R 376.73
[Number of Ports] 4
[Reference]
376.73 376.73 376.73 376.73 
[Number of Frequencies] 1001
[Network Data]
281700                   0.07308      -0.0933679     -0.000371226    -0.000694947        -0.848719        0.514307      0.000216121     0.000782988
                    -0.000326918    -0.000656787         0.120766        0.034248      0.000388321     0.000696515        -0.965368        0.225953
                       -0.848557        0.513655      0.000214086     0.000759573        -0.116941       0.0218184      0.000126996    -0.000690688
                     0.000356303     0.000644861        -0.965589        0.226419     -0.000206928    -0.000485771       -0.0931219         0.08443
281700.1               0.0730747      -0.0933714     -0.000371241    -0.000694934        -0.848705         0.51433      0.000216146     0.000782976
                    -0.000326936    -0.000656772         0.120764       0.0342422      0.000388392     0.000696478        -0.965363        0.225979
                       -0.848543        0.513678       0.00021411     0.000759568         -0.11694       0.0218184      0.000126956    -0.000690686
                     0.000356326     0.000644846        -0.965584        0.226445     -0.000206963    -0.000485706       -0.0931189       0.0844292
281700.2               0.0730695      -0.0933749     -0.000371256    -0.000694921        -0.848691        0.514353       0.00021617     0.000782963
                    -0.000326955    -0.000656758         0.120763       0.0342363      0.000388463     0.000696441        -0.965357        0.226004
                       -0.848529        0.513701      0.000214133     0.000759564         -0.11694       0.0218184      0.000126916    -0.000690683
                      0.00035635     0.000644832        -0.965578        0.226471     -0.000206999    -0.000485642        -0.093116       0.0844283
281700.3               0.0730642      -0.0933784     -0.000371271    -0.000694909        -0.848677        0.514376      0.000216195     0.000782951
                    -0.000326974    -0.000656743         0.120762       0.0342304      0.000388534     0.000696405        -0.965351         0.22603
                       -0.848515        0.513724      0.000214156     0.000759559        -0.116939       0.0218184      0.000126876    -0.000690681
                     0.000356374     0.000644817        -0.965572        0.226496     -0.000207034    -0.000485577        -0.093113       0.0844274
281700.4               0.0730589      -0.0933819     -0.000371287    -0.000694896        -0.848664        0.514399       0.00021622     0.000782938
                    -0.000326993    -0.000656729         0.120761       0.0342246      0.000388605     0.000696368        -0.965346        0.226056
                       -0.848501        0.513747      0.000214179     0.000759554        -0.116939       0.0218184      0.000126835    -0.000690679
                     0.000356397     0.000644803        -0.965567        0.226522     -0.000207069    -0.000485513         -0.09311       0.0844266
281700.5               0.0730536      -0.0933854     -0.000371302    -0.000694883         -0.84865        0.514422      0.000216245     0.000782926
                    -0.000327012    -0.000656715         0.120759       0.0342187      0.000388676     0.000696331         -0.96534        0.226081
                       -0.848488         0.51377      0.000214202      0.00075955        -0.116938       0.0218184      0.000126795    -0.000690676
                     0.000356421     0.000644789        -0.965561        0.226548     -0.000207105    -0.000485448        -0.093107       0.0844257
281700.6               0.0730483      -0.0933889     -0.000371317     -0.00069487        -0.848636        0.514445      0.000216269     0.000782913
                    -0.000327031      -0.0006567         0.120758       0.0342129      0.000388747     0.000696294        -0.965334        0.226107
                       -0.848474        0.513793      0.000214225     0.000759545        -0.116938       0.0218184      0.000126755    -0.000690674
                     0.000356444     0.000644774        -0.965555        0.226573      -0.00020714    -0.000485384       -0.0931041       0.0844249
281700.7                0.073043      -0.0933925     -0.000371332    -0.000694858        -0.848622        0.514468      0.000216294     0.000782901
                     -0.00032705    -0.000656686         0.120757        0.034207      0.000388818     0.000696257        -0.965329        0.226133
                        -0.84846        0.513816      0.000214248     0.000759541        -0.116937       0.0218184      0.000126714    -0.000690672
                     0.000356468      0.00064476         -0.96555        0.226599     -0.000207175    -0.000485319       -0.0931011        0.084424
281700.8               0.0730378       -0.093396     -0.000371348    -0.000694845        -0.848608        0.514491      0.000216319     0.000782888
                    -0.000327068    -0.000656671         0.120756       0.0342012      0.000388889      0.00069622        -0.965323        0.226158
                       -0.848446        0.513839      0.000214271     0.000759536        -0.116937       0.0218184      0.000126674    -0.000690669
                     0.000356492     0.000644746        -0.965544        0.226625     -0.000207211    -0.000485255       -0.0930981       0.0844231
281700.9               0.0730325      -0.0933995     -0.000371363    -0.000694832        -0.848594        0.514514      0.000216343     0.000782876
                    -0.000327087    -0.000656657         0.120754       0.0341953       0.00038896     0.000696184        -0.965317        0.226184
                       -0.848432        0.513862      0.000214295     0.000759532        -0.116936       0.0218183      0.000126634    -0.000690667
                     0.000356515     0.000644731        -0.965538         0.22665     -0.000207246     -0.00048519       -0.0930951       0.0844223
281701                 0.0730272       -0.093403     -0.000371378    -0.000694819         -0.84858        0.514537      0.000216368     0.000782863
                    -0.000327106    -0.000656642         0.120753       0.0341895      0.000389031     0.000696147        -0.965312         0.22621
                       -0.848418        0.513885      0.000214318     0.000759527        -0.116936       0.0218183      0.000126593    -0.000690665
                     0.000356539     0.000644717        -0.965533        0.226676     -0.000207281    -0.000485126       -0.0930921       0.0844214
281701.1               0.0730219      -0.0934065     -0.000371394    -0.000694807        -0.848567         0.51456      0.000216393     0.000782851
                    -0.000327125    -0.000656628         0.120752       0.0341836      0.000389102      0.00069611        -0.965306        0.226236
                       -0.848404        0.513908      0.000214341     0.000759522        -0.116935       0.0218183      0.000126553    -0.000690662
                     0.000356563     0.000644702        -0.965527        0.226702     -0.000207316    -0.000485061       -0.0930892       0.0844206
281701.2               0.0730166        -0.09341     -0.000371409    -0.000694794        -0.848553        0.514583      0.000216417     0.000782838
                    -0.000327144    -0.000656613         0.120751       0.0341778      0.000389173     0.000696073          -0.9653        0.226261
                       -0.848391        0.513931      0.000214364     0.000759518        -0.116935       0.0218183      0.000126513     -0.00069066
                     0.000356586     0.000644688        -0.965521        0.226727     -0.000207352    -0.000484997       -0.0930862       0.0844197
281701.3               0.0730114      -0.0934135     -0.000371424    -0.000694781        -0.848539        0.514606      0.000216442     0.000782826
                    -0.000327163    -0.000656599          0.12075       0.0341719      0.000389244     0.000696036        -0.965295        0.226287
                       -0.848377        0.513954      0.000214387     0.000759513        -0.116934       0.0218183      0.000126472    -0.000690658
                      0.00035661     0.000644674        -0.965516        0.226753     -0.000207387    -0.000484932       -0.0930832       0.0844188
281701.4               0.0730061       -0.093417     -0.000371439    -0.000694768        -0.848525        0.514629      0.000216467     0.000782813
                    -0.000327181    -0.000656584         0.120748       0.0341661      0.000389315     0.000695999        -0.965289        0.226313
                       -0.848363        0.513977       0.00021441     0.000759509        -0.116933       0.0218183      0.000126432    -0.000690655
                     0.000356634     0.000644659         -0.96551        0.226779     -0.000207422    -0.000484868       -0.0930802        0.084418
281701.5               0.0730008      -0.0934206     -0.000371455    -0.000694756        -0.848511        0.514652      0.000216491     0.000782801
                      -0.0003272     -0.00065657         0.120747       0.0341602      0.000389386     0.000695962        -0.965283        0.226338
                       -0.848349           0.514      0.000214433     0.000759504        -0.116933       0.0218183      0.000126392    -0.000690653
                     0.000356657     0.000644645        -0.965504        0.226804     -0.000207457    -0.000484803       -0.0930773       0.0844171
281701.6               0.0729955      -0.0934241      -0.00037147    -0.000694743        -0.848497        0.514674      0.000216516     0.000782788
                    -0.000327219    -0.000656555         0.120746       0.0341544      0.000389457     0.000695925        -0.965278        0.226364
                       -0.848335        0.514023      0.000214456       0.0007595        -0.116932       0.0218183      0.000126351    -0.000690651
                     0.000356681      0.00064463        -0.965499         0.22683     -0.000207492    -0.000484739       -0.0930743       0.0844163
281701.7               0.0729902      -0.0934276     -0.000371485     -0.00069473        -0.848483        0.514697      0.000216541     0.000782776
                    -0.000327238    -0.000656541         0.120745       0.0341485      0.000389528     0.000695888        -0.965272         0.22639
                       -0.848321        0.514046       0.00021448     0.000759495        -0.116932       0.0218183      0.000126311    -0.000690648
                     0.000356705     0.000644616        -0.965493        0.226856     -0.000207527    -0.000484674       -0.0930713       0.0844154
281701.8               0.0729849      -0.0934311       -0.0003715    -0.000694717         -0.84847         0.51472      0.000216565     0.000782763
                    -0.000327257    -0.000656527         0.120743       0.0341427      0.000389599     0.000695851        -0.965266        0.226415
                       -0.848307        0.514068      0.000214503      0.00075949        -0.116931       0.0218183      0.000126271    -0.000690646
                     0.000356728     0.000644602        -0.965487        0.226881     -0.000207563    -0.000484609       -0.0930683       0.0844145
281701.9               0.0729797      -0.0934346     -0.000371516    -0.000694704        -0.848456        0.514743       0.00021659     0.000782751
                    -0.000327276    -0.000656512         0.120742       0.0341368       0.00038967     0.000695814        -0.965261        0.226441
                       -0.848294        0.514091      0.000214526     0.000759486        -0.116931       0.0218183       0.00012623    -0.000690643
                     0.000356752     0.000644587        -0.965482        0.226907     -0.000207598    -0.000484545       -0.0930654       0.0844137
281702                 0.0729744      -0.0934381     -0.000371531    -0.000694692        -0.848442        0.514766      0.000216615     0.000782738
                    -0.000327295    -0.000656498         0.120741        0.034131      0.000389741     0.000695777        -0.965255        0.226467
                        -0.84828        0.514114      0.000214549     0.000759481         -0.11693       0.0218183       0.00012619    -0.000690641
                     0.000356776     0.000644573        -0.965476        0.226933     -0.000207633     -0.00048448       -0.0930624       0.0844128
281702.1               0.0729691      -0.0934416     -0.000371546    -0.000694679        -0.848428        0.514789      0.000216639     0.000782726
                    -0.000327313    -0.000656483          0.12074       0.0341251      0.000389812      0.00069574        -0.965249        0.226492
                       -0.848266        0.514137      0.000214572     0.000759477         -0.11693       0.0218183       0.00012615    -0.000690639
                     0.000356799     0.000644558         -0.96547        0.226959     -0.000207668    -0.000484416       -0.0930594        0.084412
281702.2               0.0729638      -0.0934451     -0.000371561    -0.000694666        -0.848414        0.514812      0.000216664     0.000782713
                    -0.000327332    -0.000656469         0.120738       0.0341193      0.000389883     0.000695703        -0.965244        0.226518
                       -0.848252         0.51416      0.000214595     0.000759472        -0.116929       0.0218183      0.000126109    -0.000690636
                     0.000356823     0.000644544        -0.965465        0.226984     -0.000207703    -0.000484351       -0.0930564       0.0844111
281702.3               0.0729585      -0.0934486     -0.000371577    -0.000694653          -0.8484        0.514835      0.000216689     0.000782701
                    -0.000327351    -0.000656454         0.120737       0.0341134      0.000389954     0.000695666        -0.965238        0.226544
                       -0.848238        0.514183      0.000214618     0.000759468        -0.116929       0.0218183      0.000126069    -0.000690634
                     0.000356847     0.000644529        -0.965459         0.22701     -0.000207738    -0.000484287       -0.0930534       0.0844102
281702.4               0.0729532      -0.0934521     -0.000371592    -0.000694641        -0.848386        0.514858      0.000216713     0.000782688
                     -0.00032737     -0.00065644         0.120736       0.0341076      0.000390025     0.000695629        -0.965232        0.226569
                       -0.848224        0.514206      0.000214641     0.000759463        -0.116928       0.0218182      0.000126029    -0.000690631
                      0.00035687     0.000644515        -0.965453        0.227036     -0.000207773    -0.000484222       -0.0930505       0.0844094
281702.5                0.072948      -0.0934557     -0.000371607    -0.000694628        -0.848373        0.514881      0.000216738     0.000782675
                    -0.000327389    -0.000656425         0.120735       0.0341017      0.000390096     0.000695592        -0.965227        0.226595
                       -0.848211        0.514229      0.000214665     0.000759458        -0.116928       0.0218182      0.000125988    -0.000690629
                     0.000356894     0.000644501        -0.965448        0.227061     -0.000207808    -0.000484158       -0.0930475       0.0844085
281702.6               0.0729427      -0.0934592     -0.000371622    -0.000694615        -0.848359        0.514904      0.000216763     0.000782663
                    -0.000327408    -0.000656411         0.120733       0.0340958      0.000390167     0.000695555        -0.965221        0.226621
                       -0.848197        0.514252      0.000214688     0.000759454        -0.116927       0.0218182      0.000125948    -0.000690627
                     0.000356918     0.000644486        -0.965442        0.227087     -0.000207843    -0.000484093       -0.0930445       0.0844076
281702.7               0.0729374      -0.0934627     -0.000371638    -0.000694602        -0.848345        0.514927      0.000216787      0.00078265
                    -0.000327427    -0.000656396         0.120732         0.03409      0.000390238     0.000695518        -0.965215        0.226646
                       -0.848183        0.514275      0.000214711     0.000759449        -0.116927       0.0218182      0.000125908    -0.000690624
                     0.000356941     0.000644472        -0.965436        0.227113     -0.000207878    -0.000484029       -0.0930415       0.0844068
281702.8               0.0729321      -0.0934662     -0.000371653     -0.00069459        -0.848331         0.51495      0.000216812     0.000782638
                    -0.000327445    -0.000656382         0.120731       0.0340841      0.000390309     0.000695481         -0.96521        0.226672
                       -0.848169        0.514298      0.000214734     0.000759445        -0.116926       0.0218182      0.000125867    -0.000690622
                     0.000356965     0.000644457        -0.965431        0.227138     -0.000207913    -0.000483964       -0.0930386       0.0844059
281702.9               0.0729268      -0.0934697     -0.000371668    -0.000694577        -0.848317        0.514973      0.000216837     0.000782625
                    -0.000327464    -0.000656367          0.12073       0.0340783       0.00039038     0.000695444        -0.965204        0.226698
                       -0.848155        0.514321      0.000214757      0.00075944        -0.116926       0.0218182      0.000125827    -0.000690619
                     0.000356989     0.000644443        -0.965425        0.227164     -0.000207948      -0.0004839       -0.0930356       0.0844051
281703                 0.0729215      -0.0934732     -0.000371683    -0.000694564        -0.848303        0.514996      0.000216861     0.000782613
                    -0.000327483    -0.000656353         0.120728       0.0340724      0.000390451     0.000695407        -0.965198        0.226723
                       -0.848141        0.514344       0.00021478     0.000759435        -0.116925       0.0218182      0.000125787    -0.000690617
                     0.000357012     0.000644428        -0.965419         0.22719     -0.000207983    -0.000483835       -0.0930326       0.0844042
281703.1               0.0729162      -0.0934767     -0.000371699    -0.000694551        -0.848289        0.515018      0.000216886       0.0007826
                    -0.000327502    -0.000656338         0.120727       0.0340666      0.000390522      0.00069537        -0.965193        0.226749
                       -0.848127        0.514367      0.000214803     0.000759431        -0.116925       0.0218182      0.000125746    -0.000690615
