! TOUCHSTONE file generated by CST MICROWAVE STUDIO
! Date and time: Wed Oct  8 07:03:41 2025
! Project name: Teste_Macro_Metasurface_Nanopilar.cst
! Parameters = {H=600; L_x=180; L_y=70; Lambda=1064; Max_L=200; Min_L=70; PathPara=1; Phi=0; Step_L=10; Theta=0; p=520; phaseX=180; phaseY=0}
! Header version: 2018
! Port assignment regex: !\s*Touchstone port\s*([0-9]+)\s*=\s*(CST MWS port|CST DS port)\s*([0-9]+|Zmin|Zmax)\s*\(\"(.*)\"\)(\s*mode\s*([0-9]+))?.*
! Touchstone port assignment:
! Touchstone port 1 = CST MWS port Zmax ("") mode 1
! Touchstone port 2 = CST MWS port Zmax ("") mode 2
! Touchstone port 3 = CST MWS port Zmin ("") mode 1
! Touchstone port 4 = CST MWS port Zmin ("") mode 2
! S-Parameters are not renormalized. Each port impedance will be approximated by the real part at minimum frequency. The values are described via the [Reference] keyword.
! Default impedance is overridden by [Reference]
[Version] 2.0
# GHz S RI R 376.73
[Number of Ports] 4
[Reference]
376.73 376.73 376.73 376.73 
[Number of Frequencies] 1001
[Network Data]
281700                 0.0986111      -0.0527605      2.73409e-05    -5.56522e-05        -0.892544         0.43596       3.1854e-05    -0.000103786
                    -0.000307841     0.000258812        -0.133292       -0.165637      0.000302218    -8.73318e-05         0.114994        -0.96312
                        -0.89237        0.436186      0.000121257    -7.29802e-05        -0.102324       0.0455171     -2.11493e-05    -5.66857e-05
                    -7.92021e-05     2.09379e-05         0.115029        -0.96297      0.000166319    -0.000119979        -0.169414        0.130582
281700.1                0.098607       -0.052765      2.73313e-05    -5.56566e-05        -0.892533        0.435984      3.18466e-05    -0.000103781
                    -0.000307816     0.000258806        -0.133297        -0.16563      0.000302212    -8.73357e-05         0.114963       -0.963124
                       -0.892358         0.43621      0.000121257    -7.29837e-05        -0.102323       0.0455166     -2.11428e-05    -5.66867e-05
                    -7.91896e-05     2.09375e-05         0.114998       -0.962974      0.000166319     -0.00011998        -0.169409        0.130586
281700.2               0.0986029      -0.0527695      2.73217e-05     -5.5661e-05        -0.892521        0.436008      3.18392e-05    -0.000103775
                    -0.000307791     0.000258801        -0.133302       -0.165623      0.000302206    -8.73397e-05         0.114932       -0.963128
                       -0.892347        0.436234      0.000121257    -7.29872e-05        -0.102321       0.0455161     -2.11362e-05    -5.66877e-05
                     -7.9177e-05     2.09372e-05         0.114967       -0.962979      0.000166319    -0.000119982        -0.169403        0.130589
281700.3               0.0985988       -0.052774      2.73121e-05    -5.56654e-05         -0.89251        0.436032      3.18318e-05     -0.00010377
                    -0.000307766     0.000258796        -0.133306       -0.165617        0.0003022    -8.73437e-05         0.114901       -0.963132
                       -0.892335        0.436258      0.000121256    -7.29907e-05         -0.10232       0.0455156     -2.11296e-05    -5.66888e-05
                    -7.91645e-05     2.09368e-05         0.114936       -0.962983      0.000166319    -0.000119984        -0.169398        0.130592
281700.4               0.0985947      -0.0527785      2.73025e-05    -5.56698e-05        -0.892498        0.436056      3.18244e-05    -0.000103765
                    -0.000307741     0.000258791        -0.133311        -0.16561      0.000302194    -8.73476e-05          0.11487       -0.963137
                       -0.892324        0.436282      0.000121256    -7.29942e-05        -0.102318       0.0455151      -2.1123e-05    -5.66898e-05
                    -7.91519e-05     2.09365e-05         0.114905       -0.962987      0.000166319    -0.000119985        -0.169392        0.130596
281700.5               0.0985906      -0.0527829      2.72929e-05    -5.56742e-05        -0.892487         0.43608       3.1817e-05     -0.00010376
                    -0.000307716     0.000258785        -0.133315       -0.165604      0.000302188    -8.73516e-05         0.114839       -0.963141
                       -0.892312        0.436306      0.000121255    -7.29977e-05        -0.102317       0.0455146     -2.11164e-05    -5.66908e-05
                    -7.91394e-05     2.09361e-05         0.114874       -0.962991      0.000166319    -0.000119987        -0.169387        0.130599
281700.6               0.0985866      -0.0527874      2.72833e-05    -5.56786e-05        -0.892475        0.436104      3.18096e-05    -0.000103754
                    -0.000307691      0.00025878         -0.13332       -0.165597      0.000302182    -8.73556e-05         0.114808       -0.963145
                       -0.892301         0.43633      0.000121255    -7.30011e-05        -0.102316        0.045514     -2.11098e-05    -5.66918e-05
                    -7.91268e-05     2.09357e-05         0.114843       -0.962995      0.000166319    -0.000119989        -0.169381        0.130602
281700.7               0.0985825      -0.0527919      2.72737e-05     -5.5683e-05        -0.892464        0.436128      3.18022e-05    -0.000103749
                    -0.000307666     0.000258775        -0.133324        -0.16559      0.000302176    -8.73596e-05         0.114777       -0.963149
                       -0.892289        0.436354      0.000121255    -7.30046e-05        -0.102314       0.0455135     -2.11032e-05    -5.66928e-05
                    -7.91143e-05     2.09354e-05         0.114812          -0.963      0.000166319     -0.00011999        -0.169376        0.130605
281700.8               0.0985784      -0.0527964       2.7264e-05    -5.56874e-05        -0.892452        0.436152      3.17947e-05    -0.000103744
                    -0.000307641      0.00025877        -0.133329       -0.165584      0.000302171    -8.73636e-05         0.114746       -0.963154
                       -0.892278        0.436378      0.000121254    -7.30081e-05        -0.102313        0.045513     -2.10966e-05    -5.66938e-05
                    -7.91017e-05      2.0935e-05         0.114781       -0.963004      0.000166319    -0.000119992         -0.16937        0.130609
281700.9               0.0985743      -0.0528009      2.72544e-05    -5.56918e-05        -0.892441        0.436176      3.17873e-05    -0.000103739
                    -0.000307616     0.000258764        -0.133334       -0.165577      0.000302165    -8.73676e-05         0.114715       -0.963158
                       -0.892266        0.436402      0.000121254    -7.30116e-05        -0.102311       0.0455125       -2.109e-05    -5.66949e-05
                    -7.90891e-05     2.09347e-05          0.11475       -0.963008      0.000166319    -0.000119994        -0.169365        0.130612
281701                 0.0985702      -0.0528053      2.72448e-05    -5.56961e-05        -0.892429        0.436199      3.17799e-05    -0.000103734
                    -0.000307591     0.000258759        -0.133338        -0.16557      0.000302159    -8.73716e-05         0.114684       -0.963162
                       -0.892255        0.436425      0.000121253    -7.30151e-05         -0.10231        0.045512     -2.10835e-05    -5.66959e-05
                    -7.90766e-05     2.09343e-05         0.114719       -0.963012      0.000166319    -0.000119995        -0.169359        0.130615
281701.1               0.0985661      -0.0528098      2.72352e-05    -5.57005e-05        -0.892418        0.436223      3.17725e-05    -0.000103728
                    -0.000307566     0.000258754        -0.133343       -0.165564      0.000302153    -8.73756e-05         0.114653       -0.963166
                       -0.892243        0.436449      0.000121253    -7.30186e-05        -0.102309       0.0455115     -2.10769e-05    -5.66969e-05
                     -7.9064e-05      2.0934e-05         0.114688       -0.963017       0.00016632    -0.000119997        -0.169354        0.130619
281701.2                0.098562      -0.0528143      2.72256e-05    -5.57049e-05        -0.892406        0.436247      3.17651e-05    -0.000103723
                    -0.000307541     0.000258749        -0.133347       -0.165557      0.000302147    -8.73796e-05         0.114622        -0.96317
                       -0.892232        0.436473      0.000121253     -7.3022e-05        -0.102307        0.045511     -2.10703e-05    -5.66979e-05
                    -7.90515e-05     2.09336e-05         0.114657       -0.963021       0.00016632    -0.000119999        -0.169348        0.130622
281701.3               0.0985579      -0.0528188       2.7216e-05    -5.57093e-05        -0.892395        0.436271      3.17577e-05    -0.000103718
                    -0.000307516     0.000258743        -0.133352       -0.165551      0.000302141    -8.73836e-05         0.114591       -0.963175
                        -0.89222        0.436497      0.000121252    -7.30255e-05        -0.102306       0.0455105     -2.10637e-05    -5.66989e-05
                    -7.90389e-05     2.09333e-05         0.114626       -0.963025       0.00016632        -0.00012        -0.169343        0.130625
281701.4               0.0985539      -0.0528233      2.72064e-05    -5.57137e-05        -0.892383        0.436295      3.17503e-05    -0.000103713
                    -0.000307491     0.000258738        -0.133356       -0.165544      0.000302135    -8.73876e-05          0.11456       -0.963179
                       -0.892209        0.436521      0.000121252     -7.3029e-05        -0.102304         0.04551     -2.10571e-05       -5.67e-05
                    -7.90263e-05     2.09329e-05         0.114595       -0.963029       0.00016632    -0.000120002        -0.169337        0.130628
281701.5               0.0985498      -0.0528278      2.71968e-05     -5.5718e-05        -0.892372        0.436319      3.17429e-05    -0.000103707
                    -0.000307466     0.000258733        -0.133361       -0.165537      0.000302129    -8.73916e-05         0.114529       -0.963183
                       -0.892197        0.436545      0.000121251    -7.30325e-05        -0.102303       0.0455095     -2.10505e-05     -5.6701e-05
                    -7.90138e-05     2.09325e-05         0.114564       -0.963033       0.00016632    -0.000120004        -0.169332        0.130632
281701.6               0.0985457      -0.0528322      2.71872e-05    -5.57224e-05         -0.89236        0.436343      3.17355e-05    -0.000103702
                     -0.00030744     0.000258728        -0.133366       -0.165531      0.000302124    -8.73956e-05         0.114498       -0.963187
                       -0.892186        0.436569      0.000121251     -7.3036e-05        -0.102302        0.045509     -2.10439e-05     -5.6702e-05
                    -7.90012e-05     2.09322e-05         0.114533       -0.963038       0.00016632    -0.000120005        -0.169326        0.130635
281701.7               0.0985416      -0.0528367      2.71776e-05    -5.57268e-05        -0.892349        0.436367      3.17281e-05    -0.000103697
                    -0.000307415     0.000258722         -0.13337       -0.165524      0.000302118    -8.73996e-05         0.114467       -0.963191
                       -0.892174        0.436593      0.000121251    -7.30394e-05          -0.1023       0.0455084     -2.10373e-05     -5.6703e-05
                    -7.89887e-05     2.09318e-05         0.114502       -0.963042       0.00016632    -0.000120007        -0.169321        0.130638
281701.8               0.0985375      -0.0528412       2.7168e-05    -5.57312e-05        -0.892337        0.436391      3.17206e-05    -0.000103692
                     -0.00030739     0.000258717        -0.133375       -0.165517      0.000302112    -8.74037e-05         0.114436       -0.963196
                       -0.892163        0.436617       0.00012125    -7.30429e-05        -0.102299       0.0455079     -2.10307e-05     -5.6704e-05
                    -7.89761e-05     2.09315e-05         0.114471       -0.963046       0.00016632    -0.000120009        -0.169315        0.130642
281701.9               0.0985334      -0.0528457      2.71584e-05    -5.57355e-05        -0.892326        0.436415      3.17132e-05    -0.000103687
                    -0.000307365     0.000258712        -0.133379       -0.165511      0.000302106    -8.74077e-05         0.114405         -0.9632
                       -0.892151        0.436641       0.00012125    -7.30464e-05        -0.102297       0.0455074     -2.10241e-05    -5.67051e-05
                    -7.89635e-05     2.09311e-05          0.11444        -0.96305       0.00016632     -0.00012001         -0.16931        0.130645
281702                 0.0985293      -0.0528502      2.71488e-05    -5.57399e-05        -0.892314        0.436439      3.17058e-05    -0.000103681
                     -0.00030734     0.000258707        -0.133384       -0.165504        0.0003021    -8.74117e-05         0.114374       -0.963204
                        -0.89214        0.436665       0.00012125    -7.30499e-05        -0.102296       0.0455069     -2.10175e-05    -5.67061e-05
                     -7.8951e-05     2.09308e-05         0.114409       -0.963055       0.00016632    -0.000120012        -0.169304        0.130648
281702.1               0.0985252      -0.0528546      2.71392e-05    -5.57443e-05        -0.892303        0.436463      3.16984e-05    -0.000103676
                    -0.000307315     0.000258701        -0.133388       -0.165498      0.000302094    -8.74158e-05         0.114343       -0.963208
                       -0.892128        0.436688      0.000121249    -7.30534e-05        -0.102295       0.0455064     -2.10109e-05    -5.67071e-05
                    -7.89384e-05     2.09304e-05         0.114378       -0.963059       0.00016632    -0.000120014        -0.169299        0.130651
281702.2               0.0985211      -0.0528591      2.71296e-05    -5.57486e-05        -0.892291        0.436487       3.1691e-05    -0.000103671
                     -0.00030729     0.000258696        -0.133393       -0.165491      0.000302088    -8.74198e-05         0.114312       -0.963213
                       -0.892117        0.436712      0.000121249    -7.30569e-05        -0.102293       0.0455059     -2.10043e-05    -5.67081e-05
                    -7.89258e-05     2.09301e-05         0.114347       -0.963063       0.00016632    -0.000120015        -0.169293        0.130655
281702.3                0.098517      -0.0528636        2.712e-05     -5.5753e-05         -0.89228        0.436511      3.16836e-05    -0.000103666
                    -0.000307265     0.000258691        -0.133397       -0.165484      0.000302083    -8.74238e-05         0.114281       -0.963217
                       -0.892105        0.436736      0.000121248    -7.30603e-05        -0.102292       0.0455054     -2.09977e-05    -5.67091e-05
                    -7.89133e-05     2.09297e-05         0.114316       -0.963067       0.00016632    -0.000120017        -0.169287        0.130658
281702.4                0.098513      -0.0528681      2.71104e-05    -5.57574e-05        -0.892268        0.436535      3.16762e-05     -0.00010366
                     -0.00030724     0.000258686        -0.133402       -0.165478      0.000302077    -8.74279e-05          0.11425       -0.963221
                       -0.892094         0.43676      0.000121248    -7.30638e-05         -0.10229       0.0455049     -2.09911e-05    -5.67101e-05
                    -7.89007e-05     2.09294e-05         0.114285       -0.963071       0.00016632    -0.000120018        -0.169282        0.130661
281702.5               0.0985089      -0.0528725      2.71008e-05    -5.57617e-05        -0.892257        0.436559      3.16688e-05    -0.000103655
                    -0.000307215      0.00025868        -0.133407       -0.165471      0.000302071    -8.74319e-05         0.114219       -0.963225
                       -0.892082        0.436784      0.000121248    -7.30673e-05        -0.102289       0.0455044     -2.09844e-05    -5.67112e-05
                    -7.88881e-05      2.0929e-05         0.114254       -0.963076       0.00016632     -0.00012002        -0.169276        0.130665
281702.6               0.0985048       -0.052877      2.70912e-05    -5.57661e-05        -0.892245        0.436583      3.16614e-05     -0.00010365
                     -0.00030719     0.000258675        -0.133411       -0.165464      0.000302065     -8.7436e-05         0.114188       -0.963229
                       -0.892071        0.436808      0.000121247    -7.30708e-05        -0.102288       0.0455039     -2.09778e-05    -5.67122e-05
                    -7.88755e-05     2.09287e-05         0.114223        -0.96308       0.00016632    -0.000120022        -0.169271        0.130668
281702.7               0.0985007      -0.0528815      2.70816e-05    -5.57705e-05        -0.892234        0.436607       3.1654e-05    -0.000103645
                    -0.000307165      0.00025867        -0.133416       -0.165458      0.000302059      -8.744e-05         0.114157       -0.963234
                       -0.892059        0.436832      0.000121247    -7.30743e-05        -0.102286       0.0455034     -2.09712e-05    -5.67132e-05
                     -7.8863e-05     2.09283e-05         0.114192       -0.963084       0.00016632    -0.000120023        -0.169265        0.130671
281702.8               0.0984966       -0.052886       2.7072e-05    -5.57748e-05        -0.892222        0.436631      3.16466e-05     -0.00010364
                     -0.00030714     0.000258665         -0.13342       -0.165451      0.000302053    -8.74441e-05         0.114126       -0.963238
                       -0.892048        0.436856      0.000121246    -7.30778e-05        -0.102285       0.0455028     -2.09646e-05    -5.67142e-05
                    -7.88504e-05      2.0928e-05         0.114162       -0.963088       0.00016632    -0.000120025         -0.16926        0.130674
281702.9               0.0984925      -0.0528905      2.70624e-05    -5.57792e-05        -0.892211        0.436654      3.16392e-05    -0.000103634
                    -0.000307115     0.000258659        -0.133425       -0.165445      0.000302047    -8.74482e-05         0.114095       -0.963242
                       -0.892036         0.43688      0.000121246    -7.30812e-05        -0.102283       0.0455023      -2.0958e-05    -5.67152e-05
                    -7.88378e-05     2.09276e-05         0.114131       -0.963092       0.00016632    -0.000120027        -0.169254        0.130678
281703                 0.0984884      -0.0528949      2.70528e-05    -5.57835e-05        -0.892199        0.436678      3.16318e-05    -0.000103629
                     -0.00030709     0.000258654        -0.133429       -0.165438      0.000302042    -8.74522e-05         0.114064       -0.963246
                       -0.892025        0.436904      0.000121246    -7.30847e-05        -0.102282       0.0455018     -2.09514e-05    -5.67162e-05
                    -7.88252e-05     2.09273e-05           0.1141       -0.963097       0.00016632    -0.000120028        -0.169249        0.130681
281703.1               0.0984843      -0.0528994      2.70432e-05    -5.57879e-05        -0.892188        0.436702      3.16244e-05    -0.000103624
                    -0.000307065     0.000258649        -0.133434       -0.165431      0.000302036    -8.74563e-05         0.114033        -0.96325
                       -0.892013        0.436927      0.000121245    -7.30882e-05        -0.102281       0.0455013     -2.09448e-05    -5.67173e-05
