! TOUCHSTONE file generated by CST MICROWAVE STUDIO
! Date and time: Wed Oct  8 07:03:02 2025
! Project name: Teste_Macro_Metasurface_Nanopilar.cst
! Parameters = {H=600; L_x=170; L_y=190; Lambda=1064; Max_L=200; Min_L=70; PathPara=1; Phi=0; Step_L=10; Theta=0; p=520; phaseX=180; phaseY=0}
! Header version: 2018
! Port assignment regex: !\s*Touchstone port\s*([0-9]+)\s*=\s*(CST MWS port|CST DS port)\s*([0-9]+|Zmin|Zmax)\s*\(\"(.*)\"\)(\s*mode\s*([0-9]+))?.*
! Touchstone port assignment:
! Touchstone port 1 = CST MWS port Zmax ("") mode 1
! Touchstone port 2 = CST MWS port Zmax ("") mode 2
! Touchstone port 3 = CST MWS port Zmin ("") mode 1
! Touchstone port 4 = CST MWS port Zmin ("") mode 2
! S-Parameters are not renormalized. Each port impedance will be approximated by the real part at minimum frequency. The values are described via the [Reference] keyword.
! Default impedance is overridden by [Reference]
[Version] 2.0
# GHz S RI R 376.73
[Number of Ports] 4
[Reference]
376.73 376.73 376.73 376.73 
[Number of Frequencies] 1001
[Network Data]
281700                -0.0842963       -0.177085     -0.000582379     0.000446509        -0.943083        0.253005      0.000284877     3.19005e-05
                    -0.000558273     0.000418093        -0.138262       -0.160414     -0.000192886     4.79942e-05        -0.962818       -0.124022
                        -0.94313        0.252992     -0.000280783     8.99188e-05       -0.0188991       -0.194258      0.000528694     0.000325935
                     0.000188242    -6.48664e-05        -0.962776       -0.123969      0.000514419     0.000330566         0.173023       -0.114361
281700.1              -0.0843018       -0.177089     -0.000582378     0.000446529        -0.943074        0.253033       0.00028491     3.18491e-05
                    -0.000558321      0.00041816        -0.138262       -0.160414     -0.000192819     4.80981e-05        -0.962821       -0.123989
                       -0.943121         0.25302     -0.000280777     8.99261e-05       -0.0189077       -0.194263      0.000528792     0.000325907
                     0.000188066    -6.48813e-05         -0.96278       -0.123937      0.000514772     0.000330958         0.173015       -0.114373
281700.2              -0.0843073       -0.177093     -0.000582377     0.000446548        -0.943066        0.253061      0.000284944     3.17972e-05
                    -0.000558369     0.000418228        -0.138261       -0.160415      -0.00019275     4.82025e-05        -0.962825       -0.123957
                       -0.943113        0.253048     -0.000280772     8.99333e-05       -0.0189164       -0.194268       0.00052889      0.00032588
                     0.000187889    -6.48961e-05        -0.962785       -0.123905      0.000515127     0.000331348         0.173007       -0.114385
281700.3              -0.0843128       -0.177096     -0.000582377     0.000446567        -0.943057        0.253088      0.000284977     3.17449e-05
                    -0.000558418     0.000418296        -0.138261       -0.160416     -0.000192681     4.83073e-05        -0.962828       -0.123925
                       -0.943104        0.253076     -0.000280766     8.99404e-05        -0.018925       -0.194273      0.000528988     0.000325852
                     0.000187713    -6.49107e-05         -0.96279       -0.123873      0.000515485     0.000331738         0.172999       -0.114398
281700.4              -0.0843183         -0.1771     -0.000582376     0.000446586        -0.943049        0.253116      0.000285011      3.1692e-05
                    -0.000558466     0.000418363         -0.13826       -0.160417      -0.00019261     4.84126e-05        -0.962832       -0.123893
                       -0.943095        0.253104      -0.00028076     8.99476e-05       -0.0189336       -0.194277      0.000529086     0.000325825
                     0.000187536    -6.49252e-05        -0.962794       -0.123841      0.000515845     0.000332126         0.172992        -0.11441
281700.5              -0.0843238       -0.177104     -0.000582375     0.000446605         -0.94304        0.253144      0.000285046     3.16386e-05
                    -0.000558514     0.000418431         -0.13826       -0.160418     -0.000192538     4.85183e-05        -0.962835       -0.123861
                       -0.943087        0.253132     -0.000280754     8.99548e-05       -0.0189423       -0.194282      0.000529184     0.000325797
                      0.00018736    -6.49395e-05        -0.962799       -0.123809      0.000516207     0.000332513         0.172984       -0.114422
281700.6              -0.0843293       -0.177107     -0.000582375     0.000446625        -0.943032        0.253172      0.000285081     3.15846e-05
                    -0.000558562     0.000418499         -0.13826       -0.160418     -0.000192466     4.86245e-05        -0.962839       -0.123829
                       -0.943078         0.25316     -0.000280748      8.9962e-05       -0.0189509       -0.194287      0.000529282     0.000325769
                     0.000187183    -6.49537e-05        -0.962803       -0.123777      0.000516571       0.0003329         0.172976       -0.114434
281700.7              -0.0843348       -0.177111     -0.000582374     0.000446644        -0.943023          0.2532      0.000285116     3.15301e-05
                    -0.000558611     0.000418567        -0.138259       -0.160419     -0.000192392     4.87311e-05        -0.962842       -0.123797
                        -0.94307        0.253188     -0.000280742     8.99691e-05       -0.0189596       -0.194292       0.00052938     0.000325742
                     0.000187007    -6.49678e-05        -0.962808       -0.123744      0.000516938     0.000333284         0.172968       -0.114447
281700.8              -0.0843403       -0.177115     -0.000582373     0.000446663        -0.943015        0.253228      0.000285151     3.14751e-05
                    -0.000558659     0.000418635        -0.138259        -0.16042     -0.000192317     4.88382e-05        -0.962846       -0.123764
                       -0.943061        0.253216     -0.000280736     8.99763e-05       -0.0189682       -0.194297      0.000529478     0.000325714
                     0.000186831    -6.49817e-05        -0.962813       -0.123712      0.000517307     0.000333668          0.17296       -0.114459
281700.9              -0.0843458       -0.177118     -0.000582372     0.000446682        -0.943006        0.253256      0.000285187     3.14195e-05
                    -0.000558708     0.000418704        -0.138258       -0.160421     -0.000192242     4.89457e-05         -0.96285       -0.123732
                       -0.943052        0.253245      -0.00028073     8.99834e-05       -0.0189769       -0.194302      0.000529577     0.000325686
                     0.000186655    -6.49955e-05        -0.962817        -0.12368      0.000517678      0.00033405         0.172952       -0.114471
281701                -0.0843513       -0.177122     -0.000582372     0.000446701        -0.942997        0.253284      0.000285223     3.13633e-05
                    -0.000558756     0.000418772        -0.138258       -0.160421     -0.000192165     4.90537e-05        -0.962853         -0.1237
                       -0.943044        0.253273     -0.000280724     8.99905e-05       -0.0189855       -0.194307      0.000529675     0.000325659
                     0.000186479    -6.50092e-05        -0.962822       -0.123648      0.000518051     0.000334431         0.172944       -0.114483
281701.1              -0.0843568       -0.177126     -0.000582371     0.000446721        -0.942989        0.253312       0.00028526     3.13066e-05
                    -0.000558805      0.00041884        -0.138258       -0.160422     -0.000192087     4.91621e-05        -0.962857       -0.123668
                       -0.943035        0.253301     -0.000280718     8.99976e-05       -0.0189942       -0.194312      0.000529774     0.000325631
                     0.000186303    -6.50227e-05        -0.962826       -0.123616      0.000518427     0.000334811         0.172937       -0.114496
281701.2              -0.0843623        -0.17713      -0.00058237      0.00044674         -0.94298         0.25334      0.000285297     3.12492e-05
                    -0.000558853     0.000418909        -0.138257       -0.160423     -0.000192008      4.9271e-05         -0.96286       -0.123636
                       -0.943026        0.253329     -0.000280712     9.00048e-05       -0.0190028       -0.194317      0.000529872     0.000325603
                     0.000186127     -6.5036e-05        -0.962831       -0.123584      0.000518805     0.000335189         0.172929       -0.114508
281701.3              -0.0843679       -0.177133     -0.000582369     0.000446759        -0.942972        0.253368      0.000285334     3.11913e-05
                    -0.000558902     0.000418977        -0.138257       -0.160424     -0.000191927     4.93803e-05        -0.962864       -0.123603
                       -0.943018        0.253357     -0.000280706     9.00119e-05       -0.0190115       -0.194321      0.000529971     0.000325575
                     0.000185951    -6.50493e-05        -0.962836       -0.123552      0.000519186     0.000335566         0.172921        -0.11452
281701.4              -0.0843734       -0.177137     -0.000582369     0.000446778        -0.942963        0.253396      0.000285371     3.11328e-05
                    -0.000558951     0.000419046        -0.138256       -0.160424     -0.000191846     4.94901e-05        -0.962867       -0.123571
                       -0.943009        0.253385     -0.000280701     9.00189e-05       -0.0190201       -0.194326       0.00053007     0.000325548
                     0.000185776    -6.50623e-05         -0.96284        -0.12352      0.000519568     0.000335942         0.172913       -0.114532
281701.5              -0.0843789       -0.177141     -0.000582368     0.000446797        -0.942955        0.253424      0.000285409     3.10737e-05
                       -0.000559     0.000419115        -0.138256       -0.160425     -0.000191763     4.96003e-05        -0.962871       -0.123539
                          -0.943        0.253413     -0.000280695      9.0026e-05       -0.0190288       -0.194331      0.000530169      0.00032552
                       0.0001856    -6.50753e-05        -0.962845       -0.123488      0.000519953     0.000336316         0.172905       -0.114545
281701.6              -0.0843844       -0.177144     -0.000582367     0.000446816        -0.942946        0.253451      0.000285447     3.10139e-05
                    -0.000559049     0.000419184        -0.138256       -0.160426     -0.000191679     4.97109e-05        -0.962874       -0.123507
                       -0.942992        0.253441     -0.000280689     9.00331e-05       -0.0190374       -0.194336      0.000530268     0.000325492
                     0.000185424    -6.50881e-05        -0.962849       -0.123455      0.000520341     0.000336689         0.172897       -0.114557
281701.7              -0.0843899       -0.177148     -0.000582366     0.000446835        -0.942938        0.253479      0.000285486     3.09535e-05
                    -0.000559097     0.000419253        -0.138255       -0.160427     -0.000191594      4.9822e-05        -0.962878       -0.123474
                       -0.942983        0.253469     -0.000280683     9.00401e-05       -0.0190461       -0.194341      0.000530367     0.000325464
                     0.000185249    -6.51008e-05        -0.962854       -0.123423       0.00052073      0.00033706         0.172889       -0.114569
281701.8              -0.0843954       -0.177152     -0.000582366     0.000446854        -0.942929        0.253507      0.000285525     3.08925e-05
                    -0.000559146     0.000419322        -0.138255       -0.160428     -0.000191508     4.99335e-05        -0.962882       -0.123442
                       -0.942975        0.253497     -0.000280677     9.00472e-05       -0.0190548       -0.194346      0.000530466     0.000325436
                     0.000185074    -6.51133e-05        -0.962858       -0.123391      0.000521122      0.00033743         0.172881       -0.114581
281701.9              -0.0844009       -0.177155     -0.000582365     0.000446873        -0.942921        0.253535      0.000285564     3.08308e-05
                    -0.000559195     0.000419391        -0.138254       -0.160428     -0.000191421     5.00455e-05        -0.962885        -0.12341
                       -0.942966        0.253525     -0.000280672     9.00542e-05       -0.0190634       -0.194351      0.000530565     0.000325408
                     0.000184898    -6.51257e-05        -0.962863       -0.123359      0.000521516     0.000337798         0.172873       -0.114594
281702                -0.0844064       -0.177159     -0.000582364     0.000446893        -0.942912        0.253563      0.000285604     3.07684e-05
                    -0.000559244      0.00041946        -0.138254       -0.160429     -0.000191332     5.01579e-05        -0.962889       -0.123378
                       -0.942957        0.253553     -0.000280666     9.00612e-05       -0.0190721       -0.194356      0.000530665     0.000325381
                     0.000184723    -6.51379e-05        -0.962868       -0.123327      0.000521913     0.000338164         0.172865       -0.114606
281702.1              -0.0844119       -0.177163     -0.000582363     0.000446912        -0.942904        0.253591      0.000285644     3.07054e-05
                    -0.000559294     0.000419529        -0.138254        -0.16043     -0.000191242     5.02707e-05        -0.962892       -0.123345
                       -0.942949        0.253581      -0.00028066     9.00682e-05       -0.0190807       -0.194361      0.000530764     0.000325353
                     0.000184548      -6.515e-05        -0.962872       -0.123295      0.000522312     0.000338529         0.172858       -0.114618
281702.2              -0.0844174       -0.177167     -0.000582362     0.000446931        -0.942895        0.253619      0.000285684     3.06417e-05
                    -0.000559343     0.000419599        -0.138253       -0.160431      -0.00019115      5.0384e-05        -0.962896       -0.123313
                        -0.94294        0.253609     -0.000280654     9.00752e-05       -0.0190894       -0.194365      0.000530864     0.000325325
                     0.000184373     -6.5162e-05        -0.962877       -0.123263      0.000522713     0.000338893          0.17285        -0.11463
281702.3              -0.0844229        -0.17717     -0.000582362      0.00044695        -0.942887        0.253647      0.000285724     3.05773e-05
                    -0.000559392     0.000419668        -0.138253       -0.160431     -0.000191058     5.04977e-05        -0.962899       -0.123281
                       -0.942931        0.253637     -0.000280649     9.00822e-05        -0.019098        -0.19437      0.000530963     0.000325297
                     0.000184197    -6.51738e-05        -0.962881        -0.12323      0.000523116     0.000339255         0.172842       -0.114643
281702.4              -0.0844284       -0.177174     -0.000582361     0.000446969        -0.942878        0.253675      0.000285765     3.05122e-05
                    -0.000559441     0.000419738        -0.138252       -0.160432     -0.000190964     5.06117e-05        -0.962903       -0.123249
                       -0.942923        0.253665     -0.000280643     9.00892e-05       -0.0191067       -0.194375      0.000531063     0.000325269
                     0.000184022    -6.51855e-05        -0.962886       -0.123198      0.000523522     0.000339615         0.172834       -0.114655
281702.5               -0.084434       -0.177178      -0.00058236     0.000446988        -0.942869        0.253703      0.000285806     3.04464e-05
                    -0.000559491     0.000419807        -0.138252       -0.160433     -0.000190868     5.07263e-05        -0.962907       -0.123216
                       -0.942914        0.253693     -0.000280637     9.00962e-05       -0.0191154        -0.19438      0.000531163     0.000325241
                     0.000183847     -6.5197e-05         -0.96289       -0.123166       0.00052393     0.000339973         0.172826       -0.114667
281702.6              -0.0844395       -0.177181     -0.000582359     0.000447007        -0.942861        0.253731      0.000285848     3.03799e-05
                     -0.00055954     0.000419877        -0.138252       -0.160434     -0.000190771     5.08412e-05         -0.96291       -0.123184
                       -0.942905        0.253721     -0.000280631     9.01031e-05        -0.019124       -0.194385      0.000531262     0.000325213
                     0.000183673    -6.52084e-05        -0.962895       -0.123134       0.00052434      0.00034033         0.172818       -0.114679
281702.7               -0.084445       -0.177185     -0.000582358     0.000447026        -0.942852        0.253758      0.000285889     3.03126e-05
                    -0.000559589     0.000419947        -0.138251       -0.160435     -0.000190673     5.09565e-05        -0.962914       -0.123152
                       -0.942897        0.253749     -0.000280626     9.01101e-05       -0.0191327        -0.19439      0.000531362     0.000325185
                     0.000183498    -6.52197e-05        -0.962899       -0.123102      0.000524753     0.000340685          0.17281       -0.114692
281702.8              -0.0844505       -0.177189     -0.000582357     0.000447045        -0.942844        0.253786      0.000285931     3.02446e-05
                    -0.000559639     0.000420017        -0.138251       -0.160435     -0.000190573     5.10723e-05        -0.962917       -0.123119
                       -0.942888        0.253777      -0.00028062      9.0117e-05       -0.0191413       -0.194395      0.000531462     0.000325157
                     0.000183323    -6.52308e-05        -0.962904        -0.12307      0.000525168     0.000341038         0.172802       -0.114704
281702.9               -0.084456       -0.177192     -0.000582357     0.000447064        -0.942835        0.253814      0.000285974     3.01758e-05
                    -0.000559689     0.000420087         -0.13825       -0.160436     -0.000190472     5.11884e-05        -0.962921       -0.123087
                       -0.942879        0.253805     -0.000280614     9.01239e-05         -0.01915         -0.1944      0.000531563     0.000325129
                     0.000183148    -6.52418e-05        -0.962908       -0.123038      0.000525585     0.000341389         0.172794       -0.114716
281703                -0.0844615       -0.177196     -0.000582356     0.000447083        -0.942827        0.253842      0.000286016     3.01063e-05
                    -0.000559738     0.000420157         -0.13825       -0.160437     -0.000190369     5.13049e-05        -0.962924       -0.123055
                       -0.942871        0.253833     -0.000280609     9.01308e-05       -0.0191587       -0.194405      0.000531663     0.000325101
                     0.000182974    -6.52526e-05        -0.962913       -0.123006      0.000526005     0.000341739         0.172786       -0.114728
281703.1               -0.084467         -0.1772     -0.000582355     0.000447102        -0.942818         0.25387      0.000286059      3.0036e-05
                    -0.000559788     0.000420228         -0.13825       -0.160438     -0.000190265     5.14218e-05        -0.962928       -0.123023
                       -0.942862        0.253861     -0.000280603     9.01377e-05       -0.0191673       -0.194409      0.000531763     0.000325073
