! TOUCHSTONE file generated by CST MICROWAVE STUDIO
! Date and time: Wed Oct  8 06:56:02 2025
! Project name: Teste_Macro_Metasurface_Nanopilar.cst
! Parameters = {H=600; L_x=115; L_y=95; Lambda=1064; Max_L=200; Min_L=70; PathPara=1; Phi=0; Step_L=10; Theta=0; p=520; phaseX=180; phaseY=0}
! Header version: 2018
! Port assignment regex: !\s*Touchstone port\s*([0-9]+)\s*=\s*(CST MWS port|CST DS port)\s*([0-9]+|Zmin|Zmax)\s*\(\"(.*)\"\)(\s*mode\s*([0-9]+))?.*
! Touchstone port assignment:
! Touchstone port 1 = CST MWS port Zmax ("") mode 1
! Touchstone port 2 = CST MWS port Zmax ("") mode 2
! Touchstone port 3 = CST MWS port Zmin ("") mode 1
! Touchstone port 4 = CST MWS port Zmin ("") mode 2
! S-Parameters are not renormalized. Each port impedance will be approximated by the real part at minimum frequency. The values are described via the [Reference] keyword.
! Default impedance is overridden by [Reference]
[Version] 2.0
# GHz S RI R 376.73
[Number of Ports] 4
[Reference]
376.73 376.73 376.73 376.73 
[Number of Frequencies] 1001
[Network Data]
281700                -0.0265579        -0.17072      9.50355e-05    -0.000326482        -0.606976        0.773043      0.000152053    -0.000103269
                     0.000303092    -0.000467075        -0.275317      -0.0154911      3.62713e-05      0.00013917         0.123882         0.94799
                       -0.606449        0.773035      9.34088e-07     0.000100306        -0.172485       0.0155193     -7.89994e-05     0.000295627
                    -3.46299e-05    -0.000243531         0.123799        0.947863      0.000107079     0.000396068        -0.262808       0.0860725
281700.1               -0.026565       -0.170719      9.50328e-05    -0.000326484        -0.606955         0.77306      0.000152059     -0.00010327
                     0.000303093    -0.000467097        -0.275316      -0.0154816      3.62479e-05     0.000139186         0.123911        0.947987
                       -0.606428        0.773052      9.37582e-07     0.000100313        -0.172485       0.0155216     -7.89946e-05     0.000295623
                     -3.4647e-05    -0.000243509         0.123828         0.94786      0.000107101     0.000396063        -0.262805        0.086079
281700.2              -0.0265722       -0.170718      9.50301e-05    -0.000326486        -0.606933        0.773077      0.000152064    -0.000103271
                     0.000303094    -0.000467118        -0.275315      -0.0154721      3.62245e-05     0.000139202          0.12394        0.947983
                       -0.606406        0.773069      9.41077e-07     0.000100319        -0.172484        0.015524     -7.89898e-05     0.000295619
                     -3.4664e-05    -0.000243487         0.123856        0.947856      0.000107122     0.000396059        -0.262801       0.0860854
281700.3              -0.0265794       -0.170717      9.50273e-05    -0.000326488        -0.606912        0.773094       0.00015207    -0.000103271
                     0.000303096    -0.000467139        -0.275314      -0.0154626      3.62013e-05     0.000139217         0.123969         0.94798
                       -0.606385        0.773086      9.44573e-07     0.000100326        -0.172484       0.0155264      -7.8985e-05     0.000295614
                    -3.46811e-05    -0.000243465         0.123885        0.947853      0.000107144     0.000396055        -0.262798       0.0860919
281700.4              -0.0265865       -0.170716      9.50246e-05    -0.000326489         -0.60689        0.773111      0.000152076    -0.000103272
                     0.000303097     -0.00046716        -0.275314      -0.0154531      3.61782e-05     0.000139233         0.123997        0.947976
                       -0.606363        0.773102       9.4807e-07     0.000100333        -0.172484       0.0155288     -7.89803e-05      0.00029561
                    -3.46981e-05    -0.000243443         0.123914        0.947849      0.000107165     0.000396051        -0.262794       0.0860984
281700.5              -0.0265937       -0.170715      9.50219e-05    -0.000326491        -0.606869        0.773127      0.000152081    -0.000103273
                     0.000303098    -0.000467181        -0.275313      -0.0154436      3.61551e-05     0.000139249         0.124026        0.947973
                       -0.606342        0.773119      9.51568e-07     0.000100339        -0.172484       0.0155311     -7.89755e-05     0.000295606
                    -3.47151e-05    -0.000243421         0.123943        0.947846      0.000107187     0.000396047        -0.262791       0.0861049
281700.6              -0.0266008       -0.170714      9.50192e-05    -0.000326493        -0.606848        0.773144      0.000152087    -0.000103274
                     0.000303099    -0.000467203        -0.275312      -0.0154341      3.61322e-05     0.000139266         0.124055         0.94797
                        -0.60632        0.773136      9.55067e-07     0.000100346        -0.172484       0.0155335     -7.89707e-05     0.000295602
                    -3.47322e-05    -0.000243399         0.123971        0.947842      0.000107209     0.000396043        -0.262787       0.0861114
281700.7               -0.026608       -0.170713      9.50165e-05    -0.000326495        -0.606826        0.773161      0.000152093    -0.000103275
                       0.0003031    -0.000467224        -0.275311      -0.0154246      3.61094e-05     0.000139282         0.124084        0.947966
                       -0.606299        0.773153      9.58566e-07     0.000100352        -0.172484       0.0155359      -7.8966e-05     0.000295597
                    -3.47492e-05    -0.000243377            0.124        0.947839      0.000107231     0.000396039        -0.262784       0.0861179
281700.8              -0.0266152       -0.170712      9.50138e-05    -0.000326496        -0.606805        0.773178      0.000152098    -0.000103275
                     0.000303101    -0.000467245        -0.275311      -0.0154151      3.60867e-05     0.000139298         0.124113        0.947963
                       -0.606277         0.77317      9.62066e-07     0.000100359        -0.172484       0.0155382     -7.89612e-05     0.000295593
                    -3.47663e-05    -0.000243355         0.124029        0.947836      0.000107252     0.000396035         -0.26278       0.0861244
281700.9              -0.0266223       -0.170711      9.50111e-05    -0.000326498        -0.606783        0.773194      0.000152104    -0.000103276
                     0.000303102    -0.000467266         -0.27531      -0.0154056      3.60641e-05     0.000139314         0.124141        0.947959
                       -0.606256        0.773186      9.65567e-07     0.000100365        -0.172484       0.0155406     -7.89564e-05     0.000295589
                    -3.47833e-05    -0.000243334         0.124058        0.947832      0.000107274     0.000396032        -0.262777       0.0861309
281701                -0.0266295        -0.17071      9.50084e-05      -0.0003265        -0.606762        0.773211       0.00015211    -0.000103277
                     0.000303103    -0.000467288        -0.275309      -0.0153961      3.60416e-05      0.00013933          0.12417        0.947956
                       -0.606234        0.773203      9.69069e-07     0.000100372        -0.172483        0.015543     -7.89517e-05     0.000295585
                    -3.48003e-05    -0.000243312         0.124087        0.947829      0.000107296     0.000396028        -0.262773       0.0861374
281701.1              -0.0266366       -0.170709      9.50057e-05    -0.000326502        -0.606741        0.773228      0.000152115    -0.000103278
                     0.000303104    -0.000467309        -0.275308      -0.0153866      3.60192e-05     0.000139347         0.124199        0.947952
                       -0.606213         0.77322      9.72572e-07     0.000100379        -0.172483       0.0155453     -7.89469e-05      0.00029558
                    -3.48174e-05     -0.00024329         0.124115        0.947825      0.000107318     0.000396025         -0.26277       0.0861439
281701.2              -0.0266438       -0.170708       9.5003e-05    -0.000326504        -0.606719        0.773245      0.000152121    -0.000103279
                     0.000303105     -0.00046733        -0.275308      -0.0153771       3.5997e-05     0.000139363         0.124228        0.947949
                       -0.606191        0.773237      9.76076e-07     0.000100385        -0.172483       0.0155477     -7.89421e-05     0.000295576
                    -3.48344e-05    -0.000243268         0.124144        0.947822       0.00010734     0.000396021        -0.262766       0.0861504
281701.3               -0.026651       -0.170707      9.50003e-05    -0.000326505        -0.606698        0.773262      0.000152127    -0.000103279
                     0.000303106    -0.000467351        -0.275307      -0.0153676      3.59748e-05      0.00013938         0.124256        0.947946
                        -0.60617        0.773254       9.7958e-07     0.000100392        -0.172483       0.0155501     -7.89374e-05     0.000295572
                    -3.48514e-05    -0.000243246         0.124173        0.947819      0.000107362     0.000396018        -0.262763       0.0861569
281701.4              -0.0266581       -0.170706      9.49976e-05    -0.000326507        -0.606676        0.773278      0.000152132     -0.00010328
                     0.000303107    -0.000467372        -0.275306      -0.0153581      3.59528e-05     0.000139396         0.124285        0.947942
                       -0.606148         0.77327      9.83085e-07     0.000100398        -0.172483       0.0155524     -7.89326e-05     0.000295567
                    -3.48684e-05    -0.000243224         0.124202        0.947815      0.000107384     0.000396015         -0.26276       0.0861634
281701.5              -0.0266653       -0.170705      9.49949e-05    -0.000326509        -0.606655        0.773295      0.000152138    -0.000103281
                     0.000303108    -0.000467393        -0.275306      -0.0153486      3.59308e-05     0.000139413         0.124314        0.947939
                       -0.606127        0.773287      9.86591e-07     0.000100405        -0.172483       0.0155548     -7.89278e-05     0.000295563
                    -3.48855e-05    -0.000243202         0.124231        0.947812      0.000107406     0.000396012        -0.262756       0.0861699
281701.6              -0.0266724       -0.170704      9.49922e-05    -0.000326511        -0.606634        0.773312      0.000152144    -0.000103282
                     0.000303109    -0.000467415        -0.275305      -0.0153391       3.5909e-05     0.000139429         0.124343        0.947935
                       -0.606105        0.773304      9.90098e-07     0.000100412        -0.172483       0.0155572     -7.89231e-05     0.000295559
                    -3.49025e-05     -0.00024318         0.124259        0.947808      0.000107428      0.00039601        -0.262753       0.0861764
281701.7              -0.0266796       -0.170703      9.49895e-05    -0.000326512        -0.606612        0.773329      0.000152149    -0.000103283
                      0.00030311    -0.000467436        -0.275304      -0.0153296      3.58873e-05     0.000139446         0.124372        0.947932
                       -0.606084        0.773321      9.93606e-07     0.000100418        -0.172483       0.0155595     -7.89183e-05     0.000295555
                    -3.49195e-05    -0.000243159         0.124288        0.947805      0.000107451     0.000396007        -0.262749       0.0861829
281701.8              -0.0266868       -0.170702      9.49868e-05    -0.000326514        -0.606591        0.773345      0.000152155    -0.000103283
                     0.000303111    -0.000467457        -0.275303      -0.0153201      3.58657e-05     0.000139463           0.1244        0.947928
                       -0.606062        0.773338      9.97115e-07     0.000100425        -0.172483       0.0155619     -7.89136e-05      0.00029555
                    -3.49365e-05    -0.000243137         0.124317        0.947801      0.000107473     0.000396004        -0.262746       0.0861894
281701.9              -0.0266939       -0.170701      9.49841e-05    -0.000326516        -0.606569        0.773362      0.000152161    -0.000103284
                     0.000303112    -0.000467478        -0.275303      -0.0153106      3.58442e-05     0.000139479         0.124429        0.947925
                       -0.606041        0.773355      1.00062e-06     0.000100431        -0.172482       0.0155643     -7.89088e-05     0.000295546
                    -3.49535e-05    -0.000243115         0.124346        0.947798      0.000107495     0.000396002        -0.262742       0.0861959
281702                -0.0267011         -0.1707      9.49814e-05    -0.000326518        -0.606548        0.773379      0.000152167    -0.000103285
                     0.000303113    -0.000467499        -0.275302      -0.0153011      3.58228e-05     0.000139496         0.124458        0.947921
                       -0.606019        0.773371      1.00414e-06     0.000100438        -0.172482       0.0155667     -7.89041e-05     0.000295542
                    -3.49705e-05    -0.000243093         0.124374        0.947795      0.000107517        0.000396        -0.262739       0.0862024
281702.1              -0.0267082       -0.170699      9.49787e-05    -0.000326519        -0.606527        0.773396      0.000152172    -0.000103286
                     0.000303114    -0.000467521        -0.275301      -0.0152916      3.58016e-05     0.000139513         0.124487        0.947918
                       -0.605998        0.773388      1.00765e-06     0.000100445        -0.172482        0.015569     -7.88993e-05     0.000295537
                    -3.49875e-05    -0.000243071         0.124403        0.947791       0.00010754     0.000395998        -0.262735       0.0862089
281702.2              -0.0267154       -0.170698       9.4976e-05    -0.000326521        -0.606505        0.773413      0.000152178    -0.000103286
                     0.000303115    -0.000467542          -0.2753      -0.0152821      3.57804e-05      0.00013953         0.124516        0.947914
                       -0.605976        0.773405      1.01116e-06     0.000100451        -0.172482       0.0155714     -7.88946e-05     0.000295533
                    -3.50046e-05    -0.000243049         0.124432        0.947788      0.000107562     0.000395996        -0.262732       0.0862154
281702.3              -0.0267226       -0.170697      9.49733e-05    -0.000326523        -0.606484        0.773429      0.000152184    -0.000103287
                     0.000303117    -0.000467563          -0.2753      -0.0152726      3.57594e-05     0.000139547         0.124544        0.947911
                       -0.605955        0.773422      1.01467e-06     0.000100458        -0.172482       0.0155738     -7.88898e-05     0.000295529
                    -3.50216e-05    -0.000243027         0.124461        0.947784      0.000107585     0.000395994        -0.262728       0.0862219
281702.4              -0.0267297       -0.170696      9.49706e-05    -0.000326525        -0.606462        0.773446      0.000152189    -0.000103288
                     0.000303118    -0.000467584        -0.275299      -0.0152631      3.57385e-05     0.000139564         0.124573        0.947908
                       -0.605933        0.773439      1.01819e-06     0.000100464        -0.172482       0.0155761     -7.88851e-05     0.000295525
                    -3.50386e-05    -0.000243006          0.12449        0.947781      0.000107607     0.000395992        -0.262725       0.0862283
281702.5              -0.0267369       -0.170695      9.49679e-05    -0.000326526        -0.606441        0.773463      0.000152195    -0.000103289
                     0.000303119    -0.000467605        -0.275298      -0.0152536      3.57177e-05     0.000139581         0.124602        0.947904
                       -0.605912        0.773455       1.0217e-06     0.000100471        -0.172482       0.0155785     -7.88803e-05      0.00029552
                    -3.50556e-05    -0.000242984         0.124518        0.947777       0.00010763      0.00039599        -0.262721       0.0862348
281702.6               -0.026744       -0.170694      9.49652e-05    -0.000326528        -0.606419         0.77348      0.000152201     -0.00010329
                      0.00030312    -0.000467626        -0.275297      -0.0152441       3.5697e-05     0.000139598         0.124631        0.947901
                        -0.60589        0.773472      1.02522e-06     0.000100477        -0.172482       0.0155809     -7.88756e-05     0.000295516
                    -3.50726e-05    -0.000242962         0.124547        0.947774      0.000107653     0.000395989        -0.262718       0.0862413
281702.7              -0.0267512       -0.170693      9.49625e-05     -0.00032653        -0.606398        0.773496      0.000152207     -0.00010329
                     0.000303121    -0.000467647        -0.275297      -0.0152346      3.56765e-05     0.000139615          0.12466        0.947897
                       -0.605869        0.773489      1.02873e-06     0.000100484        -0.172481       0.0155832     -7.88708e-05     0.000295512
                    -3.50896e-05     -0.00024294         0.124576         0.94777      0.000107675     0.000395987        -0.262714       0.0862478
281702.8              -0.0267583       -0.170692      9.49598e-05    -0.000326532        -0.606377        0.773513      0.000152212    -0.000103291
                     0.000303122    -0.000467669        -0.275296      -0.0152251       3.5656e-05     0.000139633         0.124688        0.947894
                       -0.605847        0.773506      1.03225e-06     0.000100491        -0.172481       0.0155856     -7.88661e-05     0.000295507
                    -3.51066e-05    -0.000242918         0.124605        0.947767      0.000107698     0.000395986        -0.262711       0.0862543
281702.9              -0.0267655        -0.17069      9.49571e-05    -0.000326533        -0.606355         0.77353      0.000152218    -0.000103292
                     0.000303123     -0.00046769        -0.275295      -0.0152156      3.56357e-05      0.00013965         0.124717         0.94789
                       -0.605826        0.773523      1.03577e-06     0.000100497        -0.172481        0.015588     -7.88613e-05     0.000295503
                    -3.51236e-05    -0.000242896         0.124634        0.947764      0.000107721     0.000395985        -0.262707       0.0862608
281703                -0.0267727       -0.170689      9.49545e-05    -0.000326535        -0.606334        0.773547      0.000152224    -0.000103293
                     0.000303124    -0.000467711        -0.275294      -0.0152061      3.56155e-05     0.000139667         0.124746        0.947887
                       -0.605804        0.773539      1.03929e-06     0.000100504        -0.172481       0.0155903     -7.88566e-05     0.000295499
                    -3.51405e-05    -0.000242874         0.124662         0.94776      0.000107744     0.000395984        -0.262704       0.0862673
281703.1              -0.0267798       -0.170688      9.49518e-05    -0.000326537        -0.606312        0.773564      0.000152229    -0.000103293
                     0.000303125    -0.000467732        -0.275294      -0.0151966      3.55954e-05     0.000139685         0.124775        0.947883
                       -0.605783        0.773556      1.04281e-06      0.00010051        -0.172481       0.0155927     -7.88518e-05     0.000295495
