! TOUCHSTONE file generated by CST MICROWAVE STUDIO
! Date and time: Wed Oct  8 06:57:41 2025
! Project name: Teste_Macro_Metasurface_Nanopilar.cst
! Parameters = {H=600; L_x=125; L_y=200; Lambda=1064; Max_L=200; Min_L=70; PathPara=1; Phi=0; Step_L=10; Theta=0; p=520; phaseX=180; phaseY=0}
! Header version: 2018
! Port assignment regex: !\s*Touchstone port\s*([0-9]+)\s*=\s*(CST MWS port|CST DS port)\s*([0-9]+|Zmin|Zmax)\s*\(\"(.*)\"\)(\s*mode\s*([0-9]+))?.*
! Touchstone port assignment:
! Touchstone port 1 = CST MWS port Zmax ("") mode 1
! Touchstone port 2 = CST MWS port Zmax ("") mode 2
! Touchstone port 3 = CST MWS port Zmin ("") mode 1
! Touchstone port 4 = CST MWS port Zmin ("") mode 2
! S-Parameters are not renormalized. Each port impedance will be approximated by the real part at minimum frequency. The values are described via the [Reference] keyword.
! Default impedance is overridden by [Reference]
[Version] 2.0
# GHz S RI R 376.73
[Number of Ports] 4
[Reference]
376.73 376.73 376.73 376.73 
[Number of Frequencies] 1001
[Network Data]
281700                0.00218631       0.0303766      0.000430409    -0.000147325        -0.984378       -0.140849     -0.000344313     0.000512204
                     0.000476992    -0.000160917        -0.140333      0.00982368     -0.000306275     0.000335103        -0.627949       -0.759317
                       -0.984243       -0.141003     -0.000225153     0.000464794       -0.0166153        0.025836       3.8182e-05     -0.00042589
                    -0.000331967     0.000406186        -0.628007       -0.759335     -0.000110776    -0.000388532       -0.0378581        0.133436
281700.1              0.00218768       0.0303693      0.000430392    -0.000147339        -0.984383       -0.140819      -0.00034431     0.000512227
                     0.000476992    -0.000160932        -0.140328      0.00982502     -0.000306274     0.000335107        -0.627973       -0.759298
                       -0.984247       -0.140973     -0.000225143     0.000464808       -0.0166129       0.0258295      3.81568e-05    -0.000425896
                    -0.000331952     0.000406198        -0.628032       -0.759316     -0.000110817     -0.00038852         -0.03785        0.133432
281700.2              0.00218906       0.0303621      0.000430375    -0.000147352        -0.984387       -0.140789     -0.000344307     0.000512251
                     0.000476992    -0.000160946        -0.140322      0.00982636     -0.000306273     0.000335111        -0.627998       -0.759279
                       -0.984252       -0.140943     -0.000225133     0.000464822       -0.0166105        0.025823      3.81317e-05    -0.000425902
                    -0.000331937     0.000406211        -0.628056       -0.759297     -0.000110858    -0.000388507       -0.0378418        0.133428
281700.3              0.00219044       0.0303548      0.000430358    -0.000147365        -0.984392       -0.140759     -0.000344304     0.000512274
                     0.000476993    -0.000160961        -0.140316       0.0098277     -0.000306272     0.000335115        -0.628022        -0.75926
                       -0.984257       -0.140912     -0.000225122     0.000464836       -0.0166082       0.0258165      3.81066e-05    -0.000425907
                    -0.000331922     0.000406223         -0.62808       -0.759278     -0.000110899    -0.000388495       -0.0378336        0.133424
281700.4              0.00219181       0.0303476      0.000430341    -0.000147379        -0.984396       -0.140729     -0.000344301     0.000512297
                     0.000476993    -0.000160975         -0.14031      0.00982904      -0.00030627     0.000335118        -0.628046       -0.759241
                       -0.984261       -0.140882     -0.000225112     0.000464851       -0.0166058         0.02581      3.80814e-05    -0.000425913
                    -0.000331907     0.000406236        -0.628105       -0.759259      -0.00011094    -0.000388483       -0.0378254        0.133421
281700.5              0.00219319       0.0303404      0.000430324    -0.000147392        -0.984401       -0.140699     -0.000344297     0.000512321
                     0.000476993    -0.000160989        -0.140304      0.00983038     -0.000306269     0.000335122         -0.62807       -0.759222
                       -0.984266       -0.140852     -0.000225102     0.000464865       -0.0166034       0.0258035      3.80563e-05    -0.000425919
                    -0.000331892     0.000406248        -0.628129        -0.75924      -0.00011098     -0.00038847       -0.0378173        0.133417
281700.6              0.00219456       0.0303331      0.000430307    -0.000147405        -0.984405       -0.140669     -0.000344294     0.000512344
                     0.000476994    -0.000161004        -0.140298      0.00983171     -0.000306268     0.000335126        -0.628095       -0.759202
                        -0.98427       -0.140822     -0.000225091     0.000464879        -0.016601       0.0257971      3.80311e-05    -0.000425925
                    -0.000331877     0.000406261        -0.628153       -0.759221     -0.000111021    -0.000388458       -0.0378091        0.133413
281700.7              0.00219594       0.0303259       0.00043029    -0.000147419         -0.98441       -0.140639     -0.000344291     0.000512368
                     0.000476994    -0.000161018        -0.140293      0.00983305     -0.000306266      0.00033513        -0.628119       -0.759183
                       -0.984275       -0.140792     -0.000225081     0.000464893       -0.0165987       0.0257906       3.8006e-05    -0.000425931
                    -0.000331862     0.000406273        -0.628177       -0.759202     -0.000111062    -0.000388445       -0.0378009        0.133409
281700.8              0.00219731       0.0303186      0.000430273    -0.000147432        -0.984414       -0.140609     -0.000344288     0.000512391
                     0.000476994    -0.000161033        -0.140287      0.00983439     -0.000306265     0.000335134        -0.628143       -0.759164
                       -0.984279       -0.140762     -0.000225071     0.000464907       -0.0165963       0.0257841      3.79808e-05    -0.000425937
                    -0.000331847     0.000406286        -0.628202       -0.759183     -0.000111103    -0.000388432       -0.0377928        0.133406
281700.9              0.00219868       0.0303114      0.000430256    -0.000147446        -0.984419       -0.140579     -0.000344285     0.000512415
                     0.000476995    -0.000161047        -0.140281      0.00983573     -0.000306264     0.000335138        -0.628168       -0.759145
                       -0.984284       -0.140732      -0.00022506     0.000464921       -0.0165939       0.0257776      3.79557e-05    -0.000425943
                    -0.000331832     0.000406298        -0.628226       -0.759163     -0.000111144     -0.00038842       -0.0377846        0.133402
281701                0.00220006       0.0303041      0.000430239    -0.000147459        -0.984423       -0.140548     -0.000344282     0.000512438
                     0.000476995    -0.000161062        -0.140275      0.00983706     -0.000306262     0.000335141        -0.628192       -0.759126
                       -0.984289       -0.140702      -0.00022505     0.000464935       -0.0165916       0.0257711      3.79305e-05    -0.000425949
                    -0.000331817     0.000406311         -0.62825       -0.759144     -0.000111185    -0.000388407       -0.0377764        0.133398
281701.1              0.00220143       0.0302969      0.000430222    -0.000147472        -0.984428       -0.140518     -0.000344278     0.000512462
                     0.000476995    -0.000161076        -0.140269       0.0098384     -0.000306261     0.000335145        -0.628216       -0.759107
                       -0.984293       -0.140672      -0.00022504     0.000464949       -0.0165892       0.0257647      3.79054e-05    -0.000425955
                    -0.000331802     0.000406323        -0.628275       -0.759125     -0.000111225    -0.000388395       -0.0377683        0.133394
281701.2               0.0022028       0.0302896      0.000430205    -0.000147486        -0.984432       -0.140488     -0.000344275     0.000512485
                     0.000476995    -0.000161091        -0.140263      0.00983973      -0.00030626     0.000335149         -0.62824       -0.759088
                       -0.984298       -0.140642      -0.00022503     0.000464963       -0.0165868       0.0257582      3.78802e-05     -0.00042596
                    -0.000331787     0.000406336        -0.628299       -0.759106     -0.000111266    -0.000388382       -0.0377601        0.133391
281701.3              0.00220417       0.0302824      0.000430187    -0.000147499        -0.984437       -0.140458     -0.000344272     0.000512509
                     0.000476996    -0.000161105        -0.140258      0.00984107     -0.000306258     0.000335153        -0.628265       -0.759069
                       -0.984302       -0.140612     -0.000225019     0.000464977       -0.0165844       0.0257517      3.78551e-05    -0.000425966
                    -0.000331772     0.000406348        -0.628323       -0.759087     -0.000111307     -0.00038837       -0.0377519        0.133387
281701.4              0.00220554       0.0302751       0.00043017    -0.000147513        -0.984441       -0.140428     -0.000344269     0.000512532
                     0.000476996     -0.00016112        -0.140252       0.0098424     -0.000306257     0.000335157        -0.628289        -0.75905
                       -0.984307       -0.140582     -0.000225009     0.000464991       -0.0165821       0.0257452      3.78299e-05    -0.000425972
                    -0.000331757     0.000406361        -0.628348       -0.759068     -0.000111348    -0.000388357       -0.0377437        0.133383
281701.5              0.00220691       0.0302679      0.000430153    -0.000147526        -0.984446       -0.140398     -0.000344266     0.000512556
                     0.000476996    -0.000161134        -0.140246      0.00984374     -0.000306256     0.000335161        -0.628313        -0.75903
                       -0.984311       -0.140552     -0.000224999     0.000465005       -0.0165797       0.0257387      3.78048e-05    -0.000425978
                    -0.000331742     0.000406374        -0.628372       -0.759049     -0.000111389    -0.000388345       -0.0377356        0.133379
281701.6              0.00220828       0.0302607      0.000430136    -0.000147539         -0.98445       -0.140368     -0.000344263     0.000512579
                     0.000476997    -0.000161149         -0.14024      0.00984507     -0.000306254     0.000335165        -0.628338       -0.759011
                       -0.984316       -0.140521     -0.000224988     0.000465019       -0.0165773       0.0257322      3.77796e-05    -0.000425984
                    -0.000331727     0.000406386        -0.628396        -0.75903     -0.000111429    -0.000388332       -0.0377274        0.133376
281701.7              0.00220965       0.0302534      0.000430119    -0.000147553        -0.984455       -0.140338     -0.000344259     0.000512603
                     0.000476997    -0.000161163        -0.140234      0.00984641     -0.000306253     0.000335169        -0.628362       -0.758992
                        -0.98432       -0.140491     -0.000224978     0.000465034        -0.016575       0.0257258      3.77545e-05     -0.00042599
                    -0.000331712     0.000406399         -0.62842        -0.75901      -0.00011147     -0.00038832       -0.0377192        0.133372
281701.8              0.00221102       0.0302462      0.000430102    -0.000147566        -0.984459       -0.140308     -0.000344256     0.000512626
                     0.000476997    -0.000161178        -0.140228      0.00984774     -0.000306252     0.000335173        -0.628386       -0.758973
                       -0.984325       -0.140461     -0.000224968     0.000465048       -0.0165726       0.0257193      3.77293e-05    -0.000425996
                    -0.000331697     0.000406411        -0.628445       -0.758991     -0.000111511    -0.000388307       -0.0377111        0.133368
281701.9              0.00221239       0.0302389      0.000430085     -0.00014758        -0.984464       -0.140278     -0.000344253      0.00051265
                     0.000476998    -0.000161192        -0.140223      0.00984907      -0.00030625     0.000335177         -0.62841       -0.758954
                        -0.98433       -0.140431     -0.000224957     0.000465062       -0.0165702       0.0257128      3.77041e-05    -0.000426002
                    -0.000331682     0.000406424        -0.628469       -0.758972     -0.000111552    -0.000388294       -0.0377029        0.133364
281702                0.00221376       0.0302317      0.000430068    -0.000147593        -0.984468       -0.140248      -0.00034425     0.000512673
                     0.000476998    -0.000161207        -0.140217       0.0098504     -0.000306249     0.000335181        -0.628435       -0.758935
                       -0.984334       -0.140401     -0.000224947     0.000465076       -0.0165679       0.0257063       3.7679e-05    -0.000426007
                    -0.000331667     0.000406436        -0.628493       -0.758953     -0.000111593    -0.000388282       -0.0376947         0.13336
281702.1              0.00221512       0.0302244      0.000430051    -0.000147606        -0.984473       -0.140218     -0.000344247     0.000512697
                     0.000476998    -0.000161221        -0.140211      0.00985174     -0.000306247     0.000335185        -0.628459       -0.758916
                       -0.984339       -0.140371     -0.000224937      0.00046509       -0.0165655       0.0256998      3.76538e-05    -0.000426013
                    -0.000331652     0.000406449        -0.628518       -0.758934     -0.000111633    -0.000388269       -0.0376866        0.133357
281702.2              0.00221649       0.0302172      0.000430034     -0.00014762        -0.984477       -0.140188     -0.000344244      0.00051272
                     0.000476998    -0.000161236        -0.140205      0.00985307     -0.000306246     0.000335189        -0.628483       -0.758897
                       -0.984343       -0.140341     -0.000224926     0.000465104       -0.0165631       0.0256933      3.76287e-05    -0.000426019
                    -0.000331637     0.000406461        -0.628542       -0.758915     -0.000111674    -0.000388257       -0.0376784        0.133353
281702.3              0.00221786       0.0302099      0.000430017    -0.000147633        -0.984482       -0.140158     -0.000344241     0.000512743
                     0.000476999     -0.00016125        -0.140199       0.0098544     -0.000306245     0.000335193        -0.628507       -0.758877
                       -0.984348       -0.140311     -0.000224916     0.000465118       -0.0165608       0.0256869      3.76035e-05    -0.000426025
                    -0.000331622     0.000406474        -0.628566       -0.758896     -0.000111715    -0.000388244       -0.0376702        0.133349
281702.4              0.00221922       0.0302027          0.00043    -0.000147647        -0.984486       -0.140128     -0.000344237     0.000512767
                     0.000476999    -0.000161265        -0.140193      0.00985573     -0.000306243     0.000335197        -0.628532       -0.758858
                       -0.984352       -0.140281     -0.000224906     0.000465132       -0.0165584       0.0256804      3.75783e-05    -0.000426031
                    -0.000331607     0.000406486        -0.628591       -0.758877     -0.000111756    -0.000388231       -0.0376621        0.133345
281702.5              0.00222059       0.0301954      0.000429983     -0.00014766         -0.98449       -0.140098     -0.000344234      0.00051279
                     0.000476999    -0.000161279        -0.140188      0.00985706     -0.000306242     0.000335201        -0.628556       -0.758839
                       -0.984357       -0.140251     -0.000224896     0.000465146        -0.016556       0.0256739      3.75532e-05    -0.000426037
                    -0.000331592     0.000406499        -0.628615       -0.758858     -0.000111797    -0.000388219       -0.0376539        0.133342
281702.6              0.00222196       0.0301882      0.000429966    -0.000147674        -0.984495       -0.140067     -0.000344231     0.000512814
                     0.000476999    -0.000161294        -0.140182      0.00985839      -0.00030624     0.000335205         -0.62858        -0.75882
                       -0.984361       -0.140221     -0.000224885      0.00046516       -0.0165537       0.0256674       3.7528e-05    -0.000426043
                    -0.000331577     0.000406511        -0.628639       -0.758838     -0.000111837    -0.000388206       -0.0376457        0.133338
281702.7              0.00222332       0.0301809      0.000429949    -0.000147687        -0.984499       -0.140037     -0.000344228     0.000512837
                        0.000477    -0.000161308        -0.140176      0.00985972     -0.000306239     0.000335209        -0.628605       -0.758801
                       -0.984366       -0.140191     -0.000224875     0.000465174       -0.0165513       0.0256609      3.75028e-05    -0.000426048
                    -0.000331562     0.000406524        -0.628663       -0.758819     -0.000111878    -0.000388193       -0.0376376        0.133334
281702.8              0.00222468       0.0301737      0.000429932    -0.000147701        -0.984504       -0.140007     -0.000344225     0.000512861
                        0.000477    -0.000161323         -0.14017      0.00986105     -0.000306237     0.000335213        -0.628629       -0.758782
                        -0.98437       -0.140161     -0.000224865     0.000465188       -0.0165489       0.0256544      3.74776e-05    -0.000426054
                    -0.000331547     0.000406536        -0.628688         -0.7588     -0.000111919    -0.000388181       -0.0376294         0.13333
281702.9              0.00222605       0.0301664      0.000429915    -0.000147714        -0.984508       -0.139977     -0.000344222     0.000512884
                        0.000477    -0.000161337        -0.140164      0.00986238     -0.000306236     0.000335217        -0.628653       -0.758763
                       -0.984375        -0.14013     -0.000224854     0.000465202       -0.0165466       0.0256479      3.74525e-05     -0.00042606
                    -0.000331532     0.000406549        -0.628712       -0.758781      -0.00011196    -0.000388168       -0.0376212        0.133326
281703                0.00222741       0.0301592      0.000429898    -0.000147728        -0.984513       -0.139947     -0.000344219     0.000512908
                     0.000477001    -0.000161352        -0.140158       0.0098637     -0.000306235     0.000335222        -0.628677       -0.758743
                       -0.984379         -0.1401     -0.000224844     0.000465216       -0.0165442       0.0256415      3.74273e-05    -0.000426066
                    -0.000331517     0.000406561        -0.628736       -0.758762     -0.000112001    -0.000388155       -0.0376131        0.133323
281703.1              0.00222877       0.0301519      0.000429881    -0.000147741        -0.984517       -0.139917     -0.000344216     0.000512931
                     0.000477001    -0.000161366        -0.140153      0.00986503     -0.000306233     0.000335226        -0.628702       -0.758724
                       -0.984384        -0.14007     -0.000224834      0.00046523       -0.0165418        0.025635      3.74021e-05    -0.000426072
