! TOUCHSTONE file generated by CST MICROWAVE STUDIO
! Date and time: Wed Oct  8 06:58:55 2025
! Project name: Teste_Macro_Metasurface_Nanopilar.cst
! Parameters = {H=600; L_x=140; L_y=70; Lambda=1064; Max_L=200; Min_L=70; PathPara=1; Phi=0; Step_L=10; Theta=0; p=520; phaseX=180; phaseY=0}
! Header version: 2018
! Port assignment regex: !\s*Touchstone port\s*([0-9]+)\s*=\s*(CST MWS port|CST DS port)\s*([0-9]+|Zmin|Zmax)\s*\(\"(.*)\"\)(\s*mode\s*([0-9]+))?.*
! Touchstone port assignment:
! Touchstone port 1 = CST MWS port Zmax ("") mode 1
! Touchstone port 2 = CST MWS port Zmax ("") mode 2
! Touchstone port 3 = CST MWS port Zmin ("") mode 1
! Touchstone port 4 = CST MWS port Zmin ("") mode 2
! S-Parameters are not renormalized. Each port impedance will be approximated by the real part at minimum frequency. The values are described via the [Reference] keyword.
! Default impedance is overridden by [Reference]
[Version] 2.0
# GHz S RI R 376.73
[Number of Ports] 4
[Reference]
376.73 376.73 376.73 376.73 
[Number of Frequencies] 1001
[Network Data]
281700                  0.121639      0.00433435      -0.00020673      0.00100427        -0.949564        0.287233      0.000192641     0.000346834
                     0.000296632      0.00114907        -0.238291        0.232448      0.000692433    -0.000134821         0.548951        0.757535
                       -0.949989        0.287354      0.000528171     0.000190717       -0.0990427       0.0711238      0.000611675    -0.000637694
                    -2.80498e-06     0.000449321         0.548821          0.7576      0.000714352    -0.000827229        -0.297089        0.153759
281700.1                0.121637      0.00432871     -0.000206694      0.00100428        -0.949557        0.287258      0.000192629     0.000346812
                     0.000296647      0.00114904        -0.238281        0.232454      0.000692431    -0.000134841         0.548975        0.757518
                       -0.949982        0.287379      0.000528185     0.000190687       -0.0990402       0.0711231      0.000611662    -0.000637685
                     -2.7931e-06      0.00044933         0.548845        0.757584      0.000714338    -0.000827248        -0.297082        0.153767
281700.2                0.121634      0.00432306     -0.000206658       0.0010043        -0.949549        0.287284      0.000192616     0.000346791
                     0.000296662      0.00114901        -0.238272         0.23246      0.000692429    -0.000134861         0.548999        0.757502
                       -0.949974        0.287404      0.000528199     0.000190657       -0.0990376       0.0711224      0.000611649    -0.000637675
                    -2.78121e-06     0.000449338         0.548869        0.757567      0.000714324    -0.000827266        -0.297075        0.153774
281700.3                0.121632      0.00431742     -0.000206622      0.00100431        -0.949542        0.287309      0.000192603     0.000346769
                     0.000296677      0.00114898        -0.238262        0.232466      0.000692427     -0.00013488         0.549024        0.757485
                       -0.949967         0.28743      0.000528212     0.000190626       -0.0990351       0.0711217      0.000611635    -0.000637666
                    -2.76933e-06     0.000449347         0.548894        0.757551      0.000714311    -0.000827285        -0.297068        0.153782
281700.4                 0.12163      0.00431178     -0.000206587      0.00100433        -0.949535        0.287334      0.000192591     0.000346747
                     0.000296693      0.00114895        -0.238253        0.232472      0.000692425      -0.0001349         0.549048        0.757469
                        -0.94996        0.287455      0.000528226     0.000190596       -0.0990326        0.071121      0.000611622    -0.000637656
                    -2.75744e-06     0.000449356         0.548918        0.757534      0.000714297    -0.000827303        -0.297061         0.15379
281700.5                0.121628      0.00430613     -0.000206551      0.00100434        -0.949527         0.28736      0.000192578     0.000346726
                     0.000296708      0.00114892        -0.238243        0.232478      0.000692423     -0.00013492         0.549073        0.757452
                       -0.949952         0.28748       0.00052824     0.000190565       -0.0990301       0.0711203      0.000611608    -0.000637647
                    -2.74555e-06     0.000449365         0.548943        0.757517      0.000714283    -0.000827322        -0.297055        0.153797
281700.6                0.121625      0.00430049     -0.000206515      0.00100435         -0.94952        0.287385      0.000192565     0.000346704
                     0.000296723      0.00114889        -0.238234        0.232484      0.000692421     -0.00013494         0.549097        0.757435
                       -0.949945        0.287505      0.000528254     0.000190535       -0.0990276       0.0711196      0.000611595    -0.000637638
                    -2.73365e-06     0.000449373         0.548967        0.757501       0.00071427     -0.00082734        -0.297048        0.153805
281700.7                0.121623      0.00429485     -0.000206479      0.00100437        -0.949513         0.28741      0.000192552     0.000346682
                     0.000296738      0.00114886        -0.238224         0.23249      0.000692419     -0.00013496         0.549121        0.757419
                       -0.949937        0.287531      0.000528268     0.000190504        -0.099025        0.071119      0.000611581    -0.000637628
                    -2.72176e-06     0.000449382         0.548991        0.757484      0.000714256    -0.000827359        -0.297041        0.153813
281700.8                0.121621      0.00428921     -0.000206444      0.00100438        -0.949505        0.287435       0.00019254     0.000346661
                     0.000296754      0.00114883        -0.238215        0.232496      0.000692417     -0.00013498         0.549146        0.757402
                        -0.94993        0.287556      0.000528281     0.000190474       -0.0990225       0.0711183      0.000611568    -0.000637619
                    -2.70986e-06     0.000449391         0.549016        0.757468      0.000714242    -0.000827377        -0.297034         0.15382
281700.9                0.121619      0.00428356     -0.000206408       0.0010044        -0.949498        0.287461      0.000192527     0.000346639
                     0.000296769       0.0011488        -0.238205        0.232503      0.000692415       -0.000135          0.54917        0.757385
                       -0.949923        0.287581      0.000528295     0.000190443         -0.09902       0.0711176      0.000611554    -0.000637609
                    -2.69796e-06       0.0004494          0.54904        0.757451      0.000714228    -0.000827396        -0.297027        0.153828
281701                  0.121616      0.00427792     -0.000206372      0.00100441         -0.94949        0.287486      0.000192514     0.000346617
                     0.000296784      0.00114877        -0.238196        0.232509      0.000692413    -0.000135019         0.549195        0.757369
                       -0.949915        0.287607      0.000528309     0.000190413       -0.0990175       0.0711169      0.000611541      -0.0006376
                    -2.68606e-06     0.000449408         0.549065        0.757434      0.000714215    -0.000827415         -0.29702        0.153836
281701.1                0.121614      0.00427228     -0.000206336      0.00100443        -0.949483        0.287511      0.000192502     0.000346596
                       0.0002968      0.00114874        -0.238186        0.232515      0.000692411    -0.000135039         0.549219        0.757352
                       -0.949908        0.287632      0.000528323     0.000190383        -0.099015       0.0711162      0.000611527    -0.000637591
                    -2.67415e-06     0.000449417         0.549089        0.757418      0.000714201    -0.000827433        -0.297014        0.153843
281701.2                0.121612      0.00426664     -0.000206301      0.00100444        -0.949476        0.287537      0.000192489     0.000346574
                     0.000296815      0.00114871        -0.238177        0.232521      0.000692409    -0.000135059         0.549243        0.757336
                       -0.949901        0.287657      0.000528337     0.000190352       -0.0990124       0.0711155      0.000611514    -0.000637581
                    -2.66224e-06     0.000449426         0.549113        0.757401      0.000714187    -0.000827452        -0.297007        0.153851
281701.3                 0.12161        0.004261     -0.000206265      0.00100445        -0.949468        0.287562      0.000192476     0.000346552
                      0.00029683      0.00114868        -0.238167        0.232527      0.000692407    -0.000135079         0.549268        0.757319
                       -0.949893        0.287683       0.00052835     0.000190322       -0.0990099       0.0711148        0.0006115    -0.000637572
                    -2.65033e-06     0.000449435         0.549138        0.757385      0.000714173     -0.00082747           -0.297        0.153859
281701.4                0.121607      0.00425536     -0.000206229      0.00100447        -0.949461        0.287587      0.000192463     0.000346531
                     0.000296846      0.00114865        -0.238158        0.232533      0.000692405    -0.000135099         0.549292        0.757302
                       -0.949886        0.287708      0.000528364     0.000190291       -0.0990074       0.0711142      0.000611487    -0.000637562
                    -2.63842e-06     0.000449443         0.549162        0.757368      0.000714159    -0.000827489        -0.296993        0.153866
281701.5                0.121605      0.00424971     -0.000206193      0.00100448        -0.949454        0.287613      0.000192451     0.000346509
                     0.000296861      0.00114862        -0.238148        0.232539      0.000692403    -0.000135119         0.549316        0.757286
                       -0.949879        0.287733      0.000528378     0.000190261       -0.0990049       0.0711135      0.000611473    -0.000637553
                     -2.6265e-06     0.000449452         0.549187        0.757351      0.000714146    -0.000827507        -0.296986        0.153874
281701.6                0.121603      0.00424407     -0.000206158       0.0010045        -0.949446        0.287638      0.000192438     0.000346487
                     0.000296876      0.00114859        -0.238139        0.232545      0.000692401    -0.000135139         0.549341        0.757269
                       -0.949871        0.287759      0.000528392      0.00019023       -0.0990024       0.0711128       0.00061146    -0.000637544
                    -2.61459e-06     0.000449461         0.549211        0.757335      0.000714132    -0.000827526        -0.296979        0.153882
281701.7                0.121601      0.00423843     -0.000206122      0.00100451        -0.949439        0.287663      0.000192425     0.000346466
                     0.000296892      0.00114856        -0.238129        0.232552      0.000692399    -0.000135159         0.549365        0.757252
                       -0.949864        0.287784      0.000528405       0.0001902       -0.0989999       0.0711121      0.000611446    -0.000637534
                    -2.60267e-06      0.00044947         0.549235        0.757318      0.000714118    -0.000827544        -0.296973        0.153889
281701.8                0.121598      0.00423279     -0.000206086      0.00100453        -0.949432        0.287688      0.000192412     0.000346444
                     0.000296907      0.00114853         -0.23812        0.232558      0.000692397    -0.000135179          0.54939        0.757236
                       -0.949857        0.287809      0.000528419      0.00019017       -0.0989973       0.0711114      0.000611433    -0.000637525
                    -2.59074e-06     0.000449478          0.54926        0.757302      0.000714104    -0.000827563        -0.296966        0.153897
281701.9                0.121596      0.00422715      -0.00020605      0.00100454        -0.949424        0.287714        0.0001924     0.000346423
                     0.000296922       0.0011485         -0.23811        0.232564      0.000692395    -0.000135199         0.549414        0.757219
                       -0.949849        0.287834      0.000528433     0.000190139       -0.0989948       0.0711107      0.000611419    -0.000637515
                    -2.57882e-06     0.000449487         0.549284        0.757285       0.00071409    -0.000827582        -0.296959        0.153905
281702                  0.121594      0.00422151     -0.000206015      0.00100456        -0.949417        0.287739      0.000192387     0.000346401
                     0.000296938      0.00114847        -0.238101         0.23257      0.000692393    -0.000135219         0.549438        0.757203
                       -0.949842         0.28786      0.000528447     0.000190109       -0.0989923         0.07111      0.000611406    -0.000637506
                    -2.56689e-06     0.000449496         0.549309        0.757268      0.000714076      -0.0008276        -0.296952        0.153912
281702.1                0.121592      0.00421587     -0.000205979      0.00100457         -0.94941        0.287764      0.000192374     0.000346379
                     0.000296953      0.00114844        -0.238091        0.232576      0.000692391    -0.000135239         0.549463        0.757186
                       -0.949834        0.287885      0.000528461     0.000190078       -0.0989898       0.0711093      0.000611392    -0.000637497
                    -2.55496e-06     0.000449504         0.549333        0.757252      0.000714063    -0.000827619        -0.296945         0.15392
281702.2                0.121589      0.00421023     -0.000205943      0.00100458        -0.949402         0.28779      0.000192362     0.000346358
                     0.000296968      0.00114841        -0.238082        0.232582      0.000692389    -0.000135259         0.549487        0.757169
                       -0.949827         0.28791      0.000528474     0.000190048       -0.0989873       0.0711087      0.000611379    -0.000637487
                    -2.54303e-06     0.000449513         0.549357        0.757235      0.000714049    -0.000827637        -0.296938        0.153928
281702.3                0.121587      0.00420459     -0.000205907       0.0010046        -0.949395        0.287815      0.000192349     0.000346336
                     0.000296984      0.00114838        -0.238072        0.232588      0.000692387    -0.000135279         0.549511        0.757153
                        -0.94982        0.287936      0.000528488     0.000190017       -0.0989847        0.071108      0.000611365    -0.000637478
                    -2.53109e-06     0.000449522         0.549382        0.757218      0.000714035    -0.000827656        -0.296932        0.153935
281702.4                0.121585      0.00419895     -0.000205872      0.00100461        -0.949388         0.28784      0.000192336     0.000346315
                     0.000296999      0.00114835        -0.238063        0.232594      0.000692385    -0.000135299         0.549536        0.757136
                       -0.949812        0.287961      0.000528502     0.000189987       -0.0989822       0.0711073      0.000611352    -0.000637468
                    -2.51916e-06     0.000449531         0.549406        0.757202      0.000714021    -0.000827674        -0.296925        0.153943
281702.5                0.121583      0.00419331     -0.000205836      0.00100463         -0.94938        0.287865      0.000192323     0.000346293
                     0.000297014      0.00114832        -0.238053          0.2326      0.000692383    -0.000135319          0.54956        0.757119
                       -0.949805        0.287986      0.000528516     0.000189957       -0.0989797       0.0711066      0.000611339    -0.000637459
                    -2.50722e-06     0.000449539         0.549431        0.757185      0.000714007    -0.000827693        -0.296918        0.153951
281702.6                 0.12158      0.00418767       -0.0002058      0.00100464        -0.949373        0.287891      0.000192311     0.000346272
                      0.00029703      0.00114829        -0.238044        0.232607      0.000692381     -0.00013534         0.549585        0.757103
                       -0.949798        0.288012      0.000528529     0.000189926       -0.0989772       0.0711059      0.000611325     -0.00063745
                    -2.49528e-06     0.000449548         0.549455        0.757169      0.000713993    -0.000827712        -0.296911        0.153958
281702.7                0.121578      0.00418203     -0.000205764      0.00100466        -0.949365        0.287916      0.000192298      0.00034625
                     0.000297045      0.00114826        -0.238034        0.232613      0.000692379     -0.00013536         0.549609        0.757086
                        -0.94979        0.288037      0.000528543     0.000189896       -0.0989747       0.0711052      0.000611312     -0.00063744
                    -2.48333e-06     0.000449557         0.549479        0.757152      0.000713979     -0.00082773        -0.296904        0.153966
281702.8                0.121576      0.00417639     -0.000205728      0.00100467        -0.949358        0.287941      0.000192285     0.000346229
                      0.00029706      0.00114823        -0.238025        0.232619      0.000692377     -0.00013538         0.549633         0.75707
                       -0.949783        0.288062      0.000528557     0.000189865       -0.0989722       0.0711045      0.000611298    -0.000637431
                    -2.47138e-06     0.000449566         0.549504        0.757135      0.000713965    -0.000827749        -0.296897        0.153974
281702.9                0.121574      0.00417075     -0.000205693      0.00100469        -0.949351        0.287967      0.000192272     0.000346207
                     0.000297076       0.0011482        -0.238015        0.232625      0.000692375      -0.0001354         0.549658        0.757053
                       -0.949775        0.288088      0.000528571     0.000189835       -0.0989696       0.0711038      0.000611285    -0.000637421
                    -2.45944e-06     0.000449574         0.549528        0.757119      0.000713951    -0.000827767        -0.296891        0.153981
281703                  0.121571      0.00416511     -0.000205657       0.0010047        -0.949343        0.287992       0.00019226     0.000346186
                     0.000297091      0.00114817        -0.238005        0.232631      0.000692373     -0.00013542         0.549682        0.757036
                       -0.949768        0.288113      0.000528584     0.000189805       -0.0989671       0.0711031      0.000611271    -0.000637412
                    -2.44748e-06     0.000449583         0.549552        0.757102      0.000713937    -0.000827786        -0.296884        0.153989
281703.1                0.121569      0.00415947     -0.000205621      0.00100471        -0.949336        0.288017      0.000192247     0.000346164
                     0.000297107      0.00114814        -0.237996        0.232637      0.000692371     -0.00013544         0.549706         0.75702
                       -0.949761        0.288138      0.000528598     0.000189774       -0.0989646       0.0711025      0.000611258    -0.000637403
