! TOUCHSTONE file generated by CST MICROWAVE STUDIO
! Date and time: Wed Oct  8 07:06:20 2025
! Project name: Teste_Macro_Metasurface_Nanopilar.cst
! Parameters = {H=600; L_x=200; L_y=125; Lambda=1064; Max_L=200; Min_L=70; PathPara=1; Phi=0; Step_L=10; Theta=0; p=520; phaseX=180; phaseY=0}
! Header version: 2018
! Port assignment regex: !\s*Touchstone port\s*([0-9]+)\s*=\s*(CST MWS port|CST DS port)\s*([0-9]+|Zmin|Zmax)\s*\(\"(.*)\"\)(\s*mode\s*([0-9]+))?.*
! Touchstone port assignment:
! Touchstone port 1 = CST MWS port Zmax ("") mode 1
! Touchstone port 2 = CST MWS port Zmax ("") mode 2
! Touchstone port 3 = CST MWS port Zmin ("") mode 1
! Touchstone port 4 = CST MWS port Zmin ("") mode 2
! S-Parameters are not renormalized. Each port impedance will be approximated by the real part at minimum frequency. The values are described via the [Reference] keyword.
! Default impedance is overridden by [Reference]
[Version] 2.0
# GHz S RI R 376.73
[Number of Ports] 4
[Reference]
376.73 376.73 376.73 376.73 
[Number of Frequencies] 1001
[Network Data]
281700                 -0.144592      0.00874901      0.000394008     -0.00112573         -0.62708       -0.759231     -0.000832118     0.000617072
                     0.000455011     -0.00113595       0.00215244       0.0334356     -0.000280945      0.00110141        -0.983316       -0.147344
                       -0.626905       -0.759429     -0.000287886      0.00106036       -0.0379039        0.137594      0.000958798     -0.00100949
                    -0.000904309     0.000610225        -0.983416       -0.147593      0.000939338    -0.000949162       -0.0179447       0.0285344
281700.1               -0.144586      0.00875036      0.000393982     -0.00112578        -0.627105       -0.759212     -0.000832114     0.000617126
                     0.000454988       -0.001136       0.00215392       0.0334282      -0.00028091      0.00110144        -0.983321       -0.147314
                        -0.62693        -0.75941     -0.000287861      0.00106041       -0.0378955         0.13759      0.000958771     -0.00100954
                    -0.000904301     0.000610279        -0.983421       -0.147563      0.000939309    -0.000949219       -0.0179421       0.0285279
281700.2                -0.14458      0.00875172      0.000393956     -0.00112583        -0.627129       -0.759193      -0.00083211      0.00061718
                     0.000454965     -0.00113604        0.0021554       0.0334207     -0.000280875      0.00110148        -0.983326       -0.147284
                       -0.626954       -0.759391     -0.000287836      0.00106047        -0.037887        0.137586      0.000958744      -0.0010096
                    -0.000904293     0.000610333        -0.983426       -0.147533      0.000939281    -0.000949277       -0.0179395       0.0285213
281700.3               -0.144574      0.00875308      0.000393929     -0.00112588        -0.627154       -0.759174     -0.000832107     0.000617234
                     0.000454943     -0.00113608       0.00215688       0.0334132     -0.000280839      0.00110151        -0.983331       -0.147254
                       -0.626978       -0.759372      -0.00028781      0.00106052       -0.0378785        0.137582      0.000958717     -0.00100966
                    -0.000904285     0.000610387        -0.983431       -0.147503      0.000939253    -0.000949334       -0.0179369       0.0285148
281700.4               -0.144568      0.00875443      0.000393903     -0.00112592        -0.627178       -0.759155     -0.000832103     0.000617288
                      0.00045492     -0.00113612       0.00215836       0.0334058     -0.000280804      0.00110154        -0.983335       -0.147224
                       -0.627003       -0.759353     -0.000287785      0.00106057       -0.0378701        0.137578       0.00095869     -0.00100971
                    -0.000904277     0.000610441        -0.983436       -0.147473      0.000939224    -0.000949392       -0.0179344       0.0285082
281700.5               -0.144563      0.00875579      0.000393877     -0.00112597        -0.627202       -0.759136     -0.000832099     0.000617342
                     0.000454897     -0.00113616       0.00215983       0.0333983     -0.000280769      0.00110157         -0.98334       -0.147194
                       -0.627027       -0.759333     -0.000287759      0.00106062       -0.0378616        0.137574      0.000958663     -0.00100977
                    -0.000904269     0.000610495        -0.983441       -0.147443      0.000939196    -0.000949449       -0.0179318       0.0285017
281700.6               -0.144557      0.00875714       0.00039385     -0.00112602        -0.627227       -0.759117     -0.000832095     0.000617396
                     0.000454875      -0.0011362       0.00216131       0.0333909     -0.000280734      0.00110161        -0.983345       -0.147163
                       -0.627052       -0.759314     -0.000287734      0.00106068       -0.0378531         0.13757      0.000958635     -0.00100983
                    -0.000904261     0.000610549        -0.983446       -0.147413      0.000939168    -0.000949506       -0.0179292       0.0284951
281700.7               -0.144551      0.00875849      0.000393824     -0.00112607        -0.627251       -0.759098     -0.000832091      0.00061745
                     0.000454852     -0.00113625       0.00216279       0.0333834     -0.000280699      0.00110164         -0.98335       -0.147133
                       -0.627076       -0.759295     -0.000287709      0.00106073       -0.0378447        0.137567      0.000958608     -0.00100988
                    -0.000904252     0.000610603        -0.983451       -0.147383      0.000939139    -0.000949564       -0.0179266       0.0284886
281700.8               -0.144545      0.00875985      0.000393798     -0.00112612        -0.627276       -0.759078     -0.000832087     0.000617503
                     0.000454829     -0.00113629       0.00216427       0.0333759     -0.000280664      0.00110167        -0.983354       -0.147103
                         -0.6271       -0.759276     -0.000287683      0.00106078       -0.0378362        0.137563      0.000958581     -0.00100994
                    -0.000904244     0.000610657        -0.983456       -0.147353      0.000939111    -0.000949621        -0.017924       0.0284821
281700.9               -0.144539       0.0087612      0.000393771     -0.00112617          -0.6273       -0.759059     -0.000832083     0.000617557
                     0.000454806     -0.00113633       0.00216574       0.0333685     -0.000280628       0.0011017        -0.983359       -0.147073
                       -0.627125       -0.759257     -0.000287658      0.00106084       -0.0378277        0.137559      0.000958554        -0.00101
                    -0.000904236     0.000610711        -0.983461       -0.147323      0.000939083    -0.000949679       -0.0179215       0.0284755
281701                 -0.144533      0.00876255      0.000393745     -0.00112622        -0.627324        -0.75904     -0.000832079     0.000617611
                     0.000454784     -0.00113637       0.00216722        0.033361     -0.000280593      0.00110174        -0.983364       -0.147043
                       -0.627149       -0.759238     -0.000287632      0.00106089       -0.0378193        0.137555      0.000958527     -0.00101005
                    -0.000904228     0.000610765        -0.983465       -0.147293      0.000939054    -0.000949736       -0.0179189        0.028469
281701.1               -0.144527      0.00876391      0.000393718     -0.00112627        -0.627349       -0.759021     -0.000832075     0.000617665
                     0.000454761     -0.00113641       0.00216869       0.0333535     -0.000280558      0.00110177        -0.983369       -0.147013
                       -0.627174       -0.759219     -0.000287607      0.00106094       -0.0378108        0.137551        0.0009585     -0.00101011
                     -0.00090422     0.000610819         -0.98347       -0.147263      0.000939026    -0.000949793       -0.0179163       0.0284624
281701.2               -0.144521      0.00876526      0.000393692     -0.00112631        -0.627373       -0.759002     -0.000832071     0.000617719
                     0.000454738     -0.00113646       0.00217017       0.0333461     -0.000280523       0.0011018        -0.983373       -0.146983
                       -0.627198         -0.7592     -0.000287582        0.001061       -0.0378023        0.137547      0.000958473     -0.00101017
                    -0.000904212     0.000610873        -0.983475       -0.147233      0.000938997    -0.000949851       -0.0179137       0.0284559
281701.3               -0.144515      0.00876661      0.000393666     -0.00112636        -0.627398       -0.758983     -0.000832067     0.000617773
                     0.000454716      -0.0011365       0.00217164       0.0333386     -0.000280488      0.00110183        -0.983378       -0.146953
                       -0.627222       -0.759181     -0.000287556      0.00106105       -0.0377939        0.137543      0.000958446     -0.00101022
                    -0.000904204     0.000610928         -0.98348       -0.147203      0.000938969    -0.000949908       -0.0179112       0.0284493
281701.4               -0.144509      0.00876796      0.000393639     -0.00112641        -0.627422       -0.758964     -0.000832063     0.000617827
                     0.000454693     -0.00113654       0.00217311       0.0333312     -0.000280453      0.00110187        -0.983383       -0.146923
                       -0.627247       -0.759162     -0.000287531       0.0010611       -0.0377854        0.137539      0.000958419     -0.00101028
                    -0.000904196     0.000610982        -0.983485       -0.147173      0.000938941    -0.000949966       -0.0179086       0.0284428
281701.5               -0.144503      0.00876931      0.000393613     -0.00112646        -0.627447       -0.758945     -0.000832059      0.00061788
                      0.00045467     -0.00113658       0.00217459       0.0333237     -0.000280417       0.0011019        -0.983388       -0.146892
                       -0.627271       -0.759143     -0.000287505      0.00106115        -0.037777        0.137536      0.000958392     -0.00101034
                    -0.000904187     0.000611036         -0.98349       -0.147143      0.000938912    -0.000950023        -0.017906       0.0284363
281701.6               -0.144497      0.00877066      0.000393586     -0.00112651        -0.627471       -0.758926     -0.000832055     0.000617934
                     0.000454647     -0.00113662       0.00217606       0.0333162     -0.000280382      0.00110193        -0.983392       -0.146862
                       -0.627296       -0.759124      -0.00028748      0.00106121       -0.0377685        0.137532      0.000958365      -0.0010104
                    -0.000904179      0.00061109        -0.983495       -0.147113      0.000938884     -0.00095008       -0.0179034       0.0284297
281701.7               -0.144491      0.00877201       0.00039356     -0.00112656        -0.627495       -0.758907     -0.000832052     0.000617988
                     0.000454625     -0.00113667       0.00217753       0.0333088     -0.000280347      0.00110196        -0.983397       -0.146832
                        -0.62732       -0.759104     -0.000287455      0.00106126         -0.03776        0.137528      0.000958338     -0.00101045
                    -0.000904171     0.000611144          -0.9835       -0.147083      0.000938856    -0.000950138       -0.0179009       0.0284232
281701.8               -0.144485      0.00877336      0.000393533      -0.0011266         -0.62752       -0.758887     -0.000832048     0.000618042
                     0.000454602     -0.00113671         0.002179       0.0333013     -0.000280312        0.001102        -0.983402       -0.146802
                       -0.627344       -0.759085     -0.000287429      0.00106131       -0.0377516        0.137524      0.000958311     -0.00101051
                    -0.000904163     0.000611198        -0.983505       -0.147053      0.000938827    -0.000950195       -0.0178983       0.0284166
281701.9               -0.144479      0.00877471      0.000393507     -0.00112665        -0.627544       -0.758868     -0.000832044     0.000618096
                     0.000454579     -0.00113675       0.00218048       0.0332939     -0.000280277      0.00110203        -0.983407       -0.146772
                       -0.627369       -0.759066     -0.000287404      0.00106136       -0.0377431         0.13752      0.000958284     -0.00101057
                    -0.000904155     0.000611252        -0.983509       -0.147023      0.000938799    -0.000950253       -0.0178957       0.0284101
281702                 -0.144474      0.00877606       0.00039348      -0.0011267        -0.627569       -0.758849      -0.00083204      0.00061815
                     0.000454556     -0.00113679       0.00218195       0.0332864     -0.000280242      0.00110206        -0.983411       -0.146742
                       -0.627393       -0.759047     -0.000287379      0.00106142       -0.0377347        0.137516      0.000958257     -0.00101062
                    -0.000904147     0.000611306        -0.983514       -0.146993       0.00093877     -0.00095031       -0.0178931       0.0284035
281702.1               -0.144468      0.00877741      0.000393453     -0.00112675        -0.627593        -0.75883     -0.000832036     0.000618204
                     0.000454534     -0.00113683       0.00218342       0.0332789     -0.000280206      0.00110209        -0.983416       -0.146712
                       -0.627418       -0.759028     -0.000287353      0.00106147       -0.0377262        0.137512       0.00095823     -0.00101068
                    -0.000904138      0.00061136        -0.983519       -0.146963      0.000938742    -0.000950367       -0.0178906        0.028397
281702.2               -0.144462      0.00877875      0.000393427      -0.0011268        -0.627617       -0.758811     -0.000832032     0.000618257
                     0.000454511     -0.00113687       0.00218489       0.0332715     -0.000280171      0.00110213        -0.983421       -0.146682
                       -0.627442       -0.759009     -0.000287328      0.00106152       -0.0377177        0.137509      0.000958203     -0.00101074
                     -0.00090413     0.000611414        -0.983524       -0.146932      0.000938714    -0.000950425        -0.017888       0.0283904
281702.3               -0.144456       0.0087801        0.0003934     -0.00112684        -0.627642       -0.758792     -0.000832028     0.000618311
                     0.000454488     -0.00113692       0.00218636        0.033264     -0.000280136      0.00110216        -0.983426       -0.146652
                       -0.627466        -0.75899     -0.000287303      0.00106157       -0.0377093        0.137505      0.000958176     -0.00101079
                    -0.000904122     0.000611468        -0.983529       -0.146902      0.000938685    -0.000950482       -0.0178854       0.0283839
281702.4                -0.14445      0.00878145      0.000393374     -0.00112689        -0.627666       -0.758773     -0.000832024     0.000618365
                     0.000454465     -0.00113696       0.00218782       0.0332566     -0.000280101      0.00110219         -0.98343       -0.146622
                       -0.627491       -0.758971     -0.000287277      0.00106163       -0.0377008        0.137501      0.000958148     -0.00101085
                    -0.000904114     0.000611522        -0.983534       -0.146872      0.000938657     -0.00095054       -0.0178828       0.0283773
281702.5               -0.144444      0.00878279      0.000393347     -0.00112694        -0.627691       -0.758754      -0.00083202     0.000618419
                     0.000454443       -0.001137       0.00218929       0.0332491     -0.000280066      0.00110222        -0.983435       -0.146591
                       -0.627515       -0.758952     -0.000287252      0.00106168       -0.0376923        0.137497      0.000958121     -0.00101091
                    -0.000904106     0.000611576        -0.983539       -0.146842      0.000938629    -0.000950597       -0.0178803       0.0283708
281702.6               -0.144438      0.00878414       0.00039332     -0.00112699        -0.627715       -0.758735     -0.000832016     0.000618473
                      0.00045442     -0.00113704       0.00219076       0.0332417     -0.000280031      0.00110226         -0.98344       -0.146561
                       -0.627539       -0.758933     -0.000287227      0.00106173       -0.0376839        0.137493      0.000958094     -0.00101096
                    -0.000904097     0.000611631        -0.983544       -0.146812        0.0009386    -0.000950654       -0.0178777       0.0283643
281702.7               -0.144432      0.00878549      0.000393294     -0.00112704         -0.62774       -0.758715     -0.000832012     0.000618527
                     0.000454397     -0.00113708       0.00219223       0.0332342     -0.000279995      0.00110229        -0.983445       -0.146531
                       -0.627564       -0.758914     -0.000287201      0.00106178       -0.0376754        0.137489      0.000958067     -0.00101102
                    -0.000904089     0.000611685        -0.983548       -0.146782      0.000938572    -0.000950712       -0.0178751       0.0283577
281702.8               -0.144426      0.00878683      0.000393267     -0.00112708        -0.627764       -0.758696     -0.000832008     0.000618581
                     0.000454374     -0.00113713        0.0021937       0.0332267      -0.00027996      0.00110232        -0.983449       -0.146501
                       -0.627588       -0.758894     -0.000287176      0.00106184        -0.037667        0.137485       0.00095804     -0.00101108
                    -0.000904081     0.000611739        -0.983553       -0.146752      0.000938544    -0.000950769       -0.0178726       0.0283512
281702.9                -0.14442      0.00878818       0.00039324     -0.00112713        -0.627788       -0.758677     -0.000832004     0.000618634
                     0.000454352     -0.00113717       0.00219516       0.0332193     -0.000279925      0.00110235        -0.983454       -0.146471
                       -0.627613       -0.758875     -0.000287151      0.00106189       -0.0376585        0.137481      0.000958013     -0.00101113
                    -0.000904073     0.000611793        -0.983558       -0.146722      0.000938515    -0.000950827         -0.01787       0.0283446
281703                 -0.144414      0.00878952      0.000393214     -0.00112718        -0.627813       -0.758658        -0.000832     0.000618688
                     0.000454329     -0.00113721       0.00219663       0.0332118      -0.00027989      0.00110239        -0.983459       -0.146441
                       -0.627637       -0.758856     -0.000287125      0.00106194         -0.03765        0.137478      0.000957986     -0.00101119
                    -0.000904065     0.000611847        -0.983563       -0.146692      0.000938487    -0.000950884       -0.0178674       0.0283381
281703.1               -0.144408      0.00879086      0.000393187     -0.00112723        -0.627837       -0.758639     -0.000831996     0.000618742
                     0.000454306     -0.00113725       0.00219809       0.0332044     -0.000279855      0.00110242        -0.983464       -0.146411
                       -0.627661       -0.758837       -0.0002871      0.00106199       -0.0376416        0.137474      0.000957959     -0.00101125
