! TOUCHSTONE file generated by CST MICROWAVE STUDIO
! Date and time: Wed Oct  8 06:51:14 2025
! Project name: Teste_Macro_Metasurface_Nanopilar.cst
! Parameters = {H=600; L_x=75; L_y=85; Lambda=1064; Max_L=200; Min_L=70; PathPara=1; Phi=0; Step_L=10; Theta=0; p=520; phaseX=180; phaseY=0}
! Header version: 2018
! Port assignment regex: !\s*Touchstone port\s*([0-9]+)\s*=\s*(CST MWS port|CST DS port)\s*([0-9]+|Zmin|Zmax)\s*\(\"(.*)\"\)(\s*mode\s*([0-9]+))?.*
! Touchstone port assignment:
! Touchstone port 1 = CST MWS port Zmax ("") mode 1
! Touchstone port 2 = CST MWS port Zmax ("") mode 2
! Touchstone port 3 = CST MWS port Zmin ("") mode 1
! Touchstone port 4 = CST MWS port Zmin ("") mode 2
! S-Parameters are not renormalized. Each port impedance will be approximated by the real part at minimum frequency. The values are described via the [Reference] keyword.
! Default impedance is overridden by [Reference]
[Version] 2.0
# GHz S RI R 376.73
[Number of Ports] 4
[Reference]
376.73 376.73 376.73 376.73 
[Number of Frequencies] 1001
[Network Data]
281700                  0.119742       0.0256505      -0.00063886     5.53438e-05        -0.961986        0.242056     -4.04477e-05     7.25597e-05
                    -0.000432368     3.77217e-05         0.118981       0.0655255     -0.000118886     9.37492e-06        -0.978361        0.154553
                       -0.961987        0.241915      0.000221839     4.06899e-05       -0.0935012        0.079363     -4.61802e-05     2.89971e-05
                     0.000157296     5.50042e-05        -0.978338        0.154607      0.000272896    -0.000190475       -0.0931583       0.0990387
281700.1                 0.11974       0.0256447     -0.000638864     5.53598e-05         -0.96198        0.242082     -4.04458e-05     7.25638e-05
                    -0.000432396     3.77505e-05         0.118981       0.0655194     -0.000118897     9.39201e-06        -0.978358        0.154579
                       -0.961981        0.241941      0.000221847     4.06876e-05       -0.0934985       0.0793621     -4.61878e-05     2.90263e-05
                      0.00015732     5.49774e-05        -0.978334        0.154633      0.000272893    -0.000190492       -0.0931548       0.0990377
281700.2                0.119739       0.0256388     -0.000638868     5.53758e-05        -0.961974        0.242107     -4.04438e-05     7.25679e-05
                    -0.000432424     3.77792e-05         0.118981       0.0655133     -0.000118909     9.40911e-06        -0.978354        0.154605
                       -0.961975        0.241966      0.000221854     4.06852e-05       -0.0934957       0.0793611     -4.61955e-05     2.90555e-05
                     0.000157343     5.49507e-05         -0.97833        0.154659      0.000272891    -0.000190508       -0.0931513       0.0990368
281700.3                0.119737       0.0256329     -0.000638873     5.53918e-05        -0.961968        0.242133     -4.04419e-05      7.2572e-05
                    -0.000432452     3.78079e-05         0.118981       0.0655072      -0.00011892      9.4262e-06         -0.97835        0.154631
                       -0.961969        0.241992      0.000221861     4.06829e-05        -0.093493       0.0793602     -4.62031e-05     2.90847e-05
                     0.000157367     5.49239e-05        -0.978327        0.154685      0.000272888    -0.000190525       -0.0931478       0.0990359
281700.4                0.119736        0.025627     -0.000638877     5.54078e-05        -0.961962        0.242158     -4.04399e-05      7.2576e-05
                     -0.00043248     3.78366e-05         0.118981       0.0655012     -0.000118931     9.44331e-06        -0.978347        0.154656
                       -0.961963        0.242017      0.000221869     4.06805e-05       -0.0934902       0.0793593     -4.62107e-05     2.91139e-05
                      0.00015739     5.48971e-05        -0.978323        0.154711      0.000272885    -0.000190542       -0.0931443        0.099035
281700.5                0.119734       0.0256212     -0.000638881     5.54237e-05        -0.961956        0.242184     -4.04379e-05     7.25801e-05
                    -0.000432508     3.78654e-05         0.118981       0.0654951     -0.000118943     9.46041e-06        -0.978343        0.154682
                       -0.961957        0.242043      0.000221876     4.06781e-05       -0.0934875       0.0793584     -4.62183e-05     2.91431e-05
                     0.000157414     5.48703e-05        -0.978319        0.154737      0.000272882    -0.000190559       -0.0931408       0.0990341
281700.6                0.119733       0.0256153     -0.000638885     5.54397e-05         -0.96195         0.24221      -4.0436e-05     7.25842e-05
                    -0.000432536     3.78941e-05          0.11898        0.065489     -0.000118954     9.47753e-06        -0.978339        0.154708
                       -0.961951        0.242069      0.000221883     4.06758e-05       -0.0934848       0.0793575      -4.6226e-05     2.91723e-05
                     0.000157437     5.48435e-05        -0.978316        0.154763      0.000272879    -0.000190576       -0.0931373       0.0990332
281700.7                0.119731       0.0256094      -0.00063889     5.54557e-05        -0.961944        0.242235      -4.0434e-05     7.25883e-05
                    -0.000432564     3.79229e-05          0.11898       0.0654829     -0.000118965     9.49464e-06        -0.978336        0.154734
                       -0.961945        0.242094      0.000221891     4.06734e-05        -0.093482       0.0793566     -4.62336e-05     2.92015e-05
                     0.000157461     5.48167e-05        -0.978312        0.154789      0.000272877    -0.000190592       -0.0931338       0.0990323
281700.8                 0.11973       0.0256036     -0.000638894     5.54717e-05        -0.961938        0.242261      -4.0432e-05     7.25924e-05
                    -0.000432593     3.79516e-05          0.11898       0.0654768     -0.000118977     9.51176e-06        -0.978332         0.15476
                       -0.961938         0.24212      0.000221898      4.0671e-05       -0.0934793       0.0793556     -4.62412e-05     2.92308e-05
                     0.000157484     5.47899e-05        -0.978308        0.154814      0.000272874    -0.000190609       -0.0931303       0.0990314
281700.9                0.119728       0.0255977     -0.000638898     5.54877e-05        -0.961931        0.242286       -4.043e-05     7.25964e-05
                    -0.000432621     3.79804e-05          0.11898       0.0654708     -0.000118988     9.52889e-06        -0.978328        0.154786
                       -0.961932        0.242146      0.000221906     4.06687e-05       -0.0934765       0.0793547     -4.62488e-05       2.926e-05
                     0.000157508     5.47631e-05        -0.978305         0.15484      0.000272871    -0.000190626       -0.0931268       0.0990305
281701                  0.119727       0.0255918     -0.000638902     5.55037e-05        -0.961925        0.242312     -4.04281e-05     7.26005e-05
                    -0.000432649     3.80092e-05          0.11898       0.0654647        -0.000119     9.54602e-06        -0.978325        0.154812
                       -0.961926        0.242171      0.000221913     4.06663e-05       -0.0934738       0.0793538     -4.62565e-05     2.92892e-05
                     0.000157531     5.47363e-05        -0.978301        0.154866      0.000272868    -0.000190643       -0.0931233       0.0990296
281701.1                0.119725       0.0255859     -0.000638907     5.55197e-05        -0.961919        0.242338     -4.04261e-05     7.26046e-05
                    -0.000432677      3.8038e-05          0.11898       0.0654586     -0.000119011     9.56315e-06        -0.978321        0.154838
                        -0.96192        0.242197       0.00022192      4.0664e-05       -0.0934711       0.0793529     -4.62641e-05     2.93184e-05
                     0.000157555     5.47094e-05        -0.978297        0.154892      0.000272865     -0.00019066       -0.0931198       0.0990287
281701.2                0.119724       0.0255801     -0.000638911     5.55357e-05        -0.961913        0.242363     -4.04241e-05     7.26087e-05
                    -0.000432705     3.80667e-05         0.118979       0.0654525     -0.000119022     9.58029e-06        -0.978317        0.154864
                       -0.961914        0.242222      0.000221928     4.06616e-05       -0.0934683        0.079352     -4.62717e-05     2.93476e-05
                     0.000157578     5.46826e-05        -0.978294        0.154918      0.000272863    -0.000190676       -0.0931163       0.0990277
281701.3                0.119722       0.0255742     -0.000638915     5.55516e-05        -0.961907        0.242389     -4.04221e-05     7.26128e-05
                    -0.000432733     3.80955e-05         0.118979       0.0654465     -0.000119034     9.59743e-06        -0.978314         0.15489
                       -0.961908        0.242248      0.000221935     4.06592e-05       -0.0934656       0.0793511     -4.62794e-05     2.93769e-05
                     0.000157602     5.46558e-05         -0.97829        0.154944       0.00027286    -0.000190693       -0.0931128       0.0990268
281701.4                0.119721       0.0255683     -0.000638919     5.55676e-05        -0.961901        0.242414     -4.04201e-05     7.26169e-05
                    -0.000432761     3.81243e-05         0.118979       0.0654404     -0.000119045     9.61458e-06         -0.97831        0.154916
                       -0.961902        0.242274      0.000221942     4.06569e-05       -0.0934628       0.0793501      -4.6287e-05     2.94061e-05
                     0.000157625     5.46289e-05        -0.978286         0.15497      0.000272857     -0.00019071       -0.0931093       0.0990259
281701.5                0.119719       0.0255625     -0.000638924     5.55836e-05        -0.961895         0.24244     -4.04181e-05     7.26209e-05
                    -0.000432789     3.81531e-05         0.118979       0.0654343     -0.000119056     9.63173e-06        -0.978306        0.154942
                       -0.961896        0.242299       0.00022195     4.06545e-05       -0.0934601       0.0793492     -4.62946e-05     2.94353e-05
                     0.000157649     5.46021e-05        -0.978283        0.154996      0.000272854    -0.000190727       -0.0931058        0.099025
281701.6                0.119718       0.0255566     -0.000638928     5.55996e-05        -0.961889        0.242466     -4.04161e-05      7.2625e-05
                    -0.000432817     3.81819e-05         0.118979       0.0654282     -0.000119068     9.64889e-06        -0.978303        0.154967
                       -0.961889        0.242325      0.000221957     4.06521e-05       -0.0934574       0.0793483     -4.63022e-05     2.94646e-05
                     0.000157672     5.45752e-05        -0.978279        0.155022      0.000272851    -0.000190744       -0.0931023       0.0990241
281701.7                0.119716       0.0255507     -0.000638932     5.56156e-05        -0.961883        0.242491     -4.04141e-05     7.26291e-05
                    -0.000432845     3.82108e-05         0.118979       0.0654222     -0.000119079     9.66605e-06        -0.978299        0.154993
                       -0.961883        0.242351      0.000221964     4.06498e-05       -0.0934546       0.0793474     -4.63099e-05     2.94938e-05
                     0.000157696     5.45484e-05        -0.978275        0.155048      0.000272849     -0.00019076       -0.0930988       0.0990232
281701.8                0.119715       0.0255448     -0.000638937     5.56316e-05        -0.961876        0.242517     -4.04121e-05     7.26332e-05
                    -0.000432873     3.82396e-05         0.118979       0.0654161      -0.00011909     9.68322e-06        -0.978295        0.155019
                       -0.961877        0.242376      0.000221972     4.06474e-05       -0.0934519       0.0793465     -4.63175e-05     2.95231e-05
                     0.000157719     5.45215e-05        -0.978272        0.155074      0.000272846    -0.000190777       -0.0930953       0.0990223
281701.9                0.119714        0.025539     -0.000638941     5.56476e-05         -0.96187        0.242542     -4.04101e-05     7.26373e-05
                    -0.000432901     3.82684e-05         0.118978         0.06541     -0.000119102     9.70039e-06        -0.978292        0.155045
                       -0.961871        0.242402      0.000221979      4.0645e-05       -0.0934491       0.0793456     -4.63251e-05     2.95523e-05
                     0.000157743     5.44946e-05        -0.978268          0.1551      0.000272843    -0.000190794       -0.0930918       0.0990214
281702                  0.119712       0.0255331     -0.000638945     5.56636e-05        -0.961864        0.242568     -4.04081e-05     7.26414e-05
                    -0.000432929     3.82973e-05         0.118978       0.0654039     -0.000119113     9.71756e-06        -0.978288        0.155071
                       -0.961865        0.242427      0.000221986     4.06426e-05       -0.0934464       0.0793446     -4.63327e-05     2.95815e-05
                     0.000157766     5.44677e-05        -0.978264        0.155126       0.00027284    -0.000190811       -0.0930883       0.0990205
281702.1                0.119711       0.0255272     -0.000638949     5.56796e-05        -0.961858        0.242594     -4.04061e-05     7.26454e-05
                    -0.000432957     3.83261e-05         0.118978       0.0653978     -0.000119124     9.73474e-06        -0.978284        0.155097
                       -0.961859        0.242453      0.000221994     4.06403e-05       -0.0934437       0.0793437     -4.63404e-05     2.96108e-05
                      0.00015779     5.44408e-05        -0.978261        0.155151      0.000272837    -0.000190828       -0.0930848       0.0990195
281702.2                0.119709       0.0255213     -0.000638954     5.56956e-05        -0.961852        0.242619     -4.04041e-05     7.26495e-05
                    -0.000432985     3.83549e-05         0.118978       0.0653918     -0.000119136     9.75192e-06        -0.978281        0.155123
                       -0.961853        0.242479      0.000222001     4.06379e-05       -0.0934409       0.0793428      -4.6348e-05     2.96401e-05
                     0.000157813      5.4414e-05        -0.978257        0.155177      0.000272835    -0.000190844       -0.0930813       0.0990186
281702.3                0.119708       0.0255155     -0.000638958     5.57116e-05        -0.961846        0.242645     -4.04021e-05     7.26536e-05
                    -0.000433013     3.83838e-05         0.118978       0.0653857     -0.000119147     9.76911e-06        -0.978277        0.155149
                       -0.961847        0.242504      0.000222008     4.06355e-05       -0.0934382       0.0793419     -4.63556e-05     2.96693e-05
                     0.000157836     5.43871e-05        -0.978253        0.155203      0.000272832    -0.000190861       -0.0930778       0.0990177
281702.4                0.119706       0.0255096     -0.000638962     5.57276e-05         -0.96184         0.24267     -4.04001e-05     7.26577e-05
                    -0.000433041     3.84127e-05         0.118978       0.0653796     -0.000119158     9.78631e-06        -0.978273        0.155175
                        -0.96184         0.24253      0.000222016     4.06332e-05       -0.0934355        0.079341     -4.63632e-05     2.96986e-05
                      0.00015786     5.43602e-05         -0.97825        0.155229      0.000272829    -0.000190878       -0.0930743       0.0990168
281702.5                0.119705       0.0255037     -0.000638966     5.57436e-05        -0.961834        0.242696     -4.03981e-05     7.26618e-05
                    -0.000433069     3.84415e-05         0.118977       0.0653735      -0.00011917      9.8035e-06         -0.97827        0.155201
                       -0.961834        0.242555      0.000222023     4.06308e-05       -0.0934327         0.07934     -4.63709e-05     2.97278e-05
                     0.000157883     5.43332e-05        -0.978246        0.155255      0.000272826    -0.000190895       -0.0930708       0.0990159
281702.6                0.119703       0.0254979      -0.00063897     5.57596e-05        -0.961828        0.242722     -4.03961e-05     7.26659e-05
                    -0.000433097     3.84704e-05         0.118977       0.0653675     -0.000119181      9.8207e-06        -0.978266        0.155227
                       -0.961828        0.242581       0.00022203     4.06284e-05         -0.09343       0.0793391     -4.63785e-05     2.97571e-05
                     0.000157907     5.43063e-05        -0.978242        0.155281      0.000272823    -0.000190912       -0.0930673        0.099015
281702.7                0.119702        0.025492     -0.000638975     5.57756e-05        -0.961821        0.242747     -4.03941e-05     7.26699e-05
                    -0.000433125     3.84993e-05         0.118977       0.0653614     -0.000119192     9.83791e-06        -0.978262        0.155253
                       -0.961822        0.242607      0.000222038      4.0626e-05       -0.0934272       0.0793382     -4.63861e-05     2.97864e-05
                      0.00015793     5.42794e-05        -0.978239        0.155307      0.000272821    -0.000190929       -0.0930638       0.0990141
281702.8                  0.1197       0.0254861     -0.000638979     5.57916e-05        -0.961815        0.242773      -4.0392e-05      7.2674e-05
                    -0.000433153     3.85282e-05         0.118977       0.0653553     -0.000119204     9.85512e-06        -0.978258        0.155278
                       -0.961816        0.242632      0.000222045     4.06237e-05       -0.0934245       0.0793373     -4.63937e-05     2.98156e-05
                     0.000157953     5.42525e-05        -0.978235        0.155333      0.000272818    -0.000190945       -0.0930603       0.0990132
281702.9                0.119699       0.0254803     -0.000638983     5.58076e-05        -0.961809        0.242798       -4.039e-05     7.26781e-05
                    -0.000433181     3.85571e-05         0.118977       0.0653492     -0.000119215     9.87234e-06        -0.978255        0.155304
                        -0.96181        0.242658      0.000222053     4.06213e-05       -0.0934218       0.0793364     -4.64014e-05     2.98449e-05
                     0.000157977     5.42256e-05        -0.978231        0.155359      0.000272815    -0.000190962       -0.0930568       0.0990123
281703                  0.119697       0.0254744     -0.000638987     5.58236e-05        -0.961803        0.242824      -4.0388e-05     7.26822e-05
                    -0.000433209      3.8586e-05         0.118977       0.0653432     -0.000119226     9.88956e-06        -0.978251         0.15533
                       -0.961804        0.242684       0.00022206     4.06189e-05        -0.093419       0.0793354      -4.6409e-05     2.98742e-05
                        0.000158     5.41986e-05        -0.978228        0.155385      0.000272812    -0.000190979       -0.0930533       0.0990113
281703.1                0.119696       0.0254685     -0.000638992     5.58396e-05        -0.961797         0.24285      -4.0386e-05     7.26863e-05
                    -0.000433237     3.86149e-05         0.118977       0.0653371     -0.000119238     9.90678e-06        -0.978247        0.155356
                       -0.961798        0.242709      0.000222067     4.06165e-05       -0.0934163       0.0793345     -4.64166e-05     2.99035e-05
