! TOUCHSTONE file generated by CST MICROWAVE STUDIO
! Date and time: Wed Oct  8 06:57:19 2025
! Project name: Teste_Macro_Metasurface_Nanopilar.cst
! Parameters = {H=600; L_x=125; L_y=115; Lambda=1064; Max_L=200; Min_L=70; PathPara=1; Phi=0; Step_L=10; Theta=0; p=520; phaseX=180; phaseY=0}
! Header version: 2018
! Port assignment regex: !\s*Touchstone port\s*([0-9]+)\s*=\s*(CST MWS port|CST DS port)\s*([0-9]+|Zmin|Zmax)\s*\(\"(.*)\"\)(\s*mode\s*([0-9]+))?.*
! Touchstone port assignment:
! Touchstone port 1 = CST MWS port Zmax ("") mode 1
! Touchstone port 2 = CST MWS port Zmax ("") mode 2
! Touchstone port 3 = CST MWS port Zmin ("") mode 1
! Touchstone port 4 = CST MWS port Zmin ("") mode 2
! S-Parameters are not renormalized. Each port impedance will be approximated by the real part at minimum frequency. The values are described via the [Reference] keyword.
! Default impedance is overridden by [Reference]
[Version] 2.0
# GHz S RI R 376.73
[Number of Ports] 4
[Reference]
376.73 376.73 376.73 376.73 
[Number of Frequencies] 1001
[Network Data]
281700                 0.0370956       0.0706668     -0.000607993    -0.000904675         0.982541       0.0915162     -0.000211825      -0.0010806
                    -0.000561426    -0.000916107        0.0108784       -0.145661      -0.00030281     -0.00111386         0.762738       -0.614534
                        0.982511       0.0917185     -0.000424759     -0.00107277       -0.0548709       0.0634065      8.87742e-06    -0.000984031
                    -0.000181405     -0.00106412          0.76301       -0.614864      0.000165712    -0.000978514        -0.148195      -0.0172506
281700.1               0.0370991       0.0706592     -0.000608025    -0.000904653         0.982545       0.0914813     -0.000211866      -0.0010806
                    -0.000561456     -0.00091609        0.0108697       -0.145664     -0.000302837     -0.00111385         0.762716        -0.61456
                        0.982515       0.0916836     -0.000424797     -0.00107276       -0.0548684        0.063402      8.83324e-06    -0.000984027
                    -0.000181443     -0.00106412         0.762988        -0.61489      0.000165684    -0.000978524        -0.148198      -0.0172498
281700.2               0.0371025       0.0706515     -0.000608056     -0.00090463         0.982548       0.0914465     -0.000211907     -0.00108059
                    -0.000561486    -0.000916074        0.0108611       -0.145667     -0.000302863     -0.00111385         0.762695       -0.614586
                        0.982519       0.0916488     -0.000424835     -0.00107275       -0.0548659       0.0633975      8.78906e-06    -0.000984023
                     -0.00018148     -0.00106411         0.762967       -0.614916      0.000165657    -0.000978533          -0.1482      -0.0172489
281700.3               0.0371059       0.0706438     -0.000608088    -0.000904608         0.982552       0.0914117     -0.000211949     -0.00108058
                    -0.000561516    -0.000916058        0.0108524        -0.14567      -0.00030289     -0.00111385         0.762673       -0.614612
                        0.982522        0.091614     -0.000424873     -0.00107274       -0.0548634        0.063393      8.74488e-06    -0.000984019
                    -0.000181518      -0.0010641         0.762946       -0.614942      0.000165629    -0.000978543        -0.148202       -0.017248
281700.4               0.0371093       0.0706361      -0.00060812    -0.000904586         0.982555       0.0913769      -0.00021199     -0.00108057
                    -0.000561546    -0.000916041        0.0108437       -0.145673     -0.000302916     -0.00111385         0.762652       -0.614638
                        0.982526       0.0915791      -0.00042491     -0.00107273       -0.0548608       0.0633885       8.7007e-06    -0.000984015
                    -0.000181556      -0.0010641         0.762924       -0.614968      0.000165602    -0.000978552        -0.148205      -0.0172471
281700.5               0.0371127       0.0706284     -0.000608151    -0.000904563         0.982559       0.0913421     -0.000212031     -0.00108056
                    -0.000561576    -0.000916025        0.0108351       -0.145676     -0.000302943     -0.00111384         0.762631       -0.614664
                         0.98253       0.0915443     -0.000424948     -0.00107271       -0.0548583        0.063384      8.65652e-06    -0.000984011
                    -0.000181594     -0.00106409         0.762903       -0.614994      0.000165574    -0.000978562        -0.148207      -0.0172463
281700.6               0.0371162       0.0706207     -0.000608183    -0.000904541         0.982563       0.0913073     -0.000212073     -0.00108055
                    -0.000561606    -0.000916009        0.0108264       -0.145679     -0.000302969     -0.00111384         0.762609        -0.61469
                        0.982533       0.0915095     -0.000424986      -0.0010727       -0.0548558       0.0633795      8.61235e-06    -0.000984007
                    -0.000181632     -0.00106408         0.762882        -0.61502      0.000165546    -0.000978572        -0.148209      -0.0172454
281700.7               0.0371196       0.0706131     -0.000608214    -0.000904518         0.982566       0.0912724     -0.000212114     -0.00108054
                    -0.000561636    -0.000915992        0.0108177       -0.145682     -0.000302996     -0.00111384         0.762588       -0.614716
                        0.982537       0.0914746     -0.000425024     -0.00107269       -0.0548533       0.0633749      8.56817e-06    -0.000984003
                    -0.000181669     -0.00106407          0.76286       -0.615046      0.000165519    -0.000978581        -0.148212      -0.0172445
281700.8                0.037123       0.0706054     -0.000608246    -0.000904496          0.98257       0.0912376     -0.000212155     -0.00108054
                    -0.000561667    -0.000915976        0.0108091       -0.145685     -0.000303022     -0.00111383         0.762567       -0.614742
                        0.982541       0.0914398     -0.000425062     -0.00107268       -0.0548508       0.0633704      8.52399e-06    -0.000983999
                    -0.000181707     -0.00106407         0.762839       -0.615072      0.000165491    -0.000978591        -0.148214      -0.0172436
281700.9               0.0371264       0.0705977     -0.000608277    -0.000904473         0.982574       0.0912028     -0.000212197     -0.00108053
                    -0.000561697    -0.000915959        0.0108004       -0.145688     -0.000303049     -0.00111383         0.762545       -0.614768
                        0.982544        0.091405     -0.000425099     -0.00107267       -0.0548482       0.0633659      8.47982e-06    -0.000983995
                    -0.000181745     -0.00106406         0.762818       -0.615098      0.000165463      -0.0009786        -0.148216      -0.0172427
281701                 0.0371298         0.07059     -0.000608309    -0.000904451         0.982577        0.091168     -0.000212238     -0.00108052
                    -0.000561727    -0.000915943        0.0107917       -0.145691     -0.000303075     -0.00111383         0.762524       -0.614794
                        0.982548       0.0913701     -0.000425137     -0.00107266       -0.0548457       0.0633614      8.43565e-06    -0.000983992
                    -0.000181783     -0.00106405         0.762796       -0.615124      0.000165436     -0.00097861        -0.148219      -0.0172419
281701.1               0.0371332       0.0705823     -0.000608341    -0.000904429         0.982581       0.0911332     -0.000212279     -0.00108051
                    -0.000561757    -0.000915927        0.0107831       -0.145695     -0.000303102     -0.00111383         0.762503        -0.61482
                        0.982551       0.0913353     -0.000425175     -0.00107265       -0.0548432       0.0633569      8.39147e-06    -0.000983988
                    -0.000181821     -0.00106405         0.762775        -0.61515      0.000165408     -0.00097862        -0.148221       -0.017241
281701.2               0.0371367       0.0705746     -0.000608372    -0.000904406         0.982584       0.0910983      -0.00021232      -0.0010805
                    -0.000561787     -0.00091591        0.0107744       -0.145698     -0.000303128     -0.00111382         0.762481       -0.614846
                        0.982555       0.0913005     -0.000425213     -0.00107264       -0.0548407       0.0633524       8.3473e-06    -0.000983984
                    -0.000181859     -0.00106404         0.762753       -0.615176      0.000165381    -0.000978629        -0.148224      -0.0172401
281701.3               0.0371401        0.070567     -0.000608404    -0.000904384         0.982588       0.0910635     -0.000212362     -0.00108049
                    -0.000561817    -0.000915894        0.0107657       -0.145701     -0.000303155     -0.00111382          0.76246       -0.614872
                        0.982559       0.0912656     -0.000425251     -0.00107263       -0.0548382       0.0633479      8.30313e-06     -0.00098398
                    -0.000181896     -0.00106403         0.762732       -0.615202      0.000165353    -0.000978639        -0.148226      -0.0172392
281701.4               0.0371435       0.0705593     -0.000608435    -0.000904361         0.982592       0.0910287     -0.000212403     -0.00108049
                    -0.000561847    -0.000915878         0.010757       -0.145704     -0.000303181     -0.00111382         0.762438       -0.614898
                        0.982562       0.0912308     -0.000425288     -0.00107262       -0.0548357       0.0633434      8.25896e-06    -0.000983976
                    -0.000181934     -0.00106402         0.762711       -0.615228      0.000165325    -0.000978648        -0.148228      -0.0172383
281701.5               0.0371469       0.0705516     -0.000608467    -0.000904339         0.982595       0.0909939     -0.000212444     -0.00108048
                    -0.000561877    -0.000915861        0.0107484       -0.145707     -0.000303207     -0.00111381         0.762417       -0.614924
                        0.982566        0.091196     -0.000425326     -0.00107261       -0.0548331       0.0633389      8.21479e-06    -0.000983972
                    -0.000181972     -0.00106402         0.762689       -0.615254      0.000165298    -0.000978658        -0.148231      -0.0172375
281701.6               0.0371503       0.0705439     -0.000608498    -0.000904316         0.982599       0.0909591     -0.000212486     -0.00108047
                    -0.000561907    -0.000915845        0.0107397        -0.14571     -0.000303234     -0.00111381         0.762396        -0.61495
                         0.98257       0.0911611     -0.000425364      -0.0010726       -0.0548306       0.0633343      8.17062e-06    -0.000983968
                     -0.00018201     -0.00106401         0.762668        -0.61528       0.00016527    -0.000978667        -0.148233      -0.0172366
281701.7               0.0371537       0.0705362      -0.00060853    -0.000904294         0.982603       0.0909242     -0.000212527     -0.00108046
                    -0.000561937    -0.000915829         0.010731       -0.145713      -0.00030326     -0.00111381         0.762374       -0.614976
                        0.982573       0.0911263     -0.000425402     -0.00107259       -0.0548281       0.0633298      8.12645e-06    -0.000983964
                    -0.000182048       -0.001064         0.762647       -0.615306      0.000165242    -0.000978677        -0.148235      -0.0172357
281701.8               0.0371571       0.0705285     -0.000608561    -0.000904272         0.982606       0.0908894     -0.000212568     -0.00108045
                    -0.000561967    -0.000915812        0.0107224       -0.145716     -0.000303287     -0.00111381         0.762353       -0.615002
                        0.982577       0.0910914      -0.00042544     -0.00107258       -0.0548256       0.0633253      8.08229e-06     -0.00098396
                    -0.000182085     -0.00106399         0.762625       -0.615332      0.000165215    -0.000978687        -0.148238      -0.0172348
281701.9               0.0371605       0.0705208     -0.000608593    -0.000904249          0.98261       0.0908546      -0.00021261     -0.00108044
                    -0.000561997    -0.000915796        0.0107137       -0.145719     -0.000303313      -0.0011138         0.762332       -0.615028
                        0.982581       0.0910566     -0.000425477     -0.00107257       -0.0548231       0.0633208      8.03812e-06    -0.000983956
                    -0.000182123     -0.00106399         0.762604       -0.615358      0.000165187    -0.000978696         -0.14824      -0.0172339
281702                  0.037164       0.0705132     -0.000608624    -0.000904227         0.982613       0.0908198     -0.000212651     -0.00108043
                    -0.000562027    -0.000915779         0.010705       -0.145722      -0.00030334      -0.0011138          0.76231       -0.615054
                        0.982584       0.0910218     -0.000425515     -0.00107256       -0.0548206       0.0633163      7.99395e-06    -0.000983952
                    -0.000182161     -0.00106398         0.762583       -0.615384       0.00016516    -0.000978706        -0.148242      -0.0172331
281702.1               0.0371674       0.0705055     -0.000608656    -0.000904204         0.982617        0.090785     -0.000212692     -0.00108043
                    -0.000562057    -0.000915763        0.0106964       -0.145725     -0.000303366      -0.0011138         0.762289        -0.61508
                        0.982588       0.0909869     -0.000425553     -0.00107255        -0.054818       0.0633118      7.94979e-06    -0.000983948
                    -0.000182199     -0.00106397         0.762561        -0.61541      0.000165132    -0.000978715        -0.148245      -0.0172322
281702.2               0.0371708       0.0704978     -0.000608687    -0.000904182         0.982621       0.0907501     -0.000212734     -0.00108042
                    -0.000562087    -0.000915747        0.0106877       -0.145728     -0.000303393     -0.00111379         0.762268       -0.615106
                        0.982591       0.0909521     -0.000425591     -0.00107254       -0.0548155       0.0633073      7.90563e-06    -0.000983944
                    -0.000182237     -0.00106397          0.76254       -0.615436      0.000165104    -0.000978725        -0.148247      -0.0172313
281702.3               0.0371742       0.0704901     -0.000608719     -0.00090416         0.982624       0.0907153     -0.000212775     -0.00108041
                    -0.000562117     -0.00091573         0.010679       -0.145731     -0.000303419     -0.00111379         0.762246       -0.615132
                        0.982595       0.0909173     -0.000425628     -0.00107252        -0.054813       0.0633028      7.86146e-06     -0.00098394
                    -0.000182275     -0.00106396         0.762518       -0.615462      0.000165077    -0.000978735         -0.14825      -0.0172304
281702.4               0.0371776       0.0704824      -0.00060875    -0.000904137         0.982628       0.0906805     -0.000212816      -0.0010804
                    -0.000562147    -0.000915714        0.0106703       -0.145734     -0.000303446     -0.00111379         0.762225       -0.615158
                        0.982599       0.0908824     -0.000425666     -0.00107251       -0.0548105       0.0632982       7.8173e-06    -0.000983936
                    -0.000182312     -0.00106395         0.762497       -0.615488      0.000165049    -0.000978744        -0.148252      -0.0172295
281702.5                0.037181       0.0704747     -0.000608782    -0.000904115         0.982631       0.0906457     -0.000212858     -0.00108039
                    -0.000562177    -0.000915698        0.0106617       -0.145737     -0.000303472     -0.00111379         0.762203       -0.615184
                        0.982602       0.0908476     -0.000425704      -0.0010725        -0.054808       0.0632937      7.77314e-06    -0.000983932
                     -0.00018235     -0.00106394         0.762476       -0.615514      0.000165021    -0.000978754        -0.148254      -0.0172287
281702.6               0.0371844        0.070467     -0.000608813    -0.000904092         0.982635       0.0906108     -0.000212899     -0.00108038
                    -0.000562208    -0.000915681         0.010653        -0.14574     -0.000303499     -0.00111378         0.762182        -0.61521
                        0.982606       0.0908128     -0.000425742     -0.00107249       -0.0548055       0.0632892      7.72898e-06    -0.000983928
                    -0.000182388     -0.00106394         0.762454        -0.61554      0.000164994    -0.000978763        -0.148257      -0.0172278
281702.7               0.0371878       0.0704593     -0.000608845     -0.00090407         0.982639        0.090576      -0.00021294     -0.00108038
                    -0.000562238    -0.000915665        0.0106443       -0.145743     -0.000303525     -0.00111378         0.762161       -0.615236
                         0.98261       0.0907779     -0.000425779     -0.00107248        -0.054803       0.0632847      7.68482e-06    -0.000983924
                    -0.000182426     -0.00106393         0.762433       -0.615566      0.000164966    -0.000978773        -0.148259      -0.0172269
281702.8               0.0371912       0.0704517     -0.000608876    -0.000904047         0.982642       0.0905412     -0.000212982     -0.00108037
                    -0.000562268    -0.000915648        0.0106356       -0.145746     -0.000303552     -0.00111378         0.762139       -0.615262
                        0.982613       0.0907431     -0.000425817     -0.00107247       -0.0548004       0.0632802      7.64066e-06     -0.00098392
                    -0.000182464     -0.00106392         0.762412       -0.615592      0.000164938    -0.000978782        -0.148261       -0.017226
281702.9               0.0371946        0.070444     -0.000608908    -0.000904025         0.982646       0.0905064     -0.000213023     -0.00108036
                    -0.000562298    -0.000915632         0.010627       -0.145749     -0.000303579     -0.00111377         0.762118       -0.615288
                        0.982617       0.0907082     -0.000425855     -0.00107246       -0.0547979       0.0632757       7.5965e-06    -0.000983916
                    -0.000182501     -0.00106391          0.76239       -0.615618      0.000164911    -0.000978792        -0.148264      -0.0172251
281703                  0.037198       0.0704363     -0.000608939    -0.000904003         0.982649       0.0904715     -0.000213064     -0.00108035
                    -0.000562328    -0.000915616        0.0106183       -0.145752     -0.000303605     -0.00111377         0.762097       -0.615314
                         0.98262       0.0906734     -0.000425893     -0.00107245       -0.0547954       0.0632712      7.55234e-06    -0.000983912
                    -0.000182539     -0.00106391         0.762369       -0.615644      0.000164883    -0.000978802        -0.148266      -0.0172242
281703.1               0.0372014       0.0704286     -0.000608971     -0.00090398         0.982653       0.0904367     -0.000213105     -0.00108034
                    -0.000562358    -0.000915599        0.0106096       -0.145755     -0.000303632     -0.00111377         0.762075        -0.61534
                        0.982624       0.0906386      -0.00042593     -0.00107244       -0.0547929       0.0632667      7.50819e-06    -0.000983908
