! TOUCHSTONE file generated by CST MICROWAVE STUDIO
! Date and time: Wed Oct  8 06:51:22 2025
! Project name: Teste_Macro_Metasurface_Nanopilar.cst
! Parameters = {H=600; L_x=75; L_y=115; Lambda=1064; Max_L=200; Min_L=70; PathPara=1; Phi=0; Step_L=10; Theta=0; p=520; phaseX=180; phaseY=0}
! Header version: 2018
! Port assignment regex: !\s*Touchstone port\s*([0-9]+)\s*=\s*(CST MWS port|CST DS port)\s*([0-9]+|Zmin|Zmax)\s*\(\"(.*)\"\)(\s*mode\s*([0-9]+))?.*
! Touchstone port assignment:
! Touchstone port 1 = CST MWS port Zmax ("") mode 1
! Touchstone port 2 = CST MWS port Zmax ("") mode 2
! Touchstone port 3 = CST MWS port Zmin ("") mode 1
! Touchstone port 4 = CST MWS port Zmin ("") mode 2
! S-Parameters are not renormalized. Each port impedance will be approximated by the real part at minimum frequency. The values are described via the [Reference] keyword.
! Default impedance is overridden by [Reference]
[Version] 2.0
# GHz S RI R 376.73
[Number of Ports] 4
[Reference]
376.73 376.73 376.73 376.73 
[Number of Frequencies] 1001
[Network Data]
281700                 -0.110789       -0.176941      0.000365123     0.000164911        -0.502312        0.836388      0.000140056    -0.000190802
                     0.000367234     0.000256852         0.123635       0.0100419     -0.000229125     6.63063e-05        -0.949848        0.285381
                       -0.502123        0.836362      -0.00021201     8.15599e-05        -0.208914      -0.0138592      0.000200923     0.000496222
                     0.000118918    -0.000272025        -0.949947        0.284809      8.47348e-05     0.000322419        -0.097861       0.0765266
281700.1               -0.110796       -0.176937      0.000365136     0.000164896        -0.502289        0.836402      0.000140047     -0.00019081
                     0.000367242     0.000256849         0.123633       0.0100362     -0.000229125     6.63123e-05         -0.94984        0.285406
                       -0.502099        0.836376     -0.000212016     8.15735e-05        -0.208915      -0.0138554      0.000200943     0.000496231
                     0.000118908    -0.000272032        -0.949939        0.284835      8.47389e-05     0.000322417       -0.0978585       0.0765259
281700.2               -0.110803       -0.176934       0.00036515     0.000164881        -0.502265        0.836416      0.000140039    -0.000190819
                      0.00036725     0.000256847         0.123631       0.0100305     -0.000229126     6.63182e-05        -0.949833        0.285432
                       -0.502076         0.83639     -0.000212023      8.1587e-05        -0.208916      -0.0138516      0.000200963      0.00049624
                     0.000118899     -0.00027204        -0.949932         0.28486       8.4743e-05     0.000322415       -0.0978559       0.0765252
281700.3                -0.11081        -0.17693      0.000365163     0.000164866        -0.502242         0.83643       0.00014003    -0.000190827
                     0.000367258     0.000256844         0.123629       0.0100247     -0.000229127     6.63242e-05        -0.949826        0.285457
                       -0.502052        0.836404      -0.00021203     8.16005e-05        -0.208917      -0.0138478      0.000200983     0.000496249
                     0.000118889    -0.000272048        -0.949925        0.284885      8.47471e-05     0.000322413       -0.0978533       0.0765245
281700.4               -0.110817       -0.176927      0.000365176      0.00016485        -0.502218        0.836444      0.000140022    -0.000190835
                     0.000367266     0.000256842         0.123627        0.010019     -0.000229127     6.63302e-05        -0.949819        0.285482
                       -0.502029        0.836418     -0.000212037      8.1614e-05        -0.208918      -0.0138441      0.000201003     0.000496258
                     0.000118879    -0.000272056        -0.949918        0.284911      8.47513e-05     0.000322412       -0.0978507       0.0765238
281700.5               -0.110824       -0.176924       0.00036519     0.000164835        -0.502195        0.836457      0.000140013    -0.000190844
                     0.000367274     0.000256839         0.123625       0.0100133     -0.000229128     6.63361e-05        -0.949811        0.285508
                       -0.502005        0.836432     -0.000212044     8.16276e-05        -0.208919      -0.0138403      0.000201023     0.000496266
                     0.000118869    -0.000272064         -0.94991        0.284936      8.47554e-05      0.00032241       -0.0978481       0.0765231
281700.6               -0.110831        -0.17692      0.000365203      0.00016482        -0.502171        0.836471      0.000140005    -0.000190852
                     0.000367282     0.000256836         0.123623       0.0100075     -0.000229128     6.63421e-05        -0.949804        0.285533
                       -0.501982        0.836446     -0.000212051     8.16411e-05         -0.20892      -0.0138365      0.000201043     0.000496275
                     0.000118859    -0.000272072        -0.949903        0.284961      8.47595e-05     0.000322408       -0.0978455       0.0765224
281700.7               -0.110838       -0.176917      0.000365217     0.000164805        -0.502148        0.836485      0.000139996     -0.00019086
                      0.00036729     0.000256834         0.123621       0.0100018     -0.000229129     6.63481e-05        -0.949797        0.285558
                       -0.501958         0.83646     -0.000212058     8.16546e-05        -0.208921      -0.0138328      0.000201064     0.000496284
                      0.00011885     -0.00027208        -0.949896        0.284987      8.47636e-05     0.000322407       -0.0978429       0.0765217
281700.8               -0.110845       -0.176913       0.00036523     0.000164789        -0.502124        0.836499      0.000139988    -0.000190869
                     0.000367298     0.000256831         0.123619      0.00999607      -0.00022913      6.6354e-05         -0.94979        0.285584
                       -0.501935        0.836473     -0.000212065     8.16682e-05        -0.208923       -0.013829      0.000201084     0.000496293
                      0.00011884    -0.000272087        -0.949888        0.285012      8.47678e-05     0.000322405       -0.0978403        0.076521
281700.9               -0.110852        -0.17691      0.000365243     0.000164774        -0.502101        0.836513      0.000139979    -0.000190877
                     0.000367306     0.000256829         0.123617      0.00999034      -0.00022913       6.636e-05        -0.949782        0.285609
                       -0.501911        0.836487     -0.000212072     8.16817e-05        -0.208924      -0.0138252      0.000201104     0.000496302
                      0.00011883    -0.000272095        -0.949881        0.285037      8.47719e-05     0.000322403       -0.0978377       0.0765203
281701                  -0.11086       -0.176906      0.000365257     0.000164759        -0.502077        0.836527      0.000139971    -0.000190885
                     0.000367314     0.000256826         0.123615       0.0099846     -0.000229131      6.6366e-05        -0.949775        0.285634
                       -0.501888        0.836501     -0.000212079     8.16952e-05        -0.208925      -0.0138215      0.000201124     0.000496311
                      0.00011882    -0.000272103        -0.949874        0.285063       8.4776e-05     0.000322402       -0.0978352       0.0765196
281701.1               -0.110867       -0.176903       0.00036527     0.000164744        -0.502054        0.836541      0.000139962    -0.000190894
                     0.000367322     0.000256824         0.123613      0.00997887     -0.000229132      6.6372e-05        -0.949768         0.28566
                       -0.501864        0.836515     -0.000212086     8.17088e-05        -0.208926      -0.0138177      0.000201144     0.000496319
                      0.00011881    -0.000272111        -0.949867        0.285088      8.47802e-05       0.0003224       -0.0978326       0.0765189
281701.2               -0.110874       -0.176899      0.000365283     0.000164728         -0.50203        0.836555      0.000139954    -0.000190902
                      0.00036733     0.000256821         0.123611      0.00997313     -0.000229132     6.63779e-05        -0.949761        0.285685
                       -0.501841        0.836529     -0.000212093     8.17223e-05        -0.208927      -0.0138139      0.000201164     0.000496328
                     0.000118801    -0.000272119        -0.949859        0.285114      8.47843e-05     0.000322398         -0.09783       0.0765182
281701.3               -0.110881       -0.176896      0.000365297     0.000164713        -0.502007        0.836569      0.000139945     -0.00019091
                     0.000367338     0.000256819         0.123609       0.0099674     -0.000229133     6.63839e-05        -0.949753         0.28571
                       -0.501817        0.836543       -0.0002121     8.17358e-05        -0.208928      -0.0138102      0.000201184     0.000496337
                     0.000118791    -0.000272127        -0.949852        0.285139      8.47884e-05     0.000322396       -0.0978274       0.0765175
281701.4               -0.110888       -0.176893       0.00036531     0.000164698        -0.501983        0.836582      0.000139937    -0.000190919
                     0.000367346     0.000256816         0.123607      0.00996167     -0.000229134     6.63899e-05        -0.949746        0.285736
                       -0.501794        0.836557     -0.000212106     8.17494e-05        -0.208929      -0.0138064      0.000201205     0.000496346
                     0.000118781    -0.000272135        -0.949845        0.285164      8.47925e-05     0.000322395       -0.0978248       0.0765168
281701.5               -0.110895       -0.176889      0.000365324     0.000164683         -0.50196        0.836596      0.000139928    -0.000190927
                     0.000367354     0.000256814         0.123605      0.00995593     -0.000229134     6.63959e-05        -0.949739        0.285761
                        -0.50177        0.836571     -0.000212113     8.17629e-05         -0.20893      -0.0138026      0.000201225     0.000496355
                     0.000118771    -0.000272142        -0.949837         0.28519      8.47967e-05     0.000322393       -0.0978222       0.0765161
281701.6               -0.110902       -0.176886      0.000365337     0.000164667        -0.501936         0.83661       0.00013992    -0.000190935
                     0.000367362     0.000256811         0.123603       0.0099502     -0.000229135     6.64018e-05        -0.949732        0.285786
                       -0.501747        0.836584      -0.00021212     8.17764e-05        -0.208931      -0.0137989      0.000201245     0.000496364
                     0.000118761     -0.00027215         -0.94983        0.285215      8.48008e-05     0.000322391       -0.0978196       0.0765154
281701.7               -0.110909       -0.176882       0.00036535     0.000164652        -0.501913        0.836624      0.000139911    -0.000190944
                      0.00036737     0.000256809         0.123601      0.00994447     -0.000229135     6.64078e-05        -0.949724        0.285812
                       -0.501723        0.836598     -0.000212127       8.179e-05        -0.208932      -0.0137951      0.000201265     0.000496372
                     0.000118752    -0.000272158        -0.949823         0.28524      8.48049e-05      0.00032239        -0.097817       0.0765147
281701.8               -0.110916       -0.176879      0.000365364     0.000164637        -0.501889        0.836638      0.000139903    -0.000190952
                     0.000367378     0.000256806         0.123599      0.00993874     -0.000229136     6.64138e-05        -0.949717        0.285837
                         -0.5017        0.836612     -0.000212134     8.18035e-05        -0.208933      -0.0137913      0.000201285     0.000496381
                     0.000118742    -0.000272166        -0.949815        0.285266      8.48091e-05     0.000322388       -0.0978145        0.076514
281701.9               -0.110923       -0.176875      0.000365377     0.000164622        -0.501866        0.836652      0.000139894     -0.00019096
                     0.000367386     0.000256804         0.123597        0.009933     -0.000229137     6.64198e-05         -0.94971        0.285862
                       -0.501676        0.836626     -0.000212141     8.18171e-05        -0.208934      -0.0137876      0.000201305      0.00049639
                     0.000118732    -0.000272174        -0.949808        0.285291      8.48132e-05     0.000322386       -0.0978119       0.0765133
281702                 -0.110931       -0.176872       0.00036539     0.000164607        -0.501842        0.836666      0.000139886    -0.000190968
                     0.000367394     0.000256801         0.123595      0.00992727     -0.000229137     6.64257e-05        -0.949703        0.285888
                       -0.501653         0.83664     -0.000212148     8.18306e-05        -0.208936      -0.0137838      0.000201325     0.000496399
                     0.000118722    -0.000272182        -0.949801        0.285316      8.48173e-05     0.000322385       -0.0978093       0.0765125
281702.1               -0.110938       -0.176868      0.000365404     0.000164591        -0.501819         0.83668      0.000139877    -0.000190977
                     0.000367402     0.000256799         0.123593      0.00992154     -0.000229138     6.64317e-05        -0.949695        0.285913
                       -0.501629        0.836654     -0.000212155     8.18441e-05        -0.208937        -0.01378      0.000201346     0.000496408
                     0.000118713     -0.00027219        -0.949794        0.285342      8.48215e-05     0.000322383       -0.0978067       0.0765118
281702.2               -0.110945       -0.176865      0.000365417     0.000164576        -0.501795        0.836693      0.000139869    -0.000190985
                      0.00036741     0.000256796         0.123591      0.00991581     -0.000229139     6.64377e-05        -0.949688        0.285938
                       -0.501606        0.836668     -0.000212162     8.18577e-05        -0.208938      -0.0137763      0.000201366     0.000496416
                     0.000118703    -0.000272197        -0.949786        0.285367      8.48256e-05     0.000322381       -0.0978041       0.0765111
281702.3               -0.110952       -0.176862      0.000365431     0.000164561        -0.501772        0.836707       0.00013986    -0.000190993
                     0.000367418     0.000256794         0.123589      0.00991007     -0.000229139     6.64437e-05        -0.949681        0.285964
                       -0.501582        0.836681     -0.000212169     8.18712e-05        -0.208939      -0.0137725      0.000201386     0.000496425
                     0.000118693    -0.000272205        -0.949779        0.285392      8.48297e-05     0.000322379       -0.0978015       0.0765104
281702.4               -0.110959       -0.176858      0.000365444     0.000164546        -0.501748        0.836721      0.000139852    -0.000191002
                     0.000367426     0.000256791         0.123587      0.00990434      -0.00022914     6.64496e-05        -0.949674        0.285989
                       -0.501559        0.836695     -0.000212176     8.18848e-05         -0.20894      -0.0137687      0.000201406     0.000496434
                     0.000118683    -0.000272213        -0.949772        0.285418      8.48339e-05     0.000322378       -0.0977989       0.0765097
281702.5               -0.110966       -0.176855      0.000365457      0.00016453        -0.501725        0.836735      0.000139843     -0.00019101
                     0.000367434     0.000256789         0.123585      0.00989861     -0.000229141     6.64556e-05        -0.949666        0.286014
                       -0.501535        0.836709     -0.000212183     8.18983e-05        -0.208941       -0.013765      0.000201426     0.000496443
                     0.000118673    -0.000272221        -0.949764        0.285443       8.4838e-05     0.000322376       -0.0977963        0.076509
281702.6               -0.110973       -0.176851      0.000365471     0.000164515        -0.501701        0.836749      0.000139835    -0.000191018
                     0.000367442     0.000256786         0.123583      0.00989288     -0.000229141     6.64616e-05        -0.949659         0.28604
                       -0.501512        0.836723     -0.000212189     8.19119e-05        -0.208942      -0.0137612      0.000201446     0.000496452
                     0.000118664    -0.000272229        -0.949757        0.285468      8.48422e-05     0.000322374       -0.0977938       0.0765083
281702.7                -0.11098       -0.176848      0.000365484       0.0001645        -0.501678        0.836763      0.000139826    -0.000191027
                     0.000367451     0.000256784         0.123581      0.00988715     -0.000229142     6.64676e-05        -0.949652        0.286065
                       -0.501488        0.836737     -0.000212196     8.19254e-05        -0.208943      -0.0137574      0.000201466      0.00049646
                     0.000118654    -0.000272237         -0.94975        0.285494      8.48463e-05     0.000322373       -0.0977912       0.0765076
281702.8               -0.110987       -0.176844      0.000365498     0.000164485        -0.501654        0.836777      0.000139818    -0.000191035
                     0.000367459     0.000256781         0.123578      0.00988142     -0.000229142     6.64736e-05        -0.949644         0.28609
                       -0.501465        0.836751     -0.000212203      8.1939e-05        -0.208944      -0.0137537      0.000201487     0.000496469
                     0.000118644    -0.000272244        -0.949743        0.285519      8.48504e-05     0.000322371       -0.0977886       0.0765069
281702.9               -0.110994       -0.176841      0.000365511     0.000164469        -0.501631        0.836791      0.000139809    -0.000191043
                     0.000367467     0.000256779         0.123576      0.00987568     -0.000229143     6.64795e-05        -0.949637        0.286116
                       -0.501441        0.836765      -0.00021221     8.19525e-05        -0.208945      -0.0137499      0.000201507     0.000496478
                     0.000118634    -0.000272252        -0.949735        0.285544      8.48546e-05     0.000322369        -0.097786       0.0765062
281703                 -0.111002       -0.176837      0.000365524     0.000164454        -0.501607        0.836804      0.000139801    -0.000191052
                     0.000367475     0.000256776         0.123574      0.00986995     -0.000229144     6.64855e-05         -0.94963        0.286141
                       -0.501418        0.836778     -0.000212217     8.19661e-05        -0.208946      -0.0137461      0.000201527     0.000496487
                     0.000118625     -0.00027226        -0.949728         0.28557      8.48587e-05     0.000322368       -0.0977834       0.0765055
281703.1               -0.111009       -0.176834      0.000365538     0.000164439        -0.501584        0.836818      0.000139792     -0.00019106
                     0.000367483     0.000256774         0.123572      0.00986422     -0.000229144     6.64915e-05        -0.949623        0.286166
                       -0.501394        0.836792     -0.000212224     8.19796e-05        -0.208947      -0.0137423      0.000201547     0.000496496
