! TOUCHSTONE file generated by CST MICROWAVE STUDIO
! Date and time: Wed Oct  8 06:57:14 2025
! Project name: Teste_Macro_Metasurface_Nanopilar.cst
! Parameters = {H=600; L_x=125; L_y=95; Lambda=1064; Max_L=200; Min_L=70; PathPara=1; Phi=0; Step_L=10; Theta=0; p=520; phaseX=180; phaseY=0}
! Header version: 2018
! Port assignment regex: !\s*Touchstone port\s*([0-9]+)\s*=\s*(CST MWS port|CST DS port)\s*([0-9]+|Zmin|Zmax)\s*\(\"(.*)\"\)(\s*mode\s*([0-9]+))?.*
! Touchstone port assignment:
! Touchstone port 1 = CST MWS port Zmax ("") mode 1
! Touchstone port 2 = CST MWS port Zmax ("") mode 2
! Touchstone port 3 = CST MWS port Zmin ("") mode 1
! Touchstone port 4 = CST MWS port Zmin ("") mode 2
! S-Parameters are not renormalized. Each port impedance will be approximated by the real part at minimum frequency. The values are described via the [Reference] keyword.
! Default impedance is overridden by [Reference]
[Version] 2.0
# GHz S RI R 376.73
[Number of Ports] 4
[Reference]
376.73 376.73 376.73 376.73 
[Number of Frequencies] 1001
[Network Data]
281700                -0.0767224       -0.176696      0.000155133     0.000467934        -0.490592        0.846736      0.000541968     -6.6257e-05
                     4.46782e-05     0.000606235       -0.0488789        0.207558      0.000559842    -0.000158349         0.858736        0.445718
                       -0.490648        0.846935      0.000641919    -0.000125199        -0.191809       0.0220022      9.68521e-05     -0.00019065
                     0.000412929     5.84822e-05         0.858747        0.445887      9.72475e-05    -0.000134966        -0.145841        0.158852
281700.1              -0.0767294       -0.176693      0.000155155     0.000467932        -0.490568         0.84675      0.000541971    -6.62691e-05
                     4.46715e-05     0.000606265       -0.0488692        0.207555      0.000559838    -0.000158365         0.858752        0.445689
                       -0.490624        0.846949      0.000641912     -0.00012522        -0.191808       0.0220054      9.68447e-05    -0.000190652
                     0.000412922     5.84975e-05         0.858763        0.445858      9.72449e-05    -0.000134964        -0.145833        0.158852
281700.2              -0.0767363        -0.17669      0.000155176     0.000467931        -0.490544        0.846764      0.000541973    -6.62813e-05
                     4.46647e-05     0.000606296       -0.0488595        0.207552      0.000559834    -0.000158381         0.858768         0.44566
                         -0.4906        0.846963      0.000641905    -0.000125241        -0.191808       0.0220087      9.68374e-05    -0.000190654
                     0.000412916     5.85128e-05          0.85878        0.445829      9.72424e-05    -0.000134962        -0.145826        0.158852
281700.3              -0.0767432       -0.176687      0.000155198     0.000467929         -0.49052        0.846778      0.000541975    -6.62935e-05
                      4.4658e-05     0.000606327       -0.0488497         0.20755      0.000559829    -0.000158397         0.858785        0.445631
                       -0.490576        0.846976      0.000641899    -0.000125262        -0.191807       0.0220119        9.683e-05    -0.000190656
                     0.000412909     5.85281e-05         0.858796          0.4458      9.72398e-05     -0.00013496        -0.145818        0.158853
281700.4              -0.0767502       -0.176684      0.000155219     0.000467928        -0.490496        0.846792      0.000541978    -6.63057e-05
                     4.46512e-05     0.000606357         -0.04884        0.207547      0.000559825    -0.000158413         0.858801        0.445602
                       -0.490552         0.84699      0.000641892    -0.000125283        -0.191807       0.0220151      9.68226e-05    -0.000190658
                     0.000412903     5.85434e-05         0.858812        0.445771      9.72373e-05    -0.000134958        -0.145811        0.158853
281700.5              -0.0767571       -0.176681      0.000155241     0.000467926        -0.490472        0.846805       0.00054198    -6.63179e-05
                     4.46445e-05     0.000606388       -0.0488303        0.207544      0.000559821    -0.000158429         0.858817        0.445573
                       -0.490529        0.847004      0.000641885    -0.000125304        -0.191806       0.0220183      9.68153e-05     -0.00019066
                     0.000412896     5.85588e-05         0.858828        0.445742      9.72347e-05    -0.000134956        -0.145803        0.158853
281700.6               -0.076764       -0.176678      0.000155262     0.000467925        -0.490449        0.846819      0.000541983    -6.63301e-05
                     4.46378e-05     0.000606419       -0.0488205        0.207541      0.000559816    -0.000158445         0.858833        0.445544
                       -0.490505        0.847018      0.000641878    -0.000125325        -0.191806       0.0220215      9.68079e-05    -0.000190662
                     0.000412889     5.85741e-05         0.858845        0.445713      9.72321e-05    -0.000134955        -0.145796        0.158854
281700.7               -0.076771       -0.176675      0.000155284     0.000467923        -0.490425        0.846833      0.000541985    -6.63423e-05
                      4.4631e-05     0.000606449       -0.0488108        0.207539      0.000559812    -0.000158461          0.85885        0.445515
                       -0.490481        0.847032      0.000641871    -0.000125346        -0.191805       0.0220247      9.68005e-05    -0.000190664
                     0.000412883     5.85894e-05         0.858861        0.445684      9.72296e-05    -0.000134953        -0.145788        0.158854
281700.8              -0.0767779       -0.176672      0.000155305     0.000467921        -0.490401        0.846847      0.000541987    -6.63545e-05
                     4.46243e-05      0.00060648       -0.0488011        0.207536      0.000559807    -0.000158477         0.858866        0.445486
                       -0.490457        0.847045      0.000641865    -0.000125367        -0.191805        0.022028      9.67932e-05    -0.000190666
                     0.000412876     5.86047e-05         0.858877        0.445655       9.7227e-05    -0.000134951         -0.14578        0.158854
281700.9              -0.0767848       -0.176669      0.000155327      0.00046792        -0.490377        0.846861       0.00054199    -6.63667e-05
                     4.46176e-05     0.000606511       -0.0487914        0.207533      0.000559803    -0.000158493         0.858882        0.445457
                       -0.490433        0.847059      0.000641858    -0.000125388        -0.191805       0.0220312      9.67858e-05    -0.000190668
                     0.000412869     5.86201e-05         0.858893        0.445626      9.72245e-05    -0.000134949        -0.145773        0.158854
281701                -0.0767918       -0.176666      0.000155348     0.000467918        -0.490353        0.846874      0.000541992    -6.63789e-05
                     4.46108e-05     0.000606541       -0.0487816         0.20753      0.000559799    -0.000158509         0.858898        0.445428
                       -0.490409        0.847073      0.000641851    -0.000125409        -0.191804       0.0220344      9.67784e-05     -0.00019067
                     0.000412863     5.86354e-05          0.85891        0.445597      9.72219e-05    -0.000134947        -0.145765        0.158855
281701.1              -0.0767987       -0.176662       0.00015537     0.000467917        -0.490329        0.846888      0.000541994     -6.6391e-05
                     4.46041e-05     0.000606572       -0.0487719        0.207528      0.000559794    -0.000158525         0.858915        0.445399
                       -0.490386        0.847087      0.000641844     -0.00012543        -0.191804       0.0220376      9.67711e-05    -0.000190672
                     0.000412856     5.86508e-05         0.858926        0.445568      9.72194e-05    -0.000134945        -0.145758        0.158855
281701.2              -0.0768056       -0.176659      0.000155391     0.000467915        -0.490306        0.846902      0.000541997    -6.64032e-05
                     4.45974e-05     0.000606603       -0.0487622        0.207525       0.00055979    -0.000158541         0.858931        0.445369
                       -0.490362        0.847101      0.000641837    -0.000125451        -0.191803       0.0220408      9.67637e-05    -0.000190674
                     0.000412849     5.86661e-05         0.858942        0.445539      9.72168e-05    -0.000134944         -0.14575        0.158855
281701.3              -0.0768126       -0.176656      0.000155413     0.000467913        -0.490282        0.846916      0.000541999    -6.64154e-05
                     4.45907e-05     0.000606633       -0.0487524        0.207522      0.000559786    -0.000158557         0.858947         0.44534
                       -0.490338        0.847114       0.00064183    -0.000125472        -0.191803        0.022044      9.67563e-05    -0.000190676
                     0.000412843     5.86814e-05         0.858958         0.44551      9.72143e-05    -0.000134942        -0.145743        0.158855
281701.4              -0.0768195       -0.176653      0.000155435     0.000467912        -0.490258         0.84693      0.000542001    -6.64276e-05
                     4.45839e-05     0.000606664       -0.0487427        0.207519      0.000559781    -0.000158573         0.858963        0.445311
                       -0.490314        0.847128      0.000641824    -0.000125493        -0.191802       0.0220472      9.67489e-05    -0.000190678
                     0.000412836     5.86968e-05         0.858975        0.445481      9.72117e-05     -0.00013494        -0.145735        0.158856
281701.5              -0.0768264        -0.17665      0.000155456      0.00046791        -0.490234        0.846943      0.000542004    -6.64398e-05
                     4.45772e-05     0.000606695        -0.048733        0.207516      0.000559777    -0.000158589          0.85898        0.445282
                        -0.49029        0.847142      0.000641817    -0.000125514        -0.191802       0.0220505      9.67416e-05     -0.00019068
                      0.00041283     5.87121e-05         0.858991        0.445452      9.72092e-05    -0.000134938        -0.145728        0.158856
281701.6              -0.0768334       -0.176647      0.000155478     0.000467909         -0.49021        0.846957      0.000542006     -6.6452e-05
                     4.45705e-05     0.000606725       -0.0487233        0.207514      0.000559773    -0.000158605         0.858996        0.445253
                       -0.490266        0.847156       0.00064181    -0.000125535        -0.191801       0.0220537      9.67342e-05    -0.000190682
                     0.000412823     5.87275e-05         0.859007        0.445423      9.72066e-05    -0.000134936         -0.14572        0.158856
281701.7              -0.0768403       -0.176644      0.000155499     0.000467907        -0.490186        0.846971      0.000542009    -6.64642e-05
                     4.45638e-05     0.000606756       -0.0487135        0.207511      0.000559768    -0.000158621         0.859012        0.445224
                       -0.490243         0.84717      0.000641803    -0.000125556        -0.191801       0.0220569      9.67268e-05    -0.000190683
                     0.000412816     5.87429e-05         0.859023        0.445394       9.7204e-05    -0.000134934        -0.145712        0.158857
281701.8              -0.0768472       -0.176641      0.000155521     0.000467905        -0.490163        0.846985      0.000542011    -6.64764e-05
                     4.45571e-05     0.000606787       -0.0487038        0.207508      0.000559764    -0.000158637         0.859028        0.445195
                       -0.490219        0.847183      0.000641796    -0.000125577          -0.1918       0.0220601      9.67194e-05    -0.000190685
                      0.00041281     5.87582e-05          0.85904        0.445365      9.72015e-05    -0.000134933        -0.145705        0.158857
281701.9              -0.0768542       -0.176638      0.000155542     0.000467904        -0.490139        0.846999      0.000542013    -6.64886e-05
                     4.45504e-05     0.000606818       -0.0486941        0.207505       0.00055976    -0.000158653         0.859044        0.445166
                       -0.490195        0.847197       0.00064179    -0.000125598          -0.1918       0.0220633       9.6712e-05    -0.000190687
                     0.000412803     5.87736e-05         0.859056        0.445336      9.71989e-05    -0.000134931        -0.145697        0.158857
281702                -0.0768611       -0.176635      0.000155564     0.000467902        -0.490115        0.847012      0.000542016    -6.65008e-05
                     4.45437e-05     0.000606848       -0.0486843        0.207503      0.000559755    -0.000158669         0.859061        0.445137
                       -0.490171        0.847211      0.000641783    -0.000125619          -0.1918       0.0220665      9.67047e-05    -0.000190689
                     0.000412797      5.8789e-05         0.859072        0.445307      9.71964e-05    -0.000134929         -0.14569        0.158857
281702.1               -0.076868       -0.176632      0.000155585     0.000467901        -0.490091        0.847026      0.000542018     -6.6513e-05
                      4.4537e-05     0.000606879       -0.0486746          0.2075      0.000559751    -0.000158685         0.859077        0.445108
                       -0.490147        0.847225      0.000641776     -0.00012564        -0.191799       0.0220697      9.66973e-05    -0.000190691
                      0.00041279     5.88043e-05         0.859088        0.445278      9.71938e-05    -0.000134927        -0.145682        0.158858
281702.2               -0.076875       -0.176628      0.000155607     0.000467899        -0.490067         0.84704       0.00054202    -6.65252e-05
                     4.45303e-05      0.00060691       -0.0486649        0.207497      0.000559747    -0.000158701         0.859093        0.445079
                       -0.490123        0.847239      0.000641769    -0.000125661        -0.191799        0.022073      9.66899e-05    -0.000190693
                     0.000412783     5.88197e-05         0.859104        0.445249      9.71913e-05    -0.000134925        -0.145675        0.158858
281702.3              -0.0768819       -0.176625      0.000155628     0.000467897        -0.490043        0.847054      0.000542023    -6.65374e-05
                     4.45236e-05      0.00060694       -0.0486552        0.207494      0.000559742    -0.000158717         0.859109         0.44505
                         -0.4901        0.847252      0.000641762    -0.000125682        -0.191798       0.0220762      9.66825e-05    -0.000190695
                     0.000412777     5.88351e-05         0.859121         0.44522      9.71887e-05    -0.000134923        -0.145667        0.158858
281702.4              -0.0768888       -0.176622       0.00015565     0.000467896         -0.49002        0.847067      0.000542025    -6.65496e-05
                     4.45169e-05     0.000606971       -0.0486454        0.207491      0.000559738    -0.000158733         0.859126        0.445021
                       -0.490076        0.847266      0.000641755    -0.000125703        -0.191798       0.0220794      9.66751e-05    -0.000190697
                      0.00041277     5.88505e-05         0.859137        0.445191      9.71862e-05    -0.000134922         -0.14566        0.158859
281702.5              -0.0768957       -0.176619      0.000155671     0.000467894        -0.489996        0.847081      0.000542027    -6.65618e-05
                     4.45102e-05     0.000607002       -0.0486357        0.207489      0.000559734    -0.000158749         0.859142        0.444992
                       -0.490052         0.84728      0.000641749    -0.000125724        -0.191797       0.0220826      9.66677e-05    -0.000190699
                     0.000412763     5.88658e-05         0.859153        0.445162      9.71836e-05     -0.00013492        -0.145652        0.158859
281702.6              -0.0769027       -0.176616      0.000155693     0.000467892        -0.489972        0.847095       0.00054203     -6.6574e-05
                     4.45035e-05     0.000607033        -0.048626        0.207486      0.000559729    -0.000158765         0.859158        0.444963
                       -0.490028        0.847294      0.000641742    -0.000125745        -0.191797       0.0220858      9.66603e-05    -0.000190701
                     0.000412757     5.88812e-05         0.859169        0.445132      9.71811e-05    -0.000134918        -0.145645        0.158859
281702.7              -0.0769096       -0.176613      0.000155714     0.000467891        -0.489948        0.847109      0.000542032    -6.65862e-05
                     4.44968e-05     0.000607063       -0.0486163        0.207483      0.000559725    -0.000158781         0.859174        0.444934
                       -0.490004        0.847308      0.000641735    -0.000125766        -0.191796        0.022089      9.66529e-05    -0.000190703
                      0.00041275     5.88966e-05         0.859186        0.445103      9.71785e-05    -0.000134916        -0.145637        0.158859
281702.8              -0.0769165        -0.17661      0.000155736     0.000467889        -0.489924        0.847123      0.000542034    -6.65984e-05
                     4.44901e-05     0.000607094       -0.0486065         0.20748      0.000559721    -0.000158797          0.85919        0.444905
                        -0.48998        0.847321      0.000641728    -0.000125787        -0.191796       0.0220922      9.66455e-05    -0.000190705
                     0.000412744      5.8912e-05         0.859202        0.445074       9.7176e-05    -0.000134914        -0.145629         0.15886
281702.9              -0.0769235       -0.176607      0.000155757     0.000467887          -0.4899        0.847136      0.000542037    -6.66106e-05
                     4.44834e-05     0.000607125       -0.0485968        0.207478      0.000559716    -0.000158813         0.859207        0.444876
                       -0.489956        0.847335      0.000641721    -0.000125808        -0.191795       0.0220955      9.66382e-05    -0.000190707
                     0.000412737     5.89274e-05         0.859218        0.445045      9.71734e-05    -0.000134912        -0.145622         0.15886
281703                -0.0769304       -0.176604      0.000155779     0.000467886        -0.489877         0.84715      0.000542039    -6.66228e-05
                     4.44767e-05     0.000607156       -0.0485871        0.207475      0.000559712    -0.000158829         0.859223        0.444847
                       -0.489933        0.847349      0.000641715    -0.000125829        -0.191795       0.0220987      9.66308e-05    -0.000190709
                     0.000412731     5.89428e-05         0.859234        0.445016      9.71709e-05    -0.000134911        -0.145614         0.15886
281703.1              -0.0769373       -0.176601        0.0001558     0.000467884        -0.489853        0.847164      0.000542041     -6.6635e-05
                       4.447e-05     0.000607186       -0.0485774        0.207472      0.000559708    -0.000158845         0.859239        0.444818
                       -0.489909        0.847363      0.000641708     -0.00012585        -0.191795       0.0221019      9.66234e-05    -0.000190711
