! TOUCHSTONE file generated by CST MICROWAVE STUDIO
! Date and time: Wed Oct  8 07:05:41 2025
! Project name: Teste_Macro_Metasurface_Nanopilar.cst
! Parameters = {H=600; L_x=195; L_y=115; Lambda=1064; Max_L=200; Min_L=70; PathPara=1; Phi=0; Step_L=10; Theta=0; p=520; phaseX=180; phaseY=0}
! Header version: 2018
! Port assignment regex: !\s*Touchstone port\s*([0-9]+)\s*=\s*(CST MWS port|CST DS port)\s*([0-9]+|Zmin|Zmax)\s*\(\"(.*)\"\)(\s*mode\s*([0-9]+))?.*
! Touchstone port assignment:
! Touchstone port 1 = CST MWS port Zmax ("") mode 1
! Touchstone port 2 = CST MWS port Zmax ("") mode 2
! Touchstone port 3 = CST MWS port Zmin ("") mode 1
! Touchstone port 4 = CST MWS port Zmin ("") mode 2
! S-Parameters are not renormalized. Each port impedance will be approximated by the real part at minimum frequency. The values are described via the [Reference] keyword.
! Default impedance is overridden by [Reference]
[Version] 2.0
# GHz S RI R 376.73
[Number of Ports] 4
[Reference]
376.73 376.73 376.73 376.73 
[Number of Frequencies] 1001
[Network Data]
281700                 -0.255217      -0.0547501     -0.000381529    -4.96704e-05       -0.0356581       -0.959414      0.000409876    -0.000391688
                    -0.000356593     0.000117709       -0.0448473        0.239298      0.000646613    -0.000173272        -0.855644       -0.442956
                      -0.0350698        -0.95884      0.000507856    -0.000241919        -0.250738       0.0730051      -0.00026478     0.000215372
                     0.000472801    -0.000153366        -0.855529       -0.442799      -0.00022125     0.000391419        -0.175641        0.168496
281700.1               -0.255218      -0.0547412     -0.000381543     -4.9661e-05       -0.0356872       -0.959413      0.000409868    -0.000391693
                    -0.000356602     0.000117717       -0.0448386        0.239293      0.000646622    -0.000173298        -0.855659        -0.44293
                       -0.035099       -0.958839      0.000507856    -0.000241939        -0.250735       0.0730115     -0.000264756      0.00021539
                     0.000472823    -0.000153373        -0.855544       -0.442773     -0.000221219     0.000391423        -0.175631        0.168496
281700.2               -0.255218      -0.0547324     -0.000381558    -4.96516e-05       -0.0357164       -0.959413      0.000409859    -0.000391697
                     -0.00035661     0.000117725       -0.0448298        0.239287      0.000646631    -0.000173325        -0.855674       -0.442904
                      -0.0351282       -0.958839      0.000507855    -0.000241959        -0.250731       0.0730179     -0.000264732     0.000215408
                     0.000472845    -0.000153381        -0.855559       -0.442748     -0.000221188     0.000391427        -0.175621        0.168497
281700.3               -0.255218      -0.0547235     -0.000381572    -4.96422e-05       -0.0357456       -0.959412      0.000409851    -0.000391702
                    -0.000356618     0.000117732       -0.0448211        0.239282      0.000646639    -0.000173351        -0.855689       -0.442879
                      -0.0351574       -0.958838      0.000507855     -0.00024198        -0.250728       0.0730242     -0.000264708     0.000215425
                     0.000472866    -0.000153388        -0.855574       -0.442722     -0.000221158      0.00039143        -0.175611        0.168497
281700.4               -0.255219      -0.0547146     -0.000381587    -4.96328e-05       -0.0357748       -0.959412      0.000409843    -0.000391707
                    -0.000356627      0.00011774       -0.0448123        0.239277      0.000646648    -0.000173377        -0.855705       -0.442853
                      -0.0351867       -0.958837      0.000507855       -0.000242        -0.250724       0.0730306     -0.000264684     0.000215443
                     0.000472888    -0.000153396        -0.855589       -0.442696     -0.000221127     0.000391434        -0.175602        0.168498
281700.5               -0.255219      -0.0547058     -0.000381602    -4.96234e-05        -0.035804       -0.959411      0.000409835    -0.000391711
                    -0.000356635     0.000117748       -0.0448036        0.239271      0.000646657    -0.000173404         -0.85572       -0.442827
                      -0.0352159       -0.958837      0.000507855    -0.000242021        -0.250721        0.073037      -0.00026466     0.000215461
                     0.000472909    -0.000153403        -0.855605       -0.442671     -0.000221097     0.000391438        -0.175592        0.168498
281700.6                -0.25522      -0.0546969     -0.000381616     -4.9614e-05       -0.0358331        -0.95941      0.000409827    -0.000391716
                    -0.000356643     0.000117756       -0.0447948        0.239266      0.000646665     -0.00017343        -0.855735       -0.442802
                      -0.0352451       -0.958836      0.000507854    -0.000242041        -0.250718       0.0730434     -0.000264636     0.000215478
                     0.000472931    -0.000153411         -0.85562       -0.442645     -0.000221066     0.000391442        -0.175582        0.168499
281700.7                -0.25522       -0.054688     -0.000381631    -4.96047e-05       -0.0358623        -0.95941      0.000409819     -0.00039172
                    -0.000356651     0.000117764       -0.0447861        0.239261      0.000646674    -0.000173456         -0.85575       -0.442776
                      -0.0352743       -0.958835      0.000507854    -0.000242062        -0.250714       0.0730497     -0.000264612     0.000215496
                     0.000472952    -0.000153418        -0.855635       -0.442619     -0.000221035     0.000391445        -0.175572          0.1685
281700.8                -0.25522      -0.0546791     -0.000381645    -4.95953e-05       -0.0358915       -0.959409      0.000409811    -0.000391725
                     -0.00035666     0.000117772       -0.0447773        0.239256      0.000646683    -0.000173483        -0.855766        -0.44275
                      -0.0353035       -0.958835      0.000507854    -0.000242082        -0.250711       0.0730561     -0.000264588     0.000215514
                     0.000472974    -0.000153426         -0.85565       -0.442594     -0.000221005     0.000391449        -0.175562          0.1685
281700.9               -0.255221      -0.0546703      -0.00038166    -4.95859e-05       -0.0359207       -0.959408      0.000409803     -0.00039173
                    -0.000356668     0.000117779       -0.0447686         0.23925      0.000646691    -0.000173509        -0.855781       -0.442725
                      -0.0353327       -0.958834      0.000507853    -0.000242102        -0.250707       0.0730625     -0.000264564     0.000215531
                     0.000472995    -0.000153433        -0.855666       -0.442568     -0.000220974     0.000391453        -0.175552        0.168501
281701                 -0.255221      -0.0546614     -0.000381674    -4.95765e-05       -0.0359499       -0.959408      0.000409795    -0.000391734
                    -0.000356676     0.000117787       -0.0447599        0.239245        0.0006467    -0.000173535        -0.855796       -0.442699
                      -0.0353619       -0.958833      0.000507853    -0.000242123        -0.250704       0.0730688      -0.00026454     0.000215549
                     0.000473017    -0.000153441        -0.855681       -0.442542     -0.000220943     0.000391457        -0.175542        0.168501
281701.1               -0.255222      -0.0546525     -0.000381689    -4.95671e-05       -0.0359791       -0.959407      0.000409787    -0.000391739
                    -0.000356685     0.000117795       -0.0447511         0.23924      0.000646709    -0.000173561        -0.855811       -0.442673
                      -0.0353911       -0.958833      0.000507853    -0.000242143        -0.250701       0.0730752     -0.000264515     0.000215567
                     0.000473038    -0.000153448        -0.855696       -0.442517     -0.000220913      0.00039146        -0.175532        0.168502
281701.2               -0.255222      -0.0546437     -0.000381703    -4.95577e-05       -0.0360082       -0.959407      0.000409779    -0.000391743
                    -0.000356693     0.000117803       -0.0447424        0.239234      0.000646717    -0.000173588        -0.855827       -0.442648
                      -0.0354203       -0.958832      0.000507852    -0.000242164        -0.250697       0.0730816     -0.000264491     0.000215584
                      0.00047306    -0.000153456        -0.855711       -0.442491     -0.000220882     0.000391464        -0.175522        0.168502
281701.3               -0.255222      -0.0546348     -0.000381718    -4.95483e-05       -0.0360374       -0.959406      0.000409771    -0.000391748
                    -0.000356701     0.000117811       -0.0447336        0.239229      0.000646726    -0.000173614        -0.855842       -0.442622
                      -0.0354495       -0.958832      0.000507852    -0.000242184        -0.250694       0.0730879     -0.000264467     0.000215602
                     0.000473081    -0.000153464        -0.855726       -0.442465     -0.000220851     0.000391468        -0.175513        0.168503
281701.4               -0.255223      -0.0546259     -0.000381732    -4.95389e-05       -0.0360666       -0.959405      0.000409763    -0.000391753
                    -0.000356709     0.000117818       -0.0447249        0.239224      0.000646735     -0.00017364        -0.855857       -0.442596
                      -0.0354787       -0.958831      0.000507852    -0.000242205         -0.25069       0.0730943     -0.000264443      0.00021562
                     0.000473103    -0.000153471        -0.855742        -0.44244     -0.000220821     0.000391471        -0.175503        0.168503
281701.5               -0.255223       -0.054617     -0.000381747    -4.95295e-05       -0.0360958       -0.959405      0.000409755    -0.000391757
                    -0.000356718     0.000117826       -0.0447161        0.239218      0.000646743    -0.000173667        -0.855872       -0.442571
                      -0.0355079        -0.95883      0.000507851    -0.000242225        -0.250687       0.0731006     -0.000264419     0.000215637
                     0.000473124    -0.000153479        -0.855757       -0.442414      -0.00022079     0.000391475        -0.175493        0.168504
281701.6               -0.255224      -0.0546082     -0.000381761    -4.95201e-05        -0.036125       -0.959404      0.000409747    -0.000391762
                    -0.000356726     0.000117834       -0.0447074        0.239213      0.000646752    -0.000173693        -0.855888       -0.442545
                      -0.0355371        -0.95883      0.000507851    -0.000242245        -0.250684        0.073107     -0.000264395     0.000215655
                     0.000473146    -0.000153486        -0.855772       -0.442388     -0.000220759     0.000391479        -0.175483        0.168504
281701.7               -0.255224      -0.0545993     -0.000381776    -4.95107e-05       -0.0361542       -0.959403      0.000409739    -0.000391766
                    -0.000356734     0.000117842       -0.0446986        0.239208      0.000646761    -0.000173719        -0.855903       -0.442519
                      -0.0355663       -0.958829      0.000507851    -0.000242266         -0.25068       0.0731134     -0.000264371     0.000215673
                     0.000473167    -0.000153494        -0.855787       -0.442363     -0.000220729     0.000391483        -0.175473        0.168505
281701.8               -0.255224      -0.0545904      -0.00038179    -4.95013e-05       -0.0361833       -0.959403      0.000409731    -0.000391771
                    -0.000356742      0.00011785       -0.0446899        0.239202      0.000646769    -0.000173745        -0.855918       -0.442494
                      -0.0355955       -0.958828      0.000507851    -0.000242286        -0.250677       0.0731197     -0.000264347      0.00021569
                     0.000473189    -0.000153501        -0.855802       -0.442337     -0.000220698     0.000391486        -0.175463        0.168505
281701.9               -0.255225      -0.0545816     -0.000381805     -4.9492e-05       -0.0362125       -0.959402      0.000409723    -0.000391776
                    -0.000356751     0.000117857       -0.0446812        0.239197      0.000646778    -0.000173772        -0.855933       -0.442468
                      -0.0356247       -0.958828       0.00050785    -0.000242307        -0.250673       0.0731261     -0.000264323     0.000215708
                      0.00047321    -0.000153509        -0.855818       -0.442311     -0.000220668      0.00039149        -0.175453        0.168506
281702                 -0.255225      -0.0545727      -0.00038182    -4.94826e-05       -0.0362417       -0.959402      0.000409715     -0.00039178
                    -0.000356759     0.000117865       -0.0446724        0.239192      0.000646787    -0.000173798        -0.855949       -0.442442
                      -0.0356539       -0.958827       0.00050785    -0.000242327         -0.25067       0.0731325     -0.000264299     0.000215726
                     0.000473232    -0.000153516        -0.855833       -0.442286     -0.000220637     0.000391494        -0.175443        0.168506
281702.1               -0.255226      -0.0545638     -0.000381834    -4.94732e-05       -0.0362709       -0.959401      0.000409707    -0.000391785
                    -0.000356767     0.000117873       -0.0446637        0.239186      0.000646795    -0.000173824        -0.855964       -0.442417
                      -0.0356831       -0.958826       0.00050785    -0.000242348        -0.250667       0.0731388     -0.000264275     0.000215743
                     0.000473253    -0.000153524        -0.855848        -0.44226     -0.000220606     0.000391497        -0.175434        0.168507
281702.2               -0.255226      -0.0545549     -0.000381849    -4.94638e-05       -0.0363001         -0.9594      0.000409699     -0.00039179
                    -0.000356775     0.000117881       -0.0446549        0.239181      0.000646804     -0.00017385        -0.855979       -0.442391
                      -0.0357123       -0.958826      0.000507849    -0.000242368        -0.250663       0.0731452     -0.000264251     0.000215761
                     0.000473275    -0.000153531        -0.855863       -0.442234     -0.000220576     0.000391501        -0.175424        0.168507
281702.3               -0.255226      -0.0545461     -0.000381863    -4.94544e-05       -0.0363293         -0.9594      0.000409692    -0.000391794
                    -0.000356784     0.000117888       -0.0446462        0.239176      0.000646812    -0.000173877        -0.855994       -0.442365
                      -0.0357416       -0.958825      0.000507849    -0.000242389         -0.25066       0.0731516     -0.000264227     0.000215778
                     0.000473296    -0.000153539        -0.855878       -0.442209     -0.000220545     0.000391505        -0.175414        0.168508
281702.4               -0.255227      -0.0545372     -0.000381878     -4.9445e-05       -0.0363584       -0.959399      0.000409684    -0.000391799
                    -0.000356792     0.000117896       -0.0446374         0.23917      0.000646821    -0.000173903        -0.856009        -0.44234
                      -0.0357708       -0.958824      0.000507849    -0.000242409        -0.250656       0.0731579     -0.000264203     0.000215796
                     0.000473317    -0.000153547        -0.855894       -0.442183     -0.000220514     0.000391508        -0.175404        0.168508
281702.5               -0.255227      -0.0545283     -0.000381892    -4.94356e-05       -0.0363876       -0.959398      0.000409676    -0.000391803
                      -0.0003568     0.000117904       -0.0446287        0.239165       0.00064683    -0.000173929        -0.856025       -0.442314
                         -0.0358       -0.958824      0.000507848    -0.000242429        -0.250653       0.0731643     -0.000264179     0.000215814
                     0.000473339    -0.000153554        -0.855909       -0.442157     -0.000220484     0.000391512        -0.175394        0.168509
281702.6               -0.255228      -0.0545195     -0.000381907    -4.94262e-05       -0.0364168       -0.959398      0.000409668    -0.000391808
                    -0.000356808     0.000117912         -0.04462         0.23916      0.000646838    -0.000173955         -0.85604       -0.442288
                      -0.0358292       -0.958823      0.000507848     -0.00024245         -0.25065       0.0731707     -0.000264155     0.000215831
                      0.00047336    -0.000153562        -0.855924       -0.442132     -0.000220453     0.000391516        -0.175384        0.168509
281702.7               -0.255228      -0.0545106     -0.000381921    -4.94168e-05        -0.036446       -0.959397       0.00040966    -0.000391813
                    -0.000356817     0.000117919       -0.0446112        0.239154      0.000646847    -0.000173982        -0.856055       -0.442263
                      -0.0358584       -0.958822      0.000507848     -0.00024247        -0.250646        0.073177     -0.000264131     0.000215849
                     0.000473382    -0.000153569        -0.855939       -0.442106     -0.000220422     0.000391519        -0.175374         0.16851
281702.8               -0.255228      -0.0545017     -0.000381936    -4.94074e-05       -0.0364752       -0.959397      0.000409652    -0.000391817
                    -0.000356825     0.000117927       -0.0446025        0.239149      0.000646856    -0.000174008         -0.85607       -0.442237
                      -0.0358876       -0.958822      0.000507847    -0.000242491        -0.250643       0.0731834     -0.000264107     0.000215866
                     0.000473403    -0.000153577        -0.855955        -0.44208     -0.000220392     0.000391523        -0.175364         0.16851
281702.9               -0.255229      -0.0544928     -0.000381951     -4.9398e-05       -0.0365043       -0.959396      0.000409644    -0.000391822
                    -0.000356833     0.000117935       -0.0445937        0.239144      0.000646864    -0.000174034        -0.856086       -0.442211
                      -0.0359168       -0.958821      0.000507847    -0.000242511        -0.250639       0.0731898     -0.000264083     0.000215884
                     0.000473425    -0.000153584         -0.85597       -0.442055     -0.000220361     0.000391527        -0.175354        0.168511
281703                 -0.255229       -0.054484     -0.000381965    -4.93886e-05       -0.0365335       -0.959395      0.000409636    -0.000391827
                    -0.000356841     0.000117943        -0.044585        0.239138      0.000646873     -0.00017406        -0.856101       -0.442186
                       -0.035946        -0.95882      0.000507847    -0.000242532        -0.250636       0.0731961     -0.000264059     0.000215902
                     0.000473446    -0.000153592        -0.855985       -0.442029     -0.000220331      0.00039153        -0.175345        0.168511
281703.1                -0.25523      -0.0544751      -0.00038198    -4.93792e-05       -0.0365627       -0.959395      0.000409628    -0.000391831
                    -0.000356849      0.00011795       -0.0445763        0.239133      0.000646882    -0.000174087        -0.856116        -0.44216
                      -0.0359752        -0.95882      0.000507846    -0.000242552        -0.250633       0.0732025     -0.000264035     0.000215919
