! TOUCHSTONE file generated by CST MICROWAVE STUDIO
! Date and time: Wed Oct  8 07:03:40 2025
! Project name: Teste_Macro_Metasurface_Nanopilar.cst
! Parameters = {H=600; L_x=175; L_y=200; Lambda=1064; Max_L=200; Min_L=70; PathPara=1; Phi=0; Step_L=10; Theta=0; p=520; phaseX=180; phaseY=0}
! Header version: 2018
! Port assignment regex: !\s*Touchstone port\s*([0-9]+)\s*=\s*(CST MWS port|CST DS port)\s*([0-9]+|Zmin|Zmax)\s*\(\"(.*)\"\)(\s*mode\s*([0-9]+))?.*
! Touchstone port assignment:
! Touchstone port 1 = CST MWS port Zmax ("") mode 1
! Touchstone port 2 = CST MWS port Zmax ("") mode 2
! Touchstone port 3 = CST MWS port Zmin ("") mode 1
! Touchstone port 4 = CST MWS port Zmin ("") mode 2
! S-Parameters are not renormalized. Each port impedance will be approximated by the real part at minimum frequency. The values are described via the [Reference] keyword.
! Default impedance is overridden by [Reference]
[Version] 2.0
# GHz S RI R 376.73
[Number of Ports] 4
[Reference]
376.73 376.73 376.73 376.73 
[Number of Frequencies] 1001
[Network Data]
281700                -0.0174062       -0.262828     -0.000664649     7.17811e-05        -0.694797        0.647088      0.000264644     5.02763e-05
                     -0.00066888     4.27427e-05         -0.11228       -0.174127      -0.00013446     0.000160192        -0.968836        0.109556
                       -0.694879        0.647264      -0.00020803     8.95001e-05        -0.236676      -0.0244614      0.000448162    -0.000424349
                     0.000213553     6.92285e-05        -0.968831        0.109608      0.000538512    -0.000475534        0.0675595       -0.194639
281700.1              -0.0174057       -0.262834     -0.000664684     7.18238e-05        -0.694767        0.647117       0.00026461     5.05522e-05
                    -0.000668841      4.2676e-05        -0.112284       -0.174131     -0.000134468     0.000160203        -0.968832        0.109585
                       -0.694849        0.647293     -0.000208069     8.94847e-05        -0.236682      -0.0244392      0.000448281    -0.000424281
                     0.000213533     6.92883e-05        -0.968827        0.109636      0.000538511     -0.00047553        0.0675514       -0.194647
281700.2              -0.0174053        -0.26284      -0.00066472     7.18667e-05        -0.694737        0.647145      0.000264575     5.08277e-05
                    -0.000668803     4.26094e-05        -0.112288       -0.174134     -0.000134477     0.000160214        -0.968828        0.109614
                       -0.694819        0.647322     -0.000208107     8.94692e-05        -0.236687      -0.0244171      0.000448401    -0.000424213
                     0.000213513     6.93481e-05        -0.968822        0.109665       0.00053851    -0.000475525        0.0675434       -0.194655
281700.3              -0.0174049       -0.262845     -0.000664755     7.19096e-05        -0.694707        0.647174       0.00026454     5.11029e-05
                    -0.000668765     4.25429e-05        -0.112292       -0.174138     -0.000134486     0.000160225        -0.968824        0.109643
                       -0.694789        0.647351     -0.000208146     8.94537e-05        -0.236693      -0.0243949      0.000448521    -0.000424145
                     0.000213493     6.94081e-05        -0.968818        0.109693      0.000538509     -0.00047552        0.0675353       -0.194663
281700.4              -0.0174045       -0.262851      -0.00066479     7.19526e-05        -0.694677        0.647202      0.000264504     5.13776e-05
                    -0.000668728     4.24764e-05        -0.112297       -0.174142     -0.000134495     0.000160236         -0.96882        0.109671
                        -0.69476        0.647379     -0.000208185     8.94381e-05        -0.236698      -0.0243728      0.000448642    -0.000424077
                     0.000213473     6.94681e-05        -0.968814        0.109722      0.000538509    -0.000475515        0.0675273       -0.194672
281700.5               -0.017404       -0.262856     -0.000664824     7.19956e-05        -0.694647        0.647231      0.000264468      5.1652e-05
                     -0.00066869     4.24101e-05        -0.112301       -0.174145     -0.000134504     0.000160247        -0.968815          0.1097
                        -0.69473        0.647408     -0.000208224     8.94224e-05        -0.236704      -0.0243506      0.000448764    -0.000424008
                     0.000213453     6.95283e-05        -0.968809         0.10975      0.000538509     -0.00047551        0.0675192        -0.19468
281700.6              -0.0174036       -0.262862     -0.000664859     7.20387e-05        -0.694617        0.647259      0.000264431      5.1926e-05
                    -0.000668653     4.23439e-05        -0.112305       -0.174149     -0.000134512     0.000160258        -0.968811        0.109729
                         -0.6947        0.647437     -0.000208262     8.94066e-05        -0.236709      -0.0243285      0.000448886     -0.00042394
                     0.000213433     6.95886e-05        -0.968805        0.109779      0.000538509    -0.000475504        0.0675112       -0.194688
281700.7              -0.0174032       -0.262868     -0.000664893     7.20819e-05        -0.694587        0.647288      0.000264393     5.21997e-05
                    -0.000668616     4.22777e-05        -0.112309       -0.174152     -0.000134521     0.000160269        -0.968807        0.109758
                        -0.69467        0.647465     -0.000208301     8.93908e-05        -0.236715      -0.0243063      0.000449008    -0.000423871
                     0.000213413     6.96491e-05        -0.968801        0.109807      0.000538509    -0.000475498        0.0675031       -0.194696
281700.8              -0.0174027       -0.262873     -0.000664928     7.21251e-05        -0.694557        0.647316      0.000264356     5.24729e-05
                    -0.000668579     4.22117e-05        -0.112314       -0.174156      -0.00013453      0.00016028        -0.968803        0.109787
                        -0.69464        0.647494      -0.00020834     8.93748e-05         -0.23672      -0.0242842      0.000449131    -0.000423802
                     0.000213393     6.97096e-05        -0.968796        0.109836      0.000538509    -0.000475492         0.067495       -0.194705
281700.9              -0.0174023       -0.262879     -0.000664962     7.21684e-05        -0.694526        0.647345      0.000264317     5.27458e-05
                    -0.000668542     4.21458e-05        -0.112318        -0.17416     -0.000134539      0.00016029        -0.968799        0.109815
                        -0.69461        0.647523     -0.000208378     8.93588e-05        -0.236726       -0.024262      0.000449254    -0.000423733
                     0.000213374     6.97703e-05        -0.968792        0.109865       0.00053851    -0.000475486         0.067487       -0.194713
281701                -0.0174019       -0.262884     -0.000664996     7.22118e-05        -0.694496        0.647373      0.000264278     5.30183e-05
                    -0.000668506       4.208e-05        -0.112322       -0.174163     -0.000134548     0.000160301        -0.968795        0.109844
                        -0.69458        0.647552     -0.000208417     8.93427e-05        -0.236731      -0.0242398      0.000449378    -0.000423664
                     0.000213354     6.98311e-05        -0.968788        0.109893       0.00053851    -0.000475479        0.0674789       -0.194721
281701.1              -0.0174014        -0.26289      -0.00066503     7.22552e-05        -0.694466        0.647402      0.000264239     5.32904e-05
                     -0.00066847     4.20142e-05        -0.112327       -0.174167     -0.000134557     0.000160312         -0.96879        0.109873
                        -0.69455         0.64758     -0.000208455     8.93266e-05        -0.236737      -0.0242177      0.000449502    -0.000423595
                     0.000213335      6.9892e-05        -0.968783        0.109922      0.000538511    -0.000475472        0.0674709       -0.194729
281701.2               -0.017401       -0.262896     -0.000665063     7.22987e-05        -0.694436         0.64743      0.000264199     5.35622e-05
                    -0.000668434     4.19486e-05        -0.112331        -0.17417     -0.000134566     0.000160322        -0.968786        0.109902
                        -0.69452        0.647609     -0.000208494     8.93103e-05        -0.236742      -0.0241955      0.000449627    -0.000423526
                     0.000213316      6.9953e-05        -0.968779         0.10995      0.000538512    -0.000475465        0.0674628       -0.194737
281701.3              -0.0174005       -0.262901     -0.000665097     7.23422e-05        -0.694406        0.647459      0.000264159     5.38335e-05
                    -0.000668398     4.18831e-05        -0.112335       -0.174174     -0.000134575     0.000160332        -0.968782        0.109931
                       -0.694491        0.647638     -0.000208532      8.9294e-05        -0.236748      -0.0241733      0.000449753    -0.000423457
                     0.000213296     7.00141e-05        -0.968775        0.109979      0.000538513    -0.000475457        0.0674547       -0.194746
281701.4              -0.0174001       -0.262907      -0.00066513     7.23858e-05        -0.694376        0.647487      0.000264118     5.41045e-05
                    -0.000668362     4.18177e-05        -0.112339       -0.174178     -0.000134584     0.000160343        -0.968778        0.109959
                       -0.694461        0.647667     -0.000208571     8.92776e-05        -0.236754      -0.0241511      0.000449878    -0.000423388
                     0.000213277     7.00754e-05         -0.96877        0.110007      0.000538514    -0.000475449        0.0674467       -0.194754
281701.5              -0.0173997       -0.262912     -0.000665163     7.24295e-05        -0.694346        0.647515      0.000264076      5.4375e-05
                    -0.000668326     4.17524e-05        -0.112344       -0.174181     -0.000134593     0.000160353        -0.968774        0.109988
                       -0.694431        0.647695     -0.000208609     8.92611e-05        -0.236759       -0.024129      0.000450005    -0.000423318
                     0.000213258     7.01367e-05        -0.968766        0.110036      0.000538516    -0.000475441        0.0674386       -0.194762
281701.6              -0.0173992       -0.262918     -0.000665197     7.24732e-05        -0.694316        0.647544      0.000264035     5.46452e-05
                    -0.000668291     4.16872e-05        -0.112348       -0.174185     -0.000134603     0.000160363        -0.968769        0.110017
                       -0.694401        0.647724     -0.000208648     8.92446e-05        -0.236765      -0.0241068      0.000450132    -0.000423249
                     0.000213239     7.01982e-05        -0.968762        0.110064      0.000538518    -0.000475432        0.0674305        -0.19477
281701.7              -0.0173988       -0.262924     -0.000665229      7.2517e-05        -0.694286        0.647572      0.000263992      5.4915e-05
                    -0.000668256     4.16221e-05        -0.112352       -0.174188     -0.000134612     0.000160373        -0.968765        0.110046
                       -0.694371        0.647753     -0.000208686     8.92279e-05         -0.23677      -0.0240846      0.000450259     -0.00042318
                     0.000213221     7.02599e-05        -0.968757        0.110093      0.000538519    -0.000475424        0.0674225       -0.194779
281701.8              -0.0173984       -0.262929     -0.000665262     7.25608e-05        -0.694256        0.647601       0.00026395     5.51843e-05
                    -0.000668221     4.15572e-05        -0.112356       -0.174192     -0.000134621     0.000160383        -0.968761        0.110075
                       -0.694341        0.647781     -0.000208724     8.92112e-05        -0.236776      -0.0240624      0.000450387     -0.00042311
                     0.000213202     7.03216e-05        -0.968753        0.110121      0.000538521    -0.000475414        0.0674144       -0.194787
281701.9              -0.0173979       -0.262935     -0.000665295     7.26047e-05        -0.694226        0.647629      0.000263906     5.54533e-05
                    -0.000668186     4.14923e-05        -0.112361       -0.174196      -0.00013463     0.000160393        -0.968757        0.110103
                       -0.694311         0.64781     -0.000208763     8.91944e-05        -0.236781      -0.0240402      0.000450516     -0.00042304
                     0.000213183     7.03835e-05        -0.968748         0.11015      0.000538524    -0.000475405        0.0674063       -0.194795
281702                -0.0173975        -0.26294     -0.000665327     7.26486e-05        -0.694195        0.647658      0.000263863     5.57219e-05
                    -0.000668152     4.14276e-05        -0.112365       -0.174199     -0.000134639     0.000160403        -0.968753        0.110132
                       -0.694281        0.647839     -0.000208801     8.91775e-05        -0.236787      -0.0240181      0.000450645    -0.000422971
                     0.000213165     7.04454e-05        -0.968744        0.110178      0.000538526    -0.000475395        0.0673983       -0.194803
281702.1               -0.017397       -0.262946     -0.000665359     7.26927e-05        -0.694165        0.647686      0.000263818       5.599e-05
                    -0.000668118     4.13629e-05        -0.112369       -0.174203     -0.000134649     0.000160413        -0.968748        0.110161
                       -0.694251        0.647868     -0.000208839     8.91605e-05        -0.236792      -0.0239959      0.000450775    -0.000422901
                     0.000213146     7.05075e-05         -0.96874        0.110207      0.000538528    -0.000475385        0.0673902       -0.194812
281702.2              -0.0173966       -0.262952     -0.000665391     7.27367e-05        -0.694135        0.647715      0.000263774     5.62578e-05
                    -0.000668084     4.12984e-05        -0.112373       -0.174206     -0.000134658     0.000160423        -0.968744         0.11019
                       -0.694221        0.647896     -0.000208877     8.91435e-05        -0.236798      -0.0239737      0.000450905    -0.000422831
                     0.000213128     7.05698e-05        -0.968735        0.110235      0.000538531    -0.000475375        0.0673821        -0.19482
281702.3              -0.0173962       -0.262957     -0.000665423     7.27808e-05        -0.694105        0.647743      0.000263728     5.65252e-05
                     -0.00066805      4.1234e-05        -0.112378        -0.17421     -0.000134667     0.000160432         -0.96874        0.110219
                       -0.694191        0.647925     -0.000208915     8.91264e-05        -0.236803      -0.0239515      0.000451036    -0.000422761
                      0.00021311     7.06321e-05        -0.968731        0.110264      0.000538534    -0.000475364         0.067374       -0.194828
281702.4              -0.0173957       -0.262963     -0.000665455      7.2825e-05        -0.694075        0.647772      0.000263683     5.67921e-05
                    -0.000668016     4.11697e-05        -0.112382       -0.174213     -0.000134677     0.000160442        -0.968736        0.110247
                       -0.694161        0.647954     -0.000208954     8.91091e-05        -0.236809      -0.0239293      0.000451167    -0.000422691
                     0.000213091     7.06946e-05        -0.968727        0.110292      0.000538537    -0.000475353         0.067366       -0.194836
281702.5              -0.0173953       -0.262968     -0.000665487     7.28692e-05        -0.694045          0.6478      0.000263637     5.70587e-05
                    -0.000667982     4.11055e-05        -0.112386       -0.174217     -0.000134686     0.000160451        -0.968732        0.110276
                       -0.694132        0.647982     -0.000208992     8.90918e-05        -0.236814      -0.0239071      0.000451299    -0.000422621
                     0.000213073     7.07572e-05        -0.968722        0.110321      0.000538541    -0.000475341        0.0673579       -0.194844
281702.6              -0.0173948       -0.262974     -0.000665518     7.29135e-05        -0.694015        0.647829       0.00026359     5.73248e-05
                    -0.000667949     4.10414e-05        -0.112391       -0.174221     -0.000134696     0.000160461        -0.968727        0.110305
                       -0.694102        0.648011      -0.00020903     8.90745e-05         -0.23682      -0.0238849      0.000451431    -0.000422551
                     0.000213055     7.08199e-05        -0.968718        0.110349      0.000538544    -0.000475329        0.0673498       -0.194853
281702.7              -0.0173944        -0.26298     -0.000665549     7.29578e-05        -0.693985        0.647857      0.000263543     5.75905e-05
                    -0.000667916     4.09775e-05        -0.112395       -0.174224     -0.000134705      0.00016047        -0.968723        0.110334
                       -0.694072         0.64804     -0.000209068      8.9057e-05        -0.236825      -0.0238627      0.000451565    -0.000422481
                     0.000213038     7.08828e-05        -0.968714        0.110378      0.000538548    -0.000475317        0.0673417       -0.194861
281702.8              -0.0173939       -0.262985      -0.00066558     7.30022e-05        -0.693955        0.647886      0.000263496     5.78558e-05
                    -0.000667883     4.09136e-05        -0.112399       -0.174228     -0.000134715     0.000160479        -0.968719        0.110363
                       -0.694042        0.648068     -0.000209106     8.90395e-05        -0.236831      -0.0238405      0.000451698     -0.00042241
                      0.00021302     7.09457e-05        -0.968709        0.110407      0.000538552    -0.000475305        0.0673336       -0.194869
281702.9              -0.0173935       -0.262991     -0.000665611     7.30466e-05        -0.693924        0.647914      0.000263448     5.81207e-05
                     -0.00066785     4.08499e-05        -0.112403       -0.174231     -0.000134724     0.000160488        -0.968715        0.110391
                       -0.694012        0.648097     -0.000209144     8.90218e-05        -0.236836      -0.0238183      0.000451832     -0.00042234
                     0.000213002     7.10088e-05        -0.968705        0.110435      0.000538556    -0.000475292        0.0673256       -0.194877
281703                 -0.017393       -0.262997     -0.000665642     7.30911e-05        -0.693894        0.647943      0.000263399     5.83851e-05
                    -0.000667818     4.07863e-05        -0.112408       -0.174235     -0.000134734     0.000160497        -0.968711         0.11042
                       -0.693982        0.648126     -0.000209181     8.90041e-05        -0.236842      -0.0237961      0.000451967     -0.00042227
                     0.000212985      7.1072e-05          -0.9687        0.110464       0.00053856    -0.000475279        0.0673175       -0.194886
281703.1              -0.0173926       -0.263002     -0.000665673     7.31356e-05        -0.693864        0.647971      0.000263351     5.86492e-05
                    -0.000667785     4.07228e-05        -0.112412       -0.174239     -0.000134743     0.000160506        -0.968706        0.110449
                       -0.693952        0.648155     -0.000209219     8.89863e-05        -0.236847      -0.0237739      0.000452103    -0.000422199
