! TOUCHSTONE file generated by CST MICROWAVE STUDIO
! Date and time: Wed Oct  8 06:58:08 2025
! Project name: Teste_Macro_Metasurface_Nanopilar.cst
! Parameters = {H=600; L_x=130; L_y=165; Lambda=1064; Max_L=200; Min_L=70; PathPara=1; Phi=0; Step_L=10; Theta=0; p=520; phaseX=180; phaseY=0}
! Header version: 2018
! Port assignment regex: !\s*Touchstone port\s*([0-9]+)\s*=\s*(CST MWS port|CST DS port)\s*([0-9]+|Zmin|Zmax)\s*\(\"(.*)\"\)(\s*mode\s*([0-9]+))?.*
! Touchstone port assignment:
! Touchstone port 1 = CST MWS port Zmax ("") mode 1
! Touchstone port 2 = CST MWS port Zmax ("") mode 2
! Touchstone port 3 = CST MWS port Zmin ("") mode 1
! Touchstone port 4 = CST MWS port Zmin ("") mode 2
! S-Parameters are not renormalized. Each port impedance will be approximated by the real part at minimum frequency. The values are described via the [Reference] keyword.
! Default impedance is overridden by [Reference]
[Version] 2.0
# GHz S RI R 376.73
[Number of Ports] 4
[Reference]
376.73 376.73 376.73 376.73 
[Number of Frequencies] 1001
[Network Data]
281700                 -0.297598        0.363861     -0.000226366     0.000541511        -0.525859       -0.693809       0.00044769     0.000168721
                    -0.000193734     0.000711938         -0.17241       0.0124141      0.000189091    -0.000181403        -0.533004       -0.822605
                       -0.525861       -0.693593      0.000359548    -0.000158202        -0.436691        0.168182      -0.00079225    -0.000298845
                     0.000491479     0.000222849        -0.533315       -0.822721      -0.00100958    -0.000119254       -0.0830178        0.150672
281700.1               -0.297581        0.363862     -0.000226338     0.000541512        -0.525887       -0.693795      0.000447665      0.00016872
                    -0.000193699     0.000711923        -0.172405       0.0124177      0.000189062    -0.000181402        -0.533029       -0.822589
                       -0.525889       -0.693578      0.000359529    -0.000158219        -0.436676        0.168197     -0.000792209    -0.000298801
                     0.000491468     0.000222827        -0.533341       -0.822705      -0.00100953    -0.000119197       -0.0830097        0.150671
281700.2               -0.297564        0.363864      -0.00022631     0.000541513        -0.525914        -0.69378       0.00044764      0.00016872
                    -0.000193663     0.000711909        -0.172399       0.0124214      0.000189033    -0.000181402        -0.533055       -0.822574
                       -0.525916       -0.693564      0.000359511    -0.000158236         -0.43666        0.168211     -0.000792168    -0.000298758
                     0.000491458     0.000222805        -0.533367       -0.822689      -0.00100949     -0.00011914       -0.0830017         0.15067
281700.3               -0.297547        0.363866     -0.000226282     0.000541514        -0.525942       -0.693766      0.000447615     0.000168719
                    -0.000193627     0.000711895        -0.172394        0.012425      0.000189004    -0.000181401        -0.533081       -0.822558
                       -0.525944        -0.69355      0.000359492    -0.000158253        -0.436645        0.168226     -0.000792127    -0.000298714
                     0.000491447     0.000222783        -0.533392       -0.822674      -0.00100945    -0.000119083       -0.0829936        0.150669
281700.4                -0.29753        0.363867     -0.000226254     0.000541516        -0.525969       -0.693752       0.00044759     0.000168718
                    -0.000193591     0.000711881        -0.172389       0.0124287      0.000188974    -0.000181401        -0.533106       -0.822542
                       -0.525971       -0.693535      0.000359474     -0.00015827         -0.43663         0.16824     -0.000792087     -0.00029867
                     0.000491436     0.000222761        -0.533418       -0.822658       -0.0010094    -0.000119025       -0.0829856        0.150667
281700.5               -0.297514        0.363869     -0.000226227     0.000541517        -0.525997       -0.693737      0.000447566     0.000168718
                    -0.000193555     0.000711866        -0.172384       0.0124323      0.000188945      -0.0001814        -0.533132       -0.822527
                       -0.525999       -0.693521      0.000359455    -0.000158287        -0.436614        0.168255     -0.000792046    -0.000298627
                     0.000491425     0.000222739        -0.533444       -0.822643      -0.00100936    -0.000118968       -0.0829775        0.150666
281700.6               -0.297497        0.363871     -0.000226199     0.000541518        -0.526024       -0.693723      0.000447541     0.000168717
                    -0.000193519     0.000711852        -0.172378        0.012436      0.000188916      -0.0001814        -0.533157       -0.822511
                       -0.526027       -0.693507      0.000359436    -0.000158304        -0.436599         0.16827     -0.000792005    -0.000298583
                     0.000491414     0.000222717        -0.533469       -0.822627      -0.00100931    -0.000118911       -0.0829695        0.150665
281700.7                -0.29748        0.363872     -0.000226171     0.000541519        -0.526052       -0.693709      0.000447516     0.000168717
                    -0.000193483     0.000711838        -0.172373       0.0124396      0.000188887    -0.000181399        -0.533183       -0.822495
                       -0.526054       -0.693493      0.000359418    -0.000158321        -0.436583        0.168284     -0.000791965     -0.00029854
                     0.000491403     0.000222695        -0.533495       -0.822611      -0.00100927    -0.000118854       -0.0829614        0.150664
281700.8               -0.297463        0.363874     -0.000226143      0.00054152        -0.526079       -0.693694      0.000447491     0.000168716
                    -0.000193448     0.000711823        -0.172368       0.0124433      0.000188857    -0.000181399        -0.533209        -0.82248
                       -0.526082       -0.693478      0.000359399    -0.000158338        -0.436568        0.168299     -0.000791924    -0.000298496
                     0.000491392     0.000222673        -0.533521       -0.822596      -0.00100922    -0.000118796       -0.0829534        0.150662
281700.9               -0.297447        0.363876     -0.000226116     0.000541521        -0.526107        -0.69368      0.000447466     0.000168716
                    -0.000193412     0.000711809        -0.172363       0.0124469      0.000188828    -0.000181398        -0.533234       -0.822464
                       -0.526109       -0.693464      0.000359381    -0.000158355        -0.436552        0.168313     -0.000791883    -0.000298452
                     0.000491381     0.000222651        -0.533546        -0.82258      -0.00100918    -0.000118739       -0.0829453        0.150661
281701                  -0.29743        0.363877     -0.000226088     0.000541522        -0.526135       -0.693666      0.000447441     0.000168715
                    -0.000193376     0.000711795        -0.172358       0.0124506      0.000188799    -0.000181398         -0.53326       -0.822449
                       -0.526137        -0.69345      0.000359362    -0.000158371        -0.436537        0.168328     -0.000791842    -0.000298409
                      0.00049137     0.000222629        -0.533572       -0.822565      -0.00100913    -0.000118682       -0.0829373         0.15066
281701.1               -0.297413        0.363879      -0.00022606     0.000541523        -0.526162       -0.693651      0.000447416     0.000168714
                     -0.00019334      0.00071178        -0.172352       0.0124542       0.00018877    -0.000181397        -0.533285       -0.822433
                       -0.526164       -0.693435      0.000359344    -0.000158388        -0.436521        0.168342     -0.000791801    -0.000298365
                     0.000491359     0.000222607        -0.533598       -0.822549      -0.00100909    -0.000118625       -0.0829292        0.150658
281701.2               -0.297396        0.363881     -0.000226032     0.000541525         -0.52619       -0.693637      0.000447391     0.000168714
                    -0.000193304     0.000711766        -0.172347       0.0124579       0.00018874    -0.000181397        -0.533311       -0.822417
                       -0.526192       -0.693421      0.000359325    -0.000158405        -0.436506        0.168357      -0.00079176    -0.000298322
                     0.000491349     0.000222585        -0.533624       -0.822533      -0.00100904    -0.000118568       -0.0829212        0.150657
281701.3                -0.29738        0.363882     -0.000226004     0.000541526        -0.526217       -0.693623      0.000447366     0.000168713
                    -0.000193268     0.000711752        -0.172342       0.0124615      0.000188711    -0.000181396        -0.533337       -0.822402
                       -0.526219       -0.693407      0.000359307    -0.000158422        -0.436491        0.168371      -0.00079172    -0.000298278
                     0.000491338     0.000222563        -0.533649       -0.822518        -0.001009    -0.000118511       -0.0829131        0.150656
281701.4               -0.297363        0.363884     -0.000225977     0.000541527        -0.526245       -0.693608      0.000447341     0.000168713
                    -0.000193233     0.000711737        -0.172337       0.0124652      0.000188682    -0.000181396        -0.533362       -0.822386
                       -0.526247       -0.693392      0.000359288    -0.000158439        -0.436475        0.168386     -0.000791679    -0.000298235
                     0.000491327     0.000222541        -0.533675       -0.822502      -0.00100895    -0.000118453       -0.0829051        0.150655
281701.5               -0.297346        0.363886     -0.000225949     0.000541528        -0.526272       -0.693594      0.000447316     0.000168712
                    -0.000193197     0.000711723        -0.172331       0.0124688      0.000188653    -0.000181395        -0.533388       -0.822371
                       -0.526274       -0.693378      0.000359269    -0.000158456         -0.43646        0.168401     -0.000791638    -0.000298191
                     0.000491316     0.000222519        -0.533701       -0.822486      -0.00100891    -0.000118396        -0.082897        0.150653
281701.6               -0.297329        0.363887     -0.000225921     0.000541529          -0.5263        -0.69358      0.000447291     0.000168712
                    -0.000193161     0.000711709        -0.172326       0.0124724      0.000188623    -0.000181395        -0.533414       -0.822355
                       -0.526302       -0.693364      0.000359251    -0.000158473        -0.436444        0.168415     -0.000791597    -0.000298148
                     0.000491305     0.000222497        -0.533726       -0.822471      -0.00100886    -0.000118339        -0.082889        0.150652
281701.7               -0.297313        0.363889     -0.000225893      0.00054153        -0.526327       -0.693565      0.000447267     0.000168711
                    -0.000193125     0.000711694        -0.172321       0.0124761      0.000188594    -0.000181394        -0.533439       -0.822339
                        -0.52633       -0.693349      0.000359232     -0.00015849        -0.436429         0.16843     -0.000791556    -0.000298104
                     0.000491294     0.000222475        -0.533752       -0.822455      -0.00100882    -0.000118282       -0.0828809        0.150651
281701.8               -0.297296        0.363891     -0.000225865     0.000541531        -0.526355       -0.693551      0.000447242     0.000168711
                    -0.000193089      0.00071168        -0.172316       0.0124797      0.000188565    -0.000181394        -0.533465       -0.822324
                       -0.526357       -0.693335      0.000359214    -0.000158507        -0.436413        0.168444     -0.000791515    -0.000298061
                     0.000491283     0.000222453        -0.533778        -0.82244      -0.00100878    -0.000118225       -0.0828729         0.15065
281701.9               -0.297279        0.363892     -0.000225837     0.000541532        -0.526382       -0.693537      0.000447217      0.00016871
                    -0.000193053     0.000711666        -0.172311       0.0124834      0.000188536    -0.000181393         -0.53349       -0.822308
                       -0.526385       -0.693321      0.000359195    -0.000158524        -0.436398        0.168459     -0.000791474    -0.000298017
                     0.000491272     0.000222431        -0.533803       -0.822424      -0.00100873    -0.000118168       -0.0828648        0.150648
281702                 -0.297262        0.363894      -0.00022581     0.000541533         -0.52641       -0.693522      0.000447192      0.00016871
                    -0.000193018     0.000711651        -0.172305        0.012487      0.000188506    -0.000181393        -0.533516       -0.822292
                       -0.526412       -0.693306      0.000359177    -0.000158541        -0.436382        0.168473     -0.000791433    -0.000297974
                     0.000491261     0.000222409        -0.533829       -0.822408      -0.00100869     -0.00011811       -0.0828568        0.150647
281702.1               -0.297246        0.363895     -0.000225782     0.000541535        -0.526437       -0.693508      0.000447167     0.000168709
                    -0.000192982     0.000711637          -0.1723       0.0124907      0.000188477    -0.000181392        -0.533542       -0.822277
                        -0.52644       -0.693292      0.000359158    -0.000158557        -0.436367        0.168488     -0.000791392     -0.00029793
                      0.00049125     0.000222387        -0.533855       -0.822393      -0.00100864    -0.000118053       -0.0828487        0.150646
281702.2               -0.297229        0.363897     -0.000225754     0.000541536        -0.526465       -0.693494      0.000447142     0.000168709
                    -0.000192946     0.000711623        -0.172295       0.0124943      0.000188448    -0.000181391        -0.533567       -0.822261
                       -0.526467       -0.693278      0.000359139    -0.000158574        -0.436352        0.168502     -0.000791351    -0.000297887
                      0.00049124     0.000222365         -0.53388       -0.822377       -0.0010086    -0.000117996       -0.0828407        0.150644
281702.3               -0.297212        0.363899     -0.000225726     0.000541537        -0.526493       -0.693479      0.000447117     0.000168708
                     -0.00019291     0.000711608         -0.17229        0.012498      0.000188419    -0.000181391        -0.533593       -0.822246
                       -0.526495       -0.693263      0.000359121    -0.000158591        -0.436336        0.168517      -0.00079131    -0.000297844
                     0.000491229     0.000222343        -0.533906       -0.822362      -0.00100855    -0.000117939       -0.0828326        0.150643
281702.4               -0.297195          0.3639     -0.000225698     0.000541538         -0.52652       -0.693465      0.000447092     0.000168708
                    -0.000192874     0.000711594        -0.172284       0.0125016      0.000188389     -0.00018139        -0.533618        -0.82223
                       -0.526522       -0.693249      0.000359102    -0.000158608        -0.436321        0.168531     -0.000791269      -0.0002978
                     0.000491218     0.000222321        -0.533932       -0.822346      -0.00100851    -0.000117882       -0.0828246        0.150642
281702.5               -0.297178        0.363902      -0.00022567     0.000541539        -0.526548        -0.69345      0.000447067     0.000168707
                    -0.000192839      0.00071158        -0.172279       0.0125052       0.00018836     -0.00018139        -0.533644       -0.822214
                        -0.52655       -0.693235      0.000359084    -0.000158625        -0.436305        0.168546     -0.000791228    -0.000297757
                     0.000491207     0.000222299        -0.533957        -0.82233      -0.00100846    -0.000117825       -0.0828165        0.150641
281702.6               -0.297162        0.363904     -0.000225643      0.00054154        -0.526575       -0.693436      0.000447042     0.000168707
                    -0.000192803     0.000711565        -0.172274       0.0125089      0.000188331    -0.000181389         -0.53367       -0.822199
                       -0.526577        -0.69322      0.000359065    -0.000158642         -0.43629         0.16856     -0.000791187    -0.000297714
                     0.000491196     0.000222277        -0.533983       -0.822315      -0.00100842    -0.000117768       -0.0828085        0.150639
281702.7               -0.297145        0.363905     -0.000225615     0.000541541        -0.526603       -0.693422      0.000447017     0.000168707
                    -0.000192767     0.000711551        -0.172269       0.0125125      0.000188302    -0.000181389        -0.533695       -0.822183
                       -0.526605       -0.693206      0.000359047    -0.000158659        -0.436274        0.168575     -0.000791146     -0.00029767
                     0.000491185     0.000222255        -0.534009       -0.822299      -0.00100837    -0.000117711       -0.0828004        0.150638
281702.8               -0.297128        0.363907     -0.000225587     0.000541542         -0.52663       -0.693407      0.000446992     0.000168706
                    -0.000192731     0.000711537        -0.172264       0.0125162      0.000188272    -0.000181388        -0.533721       -0.822167
                       -0.526633       -0.693192      0.000359028    -0.000158676        -0.436259         0.16859     -0.000791105    -0.000297627
                     0.000491174     0.000222233        -0.534034       -0.822283      -0.00100833    -0.000117654       -0.0827924        0.150637
281702.9               -0.297111        0.363909     -0.000225559     0.000541543        -0.526658       -0.693393      0.000446967     0.000168706
                    -0.000192695     0.000711522        -0.172258       0.0125198      0.000188243    -0.000181388        -0.533746       -0.822152
                        -0.52666       -0.693177      0.000359009    -0.000158693        -0.436243        0.168604     -0.000791063    -0.000297584
                     0.000491163     0.000222212         -0.53406       -0.822268      -0.00100828    -0.000117597       -0.0827843        0.150635
281703                 -0.297095         0.36391     -0.000225531     0.000541544        -0.526685       -0.693379      0.000446942     0.000168705
                    -0.000192659     0.000711508        -0.172253       0.0125234      0.000188214    -0.000181387        -0.533772       -0.822136
                       -0.526688       -0.693163      0.000358991    -0.000158709        -0.436228        0.168619     -0.000791022     -0.00029754
                     0.000491152      0.00022219        -0.534086       -0.822252      -0.00100824     -0.00011754       -0.0827763        0.150634
281703.1               -0.297078        0.363912     -0.000225503     0.000541545        -0.526713       -0.693364      0.000446917     0.000168705
                    -0.000192624     0.000711494        -0.172248       0.0125271      0.000188184    -0.000181387        -0.533798       -0.822121
                       -0.526715       -0.693149      0.000358972    -0.000158726        -0.436213        0.168633     -0.000790981    -0.000297497
