! TOUCHSTONE file generated by CST MICROWAVE STUDIO
! Date and time: Wed Oct  8 06:58:05 2025
! Project name: Teste_Macro_Metasurface_Nanopilar.cst
! Parameters = {H=600; L_x=130; L_y=155; Lambda=1064; Max_L=200; Min_L=70; PathPara=1; Phi=0; Step_L=10; Theta=0; p=520; phaseX=180; phaseY=0}
! Header version: 2018
! Port assignment regex: !\s*Touchstone port\s*([0-9]+)\s*=\s*(CST MWS port|CST DS port)\s*([0-9]+|Zmin|Zmax)\s*\(\"(.*)\"\)(\s*mode\s*([0-9]+))?.*
! Touchstone port assignment:
! Touchstone port 1 = CST MWS port Zmax ("") mode 1
! Touchstone port 2 = CST MWS port Zmax ("") mode 2
! Touchstone port 3 = CST MWS port Zmin ("") mode 1
! Touchstone port 4 = CST MWS port Zmin ("") mode 2
! S-Parameters are not renormalized. Each port impedance will be approximated by the real part at minimum frequency. The values are described via the [Reference] keyword.
! Default impedance is overridden by [Reference]
[Version] 2.0
# GHz S RI R 376.73
[Number of Ports] 4
[Reference]
376.73 376.73 376.73 376.73 
[Number of Frequencies] 1001
[Network Data]
281700                 -0.330073        -0.48355      -0.00062161     9.11031e-05        -0.776201       0.0315033     -0.000156956     -0.00013015
                    -0.000388039      0.00033104        -0.204696       0.0225152      0.000395626    -0.000106745        -0.420744       -0.877872
                       -0.776293       0.0317748      0.000561668     0.000414761         0.224076       -0.530811      7.79879e-05     0.000116336
                    -0.000284243    -0.000155665        -0.421017       -0.878253      0.000158824     0.000161853        -0.146635         0.14449
281700.1                -0.33011        -0.48356     -0.000621594     9.11114e-05        -0.776174       0.0315507     -0.000156976    -0.000130126
                    -0.000388033     0.000331034        -0.204691        0.022521      0.000395629    -0.000106751        -0.420771        -0.87786
                       -0.776266       0.0318223      0.000561672     0.000414773          0.22404       -0.530858      7.80061e-05     0.000116303
                    -0.000284258     -0.00015565        -0.421044       -0.878241      0.000158873      0.00016184        -0.146627        0.144491
281700.2               -0.330146       -0.483571     -0.000621578     9.11198e-05        -0.776148       0.0315981     -0.000156996    -0.000130103
                    -0.000388027     0.000331028        -0.204687       0.0225267      0.000395632    -0.000106757        -0.420798       -0.877848
                        -0.77624       0.0318699      0.000561676     0.000414784         0.224004       -0.530905      7.80244e-05     0.000116269
                    -0.000284272    -0.000155635        -0.421071       -0.878229      0.000158921     0.000161825         -0.14662        0.144493
281700.3               -0.330183       -0.483581     -0.000621562     9.11281e-05        -0.776122       0.0316456     -0.000157016     -0.00013008
                     -0.00038802     0.000331022        -0.204682       0.0225324      0.000395636    -0.000106763        -0.420825       -0.877836
                       -0.776214       0.0319174       0.00056168     0.000414796         0.223968       -0.530952      7.80426e-05     0.000116235
                    -0.000284286    -0.000155621        -0.421098       -0.878217       0.00015897     0.000161811        -0.146613        0.144494
281700.4               -0.330219       -0.483592     -0.000621545     9.11365e-05        -0.776096        0.031693     -0.000157036    -0.000130057
                    -0.000388014     0.000331016        -0.204677       0.0225382      0.000395639    -0.000106769        -0.420852       -0.877824
                       -0.776188        0.031965      0.000561684     0.000414807         0.223932       -0.530999      7.80609e-05     0.000116201
                      -0.0002843    -0.000155606        -0.421125       -0.878205       0.00015902     0.000161795        -0.146606        0.144496
281700.5               -0.330256       -0.483602     -0.000621529     9.11448e-05         -0.77607       0.0317404     -0.000157056    -0.000130033
                    -0.000388008      0.00033101        -0.204673       0.0225439      0.000395642    -0.000106776        -0.420879       -0.877812
                       -0.776161       0.0320125      0.000561688     0.000414818         0.223895       -0.531046      7.80791e-05     0.000116168
                    -0.000284315    -0.000155591        -0.421152       -0.878193      0.000159069      0.00016178        -0.146599        0.144498
281700.6               -0.330292       -0.483613     -0.000621513     9.11532e-05        -0.776044       0.0317879     -0.000157075     -0.00013001
                    -0.000388002     0.000331004        -0.204668       0.0225496      0.000395645    -0.000106782        -0.420906         -0.8778
                       -0.776135       0.0320601      0.000561691      0.00041483         0.223859       -0.531093      7.80974e-05     0.000116134
                    -0.000284329    -0.000155576        -0.421179       -0.878181      0.000159119     0.000161763        -0.146592        0.144499
281700.7               -0.330329       -0.483623     -0.000621497     9.11615e-05        -0.776018       0.0318353     -0.000157095    -0.000129987
                    -0.000387996     0.000330998        -0.204664       0.0225554      0.000395649    -0.000106788        -0.420933       -0.877788
                       -0.776109       0.0321076      0.000561695     0.000414841         0.223823        -0.53114      7.81157e-05       0.0001161
                    -0.000284343    -0.000155562        -0.421206       -0.878169      0.000159169     0.000161746        -0.146585        0.144501
281700.8               -0.330365       -0.483634     -0.000621481     9.11699e-05        -0.775992       0.0318828     -0.000157115    -0.000129963
                     -0.00038799     0.000330992        -0.204659       0.0225611      0.000395652    -0.000106794         -0.42096       -0.877776
                       -0.776082       0.0321552      0.000561699     0.000414852         0.223787       -0.531187       7.8134e-05     0.000116067
                    -0.000284357    -0.000155547        -0.421233       -0.878157      0.000159219     0.000161729        -0.146577        0.144502
281700.9               -0.330402       -0.483644     -0.000621465     9.11782e-05        -0.775966       0.0319302     -0.000157135     -0.00012994
                    -0.000387983     0.000330986        -0.204654       0.0225669      0.000395655      -0.0001068        -0.420987       -0.877764
                       -0.776056       0.0322027      0.000561703     0.000414863         0.223751       -0.531234      7.81523e-05     0.000116033
                    -0.000284372    -0.000155532         -0.42126       -0.878146      0.000159269     0.000161711         -0.14657        0.144504
281701                 -0.330438       -0.483655     -0.000621449     9.11865e-05         -0.77594       0.0319776     -0.000157155    -0.000129917
                    -0.000387977     0.000330979         -0.20465       0.0225726      0.000395659    -0.000106806        -0.421014       -0.877752
                        -0.77603       0.0322503      0.000561707     0.000414875         0.223715       -0.531281      7.81706e-05     0.000115999
                    -0.000284386    -0.000155517        -0.421287       -0.878134      0.000159319     0.000161692        -0.146563        0.144506
281701.1               -0.330475       -0.483665     -0.000621432     9.11949e-05        -0.775913        0.032025     -0.000157175    -0.000129893
                    -0.000387971     0.000330973        -0.204645       0.0225783      0.000395662    -0.000106812        -0.421041        -0.87774
                       -0.776003       0.0322978      0.000561712     0.000414886         0.223679       -0.531328      7.81889e-05     0.000115966
                      -0.0002844    -0.000155502        -0.421314       -0.878122       0.00015937     0.000161673        -0.146556        0.144507
281701.2               -0.330511       -0.483675     -0.000621416     9.12032e-05        -0.775887       0.0320725     -0.000157195     -0.00012987
                    -0.000387965     0.000330967        -0.204641       0.0225841      0.000395665    -0.000106817        -0.421068       -0.877728
                       -0.775977       0.0323453      0.000561716     0.000414897         0.223643       -0.531375      7.82073e-05     0.000115932
                    -0.000284414    -0.000155488        -0.421341        -0.87811       0.00015942     0.000161653        -0.146549        0.144509
281701.3               -0.330548       -0.483686       -0.0006214     9.12115e-05        -0.775861       0.0321199     -0.000157214    -0.000129847
                    -0.000387959     0.000330961        -0.204636       0.0225898      0.000395669    -0.000106823        -0.421095       -0.877716
                       -0.775951       0.0323929       0.00056172     0.000414908         0.223607       -0.531422      7.82256e-05     0.000115898
                    -0.000284429    -0.000155473        -0.421368       -0.878098      0.000159471     0.000161633        -0.146542         0.14451
281701.4               -0.330584       -0.483696     -0.000621384     9.12198e-05        -0.775835       0.0321673     -0.000157234    -0.000129824
                    -0.000387952     0.000330955        -0.204631       0.0225955      0.000395672    -0.000106829        -0.421122       -0.877704
                       -0.775924       0.0324404      0.000561724     0.000414919         0.223571       -0.531469      7.82439e-05     0.000115865
                    -0.000284443    -0.000155458        -0.421394       -0.878086      0.000159522     0.000161611        -0.146535        0.144512
281701.5               -0.330621       -0.483707     -0.000621368     9.12282e-05        -0.775809       0.0322147     -0.000157254      -0.0001298
                    -0.000387946     0.000330949        -0.204627       0.0226013      0.000395675    -0.000106835        -0.421149       -0.877692
                       -0.775898        0.032488      0.000561728      0.00041493         0.223534       -0.531516      7.82623e-05     0.000115831
                    -0.000284457    -0.000155443        -0.421421       -0.878074      0.000159573     0.000161589        -0.146527        0.144513
281701.6               -0.330657       -0.483717     -0.000621351     9.12365e-05        -0.775783       0.0322622     -0.000157274    -0.000129777
                     -0.00038794     0.000330943        -0.204622        0.022607      0.000395679    -0.000106841        -0.421176        -0.87768
                       -0.775872       0.0325355      0.000561732     0.000414941         0.223498       -0.531563      7.82807e-05     0.000115797
                    -0.000284471    -0.000155428        -0.421448       -0.878062      0.000159624     0.000161566         -0.14652        0.144515
281701.7               -0.330694       -0.483728     -0.000621335     9.12448e-05        -0.775757       0.0323096     -0.000157294    -0.000129754
                    -0.000387934     0.000330937        -0.204618       0.0226127      0.000395682    -0.000106847        -0.421203       -0.877668
                       -0.775845        0.032583      0.000561737     0.000414952         0.223462        -0.53161      7.82991e-05     0.000115764
                    -0.000284486    -0.000155414        -0.421475        -0.87805      0.000159675     0.000161543        -0.146513        0.144517
281701.8                -0.33073       -0.483738     -0.000621319     9.12531e-05         -0.77573        0.032357     -0.000157314     -0.00012973
                    -0.000387928     0.000330931        -0.204613       0.0226184      0.000395686    -0.000106853         -0.42123       -0.877656
                       -0.775819       0.0326305      0.000561741     0.000414963         0.223426       -0.531657      7.83175e-05      0.00011573
                      -0.0002845    -0.000155399        -0.421502       -0.878038      0.000159726     0.000161518        -0.146506        0.144518
281701.9               -0.330767       -0.483748     -0.000621302     9.12614e-05        -0.775704       0.0324044     -0.000157334    -0.000129707
                    -0.000387921     0.000330925        -0.204608       0.0226242      0.000395689    -0.000106859        -0.421257       -0.877644
                       -0.775792       0.0326781      0.000561745     0.000414974          0.22339       -0.531704      7.83359e-05     0.000115696
                    -0.000284514    -0.000155384        -0.421529       -0.878026      0.000159777     0.000161493        -0.146499         0.14452
281702                 -0.330803       -0.483759     -0.000621286     9.12697e-05        -0.775678       0.0324519     -0.000157353    -0.000129684
                    -0.000387915     0.000330919        -0.204604       0.0226299      0.000395693    -0.000106864        -0.421284       -0.877633
                       -0.775766       0.0327256      0.000561749     0.000414984         0.223354       -0.531751      7.83543e-05     0.000115663
                    -0.000284528    -0.000155369        -0.421556       -0.878014      0.000159828     0.000161467        -0.146492        0.144521
281702.1                -0.33084       -0.483769      -0.00062127      9.1278e-05        -0.775652       0.0324993     -0.000157373     -0.00012966
                    -0.000387909     0.000330913        -0.204599       0.0226356      0.000395696     -0.00010687        -0.421311       -0.877621
                        -0.77574       0.0327731      0.000561754     0.000414995         0.223317       -0.531798      7.83727e-05     0.000115629
                    -0.000284543    -0.000155354        -0.421583       -0.878002      0.000159878     0.000161439        -0.146484        0.144523
281702.2               -0.330876        -0.48378     -0.000621253     9.12863e-05        -0.775626       0.0325467     -0.000157393    -0.000129637
                    -0.000387903     0.000330907        -0.204594       0.0226414      0.000395699    -0.000106876        -0.421338       -0.877609
                       -0.775713       0.0328206      0.000561758     0.000415006         0.223281       -0.531845      7.83911e-05     0.000115596
                    -0.000284557    -0.000155339         -0.42161        -0.87799      0.000159929     0.000161412        -0.146477        0.144525
281702.3               -0.330913        -0.48379     -0.000621237     9.12946e-05          -0.7756       0.0325941     -0.000157413    -0.000129614
                    -0.000387896     0.000330901         -0.20459       0.0226471      0.000395703    -0.000106882        -0.421365       -0.877597
                       -0.775687       0.0328681      0.000561763     0.000415017         0.223245       -0.531892      7.84096e-05     0.000115562
                    -0.000284571    -0.000155325        -0.421637       -0.877978      0.000159979     0.000161383         -0.14647        0.144526
281702.4                -0.33095         -0.4838     -0.000621221     9.13029e-05        -0.775573       0.0326415     -0.000157433    -0.000129591
                     -0.00038789     0.000330895        -0.204585       0.0226528      0.000395706    -0.000106888        -0.421392       -0.877585
                       -0.775661       0.0329157      0.000561767     0.000415027         0.223209       -0.531939       7.8428e-05     0.000115528
                    -0.000284585     -0.00015531        -0.421664       -0.877966       0.00016003     0.000161353        -0.146463        0.144528
281702.5               -0.330986       -0.483811     -0.000621204     9.13112e-05        -0.775547       0.0326889     -0.000157453    -0.000129567
                    -0.000387884     0.000330889        -0.204581       0.0226586       0.00039571    -0.000106893        -0.421418       -0.877573
                       -0.775634       0.0329632      0.000561772     0.000415038         0.223173       -0.531986      7.84465e-05     0.000115495
                      -0.0002846    -0.000155295        -0.421691       -0.877954      0.000160079     0.000161322        -0.146456        0.144529
281702.6               -0.331023       -0.483821     -0.000621188     9.13195e-05        -0.775521       0.0327363     -0.000157472    -0.000129544
                    -0.000387878     0.000330883        -0.204576       0.0226643      0.000395713    -0.000106899        -0.421445       -0.877561
                       -0.775608       0.0330107      0.000561776     0.000415048         0.223136       -0.532033       7.8465e-05     0.000115461
                    -0.000284614     -0.00015528        -0.421718       -0.877942      0.000160129      0.00016129        -0.146449        0.144531
281702.7               -0.331059       -0.483832     -0.000621172     9.13278e-05        -0.775495       0.0327837     -0.000157492    -0.000129521
                    -0.000387871     0.000330877        -0.204571         0.02267      0.000395717    -0.000106905        -0.421472       -0.877549
                       -0.775581       0.0330582      0.000561781     0.000415059           0.2231        -0.53208      7.84834e-05     0.000115427
                    -0.000284628    -0.000155265        -0.421745        -0.87793      0.000160178     0.000161258        -0.146442        0.144532
281702.8               -0.331096       -0.483842     -0.000621155      9.1336e-05        -0.775468       0.0328312     -0.000157512    -0.000129497
                    -0.000387865     0.000330871        -0.204567       0.0226757      0.000395721     -0.00010691        -0.421499       -0.877537
                       -0.775555       0.0331057      0.000561785     0.000415069         0.223064       -0.532127      7.85019e-05     0.000115394
                    -0.000284642     -0.00015525        -0.421772       -0.877918      0.000160227     0.000161224        -0.146434        0.144534
281702.9               -0.331132       -0.483852     -0.000621139     9.13443e-05        -0.775442       0.0328786     -0.000157532    -0.000129474
                    -0.000387859     0.000330865        -0.204562       0.0226815      0.000395724    -0.000106916        -0.421526       -0.877525
                       -0.775528       0.0331532       0.00056179      0.00041508         0.223028       -0.532174      7.85204e-05      0.00011536
                    -0.000284657    -0.000155236        -0.421798       -0.877906      0.000160275     0.000161189        -0.146427        0.144536
281703                 -0.331169       -0.483863     -0.000621122     9.13526e-05        -0.775416        0.032926     -0.000157552    -0.000129451
                    -0.000387853     0.000330859        -0.204558       0.0226872      0.000395728    -0.000106922        -0.421553       -0.877513
                       -0.775502       0.0332007      0.000561794      0.00041509         0.222991       -0.532221      7.85389e-05     0.000115327
                    -0.000284671    -0.000155221        -0.421825       -0.877894      0.000160322     0.000161154         -0.14642        0.144537
281703.1               -0.331206       -0.483873     -0.000621106     9.13609e-05         -0.77539       0.0329734     -0.000157572    -0.000129427
                    -0.000387846     0.000330853        -0.204553       0.0226929      0.000395731    -0.000106927         -0.42158       -0.877501
                       -0.775476       0.0332482      0.000561799     0.000415101         0.222955       -0.532268      7.85575e-05     0.000115293
