! TOUCHSTONE file generated by CST MICROWAVE STUDIO
! Date and time: Wed Oct  8 07:04:20 2025
! Project name: Teste_Macro_Metasurface_Nanopilar.cst
! Parameters = {H=600; L_x=185; L_y=80; Lambda=1064; Max_L=200; Min_L=70; PathPara=1; Phi=0; Step_L=10; Theta=0; p=520; phaseX=180; phaseY=0}
! Header version: 2018
! Port assignment regex: !\s*Touchstone port\s*([0-9]+)\s*=\s*(CST MWS port|CST DS port)\s*([0-9]+|Zmin|Zmax)\s*\(\"(.*)\"\)(\s*mode\s*([0-9]+))?.*
! Touchstone port assignment:
! Touchstone port 1 = CST MWS port Zmax ("") mode 1
! Touchstone port 2 = CST MWS port Zmax ("") mode 2
! Touchstone port 3 = CST MWS port Zmin ("") mode 1
! Touchstone port 4 = CST MWS port Zmin ("") mode 2
! S-Parameters are not renormalized. Each port impedance will be approximated by the real part at minimum frequency. The values are described via the [Reference] keyword.
! Default impedance is overridden by [Reference]
[Version] 2.0
# GHz S RI R 376.73
[Number of Ports] 4
[Reference]
376.73 376.73 376.73 376.73 
[Number of Frequencies] 1001
[Network Data]
281700                 0.0104929       -0.152238     -0.000161668     0.000600109        -0.658175        0.735539     -0.000163136    -0.000369146
                    -0.000331454     0.000456764        -0.120797       -0.106366      0.000214204    -0.000316303        -0.618104       -0.761622
                       -0.658401        0.735337      0.000166559    -0.000394331        -0.150306       0.0275961       0.00028927     0.000473763
                    -0.000160238    -0.000411129        -0.618075       -0.761744      0.000213155     0.000479838        0.0770891        0.136822
281700.1               0.0104863       -0.152238     -0.000161658     0.000600109        -0.658155        0.735557     -0.000163151    -0.000369136
                    -0.000331442     0.000456771        -0.120794       -0.106366      0.000214199     -0.00031631        -0.618129       -0.761602
                       -0.658381        0.735355      0.000166548    -0.000394347        -0.150305       0.0275977      0.000289291     0.000473755
                    -0.000160251    -0.000411125        -0.618101       -0.761724      0.000213177     0.000479837        0.0770984        0.136813
281700.2               0.0104796       -0.152238     -0.000161647     0.000600109        -0.658135        0.735575     -0.000163167    -0.000369125
                    -0.000331431     0.000456778         -0.12079       -0.106365      0.000214194    -0.000316318        -0.618155       -0.761582
                       -0.658361        0.735374      0.000166536    -0.000394362        -0.150305       0.0275994      0.000289311     0.000473747
                    -0.000160264    -0.000411122        -0.618127       -0.761703      0.000213198     0.000479837        0.0771078        0.136804
281700.3                0.010473       -0.152238     -0.000161636     0.000600109        -0.658114        0.735593     -0.000163182    -0.000369114
                     -0.00033142     0.000456785        -0.120787       -0.106365      0.000214189    -0.000316325        -0.618181       -0.761562
                       -0.658341        0.735392      0.000166525    -0.000394377        -0.150304        0.027601      0.000289332     0.000473739
                    -0.000160278    -0.000411118        -0.618152       -0.761683       0.00021322     0.000479836        0.0771172        0.136795
281700.4               0.0104663       -0.152238     -0.000161626     0.000600109        -0.658094        0.735611     -0.000163198    -0.000369104
                    -0.000331409     0.000456792        -0.120783       -0.106364      0.000214184    -0.000316333        -0.618207       -0.761541
                        -0.65832         0.73541      0.000166514    -0.000394393        -0.150303       0.0276026      0.000289352      0.00047373
                    -0.000160291    -0.000411115        -0.618178       -0.761663      0.000213242     0.000479835        0.0771265        0.136786
281700.5               0.0104597       -0.152238     -0.000161615     0.000600109        -0.658074        0.735629     -0.000163213    -0.000369093
                    -0.000331398     0.000456799        -0.120779       -0.106363      0.000214179     -0.00031634        -0.618232       -0.761521
                         -0.6583        0.735428      0.000166503    -0.000394408        -0.150302       0.0276042      0.000289372     0.000473722
                    -0.000160304    -0.000411111        -0.618204       -0.761643      0.000213263     0.000479835        0.0771359        0.136777
281700.6                0.010453       -0.152238     -0.000161605     0.000600109        -0.658054        0.735648     -0.000163229    -0.000369082
                    -0.000331387     0.000456806        -0.120776       -0.106363      0.000214174    -0.000316348        -0.618258       -0.761501
                        -0.65828        0.735446      0.000166491    -0.000394423        -0.150302       0.0276058      0.000289393     0.000473714
                    -0.000160317    -0.000411108         -0.61823       -0.761622      0.000213285     0.000479834        0.0771453        0.136768
281700.7               0.0104464       -0.152238     -0.000161594     0.000600109        -0.658034        0.735666     -0.000163244    -0.000369072
                    -0.000331376     0.000456813        -0.120772       -0.106362      0.000214169    -0.000316355        -0.618284        -0.76148
                        -0.65826        0.735464       0.00016648    -0.000394439        -0.150301       0.0276074      0.000289413     0.000473705
                     -0.00016033    -0.000411104        -0.618256       -0.761602      0.000213306     0.000479833        0.0771546        0.136759
281700.8               0.0104397       -0.152238     -0.000161584     0.000600109        -0.658014        0.735684     -0.000163259    -0.000369061
                    -0.000331365     0.000456819        -0.120769       -0.106362      0.000214164    -0.000316363         -0.61831        -0.76146
                        -0.65824        0.735482      0.000166469    -0.000394454          -0.1503        0.027609      0.000289434     0.000473697
                    -0.000160344      -0.0004111        -0.618281       -0.761582      0.000213328     0.000479832         0.077164         0.13675
281700.9                0.010433       -0.152238     -0.000161573     0.000600109        -0.657994        0.735702     -0.000163275     -0.00036905
                    -0.000331354     0.000456826        -0.120765       -0.106361      0.000214159     -0.00031637        -0.618336        -0.76144
                        -0.65822          0.7355      0.000166458    -0.000394469          -0.1503       0.0276107      0.000289454     0.000473689
                    -0.000160357    -0.000411097        -0.618307       -0.761561       0.00021335     0.000479832        0.0771733        0.136741
281701                 0.0104264       -0.152238     -0.000161563     0.000600109        -0.657973         0.73572      -0.00016329     -0.00036904
                    -0.000331343     0.000456833        -0.120762       -0.106361      0.000214154    -0.000316378        -0.618361       -0.761419
                         -0.6582        0.735518      0.000166446    -0.000394485        -0.150299       0.0276123      0.000289475     0.000473681
                     -0.00016037    -0.000411093        -0.618333       -0.761541      0.000213371     0.000479831        0.0771827        0.136732
281701.1               0.0104197       -0.152238     -0.000161552     0.000600109        -0.657953        0.735738     -0.000163306    -0.000369029
                    -0.000331331      0.00045684        -0.120758        -0.10636      0.000214149    -0.000316385        -0.618387       -0.761399
                        -0.65818        0.735536      0.000166435      -0.0003945        -0.150298       0.0276139      0.000289495     0.000473672
                    -0.000160383     -0.00041109        -0.618359       -0.761521      0.000213393      0.00047983        0.0771921        0.136723
281701.2               0.0104131       -0.152239     -0.000161541     0.000600109        -0.657933        0.735756     -0.000163321    -0.000369018
                     -0.00033132     0.000456847        -0.120754       -0.106359      0.000214144    -0.000316393        -0.618413       -0.761379
                        -0.65816        0.735554      0.000166424    -0.000394515        -0.150297       0.0276155      0.000289515     0.000473664
                    -0.000160397    -0.000411086        -0.618384         -0.7615      0.000213414     0.000479829        0.0772014        0.136714
281701.3               0.0104064       -0.152239     -0.000161531     0.000600109        -0.657913        0.735774     -0.000163337    -0.000369008
                    -0.000331309     0.000456854        -0.120751       -0.106359      0.000214139      -0.0003164        -0.618439       -0.761358
                       -0.658139        0.735572      0.000166413     -0.00039453        -0.150297       0.0276171      0.000289536     0.000473656
                     -0.00016041    -0.000411083         -0.61841        -0.76148      0.000213436     0.000479829        0.0772108        0.136705
281701.4               0.0103998       -0.152239      -0.00016152     0.000600109        -0.657893        0.735792     -0.000163352    -0.000368997
                    -0.000331298     0.000456861        -0.120747       -0.106358      0.000214134    -0.000316408        -0.618464       -0.761338
                       -0.658119         0.73559      0.000166402    -0.000394546        -0.150296       0.0276187      0.000289556     0.000473647
                    -0.000160423    -0.000411079        -0.618436        -0.76146      0.000213458     0.000479828        0.0772201        0.136697
281701.5               0.0103931       -0.152239      -0.00016151     0.000600109        -0.657873         0.73581     -0.000163367    -0.000368986
                    -0.000331287     0.000456868        -0.120744       -0.106358      0.000214129    -0.000316416         -0.61849       -0.761318
                       -0.658099        0.735609       0.00016639    -0.000394561        -0.150295       0.0276203      0.000289577     0.000473639
                    -0.000160436    -0.000411075        -0.618462       -0.761439      0.000213479     0.000479827        0.0772295        0.136688
281701.6               0.0103865       -0.152239     -0.000161499     0.000600109        -0.657853        0.735828     -0.000163383    -0.000368976
                    -0.000331276     0.000456875         -0.12074       -0.106357      0.000214124    -0.000316423        -0.618516       -0.761297
                       -0.658079        0.735627      0.000166379    -0.000394576        -0.150294        0.027622      0.000289597     0.000473631
                    -0.000160449    -0.000411072        -0.618488       -0.761419      0.000213501     0.000479827        0.0772388        0.136679
281701.7               0.0103798       -0.152239     -0.000161489     0.000600109        -0.657832        0.735846     -0.000163398    -0.000368965
                    -0.000331265     0.000456882        -0.120737       -0.106357      0.000214119    -0.000316431        -0.618542       -0.761277
                       -0.658059        0.735645      0.000166368    -0.000394592        -0.150294       0.0276236      0.000289618     0.000473623
                    -0.000160463    -0.000411068        -0.618513       -0.761399      0.000213522     0.000479826        0.0772482         0.13667
281701.8               0.0103731       -0.152239     -0.000161478     0.000600109        -0.657812        0.735864     -0.000163414    -0.000368954
                    -0.000331254     0.000456889        -0.120733       -0.106356      0.000214114    -0.000316438        -0.618568       -0.761257
                       -0.658039        0.735663      0.000166357    -0.000394607        -0.150293       0.0276252      0.000289638     0.000473614
                    -0.000160476    -0.000411065        -0.618539       -0.761379      0.000213544     0.000479825        0.0772576        0.136661
281701.9               0.0103665       -0.152239     -0.000161468     0.000600109        -0.657792        0.735882     -0.000163429    -0.000368944
                    -0.000331243     0.000456895         -0.12073       -0.106355      0.000214109    -0.000316446        -0.618593       -0.761237
                       -0.658019        0.735681      0.000166345    -0.000394622        -0.150292       0.0276268      0.000289658     0.000473606
                    -0.000160489    -0.000411061        -0.618565       -0.761358      0.000213566     0.000479824        0.0772669        0.136652
281702                 0.0103598       -0.152239     -0.000161457     0.000600109        -0.657772        0.735901     -0.000163445    -0.000368933
                    -0.000331232     0.000456902        -0.120726       -0.106355      0.000214104    -0.000316453        -0.618619       -0.761216
                       -0.657999        0.735699      0.000166334    -0.000394638        -0.150292       0.0276284      0.000289679     0.000473598
                    -0.000160502    -0.000411057        -0.618591       -0.761338      0.000213587     0.000479824        0.0772763        0.136643
281702.1               0.0103532       -0.152239     -0.000161446     0.000600109        -0.657752        0.735919      -0.00016346    -0.000368922
                     -0.00033122     0.000456909        -0.120722       -0.106354      0.000214099    -0.000316461        -0.618645       -0.761196
                       -0.657979        0.735717      0.000166323    -0.000394653        -0.150291         0.02763      0.000289699     0.000473589
                    -0.000160515    -0.000411054        -0.618616       -0.761318      0.000213609     0.000479823        0.0772856        0.136634
281702.2               0.0103465       -0.152239     -0.000161436      0.00060011        -0.657732        0.735937     -0.000163475    -0.000368912
                    -0.000331209     0.000456916        -0.120719       -0.106354      0.000214094    -0.000316468        -0.618671       -0.761176
                       -0.657958        0.735735      0.000166312    -0.000394668         -0.15029       0.0276316       0.00028972     0.000473581
                    -0.000160529     -0.00041105        -0.618642       -0.761297       0.00021363     0.000479822         0.077295        0.136625
281702.3               0.0103399       -0.152239     -0.000161425      0.00060011        -0.657712        0.735955     -0.000163491    -0.000368901
                    -0.000331198     0.000456923        -0.120715       -0.106353      0.000214089    -0.000316476        -0.618696       -0.761155
                       -0.657938        0.735753        0.0001663    -0.000394684        -0.150289       0.0276333       0.00028974     0.000473573
                    -0.000160542    -0.000411047        -0.618668       -0.761277      0.000213652     0.000479821        0.0773043        0.136616
281702.4               0.0103332       -0.152239     -0.000161415      0.00060011        -0.657692        0.735973     -0.000163506     -0.00036889
                    -0.000331187      0.00045693        -0.120712       -0.106352      0.000214084    -0.000316483        -0.618722       -0.761135
                       -0.657918        0.735771      0.000166289    -0.000394699        -0.150289       0.0276349      0.000289761     0.000473564
                    -0.000160555    -0.000411043        -0.618694       -0.761257      0.000213674     0.000479821        0.0773137        0.136607
281702.5               0.0103266       -0.152239     -0.000161404      0.00060011        -0.657671        0.735991     -0.000163522     -0.00036888
                    -0.000331176     0.000456937        -0.120708       -0.106352      0.000214079    -0.000316491        -0.618748       -0.761115
                       -0.657898        0.735789      0.000166278    -0.000394714        -0.150288       0.0276365      0.000289781     0.000473556
                    -0.000160568     -0.00041104         -0.61872       -0.761236      0.000213695      0.00047982         0.077323        0.136598
281702.6               0.0103199       -0.152239     -0.000161394      0.00060011        -0.657651        0.736009     -0.000163537    -0.000368869
                    -0.000331165     0.000456944        -0.120705       -0.106351      0.000214074    -0.000316498        -0.618774       -0.761094
                       -0.657878        0.735807      0.000166267    -0.000394729        -0.150287       0.0276381      0.000289801     0.000473548
                    -0.000160582    -0.000411036        -0.618745       -0.761216      0.000213717     0.000479819        0.0773324        0.136589
281702.7               0.0103133       -0.152239     -0.000161383      0.00060011        -0.657631        0.736027     -0.000163552    -0.000368858
                    -0.000331154     0.000456951        -0.120701       -0.106351      0.000214069    -0.000316506        -0.618799       -0.761074
                       -0.657858        0.735825      0.000166255    -0.000394745        -0.150286       0.0276397      0.000289822      0.00047354
                    -0.000160595    -0.000411032        -0.618771       -0.761196      0.000213738     0.000479818        0.0773418         0.13658
281702.8               0.0103066       -0.152239     -0.000161373      0.00060011        -0.657611        0.736045     -0.000163568    -0.000368848
                    -0.000331143     0.000456958        -0.120697        -0.10635      0.000214064    -0.000316513        -0.618825       -0.761054
                       -0.657838        0.735843      0.000166244     -0.00039476        -0.150286       0.0276413      0.000289842     0.000473531
                    -0.000160608    -0.000411029        -0.618797       -0.761175       0.00021376     0.000479818        0.0773511        0.136571
281702.9               0.0102999       -0.152239     -0.000161362      0.00060011        -0.657591        0.736063     -0.000163583    -0.000368837
                    -0.000331132     0.000456965        -0.120694        -0.10635      0.000214059    -0.000316521        -0.618851       -0.761033
                       -0.657818        0.735862      0.000166233    -0.000394775        -0.150285       0.0276429      0.000289863     0.000473523
                    -0.000160621    -0.000411025        -0.618823       -0.761155      0.000213782     0.000479817        0.0773605        0.136562
281703                 0.0102933       -0.152239     -0.000161352      0.00060011        -0.657571        0.736081     -0.000163599    -0.000368826
                    -0.000331121     0.000456971         -0.12069       -0.106349      0.000214054    -0.000316529        -0.618877       -0.761013
                       -0.657798         0.73588      0.000166222    -0.000394791        -0.150284       0.0276445      0.000289883     0.000473515
                    -0.000160634    -0.000411022        -0.618848       -0.761135      0.000213803     0.000479816        0.0773698        0.136553
281703.1               0.0102866       -0.152239     -0.000161341      0.00060011        -0.657551        0.736099     -0.000163614    -0.000368816
                     -0.00033111     0.000456978        -0.120687       -0.106348      0.000214049    -0.000316536        -0.618903       -0.760993
                       -0.657777        0.735898       0.00016621    -0.000394806        -0.150283       0.0276462      0.000289904     0.000473506
