! TOUCHSTONE file generated by CST MICROWAVE STUDIO
! Date and time: Wed Oct  8 06:59:49 2025
! Project name: Teste_Macro_Metasurface_Nanopilar.cst
! Parameters = {H=600; L_x=145; L_y=140; Lambda=1064; Max_L=200; Min_L=70; PathPara=1; Phi=0; Step_L=10; Theta=0; p=520; phaseX=180; phaseY=0}
! Header version: 2018
! Port assignment regex: !\s*Touchstone port\s*([0-9]+)\s*=\s*(CST MWS port|CST DS port)\s*([0-9]+|Zmin|Zmax)\s*\(\"(.*)\"\)(\s*mode\s*([0-9]+))?.*
! Touchstone port assignment:
! Touchstone port 1 = CST MWS port Zmax ("") mode 1
! Touchstone port 2 = CST MWS port Zmax ("") mode 2
! Touchstone port 3 = CST MWS port Zmin ("") mode 1
! Touchstone port 4 = CST MWS port Zmin ("") mode 2
! S-Parameters are not renormalized. Each port impedance will be approximated by the real part at minimum frequency. The values are described via the [Reference] keyword.
! Default impedance is overridden by [Reference]
[Version] 2.0
# GHz S RI R 376.73
[Number of Ports] 4
[Reference]
376.73 376.73 376.73 376.73 
[Number of Frequencies] 1001
[Network Data]
281700                 -0.121565      -0.0162612     -0.000529463      0.00156311        -0.691727       -0.704201      0.000517903    -0.000561953
                    -0.000494332      0.00154255       -0.0893408       -0.096795      0.000419199    -0.000689047        -0.806343       -0.565422
                       -0.692236       -0.703912      0.000469227    -0.000608231        0.0117329        0.118702      -0.00156182      0.00104352
                         0.00046    -0.000632624        -0.806614       -0.564917      -0.00156213      0.00100307         0.115995       0.0445804
281700.1                -0.12156      -0.0162615     -0.000529433      0.00156314        -0.691751        -0.70418        0.0005179    -0.000561992
                    -0.000494304      0.00154258       -0.0893373      -0.0968004      0.000419177    -0.000689083        -0.806362       -0.565393
                       -0.692259        -0.70389      0.000469213    -0.000608275         0.011741        0.118695      -0.00156178      0.00104361
                     0.000459993    -0.000632665        -0.806634       -0.564888      -0.00156211      0.00100316         0.116002       0.0445666
281700.2               -0.121554      -0.0162618     -0.000529403      0.00156318        -0.691774       -0.704158      0.000517897     -0.00056203
                    -0.000494276      0.00154262       -0.0893339      -0.0968059      0.000419156     -0.00068912        -0.806382       -0.565364
                       -0.692282       -0.703868      0.000469198    -0.000608319        0.0117491        0.118689      -0.00156175       0.0010437
                     0.000459985    -0.000632705        -0.806654       -0.564859      -0.00156208      0.00100325         0.116009       0.0445528
281700.3               -0.121549      -0.0162622     -0.000529372      0.00156321        -0.691797       -0.704136      0.000517894    -0.000562069
                    -0.000494248      0.00154265       -0.0893304      -0.0968113      0.000419135    -0.000689156        -0.806402       -0.565335
                       -0.692305       -0.703846      0.000469184    -0.000608363        0.0117571        0.118682      -0.00156171       0.0010438
                     0.000459977    -0.000632746        -0.806673        -0.56483      -0.00156206      0.00100334         0.116016        0.044539
281700.4               -0.121543      -0.0162625     -0.000529342      0.00156324         -0.69182       -0.704114      0.000517891    -0.000562108
                     -0.00049422      0.00154268        -0.089327      -0.0968168      0.000419114    -0.000689193        -0.806421       -0.565307
                       -0.692328       -0.703824      0.000469169    -0.000608408        0.0117652        0.118676      -0.00156168      0.00104389
                     0.000459969    -0.000632786        -0.806693       -0.564801      -0.00156204      0.00100343         0.116023       0.0445252
281700.5               -0.121538      -0.0162628     -0.000529311      0.00156328        -0.691843       -0.704092      0.000517888    -0.000562147
                    -0.000494192      0.00154272       -0.0893235      -0.0968222      0.000419092     -0.00068923        -0.806441       -0.565278
                       -0.692351       -0.703803      0.000469155    -0.000608452        0.0117733         0.11867      -0.00156165      0.00104398
                     0.000459962    -0.000632827        -0.806713       -0.564773      -0.00156202      0.00100351          0.11603       0.0445114
281700.6               -0.121532      -0.0162632     -0.000529281      0.00156331        -0.691866       -0.704071      0.000517885    -0.000562185
                    -0.000494164      0.00154275       -0.0893201      -0.0968277      0.000419071    -0.000689266        -0.806461       -0.565249
                       -0.692374       -0.703781       0.00046914    -0.000608496        0.0117814        0.118663      -0.00156161      0.00104407
                     0.000459954    -0.000632867        -0.806732       -0.564744        -0.001562       0.0010036         0.116037       0.0444976
281700.7               -0.121527      -0.0162635     -0.000529251      0.00156334        -0.691889       -0.704049      0.000517882    -0.000562224
                    -0.000494136      0.00154278       -0.0893166      -0.0968331       0.00041905    -0.000689303        -0.806481        -0.56522
                       -0.692398       -0.703759      0.000469126     -0.00060854        0.0117895        0.118657      -0.00156158      0.00104416
                     0.000459946    -0.000632907        -0.806752       -0.564715      -0.00156197      0.00100369         0.116044       0.0444838
281700.8               -0.121521      -0.0162639      -0.00052922      0.00156338        -0.691912       -0.704027      0.000517879    -0.000562263
                    -0.000494108      0.00154282       -0.0893132      -0.0968385      0.000419028    -0.000689339          -0.8065       -0.565192
                       -0.692421       -0.703737      0.000469111    -0.000608585        0.0117975         0.11865      -0.00156155      0.00104426
                     0.000459938    -0.000632948        -0.806772       -0.564686      -0.00156195      0.00100378         0.116051         0.04447
281700.9               -0.121516      -0.0162642      -0.00052919      0.00156341        -0.691935       -0.704005      0.000517876    -0.000562301
                     -0.00049408      0.00154285       -0.0893097       -0.096844      0.000419007    -0.000689376         -0.80652       -0.565163
                       -0.692444       -0.703715      0.000469097    -0.000608629        0.0118056        0.118644      -0.00156151      0.00104435
                      0.00045993    -0.000632988        -0.806791       -0.564657      -0.00156193      0.00100387         0.116058       0.0444562
281701                  -0.12151      -0.0162645     -0.000529159      0.00156344        -0.691958       -0.703984      0.000517873     -0.00056234
                    -0.000494052      0.00154288       -0.0893063      -0.0968494      0.000418986    -0.000689413         -0.80654       -0.565134
                       -0.692467       -0.703693      0.000469082    -0.000608673        0.0118137        0.118637      -0.00156148      0.00104444
                     0.000459923    -0.000633029        -0.806811       -0.564629      -0.00156191      0.00100395         0.116065       0.0444424
281701.1               -0.121505      -0.0162649     -0.000529129      0.00156348        -0.691981       -0.703962      0.000517869    -0.000562379
                    -0.000494024      0.00154291       -0.0893028      -0.0968549      0.000418965    -0.000689449        -0.806559       -0.565105
                        -0.69249       -0.703672      0.000469068    -0.000608717        0.0118218        0.118631      -0.00156144      0.00104453
                     0.000459915    -0.000633069        -0.806831         -0.5646      -0.00156188      0.00100404         0.116072       0.0444286
281701.2               -0.121499      -0.0162652     -0.000529098      0.00156351        -0.692004        -0.70394      0.000517866    -0.000562417
                    -0.000493996      0.00154295       -0.0892994      -0.0968603      0.000418943    -0.000689486        -0.806579       -0.565076
                       -0.692513        -0.70365      0.000469053    -0.000608762        0.0118298        0.118624      -0.00156141      0.00104462
                     0.000459907     -0.00063311         -0.80685       -0.564571      -0.00156186      0.00100413         0.116079       0.0444148
281701.3               -0.121494      -0.0162655     -0.000529068      0.00156354        -0.692027       -0.703918      0.000517863    -0.000562456
                    -0.000493968      0.00154298       -0.0892959      -0.0968658      0.000418922    -0.000689522        -0.806599       -0.565048
                       -0.692536       -0.703628      0.000469039    -0.000608806        0.0118379        0.118618      -0.00156138      0.00104472
                     0.000459899     -0.00063315         -0.80687       -0.564542      -0.00156184      0.00100422         0.116086        0.044401
281701.4               -0.121488      -0.0162659     -0.000529038      0.00156358         -0.69205       -0.703896       0.00051786    -0.000562495
                     -0.00049394      0.00154301       -0.0892925      -0.0968712      0.000418901    -0.000689559        -0.806618       -0.565019
                       -0.692559       -0.703606      0.000469024     -0.00060885         0.011846        0.118612      -0.00156134      0.00104481
                     0.000459892    -0.000633191         -0.80689       -0.564513      -0.00156182       0.0010043         0.116093       0.0443872
281701.5               -0.121483      -0.0162662     -0.000529007      0.00156361        -0.692073       -0.703875      0.000517857    -0.000562534
                    -0.000493912      0.00154305        -0.089289      -0.0968767      0.000418879    -0.000689596        -0.806638        -0.56499
                       -0.692582       -0.703584       0.00046901    -0.000608894        0.0118541        0.118605      -0.00156131       0.0010449
                     0.000459884    -0.000633231        -0.806909       -0.564485       -0.0015618      0.00100439           0.1161       0.0443733
281701.6               -0.121477      -0.0162666     -0.000528977      0.00156364        -0.692096       -0.703853      0.000517854    -0.000562572
                    -0.000493884      0.00154308       -0.0892856      -0.0968821      0.000418858    -0.000689632        -0.806658       -0.564961
                       -0.692605       -0.703562      0.000468995    -0.000608939        0.0118621        0.118599      -0.00156127      0.00104499
                     0.000459876    -0.000633272        -0.806929       -0.564456      -0.00156177      0.00100448         0.116107       0.0443595
281701.7               -0.121472      -0.0162669     -0.000528946      0.00156368        -0.692119       -0.703831      0.000517851    -0.000562611
                    -0.000493856      0.00154311       -0.0892821      -0.0968876      0.000418837    -0.000689669        -0.806677       -0.564932
                       -0.692628       -0.703541      0.000468981    -0.000608983        0.0118702        0.118592      -0.00156124      0.00104508
                     0.000459868    -0.000633312        -0.806949       -0.564427      -0.00156175      0.00100457         0.116114       0.0443457
281701.8               -0.121466      -0.0162672     -0.000528916      0.00156371        -0.692142       -0.703809      0.000517848     -0.00056265
                    -0.000493828      0.00154315       -0.0892787       -0.096893      0.000418815    -0.000689705        -0.806697       -0.564904
                       -0.692651       -0.703519      0.000468966    -0.000609027        0.0118783        0.118586      -0.00156121      0.00104518
                     0.000459861    -0.000633353        -0.806968       -0.564398      -0.00156173      0.00100466         0.116121       0.0443319
281701.9               -0.121461      -0.0162676     -0.000528886      0.00156374        -0.692165       -0.703788      0.000517845    -0.000562688
                      -0.0004938      0.00154318       -0.0892752      -0.0968985      0.000418794    -0.000689742        -0.806717       -0.564875
                       -0.692675       -0.703497      0.000468952    -0.000609071        0.0118863        0.118579      -0.00156117      0.00104527
                     0.000459853    -0.000633393        -0.806988       -0.564369      -0.00156171      0.00100474         0.116128       0.0443181
281702                 -0.121455      -0.0162679     -0.000528855      0.00156378        -0.692188       -0.703766      0.000517842    -0.000562727
                    -0.000493772      0.00154321       -0.0892718      -0.0969039      0.000418773    -0.000689779        -0.806736       -0.564846
                       -0.692698       -0.703475      0.000468937    -0.000609116        0.0118944        0.118573      -0.00156114      0.00104536
                     0.000459845    -0.000633434        -0.807008       -0.564341      -0.00156168      0.00100483         0.116135       0.0443043
281702.1                -0.12145      -0.0162683     -0.000528825      0.00156381        -0.692211       -0.703744      0.000517839    -0.000562766
                    -0.000493743      0.00154325       -0.0892684      -0.0969094      0.000418751    -0.000689815        -0.806756       -0.564817
                       -0.692721       -0.703453      0.000468923     -0.00060916        0.0119025        0.118567      -0.00156111      0.00104545
                     0.000459837    -0.000633474        -0.807027       -0.564312      -0.00156166      0.00100492         0.116143       0.0442905
281702.2               -0.121444      -0.0162686     -0.000528794      0.00156384        -0.692234       -0.703722      0.000517836    -0.000562805
                    -0.000493715      0.00154328       -0.0892649      -0.0969148       0.00041873    -0.000689852        -0.806776       -0.564789
                       -0.692744       -0.703432      0.000468908    -0.000609204        0.0119106         0.11856      -0.00156107      0.00104555
                     0.000459829    -0.000633515        -0.807047       -0.564283      -0.00156164      0.00100501          0.11615       0.0442767
281702.3               -0.121439       -0.016269     -0.000528764      0.00156388        -0.692257         -0.7037      0.000517833    -0.000562843
                    -0.000493687      0.00154331       -0.0892615      -0.0969203      0.000418709    -0.000689888        -0.806795        -0.56476
                       -0.692767        -0.70341      0.000468894    -0.000609248        0.0119186        0.118554      -0.00156104      0.00104564
                     0.000459822    -0.000633555        -0.807067       -0.564254      -0.00156162       0.0010051         0.116157       0.0442629
281702.4               -0.121433      -0.0162693     -0.000528733      0.00156391         -0.69228       -0.703679       0.00051783    -0.000562882
                    -0.000493659      0.00154334        -0.089258      -0.0969257      0.000418687    -0.000689925        -0.806815       -0.564731
                        -0.69279       -0.703388      0.000468879    -0.000609293        0.0119267        0.118547        -0.001561      0.00104573
                     0.000459814    -0.000633595        -0.807086       -0.564225       -0.0015616      0.00100518         0.116164        0.044249
281702.5               -0.121428      -0.0162696     -0.000528703      0.00156394        -0.692303       -0.703657      0.000517827    -0.000562921
                    -0.000493631      0.00154338       -0.0892546      -0.0969312      0.000418666    -0.000689962        -0.806835       -0.564702
                       -0.692813       -0.703366      0.000468865    -0.000609337        0.0119348        0.118541      -0.00156097      0.00104582
                     0.000459806    -0.000633636        -0.807106       -0.564197      -0.00156157      0.00100527         0.116171       0.0442352
281702.6               -0.121422        -0.01627     -0.000528672      0.00156398        -0.692326       -0.703635      0.000517824    -0.000562959
                    -0.000493603      0.00154341       -0.0892511      -0.0969366      0.000418645    -0.000689998        -0.806854       -0.564673
                       -0.692836       -0.703344       0.00046885    -0.000609381        0.0119428        0.118534      -0.00156094      0.00104591
                     0.000459798    -0.000633676        -0.807126       -0.564168      -0.00156155      0.00100536         0.116178       0.0442214
281702.7               -0.121417      -0.0162703     -0.000528642      0.00156401        -0.692349       -0.703613      0.000517821    -0.000562998
                    -0.000493575      0.00154344       -0.0892477      -0.0969421      0.000418623    -0.000690035        -0.806874       -0.564645
                       -0.692859       -0.703322      0.000468835    -0.000609425        0.0119509        0.118528       -0.0015609      0.00104601
                      0.00045979    -0.000633717        -0.807145       -0.564139      -0.00156153      0.00100545         0.116185       0.0442076
281702.8               -0.121411      -0.0162707     -0.000528612      0.00156404        -0.692372       -0.703591      0.000517817    -0.000563037
                    -0.000493547      0.00154348       -0.0892442      -0.0969475      0.000418602    -0.000690071        -0.806894       -0.564616
                       -0.692882       -0.703301      0.000468821     -0.00060947         0.011959        0.118521      -0.00156087       0.0010461
                     0.000459783    -0.000633757        -0.807165        -0.56411      -0.00156151      0.00100554         0.116192       0.0441938
281702.9               -0.121406       -0.016271     -0.000528581      0.00156408        -0.692395        -0.70357      0.000517814    -0.000563076
                    -0.000493519      0.00154351       -0.0892408       -0.096953       0.00041858    -0.000690108        -0.806913       -0.564587
                       -0.692905       -0.703279      0.000468806    -0.000609514        0.0119671        0.118515      -0.00156083      0.00104619
                     0.000459775    -0.000633798        -0.807185       -0.564081      -0.00156148      0.00100562         0.116199         0.04418
281703                   -0.1214      -0.0162714     -0.000528551      0.00156411        -0.692418       -0.703548      0.000517811    -0.000563114
                    -0.000493491      0.00154354       -0.0892374      -0.0969585      0.000418559    -0.000690145        -0.806933       -0.564558
                       -0.692928       -0.703257      0.000468792    -0.000609558        0.0119751        0.118509       -0.0015608      0.00104628
                     0.000459767    -0.000633838        -0.807204       -0.564052      -0.00156146      0.00100571         0.116206       0.0441661
281703.1               -0.121395      -0.0162717      -0.00052852      0.00156414        -0.692441       -0.703526      0.000517808    -0.000563153
                    -0.000493463      0.00154358       -0.0892339      -0.0969639      0.000418538    -0.000690181        -0.806953       -0.564529
                       -0.692951       -0.703235      0.000468777    -0.000609602        0.0119832        0.118502      -0.00156077      0.00104637
