! TOUCHSTONE file generated by CST MICROWAVE STUDIO
! Date and time: Wed Oct  8 06:57:40 2025
! Project name: Teste_Macro_Metasurface_Nanopilar.cst
! Parameters = {H=600; L_x=125; L_y=195; Lambda=1064; Max_L=200; Min_L=70; PathPara=1; Phi=0; Step_L=10; Theta=0; p=520; phaseX=180; phaseY=0}
! Header version: 2018
! Port assignment regex: !\s*Touchstone port\s*([0-9]+)\s*=\s*(CST MWS port|CST DS port)\s*([0-9]+|Zmin|Zmax)\s*\(\"(.*)\"\)(\s*mode\s*([0-9]+))?.*
! Touchstone port assignment:
! Touchstone port 1 = CST MWS port Zmax ("") mode 1
! Touchstone port 2 = CST MWS port Zmax ("") mode 2
! Touchstone port 3 = CST MWS port Zmin ("") mode 1
! Touchstone port 4 = CST MWS port Zmin ("") mode 2
! S-Parameters are not renormalized. Each port impedance will be approximated by the real part at minimum frequency. The values are described via the [Reference] keyword.
! Default impedance is overridden by [Reference]
[Version] 2.0
# GHz S RI R 376.73
[Number of Ports] 4
[Reference]
376.73 376.73 376.73 376.73 
[Number of Frequencies] 1001
[Network Data]
281700               -0.00276224       0.0863362      0.000863321     4.35112e-05        -0.961626       -0.239881     -0.000539515      0.00073366
                     0.000922382    -6.83534e-05         -0.15104       0.0134909     -0.000539462     0.000616418        -0.589862       -0.787409
                       -0.961628       -0.239691     -0.000539314     0.000616656       -0.0439051       0.0741835     -0.000152634    -0.000880063
                    -0.000520318     0.000724384        -0.589934       -0.787385     -0.000145693    -0.000843325       -0.0569502        0.139003
281700.1             -0.00275869       0.0863293      0.000863342     4.34781e-05        -0.961634       -0.239852       -0.0005395     0.000733695
                     0.000922377    -6.83694e-05        -0.151034       0.0134932     -0.000539431     0.000616424        -0.589887       -0.787392
                       -0.961636       -0.239662     -0.000539294     0.000616676       -0.0439004       0.0741783     -0.000152675    -0.000880061
                    -0.000520289     0.000724401        -0.589958       -0.787367     -0.000145738    -0.000843324       -0.0569422        0.139001
281700.2             -0.00275514       0.0863225      0.000863363     4.34449e-05        -0.961642       -0.239823     -0.000539485     0.000733729
                     0.000922373    -6.83854e-05        -0.151028       0.0134955     -0.000539399     0.000616429        -0.589912       -0.787374
                       -0.961644       -0.239632     -0.000539274     0.000616696       -0.0438958       0.0741731     -0.000152717    -0.000880058
                    -0.000520261     0.000724418        -0.589983        -0.78735     -0.000145784    -0.000843323       -0.0569342        0.138998
281700.3             -0.00275159       0.0863157      0.000863385     4.34117e-05         -0.96165       -0.239794      -0.00053947     0.000733764
                     0.000922368    -6.84013e-05        -0.151023       0.0134978     -0.000539368     0.000616435        -0.589937       -0.787356
                       -0.961652       -0.239603     -0.000539254     0.000616715       -0.0438911        0.074168     -0.000152758    -0.000880056
                    -0.000520232     0.000724435        -0.590008       -0.787332     -0.000145829    -0.000843321       -0.0569262        0.138995
281700.4             -0.00274804       0.0863088      0.000863406     4.33785e-05        -0.961658       -0.239765     -0.000539455     0.000733799
                     0.000922363    -6.84173e-05        -0.151017       0.0135002     -0.000539336      0.00061644        -0.589962       -0.787339
                        -0.96166       -0.239574     -0.000539234     0.000616735       -0.0438864       0.0741628     -0.000152799    -0.000880054
                    -0.000520204     0.000724452        -0.590033       -0.787314     -0.000145875     -0.00084332       -0.0569182        0.138993
281700.5             -0.00274449        0.086302      0.000863427     4.33454e-05        -0.961666       -0.239735      -0.00053944     0.000733834
                     0.000922358    -6.84332e-05        -0.151011       0.0135025     -0.000539305     0.000616445        -0.589987       -0.787321
                       -0.961668       -0.239545     -0.000539214     0.000616755       -0.0438817       0.0741576     -0.000152841    -0.000880051
                    -0.000520176     0.000724469        -0.590058       -0.787297      -0.00014592    -0.000843319       -0.0569102         0.13899
281700.6             -0.00274095       0.0862951      0.000863448     4.33122e-05        -0.961674       -0.239706     -0.000539425     0.000733869
                     0.000922354    -6.84491e-05        -0.151006       0.0135048     -0.000539273     0.000616451        -0.590012       -0.787304
                       -0.961676       -0.239516     -0.000539194     0.000616775        -0.043877       0.0741525     -0.000152882    -0.000880049
                    -0.000520147     0.000724486        -0.590083       -0.787279     -0.000145966    -0.000843318       -0.0569022        0.138987
281700.7              -0.0027374       0.0862883      0.000863469      4.3279e-05        -0.961681       -0.239677      -0.00053941     0.000733904
                     0.000922349    -6.84651e-05           -0.151       0.0135071     -0.000539242     0.000616456        -0.590036       -0.787286
                       -0.961683       -0.239486     -0.000539174     0.000616795       -0.0438723       0.0741473     -0.000152923    -0.000880046
                    -0.000520119     0.000724503        -0.590108       -0.787261     -0.000146011    -0.000843317       -0.0568942        0.138985
281700.8             -0.00273385       0.0862815       0.00086349     4.32458e-05        -0.961689       -0.239648     -0.000539395     0.000733939
                     0.000922344     -6.8481e-05        -0.150994       0.0135094      -0.00053921     0.000616461        -0.590061       -0.787268
                       -0.961691       -0.239457     -0.000539155     0.000616815       -0.0438677       0.0741422     -0.000152964    -0.000880044
                     -0.00052009      0.00072452        -0.590133       -0.787244     -0.000146057    -0.000843316       -0.0568862        0.138982
281700.9             -0.00273031       0.0862746      0.000863511     4.32127e-05        -0.961697       -0.239619      -0.00053938     0.000733973
                     0.000922339     -6.8497e-05        -0.150989       0.0135117     -0.000539179     0.000616467        -0.590086       -0.787251
                       -0.961699       -0.239428     -0.000539135     0.000616834        -0.043863        0.074137     -0.000153006    -0.000880042
                    -0.000520062     0.000724537        -0.590158       -0.787226     -0.000146102    -0.000843314       -0.0568782        0.138979
281701               -0.00272676       0.0862678      0.000863532     4.31795e-05        -0.961705        -0.23959     -0.000539365     0.000734008
                     0.000922334    -6.85129e-05        -0.150983       0.0135141     -0.000539147     0.000616472        -0.590111       -0.787233
                       -0.961707       -0.239399     -0.000539115     0.000616854       -0.0438583       0.0741318     -0.000153047    -0.000880039
                    -0.000520033     0.000724554        -0.590183       -0.787208     -0.000146148    -0.000843313       -0.0568701        0.138976
281701.1             -0.00272322        0.086261      0.000863553     4.31463e-05        -0.961713        -0.23956      -0.00053935     0.000734043
                      0.00092233    -6.85288e-05        -0.150977       0.0135164     -0.000539116     0.000616477        -0.590136       -0.787215
                       -0.961715        -0.23937     -0.000539095     0.000616874       -0.0438536       0.0741267     -0.000153088    -0.000880037
                    -0.000520005      0.00072457        -0.590207       -0.787191     -0.000146193    -0.000843312       -0.0568621        0.138974
281701.2             -0.00271967       0.0862541      0.000863575     4.31131e-05        -0.961721       -0.239531     -0.000539335     0.000734078
                     0.000922325    -6.85448e-05        -0.150971       0.0135187     -0.000539085     0.000616483        -0.590161       -0.787198
                       -0.961723        -0.23934     -0.000539075     0.000616894       -0.0438489       0.0741215      -0.00015313    -0.000880034
                    -0.000519976     0.000724587        -0.590232       -0.787173     -0.000146239    -0.000843311       -0.0568541        0.138971
281701.3             -0.00271613       0.0862473      0.000863596     4.30799e-05        -0.961729       -0.239502      -0.00053932     0.000734113
                      0.00092232    -6.85607e-05        -0.150966        0.013521     -0.000539053     0.000616488        -0.590186        -0.78718
                       -0.961731       -0.239311     -0.000539055     0.000616914       -0.0438442       0.0741163     -0.000153171    -0.000880032
                    -0.000519948     0.000724604        -0.590257       -0.787155     -0.000146284     -0.00084331       -0.0568461        0.138968
281701.4             -0.00271258       0.0862405      0.000863617     4.30467e-05        -0.961736       -0.239473     -0.000539305     0.000734148
                     0.000922315    -6.85767e-05         -0.15096       0.0135233     -0.000539022     0.000616493        -0.590211       -0.787162
                       -0.961739       -0.239282     -0.000539035     0.000616934       -0.0438396       0.0741112     -0.000153212    -0.000880029
                     -0.00051992     0.000724621        -0.590282       -0.787138      -0.00014633    -0.000843308       -0.0568381        0.138966
281701.5             -0.00270904       0.0862336      0.000863638     4.30135e-05        -0.961744       -0.239444      -0.00053929     0.000734182
                     0.000922311    -6.85926e-05        -0.150954       0.0135256      -0.00053899     0.000616498        -0.590236       -0.787145
                       -0.961747       -0.239253     -0.000539015     0.000616954       -0.0438349        0.074106     -0.000153254    -0.000880027
                    -0.000519891     0.000724638        -0.590307        -0.78712     -0.000146375    -0.000843307       -0.0568301        0.138963
281701.6              -0.0027055       0.0862268      0.000863659     4.29803e-05        -0.961752       -0.239415     -0.000539275     0.000734217
                     0.000922306    -6.86085e-05        -0.150949       0.0135279     -0.000538959     0.000616504        -0.590261       -0.787127
                       -0.961755       -0.239224     -0.000538995     0.000616973       -0.0438302       0.0741008     -0.000153295    -0.000880025
                    -0.000519863     0.000724655        -0.590332       -0.787102     -0.000146421    -0.000843306       -0.0568221         0.13896
281701.7             -0.00270195       0.0862199       0.00086368     4.29472e-05         -0.96176       -0.239385     -0.000539259     0.000734252
                     0.000922301    -6.86244e-05        -0.150943       0.0135303     -0.000538927     0.000616509        -0.590285       -0.787109
                       -0.961762       -0.239194     -0.000538975     0.000616993       -0.0438255       0.0740957     -0.000153336    -0.000880022
                    -0.000519834     0.000724672        -0.590357       -0.787085     -0.000146466    -0.000843304       -0.0568141        0.138958
281701.8             -0.00269841       0.0862131      0.000863701      4.2914e-05        -0.961768       -0.239356     -0.000539244     0.000734287
                     0.000922296    -6.86404e-05        -0.150937       0.0135326     -0.000538896     0.000616514         -0.59031       -0.787092
                        -0.96177       -0.239165     -0.000538955     0.000617013       -0.0438208       0.0740905     -0.000153377     -0.00088002
                    -0.000519806     0.000724689        -0.590382       -0.787067     -0.000146512    -0.000843303       -0.0568061        0.138955
281701.9             -0.00269487       0.0862063      0.000863722     4.28808e-05        -0.961776       -0.239327     -0.000539229     0.000734322
                     0.000922292    -6.86563e-05        -0.150932       0.0135349     -0.000538865     0.000616519        -0.590335       -0.787074
                       -0.961778       -0.239136     -0.000538935     0.000617033       -0.0438162       0.0740853     -0.000153419    -0.000880017
                    -0.000519777     0.000724706        -0.590407        -0.78705     -0.000146557    -0.000843302       -0.0567981        0.138952
281702               -0.00269133       0.0861994      0.000863743     4.28476e-05        -0.961783       -0.239298     -0.000539214     0.000734357
                     0.000922287    -6.86722e-05        -0.150926       0.0135372     -0.000538833     0.000616525         -0.59036       -0.787056
                       -0.961786       -0.239107     -0.000538915     0.000617053       -0.0438115       0.0740802      -0.00015346    -0.000880015
                    -0.000519749     0.000724723        -0.590431       -0.787032     -0.000146603    -0.000843301       -0.0567901        0.138949
281702.1             -0.00268779       0.0861926      0.000863764     4.28143e-05        -0.961791       -0.239269     -0.000539199     0.000734392
                     0.000922282    -6.86881e-05         -0.15092       0.0135395     -0.000538802      0.00061653        -0.590385       -0.787038
                       -0.961794       -0.239078     -0.000538896     0.000617073       -0.0438068        0.074075     -0.000153501    -0.000880012
                     -0.00051972      0.00072474        -0.590456       -0.787014     -0.000146648    -0.000843299       -0.0567821        0.138947
281702.2             -0.00268425       0.0861858      0.000863786     4.27811e-05        -0.961799        -0.23924     -0.000539184     0.000734426
                     0.000922277     -6.8704e-05        -0.150915       0.0135418      -0.00053877     0.000616535         -0.59041       -0.787021
                       -0.961802       -0.239048     -0.000538876     0.000617092       -0.0438021       0.0740698     -0.000153543     -0.00088001
                    -0.000519692     0.000724756        -0.590481       -0.786997     -0.000146694    -0.000843298       -0.0567741        0.138944
281702.3              -0.0026807       0.0861789      0.000863807     4.27479e-05        -0.961807        -0.23921     -0.000539169     0.000734461
                     0.000922273      -6.872e-05        -0.150909       0.0135441     -0.000538739      0.00061654        -0.590435       -0.787003
                        -0.96181       -0.239019     -0.000538856     0.000617112       -0.0437975       0.0740647     -0.000153584    -0.000880007
                    -0.000519663     0.000724773        -0.590506       -0.786979     -0.000146739    -0.000843297       -0.0567661        0.138941
281702.4             -0.00267716       0.0861721      0.000863828     4.27147e-05        -0.961815       -0.239181     -0.000539154     0.000734496
                     0.000922268    -6.87359e-05        -0.150903       0.0135464     -0.000538708     0.000616545         -0.59046       -0.786985
                       -0.961818        -0.23899     -0.000538836     0.000617132       -0.0437928       0.0740595     -0.000153625    -0.000880005
                    -0.000519635      0.00072479        -0.590531       -0.786961     -0.000146785    -0.000843295       -0.0567581        0.138939
281702.5             -0.00267362       0.0861652      0.000863849     4.26815e-05        -0.961823       -0.239152     -0.000539139     0.000734531
                     0.000922263    -6.87518e-05        -0.150898       0.0135487     -0.000538676     0.000616551        -0.590485       -0.786968
                       -0.961826       -0.238961     -0.000538816     0.000617152       -0.0437881       0.0740543     -0.000153667    -0.000880002
                    -0.000519607     0.000724807        -0.590556       -0.786944      -0.00014683    -0.000843294       -0.0567501        0.138936
281702.6             -0.00267008       0.0861584       0.00086387     4.26483e-05        -0.961831       -0.239123     -0.000539124     0.000734566
                     0.000922258    -6.87677e-05        -0.150892       0.0135511     -0.000538645     0.000616556        -0.590509        -0.78695
                       -0.961834       -0.238932     -0.000538796     0.000617172       -0.0437834       0.0740492     -0.000153708        -0.00088
                    -0.000519578     0.000724824        -0.590581       -0.786926     -0.000146875    -0.000843293        -0.056742        0.138933
281702.7             -0.00266655       0.0861516      0.000863891     4.26151e-05        -0.961838       -0.239094     -0.000539109     0.000734601
                     0.000922254    -6.87836e-05        -0.150886       0.0135534     -0.000538613     0.000616561        -0.590534       -0.786932
                       -0.961841       -0.238902     -0.000538776     0.000617191       -0.0437787        0.074044     -0.000153749    -0.000879997
                     -0.00051955     0.000724841        -0.590606       -0.786908     -0.000146921    -0.000843291        -0.056734        0.138931
281702.8             -0.00266301       0.0861447      0.000863912     4.25819e-05        -0.961846       -0.239065     -0.000539094     0.000734636
                     0.000922249    -6.87995e-05        -0.150881       0.0135557     -0.000538582     0.000616566        -0.590559       -0.786915
                       -0.961849       -0.238873     -0.000538756     0.000617211       -0.0437741       0.0740388      -0.00015379    -0.000879995
                    -0.000519521     0.000724858        -0.590631       -0.786891     -0.000146966     -0.00084329        -0.056726        0.138928
281702.9             -0.00265947       0.0861379      0.000863933     4.25487e-05        -0.961854       -0.239035     -0.000539079      0.00073467
                     0.000922244    -6.88154e-05        -0.150875        0.013558     -0.000538551     0.000616571        -0.590584       -0.786897
                       -0.961857       -0.238844     -0.000538736     0.000617231       -0.0437694       0.0740337     -0.000153832    -0.000879993
                    -0.000519493     0.000724874        -0.590655       -0.786873     -0.000147012    -0.000843289        -0.056718        0.138925
281703               -0.00265593       0.0861311      0.000863954     4.25154e-05        -0.961862       -0.239006     -0.000539063     0.000734705
                     0.000922239    -6.88313e-05        -0.150869       0.0135603     -0.000538519     0.000616576        -0.590609       -0.786879
                       -0.961865       -0.238815     -0.000538716     0.000617251       -0.0437647       0.0740285     -0.000153873     -0.00087999
                    -0.000519464     0.000724891         -0.59068       -0.786855     -0.000147057    -0.000843287         -0.05671        0.138922
281703.1             -0.00265239       0.0861242      0.000863975     4.24822e-05         -0.96187       -0.238977     -0.000539048      0.00073474
                     0.000922235    -6.88472e-05        -0.150864       0.0135626     -0.000538488     0.000616581        -0.590634       -0.786862
                       -0.961873       -0.238785     -0.000538696     0.000617271         -0.04376       0.0740233     -0.000153914    -0.000879988
