! TOUCHSTONE file generated by CST MICROWAVE STUDIO
! Date and time: Wed Oct  8 07:01:44 2025
! Project name: Teste_Macro_Metasurface_Nanopilar.cst
! Parameters = {H=600; L_x=160; L_y=165; Lambda=1064; Max_L=200; Min_L=70; PathPara=1; Phi=0; Step_L=10; Theta=0; p=520; phaseX=180; phaseY=0}
! Header version: 2018
! Port assignment regex: !\s*Touchstone port\s*([0-9]+)\s*=\s*(CST MWS port|CST DS port)\s*([0-9]+|Zmin|Zmax)\s*\(\"(.*)\"\)(\s*mode\s*([0-9]+))?.*
! Touchstone port assignment:
! Touchstone port 1 = CST MWS port Zmax ("") mode 1
! Touchstone port 2 = CST MWS port Zmax ("") mode 2
! Touchstone port 3 = CST MWS port Zmin ("") mode 1
! Touchstone port 4 = CST MWS port Zmin ("") mode 2
! S-Parameters are not renormalized. Each port impedance will be approximated by the real part at minimum frequency. The values are described via the [Reference] keyword.
! Default impedance is overridden by [Reference]
[Version] 2.0
# GHz S RI R 376.73
[Number of Ports] 4
[Reference]
376.73 376.73 376.73 376.73 
[Number of Frequencies] 1001
[Network Data]
281700                -0.0295469       0.0916984     -7.07455e-05     0.000192263        -0.931465       -0.338842       7.3923e-05     2.00852e-05
                     2.55217e-05     9.76524e-05       -0.0431854        0.115108     -8.07648e-05    -0.000165178        -0.905242       -0.395917
                       -0.931312       -0.339124     -5.29002e-05     2.21704e-06       -0.0403883       0.0868078     -0.000161068    -3.71845e-05
                     -6.7474e-07    -6.56879e-05        -0.905233       -0.396002        2.358e-05     9.77426e-06       -0.0592677         0.10707
281700.1              -0.0295422       0.0916934     -7.07368e-05     0.000192269        -0.931476       -0.338814      7.39217e-05     2.00828e-05
                     2.55345e-05     9.76531e-05       -0.0431797        0.115103     -8.07648e-05    -0.000165187        -0.905255        -0.39589
                       -0.931322       -0.339097     -5.29003e-05     2.21798e-06       -0.0403835       0.0868032     -0.000161072    -3.71796e-05
                    -6.75382e-07    -6.56834e-05        -0.905245       -0.395976      2.35905e-05     9.77489e-06       -0.0592619        0.107067
281700.2              -0.0295374       0.0916885     -7.07281e-05     0.000192275        -0.931487       -0.338787      7.39204e-05     2.00804e-05
                     2.55473e-05     9.76539e-05        -0.043174        0.115099     -8.07647e-05    -0.000165196        -0.905267       -0.395864
                       -0.931333       -0.339069     -5.29003e-05     2.21893e-06       -0.0403787       0.0867987     -0.000161075    -3.71748e-05
                    -6.76021e-07    -6.56788e-05        -0.905258       -0.395949       2.3601e-05      9.7755e-06       -0.0592561        0.107063
281700.3              -0.0295327       0.0916835     -7.07193e-05      0.00019228        -0.931497       -0.338759       7.3919e-05      2.0078e-05
                       2.556e-05     9.76547e-05       -0.0431683        0.115095     -8.07646e-05    -0.000165205         -0.90528       -0.395837
                       -0.931344       -0.339042     -5.29004e-05     2.21988e-06       -0.0403739       0.0867942     -0.000161078    -3.71699e-05
                    -6.76659e-07    -6.56742e-05         -0.90527       -0.395922      2.36114e-05      9.7761e-06       -0.0592504        0.107059
281700.4               -0.029528       0.0916785     -7.07106e-05     0.000192286        -0.931508       -0.338732      7.39177e-05     2.00756e-05
                     2.55728e-05     9.76554e-05       -0.0431626         0.11509     -8.07646e-05    -0.000165215        -0.905292        -0.39581
                       -0.931354       -0.339014     -5.29004e-05     2.22082e-06       -0.0403691       0.0867897     -0.000161081     -3.7165e-05
                    -6.77295e-07    -6.56696e-05        -0.905283       -0.395896      2.36219e-05     9.77669e-06       -0.0592446        0.107056
281700.5              -0.0295232       0.0916736     -7.07019e-05     0.000192292        -0.931518       -0.338704      7.39164e-05     2.00732e-05
                     2.55856e-05     9.76562e-05       -0.0431569        0.115086     -8.07645e-05    -0.000165224        -0.905305       -0.395784
                       -0.931365       -0.338987     -5.29005e-05     2.22177e-06       -0.0403643       0.0867851     -0.000161084    -3.71601e-05
                     -6.7793e-07    -6.56651e-05        -0.905295       -0.395869      2.36323e-05     9.77726e-06       -0.0592388        0.107052
281700.6              -0.0295185       0.0916686     -7.06932e-05     0.000192298        -0.931529       -0.338677      7.39151e-05     2.00708e-05
                     2.55984e-05      9.7657e-05       -0.0431512        0.115082     -8.07644e-05    -0.000165233        -0.905317       -0.395757
                       -0.931376       -0.338959     -5.29006e-05     2.22271e-06       -0.0403595       0.0867806     -0.000161088    -3.71553e-05
                    -6.78562e-07    -6.56605e-05        -0.905308       -0.395842      2.36427e-05     9.77783e-06        -0.059233        0.107048
281700.7              -0.0295137       0.0916637     -7.06845e-05     0.000192303         -0.93154       -0.338649      7.39138e-05     2.00684e-05
                     2.56111e-05     9.76577e-05       -0.0431455        0.115077     -8.07643e-05    -0.000165242         -0.90533        -0.39573
                       -0.931386       -0.338932     -5.29006e-05     2.22365e-06       -0.0403548       0.0867761     -0.000161091    -3.71504e-05
                    -6.79192e-07    -6.56559e-05         -0.90532       -0.395816      2.36531e-05     9.77838e-06       -0.0592272        0.107045
281700.8               -0.029509       0.0916587     -7.06757e-05     0.000192309         -0.93155       -0.338621      7.39125e-05      2.0066e-05
                     2.56239e-05     9.76585e-05       -0.0431398        0.115073     -8.07643e-05    -0.000165251        -0.905342       -0.395704
                       -0.931397       -0.338904     -5.29007e-05      2.2246e-06         -0.04035       0.0867715     -0.000161094    -3.71455e-05
                    -6.79821e-07    -6.56514e-05        -0.905333       -0.395789      2.36635e-05     9.77893e-06       -0.0592214        0.107041
281700.9              -0.0295043       0.0916538      -7.0667e-05     0.000192315        -0.931561       -0.338594      7.39112e-05     2.00637e-05
                     2.56367e-05     9.76593e-05       -0.0431341        0.115069     -8.07642e-05     -0.00016526        -0.905355       -0.395677
                       -0.931408       -0.338877     -5.29007e-05     2.22554e-06       -0.0403452        0.086767     -0.000161097    -3.71406e-05
                    -6.80448e-07    -6.56468e-05        -0.905345       -0.395762      2.36739e-05     9.77946e-06       -0.0592156        0.107037
281701                -0.0294995       0.0916488     -7.06583e-05     0.000192321        -0.931572       -0.338566      7.39099e-05     2.00613e-05
                     2.56494e-05     9.76601e-05       -0.0431284        0.115064     -8.07641e-05    -0.000165269        -0.905367        -0.39565
                       -0.931418       -0.338849     -5.29008e-05     2.22649e-06       -0.0403404       0.0867625       -0.0001611    -3.71358e-05
                    -6.81073e-07    -6.56422e-05        -0.905358       -0.395736      2.36843e-05     9.77999e-06       -0.0592098        0.107034
281701.1              -0.0294948       0.0916438     -7.06496e-05     0.000192326        -0.931582       -0.338539      7.39086e-05     2.00589e-05
                     2.56622e-05     9.76609e-05       -0.0431227         0.11506      -8.0764e-05    -0.000165279         -0.90538       -0.395624
                       -0.931429       -0.338822     -5.29008e-05     2.22743e-06       -0.0403356       0.0867579     -0.000161104    -3.71309e-05
                    -6.81696e-07    -6.56376e-05         -0.90537       -0.395709      2.36947e-05      9.7805e-06        -0.059204         0.10703
281701.2              -0.0294901       0.0916389     -7.06408e-05     0.000192332        -0.931593       -0.338511      7.39073e-05     2.00565e-05
                      2.5675e-05     9.76616e-05        -0.043117        0.115055     -8.07639e-05    -0.000165288        -0.905392       -0.395597
                        -0.93144       -0.338794     -5.29009e-05     2.22837e-06       -0.0403308       0.0867534     -0.000161107     -3.7126e-05
                    -6.82317e-07    -6.56331e-05        -0.905383       -0.395682       2.3705e-05     9.78101e-06       -0.0591982        0.107026
281701.3              -0.0294853       0.0916339     -7.06321e-05     0.000192338        -0.931604       -0.338484       7.3906e-05     2.00541e-05
                     2.56877e-05     9.76624e-05       -0.0431113        0.115051     -8.07638e-05    -0.000165297        -0.905405        -0.39557
                        -0.93145       -0.338766     -5.29009e-05     2.22931e-06        -0.040326       0.0867489      -0.00016111    -3.71211e-05
                    -6.82937e-07    -6.56285e-05        -0.905395       -0.395656      2.37154e-05      9.7815e-06       -0.0591924        0.107022
281701.4              -0.0294806        0.091629     -7.06234e-05     0.000192344        -0.931614       -0.338456      7.39046e-05     2.00517e-05
                     2.57005e-05     9.76632e-05       -0.0431056        0.115047     -8.07637e-05    -0.000165306        -0.905417       -0.395544
                       -0.931461       -0.338739      -5.2901e-05     2.23026e-06       -0.0403213       0.0867443     -0.000161113    -3.71162e-05
                    -6.83554e-07    -6.56239e-05        -0.905408       -0.395629      2.37257e-05     9.78198e-06       -0.0591866        0.107019
281701.5              -0.0294758        0.091624     -7.06147e-05     0.000192349        -0.931625       -0.338429      7.39033e-05     2.00493e-05
                     2.57133e-05      9.7664e-05       -0.0430999        0.115042     -8.07636e-05    -0.000165315         -0.90543       -0.395517
                       -0.931472       -0.338711      -5.2901e-05      2.2312e-06       -0.0403165       0.0867398     -0.000161116    -3.71114e-05
                     -6.8417e-07    -6.56194e-05         -0.90542       -0.395602       2.3736e-05     9.78246e-06       -0.0591808        0.107015
281701.6              -0.0294711        0.091619     -7.06059e-05     0.000192355        -0.931636       -0.338401       7.3902e-05     2.00469e-05
                      2.5726e-05     9.76648e-05       -0.0430942        0.115038     -8.07634e-05    -0.000165324        -0.905442        -0.39549
                       -0.931482       -0.338684     -5.29011e-05     2.23214e-06       -0.0403117       0.0867353     -0.000161119    -3.71065e-05
                    -6.84784e-07    -6.56148e-05        -0.905433       -0.395576      2.37463e-05     9.78292e-06       -0.0591751        0.107011
281701.7              -0.0294664       0.0916141     -7.05972e-05     0.000192361        -0.931646       -0.338374      7.39007e-05     2.00446e-05
                     2.57388e-05     9.76656e-05       -0.0430885        0.115034     -8.07633e-05    -0.000165334        -0.905455       -0.395464
                       -0.931493       -0.338656     -5.29011e-05     2.23308e-06       -0.0403069       0.0867307     -0.000161123    -3.71016e-05
                    -6.85396e-07    -6.56102e-05        -0.905445       -0.395549      2.37566e-05     9.78337e-06       -0.0591693        0.107008
281701.8              -0.0294616       0.0916091     -7.05885e-05     0.000192367        -0.931657       -0.338346      7.38994e-05     2.00422e-05
                     2.57515e-05     9.76665e-05       -0.0430828        0.115029     -8.07632e-05    -0.000165343        -0.905467       -0.395437
                       -0.931504       -0.338629     -5.29012e-05     2.23402e-06       -0.0403021       0.0867262     -0.000161126    -3.70967e-05
                    -6.86006e-07    -6.56057e-05        -0.905458       -0.395522      2.37669e-05     9.78382e-06       -0.0591635        0.107004
281701.9              -0.0294569       0.0916042     -7.05798e-05     0.000192372        -0.931668       -0.338319      7.38981e-05     2.00398e-05
                     2.57643e-05     9.76673e-05       -0.0430771        0.115025     -8.07631e-05    -0.000165352         -0.90548        -0.39541
                       -0.931514       -0.338601     -5.29012e-05     2.23497e-06       -0.0402973       0.0867217     -0.000161129    -3.70918e-05
                    -6.86614e-07    -6.56011e-05         -0.90547       -0.395496      2.37772e-05     9.78425e-06       -0.0591577           0.107
281702                -0.0294522       0.0915992      -7.0571e-05     0.000192378        -0.931678       -0.338291      7.38968e-05     2.00374e-05
                     2.57771e-05     9.76681e-05       -0.0430714        0.115021     -8.07629e-05    -0.000165361        -0.905492       -0.395384
                       -0.931525       -0.338574     -5.29012e-05     2.23591e-06       -0.0402925       0.0867171     -0.000161132     -3.7087e-05
                    -6.87221e-07    -6.55965e-05        -0.905483       -0.395469      2.37874e-05     9.78468e-06       -0.0591519        0.106997
281702.1              -0.0294474       0.0915943     -7.05623e-05     0.000192384        -0.931689       -0.338264      7.38955e-05      2.0035e-05
                     2.57898e-05     9.76689e-05       -0.0430657        0.115016     -8.07628e-05     -0.00016537        -0.905504       -0.395357
                       -0.931535       -0.338546     -5.29013e-05     2.23685e-06       -0.0402878       0.0867126     -0.000161135    -3.70821e-05
                    -6.87825e-07     -6.5592e-05        -0.905495       -0.395442      2.37977e-05     9.78509e-06       -0.0591461        0.106993
281702.2              -0.0294427       0.0915893     -7.05536e-05     0.000192389          -0.9317       -0.338236      7.38942e-05     2.00326e-05
                     2.58026e-05     9.76697e-05       -0.0430601        0.115012     -8.07626e-05    -0.000165379        -0.905517        -0.39533
                       -0.931546       -0.338519     -5.29013e-05     2.23779e-06        -0.040283       0.0867081     -0.000161139    -3.70772e-05
                    -6.88428e-07    -6.55874e-05        -0.905508       -0.395416      2.38079e-05      9.7855e-06       -0.0591403        0.106989
281702.3              -0.0294379       0.0915843     -7.05448e-05     0.000192395         -0.93171       -0.338208      7.38929e-05     2.00302e-05
                     2.58153e-05     9.76706e-05       -0.0430544        0.115007     -8.07625e-05    -0.000165388        -0.905529       -0.395304
                       -0.931557       -0.338491     -5.29014e-05     2.23873e-06       -0.0402782       0.0867035     -0.000161142    -3.70723e-05
                    -6.89029e-07    -6.55828e-05         -0.90552       -0.395389      2.38182e-05      9.7859e-06       -0.0591345        0.106985
281702.4              -0.0294332       0.0915794     -7.05361e-05     0.000192401        -0.931721       -0.338181      7.38915e-05     2.00279e-05
                     2.58281e-05     9.76714e-05       -0.0430487        0.115003     -8.07624e-05    -0.000165398        -0.905542       -0.395277
                       -0.931567       -0.338464     -5.29014e-05     2.23967e-06       -0.0402734        0.086699     -0.000161145    -3.70674e-05
                    -6.89628e-07    -6.55783e-05        -0.905533       -0.395362      2.38284e-05     9.78628e-06       -0.0591287        0.106982
281702.5              -0.0294285       0.0915744     -7.05274e-05     0.000192407        -0.931732       -0.338153      7.38902e-05     2.00255e-05
                     2.58408e-05     9.76722e-05        -0.043043        0.114999     -8.07622e-05    -0.000165407        -0.905554        -0.39525
                       -0.931578       -0.338436     -5.29014e-05     2.24061e-06       -0.0402686       0.0866945     -0.000161148    -3.70626e-05
                    -6.90225e-07    -6.55737e-05        -0.905545       -0.395336      2.38386e-05     9.78666e-06        -0.059123        0.106978
281702.6              -0.0294237       0.0915694     -7.05186e-05     0.000192412        -0.931742       -0.338126      7.38889e-05     2.00231e-05
                     2.58536e-05      9.7673e-05       -0.0430373        0.114994      -8.0762e-05    -0.000165416        -0.905567       -0.395224
                       -0.931589       -0.338409     -5.29015e-05     2.24155e-06       -0.0402639       0.0866899     -0.000161151    -3.70577e-05
                     -6.9082e-07    -6.55692e-05        -0.905558       -0.395309      2.38488e-05     9.78703e-06       -0.0591172        0.106974
281702.7               -0.029419       0.0915645     -7.05099e-05     0.000192418        -0.931753       -0.338098      7.38876e-05     2.00207e-05
                     2.58664e-05     9.76739e-05       -0.0430316         0.11499     -8.07619e-05    -0.000165425        -0.905579       -0.395197
                       -0.931599       -0.338381     -5.29015e-05     2.24249e-06       -0.0402591       0.0866854     -0.000161155    -3.70528e-05
                    -6.91414e-07    -6.55646e-05         -0.90557       -0.395282       2.3859e-05     9.78739e-06       -0.0591114        0.106971
281702.8              -0.0294143       0.0915595     -7.05012e-05     0.000192424        -0.931763       -0.338071      7.38863e-05     2.00183e-05
                     2.58791e-05     9.76747e-05       -0.0430259        0.114986     -8.07617e-05    -0.000165434        -0.905592        -0.39517
                        -0.93161       -0.338354     -5.29016e-05     2.24343e-06       -0.0402543       0.0866809     -0.000161158    -3.70479e-05
                    -6.92005e-07      -6.556e-05        -0.905582       -0.395256      2.38692e-05     9.78775e-06       -0.0591056        0.106967
281702.9              -0.0294095       0.0915546     -7.04924e-05      0.00019243        -0.931774       -0.338043       7.3885e-05     2.00159e-05
                     2.58919e-05     9.76756e-05       -0.0430202        0.114981     -8.07615e-05    -0.000165443        -0.905604       -0.395144
                       -0.931621       -0.338326     -5.29016e-05     2.24436e-06       -0.0402495       0.0866763     -0.000161161     -3.7043e-05
                    -6.92595e-07    -6.55555e-05        -0.905595       -0.395229      2.38794e-05     9.78809e-06       -0.0590998        0.106963
281703                -0.0294048       0.0915496     -7.04837e-05     0.000192435        -0.931785       -0.338016      7.38837e-05     2.00135e-05
                     2.59046e-05     9.76764e-05       -0.0430145        0.114977     -8.07614e-05    -0.000165452        -0.905617       -0.395117
                       -0.931631       -0.338299     -5.29016e-05      2.2453e-06       -0.0402447       0.0866718     -0.000161164    -3.70381e-05
                    -6.93183e-07    -6.55509e-05        -0.905607       -0.395202      2.38895e-05     9.78842e-06        -0.059094         0.10696
281703.1              -0.0294001       0.0915446      -7.0475e-05     0.000192441        -0.931795       -0.337988      7.38824e-05     2.00112e-05
                     2.59174e-05     9.76773e-05       -0.0430088        0.114973     -8.07612e-05    -0.000165462        -0.905629        -0.39509
                       -0.931642       -0.338271     -5.29017e-05     2.24624e-06       -0.0402399       0.0866673     -0.000161167    -3.70332e-05
