! TOUCHSTONE file generated by CST MICROWAVE STUDIO
! Date and time: Wed Oct  8 06:57:37 2025
! Project name: Teste_Macro_Metasurface_Nanopilar.cst
! Parameters = {H=600; L_x=125; L_y=185; Lambda=1064; Max_L=200; Min_L=70; PathPara=1; Phi=0; Step_L=10; Theta=0; p=520; phaseX=180; phaseY=0}
! Header version: 2018
! Port assignment regex: !\s*Touchstone port\s*([0-9]+)\s*=\s*(CST MWS port|CST DS port)\s*([0-9]+|Zmin|Zmax)\s*\(\"(.*)\"\)(\s*mode\s*([0-9]+))?.*
! Touchstone port assignment:
! Touchstone port 1 = CST MWS port Zmax ("") mode 1
! Touchstone port 2 = CST MWS port Zmax ("") mode 2
! Touchstone port 3 = CST MWS port Zmin ("") mode 1
! Touchstone port 4 = CST MWS port Zmin ("") mode 2
! S-Parameters are not renormalized. Each port impedance will be approximated by the real part at minimum frequency. The values are described via the [Reference] keyword.
! Default impedance is overridden by [Reference]
[Version] 2.0
# GHz S RI R 376.73
[Number of Ports] 4
[Reference]
376.73 376.73 376.73 376.73 
[Number of Frequencies] 1001
[Network Data]
281700                -0.0419515        0.191375     -0.000473516     0.000214724        -0.879748       -0.419964      0.000304539     0.000205318
                    -0.000519496     0.000203546        -0.181443         0.02232     -0.000177427    -0.000228559        -0.502583       -0.839688
                       -0.879905       -0.419968     -0.000181687    -0.000199481        -0.128041        0.147879     -0.000154948     0.000558306
                     0.000360305     0.000262499        -0.502625       -0.839512     -0.000226739     0.000527784        -0.106576        0.147843
281700.1               -0.041944         0.19137     -0.000473293     0.000214965        -0.879762       -0.419937      0.000304541     0.000205255
                    -0.000519444     0.000203624        -0.181438       0.0223242     -0.000177454    -0.000228561        -0.502609       -0.839674
                       -0.879919       -0.419942     -0.000181674    -0.000199626        -0.128033        0.147878     -0.000154889     0.000558253
                     0.000360312     0.000262455        -0.502651       -0.839498      -0.00022678     0.000527848        -0.106568        0.147842
281700.2              -0.0419365        0.191365     -0.000473071     0.000215204        -0.879775       -0.419911      0.000304543     0.000205193
                    -0.000519391     0.000203701        -0.181433       0.0223285     -0.000177481    -0.000228563        -0.502634        -0.83966
                       -0.879933       -0.419916     -0.000181661    -0.000199773        -0.128024        0.147876      -0.00015483       0.0005582
                     0.000360319     0.000262411        -0.502678       -0.839483     -0.000226821     0.000527912         -0.10656        0.147842
281700.3               -0.041929        0.191359     -0.000472848     0.000215442        -0.879789       -0.419884      0.000304545      0.00020513
                    -0.000519338     0.000203777        -0.181428       0.0223327     -0.000177507    -0.000228565         -0.50266       -0.839645
                       -0.879947       -0.419889     -0.000181648    -0.000199922        -0.128016        0.147875      -0.00015477     0.000558146
                     0.000360325     0.000262366        -0.502704       -0.839469     -0.000226862     0.000527976        -0.106553        0.147842
281700.4              -0.0419215        0.191354     -0.000472627     0.000215679        -0.879803       -0.419858      0.000304546     0.000205067
                    -0.000519285     0.000203854        -0.181422       0.0223369     -0.000177534    -0.000228567        -0.502686       -0.839631
                       -0.879961       -0.419863     -0.000181636    -0.000200073        -0.128007        0.147874     -0.000154711     0.000558093
                     0.000360332     0.000262322         -0.50273       -0.839455     -0.000226903      0.00052804        -0.106545        0.147842
281700.5               -0.041914        0.191349     -0.000472405     0.000215915        -0.879817       -0.419831      0.000304548     0.000205004
                    -0.000519231     0.000203929        -0.181417       0.0223412     -0.000177561    -0.000228569        -0.502711       -0.839617
                       -0.879975       -0.419836     -0.000181625    -0.000200226        -0.127999        0.147872     -0.000154651     0.000558039
                     0.000360339     0.000262277        -0.502756        -0.83944     -0.000226943     0.000528103        -0.106537        0.147841
281700.6              -0.0419065        0.191344     -0.000472184      0.00021615         -0.87983       -0.419805       0.00030455     0.000204941
                    -0.000519177     0.000204004        -0.181412       0.0223454     -0.000177588    -0.000228571        -0.502737       -0.839603
                       -0.879989        -0.41981     -0.000181614     -0.00020038         -0.12799        0.147871     -0.000154592     0.000557984
                     0.000360346     0.000262233        -0.502782       -0.839426     -0.000226984     0.000528166        -0.106529        0.147841
281700.7               -0.041899        0.191339     -0.000471963     0.000216384        -0.879844       -0.419778      0.000304551     0.000204878
                    -0.000519122     0.000204079        -0.181406       0.0223496     -0.000177615    -0.000228573        -0.502762       -0.839589
                       -0.880003       -0.419784     -0.000181604    -0.000200537        -0.127982        0.147869     -0.000154532     0.000557929
                     0.000360352     0.000262188        -0.502808       -0.839411     -0.000227025     0.000528229        -0.106521        0.147841
281700.8              -0.0418915        0.191334     -0.000471743     0.000216617        -0.879858       -0.419751      0.000304553     0.000204815
                    -0.000519067     0.000204152        -0.181401       0.0223539     -0.000177641    -0.000228575        -0.502788       -0.839575
                       -0.880017       -0.419757     -0.000181595    -0.000200696        -0.127974        0.147868     -0.000154473     0.000557874
                     0.000360359     0.000262143        -0.502834       -0.839397     -0.000227066     0.000528292        -0.106514        0.147841
281700.9               -0.041884        0.191328     -0.000471523     0.000216848        -0.879871       -0.419725      0.000304554     0.000204752
                    -0.000519012     0.000204226        -0.181396       0.0223581     -0.000177668    -0.000228578        -0.502814        -0.83956
                       -0.880031       -0.419731     -0.000181586    -0.000200857        -0.127965        0.147867     -0.000154413     0.000557819
                     0.000360366     0.000262099         -0.50286       -0.839383     -0.000227107     0.000528355        -0.106506         0.14784
281701                -0.0418765        0.191323     -0.000471303     0.000217079        -0.879885       -0.419698      0.000304555     0.000204689
                    -0.000518956     0.000204298         -0.18139       0.0223623     -0.000177695     -0.00022858        -0.502839       -0.839546
                       -0.880045       -0.419705     -0.000181578     -0.00020102        -0.127957        0.147865     -0.000154353     0.000557763
                     0.000360373     0.000262054        -0.502886       -0.839368     -0.000227148     0.000528418        -0.106498         0.14784
281701.1               -0.041869        0.191318     -0.000471084     0.000217308        -0.879899       -0.419672      0.000304557     0.000204626
                      -0.0005189     0.000204371        -0.181385       0.0223666     -0.000177722    -0.000228582        -0.502865       -0.839532
                        -0.88006       -0.419678      -0.00018157    -0.000201186        -0.127948        0.147864     -0.000154293     0.000557707
                     0.000360379      0.00026201        -0.502912       -0.839354     -0.000227189      0.00052848         -0.10649         0.14784
281701.2              -0.0418615        0.191313     -0.000470865     0.000217536        -0.879913       -0.419645      0.000304558     0.000204563
                    -0.000518844     0.000204442         -0.18138       0.0223708     -0.000177749    -0.000228584        -0.502891       -0.839518
                       -0.880074       -0.419652     -0.000181564    -0.000201354         -0.12794        0.147863     -0.000154233     0.000557651
                     0.000360386     0.000261965        -0.502938       -0.839339      -0.00022723     0.000528543        -0.106483         0.14784
281701.3               -0.041854        0.191308     -0.000470647     0.000217763        -0.879926       -0.419619      0.000304559     0.000204499
                    -0.000518787     0.000204513        -0.181375        0.022375     -0.000177776    -0.000228586        -0.502916       -0.839504
                       -0.880088       -0.419625     -0.000181558    -0.000201523        -0.127931        0.147861     -0.000154173     0.000557594
                     0.000360393      0.00026192        -0.502964       -0.839325     -0.000227271     0.000528605        -0.106475        0.147839
281701.4              -0.0418465        0.191303     -0.000470429     0.000217989         -0.87994       -0.419592       0.00030456     0.000204436
                     -0.00051873     0.000204583        -0.181369       0.0223793     -0.000177803    -0.000228588        -0.502942       -0.839489
                       -0.880102       -0.419599     -0.000181554    -0.000201696        -0.127923         0.14786     -0.000154113     0.000557537
                       0.0003604     0.000261875         -0.50299       -0.839311     -0.000227312     0.000528667        -0.106467        0.147839
281701.5               -0.041839        0.191297     -0.000470211     0.000218214        -0.879954       -0.419566      0.000304561     0.000204372
                    -0.000518673     0.000204653        -0.181364       0.0223835     -0.000177831     -0.00022859        -0.502967       -0.839475
                       -0.880116       -0.419573      -0.00018155     -0.00020187        -0.127914        0.147858     -0.000154053      0.00055748
                     0.000360406     0.000261831        -0.503016       -0.839296     -0.000227353     0.000528728        -0.106459        0.147839
281701.6              -0.0418315        0.191292     -0.000469994     0.000218438        -0.879968       -0.419539      0.000304562     0.000204309
                    -0.000518615     0.000204722        -0.181359       0.0223877     -0.000177858    -0.000228592        -0.502993       -0.839461
                        -0.88013       -0.419546     -0.000181547    -0.000202047        -0.127906        0.147857     -0.000153993     0.000557422
                     0.000360413     0.000261786        -0.503042       -0.839282     -0.000227394      0.00052879        -0.106451        0.147838
281701.7               -0.041824        0.191287     -0.000469777     0.000218661        -0.879981       -0.419513      0.000304562     0.000204245
                    -0.000518557     0.000204791        -0.181353        0.022392     -0.000177885    -0.000228594        -0.503019       -0.839447
                       -0.880144        -0.41952     -0.000181545    -0.000202227        -0.127897        0.147856     -0.000153933     0.000557364
                      0.00036042     0.000261741        -0.503068       -0.839267     -0.000227435     0.000528851        -0.106444        0.147838
281701.8              -0.0418165        0.191282      -0.00046956     0.000218882        -0.879995       -0.419486      0.000304563     0.000204182
                    -0.000518499     0.000204859        -0.181348       0.0223962     -0.000177912    -0.000228595        -0.503044       -0.839433
                       -0.880158       -0.419494     -0.000181545    -0.000202409        -0.127889        0.147854     -0.000153872     0.000557306
                     0.000360427     0.000261696        -0.503094       -0.839253     -0.000227476     0.000528912        -0.106436        0.147838
281701.9               -0.041809        0.191277     -0.000469344     0.000219103        -0.880009        -0.41946      0.000304563     0.000204118
                     -0.00051844     0.000204926        -0.181343       0.0224004     -0.000177939    -0.000228597         -0.50307       -0.839419
                       -0.880172       -0.419467     -0.000181545    -0.000202593         -0.12788        0.147853     -0.000153812     0.000557247
                     0.000360433     0.000261651        -0.503121       -0.839238     -0.000227517     0.000528973        -0.106428        0.147838
281702                -0.0418015        0.191271     -0.000469128     0.000219323        -0.880023       -0.419433      0.000304564     0.000204054
                    -0.000518381     0.000204993        -0.181337       0.0224047     -0.000177967    -0.000228599        -0.503096       -0.839404
                       -0.880186       -0.419441     -0.000181547     -0.00020278        -0.127872        0.147852     -0.000153752     0.000557188
                      0.00036044     0.000261606        -0.503147       -0.839224     -0.000227558     0.000529034         -0.10642        0.147837
281702.1               -0.041794        0.191266     -0.000468913     0.000219541        -0.880036       -0.419407      0.000304564     0.000203991
                    -0.000518322     0.000205059        -0.181332       0.0224089     -0.000177994    -0.000228601        -0.503121        -0.83939
                         -0.8802       -0.419414      -0.00018155    -0.000202969        -0.127863         0.14785     -0.000153691     0.000557128
                     0.000360447     0.000261561        -0.503173        -0.83921     -0.000227599     0.000529095        -0.106412        0.147837
281702.2              -0.0417865        0.191261     -0.000468698     0.000219759         -0.88005        -0.41938      0.000304565     0.000203927
                    -0.000518263     0.000205125        -0.181327       0.0224131     -0.000178021    -0.000228603        -0.503147       -0.839376
                       -0.880214       -0.419388     -0.000181555    -0.000203161        -0.127855        0.147849     -0.000153631     0.000557068
                     0.000360453     0.000261516        -0.503199       -0.839195      -0.00022764     0.000529155        -0.106405        0.147837
281702.3               -0.041779        0.191256     -0.000468483     0.000219975        -0.880064       -0.419354      0.000304565     0.000203863
                    -0.000518203      0.00020519        -0.181322       0.0224174     -0.000178049    -0.000228605        -0.503172       -0.839362
                       -0.880228       -0.419362     -0.000181561    -0.000203356        -0.127846        0.147847      -0.00015357     0.000557008
                      0.00036046     0.000261471        -0.503225       -0.839181     -0.000227682     0.000529216        -0.106397        0.147837
281702.4              -0.0417715        0.191251     -0.000468269      0.00022019        -0.880078       -0.419327      0.000304565     0.000203799
                    -0.000518143     0.000205254        -0.181316       0.0224216     -0.000178076    -0.000228607        -0.503198       -0.839348
                       -0.880243       -0.419335     -0.000181568    -0.000203553        -0.127838        0.147846     -0.000153509     0.000556947
                     0.000360467     0.000261426        -0.503251       -0.839166     -0.000227723     0.000529276        -0.106389        0.147836
281702.5               -0.041764        0.191246     -0.000468055     0.000220405        -0.880092       -0.419301      0.000304565     0.000203735
                    -0.000518083     0.000205318        -0.181311       0.0224258     -0.000178104    -0.000228609        -0.503224       -0.839333
                       -0.880257       -0.419309     -0.000181577    -0.000203753        -0.127829        0.147845     -0.000153449     0.000556886
                     0.000360473     0.000261381        -0.503277       -0.839152     -0.000227764     0.000529336        -0.106381        0.147836
281702.6              -0.0417565         0.19124     -0.000467841     0.000220618        -0.880105       -0.419274      0.000304565     0.000203671
                    -0.000518023     0.000205381        -0.181306       0.0224301     -0.000178131    -0.000228611        -0.503249       -0.839319
                       -0.880271       -0.419283     -0.000181588    -0.000203956        -0.127821        0.147843     -0.000153388     0.000556824
                      0.00036048     0.000261336        -0.503303       -0.839137     -0.000227805     0.000529396        -0.106373        0.147836
281702.7               -0.041749        0.191235     -0.000467628      0.00022083        -0.880119       -0.419248      0.000304565     0.000203606
                    -0.000517962     0.000205443          -0.1813       0.0224343     -0.000178159    -0.000228612        -0.503275       -0.839305
                       -0.880285       -0.419256       -0.0001816    -0.000204162        -0.127812        0.147842     -0.000153327     0.000556762
                     0.000360487     0.000261291        -0.503329       -0.839123     -0.000227846     0.000529455        -0.106366        0.147836
281702.8              -0.0417415         0.19123     -0.000467415     0.000221042        -0.880133       -0.419221      0.000304564     0.000203542
                    -0.000517901     0.000205505        -0.181295       0.0224385     -0.000178186    -0.000228614        -0.503301       -0.839291
                       -0.880299        -0.41923     -0.000181614     -0.00020437        -0.127804         0.14784     -0.000153266       0.0005567
                     0.000360493     0.000261246        -0.503355       -0.839109     -0.000227887     0.000529515        -0.106358        0.147835
281702.9               -0.041734        0.191225     -0.000467203     0.000221252        -0.880147       -0.419195      0.000304564     0.000203478
                     -0.00051784     0.000205566         -0.18129       0.0224428     -0.000178214    -0.000228616        -0.503326       -0.839277
                       -0.880313       -0.419203      -0.00018163    -0.000204581        -0.127795        0.147839     -0.000153206     0.000556637
                       0.0003605     0.000261201        -0.503381       -0.839094     -0.000227929     0.000529574         -0.10635        0.147835
281703                -0.0417265         0.19122     -0.000466991     0.000221461        -0.880161       -0.419168      0.000304564     0.000203413
                    -0.000517779     0.000205626        -0.181284        0.022447     -0.000178242    -0.000228618        -0.503352       -0.839262
                       -0.880327       -0.419177     -0.000181648    -0.000204795        -0.127787        0.147838     -0.000153145     0.000556574
                     0.000360507     0.000261156        -0.503407        -0.83908      -0.00022797     0.000529633        -0.106342        0.147835
281703.1               -0.041719        0.191215     -0.000466779     0.000221669        -0.880175       -0.419142      0.000304563     0.000203349
                    -0.000517717     0.000205686        -0.181279       0.0224512     -0.000178269     -0.00022862        -0.503378       -0.839248
                       -0.880341       -0.419151     -0.000181668    -0.000205012        -0.127778        0.147836     -0.000153084      0.00055651
