! TOUCHSTONE file generated by CST MICROWAVE STUDIO
! Date and time: Wed Oct  8 06:57:11 2025
! Project name: Teste_Macro_Metasurface_Nanopilar.cst
! Parameters = {H=600; L_x=125; L_y=85; Lambda=1064; Max_L=200; Min_L=70; PathPara=1; Phi=0; Step_L=10; Theta=0; p=520; phaseX=180; phaseY=0}
! Header version: 2018
! Port assignment regex: !\s*Touchstone port\s*([0-9]+)\s*=\s*(CST MWS port|CST DS port)\s*([0-9]+|Zmin|Zmax)\s*\(\"(.*)\"\)(\s*mode\s*([0-9]+))?.*
! Touchstone port assignment:
! Touchstone port 1 = CST MWS port Zmax ("") mode 1
! Touchstone port 2 = CST MWS port Zmax ("") mode 2
! Touchstone port 3 = CST MWS port Zmin ("") mode 1
! Touchstone port 4 = CST MWS port Zmin ("") mode 2
! S-Parameters are not renormalized. Each port impedance will be approximated by the real part at minimum frequency. The values are described via the [Reference] keyword.
! Default impedance is overridden by [Reference]
[Version] 2.0
# GHz S RI R 376.73
[Number of Ports] 4
[Reference]
376.73 376.73 376.73 376.73 
[Number of Frequencies] 1001
[Network Data]
281700                 0.0681814       -0.109621     -3.86447e-05     -5.3229e-05        -0.813746        0.564819      0.000247497    -0.000121554
                    -7.50421e-05     4.51925e-05        -0.265453        0.137913     -1.47953e-05     2.84497e-06         0.433716        0.841318
                        -0.81368        0.564958      0.000339294     0.000219834        -0.126836       0.0258866       5.3011e-05     0.000179262
                     0.000281598    -0.000103683         0.433419        0.842163      -9.8658e-05     6.57367e-05        -0.267996        0.135647
281700.1               0.0681756       -0.109624     -3.86325e-05     -5.3251e-05        -0.813731        0.564841      0.000247497    -0.000121552
                     -7.4836e-05     4.50293e-05        -0.265446        0.137921     -1.47556e-05     2.86468e-06         0.433743        0.841305
                       -0.813665         0.56498      0.000339301     0.000219829        -0.126835       0.0258869      5.30245e-05     0.000179265
                     0.000281577    -0.000103752         0.433446         0.84215     -9.86475e-05     6.57601e-05         -0.26799        0.135654
281700.2               0.0681698       -0.109627     -3.86202e-05    -5.32729e-05        -0.813715        0.564864      0.000247497    -0.000121549
                    -7.47858e-05      4.4973e-05         -0.26544        0.137929      -1.4716e-05     2.88439e-06          0.43377        0.841292
                       -0.813649        0.565002      0.000339309     0.000219824        -0.126834       0.0258873       5.3038e-05     0.000179269
                     0.000281572    -0.000103782         0.433473        0.842137      -9.8637e-05     6.57835e-05        -0.267984         0.13566
281700.3                0.068164        -0.10963      -3.8608e-05    -5.32949e-05          -0.8137        0.564886      0.000247497    -0.000121547
                    -7.48954e-05     4.50241e-05        -0.265433        0.137937     -1.46764e-05     2.90409e-06         0.433797        0.841279
                       -0.813634        0.565024      0.000339316     0.000219819        -0.126834       0.0258877      5.30516e-05     0.000179272
                     0.000281582    -0.000103773           0.4335        0.842124     -9.86264e-05      6.5807e-05        -0.267978        0.135667
281700.4               0.0681581       -0.109633     -3.85957e-05    -5.33168e-05        -0.813685        0.564908      0.000247497    -0.000121544
                    -7.51704e-05     4.51838e-05        -0.265426        0.137945     -1.46368e-05     2.92379e-06         0.433823        0.841266
                       -0.813619        0.565046      0.000339323     0.000219814        -0.126833        0.025888      5.30651e-05     0.000179275
                     0.000281609    -0.000103725         0.433526        0.842111     -9.86159e-05     6.58304e-05        -0.267972        0.135673
281700.5               0.0681523       -0.109636     -3.85834e-05    -5.33388e-05         -0.81367         0.56493      0.000247496    -0.000121542
                    -7.56184e-05     4.54548e-05        -0.265419        0.137953     -1.45972e-05     2.94349e-06          0.43385        0.841252
                       -0.813604        0.565068       0.00033933     0.000219808        -0.126832       0.0258884      5.30786e-05     0.000179278
                     0.000281652    -0.000103637         0.433553        0.842098     -9.86054e-05     6.58538e-05        -0.267966         0.13568
281700.6               0.0681465       -0.109639     -3.85711e-05    -5.33607e-05        -0.813654        0.564952      0.000247496    -0.000121539
                    -7.62495e-05     4.58407e-05        -0.265412        0.137961     -1.45576e-05     2.96318e-06         0.433877        0.841239
                       -0.813588         0.56509      0.000339338     0.000219803        -0.126832       0.0258888      5.30922e-05     0.000179282
                     0.000281712    -0.000103509          0.43358        0.842085     -9.85949e-05     6.58772e-05         -0.26796        0.135687
281700.7               0.0681407       -0.109642     -3.85589e-05    -5.33827e-05        -0.813639        0.564974      0.000247496    -0.000121537
                    -7.70766e-05     4.63467e-05        -0.265405        0.137969      -1.4518e-05     2.98286e-06         0.433904        0.841226
                       -0.813573        0.565112      0.000339345     0.000219798        -0.126831       0.0258892      5.31057e-05     0.000179285
                     0.000281791    -0.000103342         0.433607        0.842072     -9.85844e-05     6.59007e-05        -0.267954        0.135693
281700.8               0.0681349       -0.109645     -3.85466e-05    -5.34046e-05        -0.813624        0.564996      0.000247496    -0.000121534
                    -7.81155e-05      4.6979e-05        -0.265398        0.137977     -1.44784e-05     3.00255e-06         0.433931        0.841213
                       -0.813558        0.565134      0.000339351     0.000219792         -0.12683       0.0258895      5.31192e-05     0.000179288
                     0.000281888    -0.000103135         0.433634        0.842059     -9.85738e-05     6.59241e-05        -0.267948          0.1357
281700.9               0.0681291       -0.109648     -3.85343e-05    -5.34266e-05        -0.813609        0.565018      0.000247496    -0.000121532
                    -7.93861e-05     4.77458e-05        -0.265392        0.137985     -1.44388e-05     3.02223e-06         0.433958          0.8412
                       -0.813543        0.565156      0.000339358     0.000219787         -0.12683       0.0258899      5.31328e-05     0.000179291
                     0.000282006    -0.000102889         0.433661        0.842046     -9.85633e-05     6.59475e-05        -0.267942        0.135706
281701                 0.0681233       -0.109651      -3.8522e-05    -5.34486e-05        -0.813593         0.56504      0.000247496    -0.000121529
                    -8.09128e-05     4.86567e-05        -0.265385        0.137993     -1.43992e-05      3.0419e-06         0.433985        0.841187
                       -0.813527        0.565179      0.000339365     0.000219781        -0.126829       0.0258903      5.31463e-05     0.000179294
                     0.000282147    -0.000102605         0.433688        0.842033     -9.85528e-05      6.5971e-05        -0.267936        0.135713
281701.1               0.0681174       -0.109654     -3.85097e-05    -5.34706e-05        -0.813578        0.565062      0.000247495    -0.000121527
                    -8.27256e-05     4.97239e-05        -0.265378        0.138001     -1.43597e-05     3.06157e-06         0.434012        0.841174
                       -0.813512        0.565201      0.000339372     0.000219776        -0.126828       0.0258906      5.31599e-05     0.000179298
                     0.000282311    -0.000102285         0.433715        0.842019     -9.85423e-05     6.59944e-05         -0.26793        0.135719
281701.2               0.0681116       -0.109657     -3.84974e-05    -5.34926e-05        -0.813563        0.565085      0.000247495    -0.000121524
                    -8.48617e-05     5.09613e-05        -0.265371        0.138009     -1.43201e-05     3.08124e-06         0.434038        0.841161
                       -0.813497        0.565223      0.000339378      0.00021977        -0.126828        0.025891      5.31734e-05     0.000179301
                       0.0002825    -0.000101931         0.433742        0.842006     -9.85317e-05     6.60178e-05        -0.267924        0.135726
281701.3               0.0681058        -0.10966     -3.84851e-05    -5.35146e-05        -0.813548        0.565107      0.000247495    -0.000121522
                    -8.73672e-05     5.23863e-05        -0.265364        0.138017     -1.42805e-05      3.1009e-06         0.434065        0.841148
                       -0.813482        0.565245      0.000339385     0.000219764        -0.126827       0.0258914      5.31869e-05     0.000179304
                     0.000282716    -0.000101543         0.433769        0.841993     -9.85212e-05     6.60412e-05        -0.267918        0.135733
281701.4                  0.0681       -0.109663     -3.84728e-05    -5.35366e-05        -0.813532        0.565129      0.000247495    -0.000121519
                    -9.02995e-05      5.4019e-05        -0.265357        0.138025     -1.42409e-05     3.12056e-06         0.434092        0.841135
                       -0.813466        0.565267      0.000339391     0.000219758        -0.126826       0.0258917      5.32005e-05     0.000179307
                     0.000282962    -0.000101125         0.433795         0.84198     -9.85107e-05     6.60647e-05        -0.267912        0.135739
281701.5               0.0680942       -0.109666     -3.84605e-05    -5.35586e-05        -0.813517        0.565151      0.000247495    -0.000121517
                    -9.37312e-05     5.58836e-05         -0.26535        0.138033     -1.42014e-05     3.14022e-06         0.434119        0.841122
                       -0.813451        0.565289      0.000339398     0.000219752        -0.126826       0.0258921       5.3214e-05      0.00017931
                     0.000283238    -0.000100679         0.433822        0.841967     -9.85001e-05     6.60881e-05        -0.267906        0.135746
281701.6               0.0680884       -0.109669     -3.84482e-05    -5.35806e-05        -0.813502        0.565173      0.000247495    -0.000121514
                    -9.77543e-05     5.80089e-05        -0.265344        0.138041     -1.41618e-05     3.15987e-06         0.434146        0.841109
                       -0.813436        0.565311      0.000339404     0.000219747        -0.126825       0.0258925      5.32276e-05     0.000179314
                     0.000283547    -0.000100209         0.433849        0.841954     -9.84896e-05     6.61116e-05          -0.2679        0.135752
281701.7               0.0680826       -0.109672     -3.84359e-05    -5.36026e-05        -0.813486        0.565195      0.000247495    -0.000121512
                    -0.000102488     6.04285e-05        -0.265337        0.138049     -1.41223e-05     3.17952e-06         0.434173        0.841096
                       -0.813421        0.565333      0.000339411      0.00021974        -0.126824       0.0258929      5.32411e-05     0.000179317
                     0.000283891    -9.97167e-05         0.433876        0.841941     -9.84791e-05      6.6135e-05        -0.267894        0.135759
281701.8               0.0680768       -0.109675     -3.84236e-05    -5.36247e-05        -0.813471        0.565217      0.000247494     -0.00012151
                    -0.000108086     6.31819e-05         -0.26533        0.138057     -1.40827e-05     3.19916e-06           0.4342        0.841083
                       -0.813405        0.565355      0.000339417     0.000219734        -0.126824       0.0258932      5.32547e-05      0.00017932
                     0.000284269    -9.92072e-05         0.433903        0.841928     -9.84685e-05     6.61584e-05        -0.267888        0.135765
281701.9                0.068071       -0.109677     -3.84113e-05    -5.36467e-05        -0.813456        0.565239      0.000247494    -0.000121507
                    -0.000114754     6.63145e-05        -0.265323        0.138065     -1.40432e-05      3.2188e-06         0.434227         0.84107
                        -0.81339        0.565377      0.000339423     0.000219728        -0.126823       0.0258936      5.32682e-05     0.000179323
                     0.000284684    -9.86842e-05          0.43393        0.841915      -9.8458e-05     6.61819e-05        -0.267882        0.135772
281702                 0.0680652        -0.10968      -3.8399e-05    -5.36688e-05        -0.813441        0.565261      0.000247494    -0.000121505
                    -0.000122771     6.98768e-05        -0.265316        0.138073     -1.40036e-05     3.23843e-06         0.434253        0.841057
                       -0.813375        0.565399      0.000339429     0.000219722        -0.126822        0.025894      5.32818e-05     0.000179327
                     0.000285137     -9.8152e-05         0.433957        0.841902     -9.84475e-05     6.62053e-05        -0.267876        0.135779
281702.1               0.0680594       -0.109683     -3.83866e-05    -5.36908e-05        -0.813425        0.565283      0.000247494    -0.000121502
                     -0.00013252     7.39212e-05        -0.265309        0.138081     -1.39641e-05     3.25806e-06          0.43428        0.841044
                       -0.813359        0.565421      0.000339435     0.000219716        -0.126822       0.0258943      5.32953e-05      0.00017933
                     0.000285627    -9.76149e-05         0.433984        0.841889     -9.84369e-05     6.62287e-05         -0.26787        0.135785
281702.2               0.0680536       -0.109686     -3.83743e-05    -5.37129e-05         -0.81341        0.565305      0.000247494      -0.0001215
                    -0.000144545     7.84933e-05        -0.265302        0.138089     -1.39245e-05     3.27769e-06         0.434307        0.841031
                       -0.813344        0.565443      0.000339441     0.000219709        -0.126821       0.0258947      5.33089e-05     0.000179333
                     0.000286154    -9.70775e-05         0.434011        0.841876     -9.84264e-05     6.62522e-05        -0.267864        0.135792
281702.3               0.0680478       -0.109689      -3.8362e-05    -5.37349e-05        -0.813395        0.565328      0.000247494    -0.000121497
                    -0.000159636      8.3609e-05        -0.265295        0.138097      -1.3885e-05     3.29731e-06         0.434334        0.841017
                       -0.813329        0.565465      0.000339447     0.000219703        -0.126821       0.0258951      5.33224e-05     0.000179336
                     0.000286718    -9.65445e-05         0.434038        0.841863     -9.84158e-05     6.62756e-05        -0.267858        0.135798
281702.4                0.068042       -0.109692     -3.83497e-05     -5.3757e-05         -0.81338         0.56535      0.000247493    -0.000121495
                    -0.000178984     8.92008e-05        -0.265289        0.138105     -1.38455e-05     3.31693e-06         0.434361        0.841004
                       -0.813314        0.565487      0.000339453     0.000219696         -0.12682       0.0258954       5.3336e-05     0.000179339
                     0.000287318    -9.60205e-05         0.434064         0.84185     -9.84053e-05     6.62991e-05        -0.267852        0.135805
281702.5               0.0680362       -0.109695     -3.83373e-05    -5.37791e-05        -0.813364        0.565372      0.000247493    -0.000121492
                    -0.000204445     9.49824e-05        -0.265282        0.138113      -1.3806e-05     3.33655e-06         0.434388        0.840991
                       -0.813298        0.565509      0.000339459      0.00021969        -0.126819       0.0258958      5.33495e-05     0.000179343
                     0.000287952    -9.55098e-05         0.434091        0.841837     -9.83947e-05     6.63225e-05        -0.267846        0.135811
281702.6               0.0680304       -0.109698      -3.8325e-05    -5.38012e-05        -0.813349        0.565394      0.000247493     -0.00012149
                    -0.000239028     0.000100098        -0.265275        0.138121     -1.37664e-05     3.35616e-06         0.434415        0.840978
                       -0.813283        0.565531      0.000339465     0.000219683        -0.126819       0.0258962      5.33631e-05     0.000179346
                     0.000288617    -9.50168e-05         0.434118        0.841824     -9.83842e-05     6.63459e-05         -0.26784        0.135818
281702.7               0.0680246       -0.109701     -3.83127e-05    -5.38233e-05        -0.813334        0.565416      0.000247493    -0.000121487
                    -0.000287783     0.000102162        -0.265268        0.138129     -1.37269e-05     3.37576e-06         0.434441        0.840965
                       -0.813268        0.565553      0.000339471     0.000219676        -0.126818       0.0258966      5.33766e-05     0.000179349
                     0.000289313    -9.45453e-05         0.434145         0.84181     -9.83736e-05     6.63694e-05        -0.267833        0.135825
281702.8               0.0680188       -0.109704     -3.83003e-05    -5.38454e-05        -0.813318        0.565438      0.000247493    -0.000121485
                    -0.000359249     9.43971e-05        -0.265261        0.138137     -1.36874e-05     3.39537e-06         0.434468        0.840952
                       -0.813253        0.565575      0.000339477      0.00021967        -0.126817       0.0258969      5.33902e-05     0.000179352
                     0.000290034    -9.40991e-05         0.434172        0.841797     -9.83631e-05     6.63928e-05        -0.267827        0.135831
281702.9               0.0680131       -0.109707      -3.8288e-05    -5.38675e-05        -0.813303         0.56546      0.000247493    -0.000121482
                    -0.000466105     5.66855e-05        -0.265254        0.138145     -1.36479e-05     3.41497e-06         0.434495        0.840939
                       -0.813237        0.565597      0.000339483     0.000219663        -0.126817       0.0258973      5.34037e-05     0.000179355
                     0.000290779    -9.36811e-05         0.434199        0.841784     -9.83525e-05     6.64163e-05        -0.267821        0.135838
281703                 0.0680073        -0.10971     -3.82756e-05    -5.38897e-05        -0.813288        0.565482      0.000247493     -0.00012148
                    -0.000609975    -6.97984e-05        -0.265247        0.138153     -1.36084e-05     3.43456e-06         0.434522        0.840926
                       -0.813222        0.565619      0.000339489     0.000219656        -0.126816       0.0258977      5.34173e-05     0.000179359
                     0.000291544    -9.32941e-05         0.434226        0.841771      -9.8342e-05     6.64397e-05        -0.267815        0.135844
281703.1               0.0680015       -0.109713     -3.82633e-05    -5.39118e-05        -0.813273        0.565504      0.000247492    -0.000121477
                    -0.000672865    -0.000386737        -0.265241        0.138161     -1.35689e-05     3.45415e-06         0.434549        0.840913
                       -0.813207        0.565641      0.000339494     0.000219649        -0.126815        0.025898      5.34308e-05     0.000179362
