! TOUCHSTONE file generated by CST MICROWAVE STUDIO
! Date and time: Wed Oct  8 06:53:30 2025
! Project name: Teste_Macro_Metasurface_Nanopilar.cst
! Parameters = {H=600; L_x=90; L_y=195; Lambda=1064; Max_L=200; Min_L=70; PathPara=1; Phi=0; Step_L=10; Theta=0; p=520; phaseX=180; phaseY=0}
! Header version: 2018
! Port assignment regex: !\s*Touchstone port\s*([0-9]+)\s*=\s*(CST MWS port|CST DS port)\s*([0-9]+|Zmin|Zmax)\s*\(\"(.*)\"\)(\s*mode\s*([0-9]+))?.*
! Touchstone port assignment:
! Touchstone port 1 = CST MWS port Zmax ("") mode 1
! Touchstone port 2 = CST MWS port Zmax ("") mode 2
! Touchstone port 3 = CST MWS port Zmin ("") mode 1
! Touchstone port 4 = CST MWS port Zmin ("") mode 2
! S-Parameters are not renormalized. Each port impedance will be approximated by the real part at minimum frequency. The values are described via the [Reference] keyword.
! Default impedance is overridden by [Reference]
[Version] 2.0
# GHz S RI R 376.73
[Number of Ports] 4
[Reference]
376.73 376.73 376.73 376.73 
[Number of Frequencies] 1001
[Network Data]
281700                 -0.923162       -0.266685      3.05213e-05    -0.000375876        -0.142474        0.132351      8.76679e-05    -0.000250639
                    -0.000394218    -0.000131954        -0.188013       -0.110661      0.000591627    -0.000692938        0.0451366        0.971219
                       -0.142071        0.132132     -0.000198845    -0.000429584        -0.381315       -0.877408     -0.000780579    -0.000850262
                    -2.37316e-05    -0.000540017        0.0451008         0.97063     -0.000686426    -0.000403661        -0.176934        0.127514
281700.1               -0.923177       -0.266651      3.05157e-05    -0.000375934        -0.142451         0.13234      8.76773e-05    -0.000250644
                    -0.000394195    -0.000131957        -0.188015       -0.110654      0.000591684    -0.000693033        0.0451656        0.971218
                       -0.142048        0.132121     -0.000198911    -0.000429488        -0.381373       -0.877389     -0.000780637    -0.000850251
                    -2.37657e-05    -0.000540016        0.0451298        0.970629     -0.000686507    -0.000403624        -0.176929        0.127518
281700.2               -0.923192       -0.266616        3.051e-05    -0.000375992        -0.142428        0.132329      8.76868e-05    -0.000250649
                    -0.000394171    -0.000131959        -0.188017       -0.110646      0.000591741    -0.000693128        0.0451947        0.971217
                       -0.142025         0.13211     -0.000198977    -0.000429391        -0.381431       -0.877369     -0.000780695     -0.00085024
                    -2.37999e-05    -0.000540014        0.0451587        0.970628     -0.000686587    -0.000403587        -0.176923        0.127521
281700.3               -0.923207       -0.266582      3.05043e-05     -0.00037605        -0.142405        0.132318      8.76962e-05    -0.000250655
                    -0.000394148    -0.000131962        -0.188018       -0.110639      0.000591798    -0.000693223        0.0452237        0.971217
                       -0.142002        0.132099     -0.000199044    -0.000429294        -0.381489        -0.87735     -0.000780752     -0.00085023
                     -2.3834e-05    -0.000540013        0.0451877        0.970627     -0.000686668    -0.000403549        -0.176918        0.127524
281700.4               -0.923222       -0.266548      3.04986e-05    -0.000376109        -0.142381        0.132307      8.77057e-05     -0.00025066
                    -0.000394124    -0.000131964         -0.18802       -0.110631      0.000591855    -0.000693319        0.0452528        0.971216
                       -0.141979        0.132088      -0.00019911    -0.000429197        -0.381547        -0.87733      -0.00078081    -0.000850219
                    -2.38681e-05    -0.000540011        0.0452167        0.970626     -0.000686749    -0.000403512        -0.176912        0.127527
281700.5               -0.923237       -0.266514      3.04929e-05    -0.000376167        -0.142358        0.132296      8.77151e-05    -0.000250665
                    -0.000394101    -0.000131967        -0.188021       -0.110624      0.000591912    -0.000693414        0.0452818        0.971215
                       -0.141956        0.132077     -0.000199176      -0.0004291        -0.381605        -0.87731     -0.000780868    -0.000850209
                    -2.39023e-05     -0.00054001        0.0452457        0.970626     -0.000686829    -0.000403475        -0.176907         0.12753
281700.6               -0.923252        -0.26648      3.04872e-05    -0.000376225        -0.142335        0.132285      8.77246e-05     -0.00025067
                    -0.000394077     -0.00013197        -0.188023       -0.110616      0.000591969    -0.000693509        0.0453108        0.971214
                       -0.141933        0.132066     -0.000199242    -0.000429003        -0.381663       -0.877291     -0.000780925    -0.000850198
                    -2.39364e-05    -0.000540009        0.0452746        0.970625      -0.00068691    -0.000403438        -0.176902        0.127533
281700.7               -0.923267       -0.266445      3.04815e-05    -0.000376283        -0.142312        0.132274       8.7734e-05    -0.000250675
                    -0.000394054    -0.000131972        -0.188024       -0.110609      0.000592026    -0.000693604        0.0453399        0.971213
                        -0.14191        0.132055     -0.000199308    -0.000428907        -0.381721       -0.877271     -0.000780983    -0.000850188
                    -2.39705e-05    -0.000540007        0.0453036        0.970624      -0.00068699    -0.000403401        -0.176896        0.127537
281700.8               -0.923282       -0.266411      3.04757e-05    -0.000376341        -0.142289        0.132263      8.77434e-05     -0.00025068
                     -0.00039403    -0.000131975        -0.188026       -0.110601      0.000592084    -0.000693699        0.0453689        0.971213
                       -0.141887        0.132044     -0.000199375     -0.00042881        -0.381779       -0.877251     -0.000781041    -0.000850177
                    -2.40047e-05    -0.000540006        0.0453326        0.970623     -0.000687071    -0.000403363        -0.176891         0.12754
281700.9               -0.923297       -0.266377      3.04699e-05    -0.000376399        -0.142266        0.132252      8.77529e-05    -0.000250685
                    -0.000394007    -0.000131977        -0.188027       -0.110593      0.000592141    -0.000693794         0.045398        0.971212
                       -0.141864        0.132033     -0.000199441    -0.000428713        -0.381837       -0.877232     -0.000781098    -0.000850166
                    -2.40388e-05    -0.000540004        0.0453615        0.970622     -0.000687151    -0.000403326        -0.176886        0.127543
281701                 -0.923312       -0.266343      3.04641e-05    -0.000376458        -0.142243        0.132241      8.77623e-05     -0.00025069
                    -0.000393984     -0.00013198        -0.188029       -0.110586      0.000592198    -0.000693889         0.045427        0.971211
                       -0.141841        0.132021     -0.000199507    -0.000428616        -0.381895       -0.877212     -0.000781156    -0.000850156
                    -2.40729e-05    -0.000540003        0.0453905        0.970621     -0.000687232    -0.000403289         -0.17688        0.127546
281701.1               -0.923327       -0.266308      3.04583e-05    -0.000376516         -0.14222         0.13223      8.77718e-05    -0.000250695
                     -0.00039396    -0.000131983        -0.188031       -0.110578      0.000592255    -0.000693984         0.045456         0.97121
                       -0.141818         0.13201     -0.000199573    -0.000428519        -0.381953       -0.877192     -0.000781214    -0.000850145
                    -2.41071e-05    -0.000540002        0.0454195         0.97062     -0.000687313    -0.000403252        -0.176875        0.127549
281701.2               -0.923341       -0.266274      3.04525e-05    -0.000376574        -0.142197        0.132219      8.77812e-05      -0.0002507
                    -0.000393937    -0.000131985        -0.188032       -0.110571      0.000592312    -0.000694079        0.0454851        0.971209
                       -0.141795        0.131999     -0.000199639    -0.000428422        -0.382011       -0.877173     -0.000781272    -0.000850134
                    -2.41412e-05        -0.00054        0.0454485         0.97062     -0.000687393    -0.000403214         -0.17687        0.127552
281701.3               -0.923356        -0.26624      3.04467e-05    -0.000376632        -0.142174        0.132208      8.77907e-05    -0.000250705
                    -0.000393913    -0.000131988        -0.188034       -0.110563       0.00059237    -0.000694174        0.0455141        0.971209
                       -0.141772        0.131988     -0.000199705    -0.000428325        -0.382069       -0.877153     -0.000781329    -0.000850124
                    -2.41753e-05    -0.000539999        0.0454774        0.970619     -0.000687474    -0.000403177        -0.176864        0.127555
281701.4               -0.923371       -0.266206      3.04408e-05    -0.000376691        -0.142151        0.132197      8.78001e-05     -0.00025071
                     -0.00039389     -0.00013199        -0.188035       -0.110556      0.000592427    -0.000694269        0.0455431        0.971208
                       -0.141749        0.131977     -0.000199771    -0.000428228        -0.382127       -0.877133     -0.000781387    -0.000850113
                    -2.42095e-05    -0.000539997        0.0455064        0.970618     -0.000687554     -0.00040314        -0.176859        0.127559
281701.5               -0.923386       -0.266172       3.0435e-05    -0.000376749        -0.142128        0.132186      8.78096e-05    -0.000250715
                    -0.000393866    -0.000131993        -0.188037       -0.110548      0.000592484    -0.000694365        0.0455722        0.971207
                       -0.141726        0.131966     -0.000199837    -0.000428131        -0.382185       -0.877114     -0.000781445    -0.000850102
                    -2.42436e-05    -0.000539996        0.0455354        0.970617     -0.000687635    -0.000403103        -0.176854        0.127562
281701.6               -0.923401       -0.266137      3.04291e-05    -0.000376807        -0.142105        0.132175       8.7819e-05     -0.00025072
                    -0.000393843    -0.000131996        -0.188038       -0.110541      0.000592541     -0.00069446        0.0456012        0.971206
                       -0.141703        0.131955     -0.000199903    -0.000428034        -0.382243       -0.877094     -0.000781502    -0.000850092
                    -2.42777e-05    -0.000539994        0.0455643        0.970616     -0.000687716    -0.000403065        -0.176848        0.127565
281701.7               -0.923416       -0.266103      3.04232e-05    -0.000376865        -0.142082        0.132164      8.78284e-05    -0.000250725
                     -0.00039382    -0.000131998         -0.18804       -0.110533      0.000592599    -0.000694555        0.0456303        0.971205
                        -0.14168        0.131944     -0.000199969    -0.000427937        -0.382301       -0.877074      -0.00078156    -0.000850081
                    -2.43119e-05    -0.000539993        0.0455933        0.970615     -0.000687796    -0.000403028        -0.176843        0.127568
281701.8               -0.923431       -0.266069      3.04173e-05    -0.000376924        -0.142059        0.132153      8.78379e-05     -0.00025073
                    -0.000393796    -0.000132001        -0.188041       -0.110526      0.000592656     -0.00069465        0.0456593        0.971205
                       -0.141657        0.131933     -0.000200035     -0.00042784        -0.382359       -0.877055     -0.000781618     -0.00085007
                     -2.4346e-05    -0.000539992        0.0456223        0.970615     -0.000687877    -0.000402991        -0.176837        0.127571
281701.9               -0.923446       -0.266035      3.04113e-05    -0.000376982        -0.142036        0.132142      8.78473e-05    -0.000250735
                    -0.000393773    -0.000132004        -0.188043       -0.110518      0.000592713    -0.000694745        0.0456883        0.971204
                       -0.141634        0.131922     -0.000200101    -0.000427743        -0.382416       -0.877035     -0.000781676     -0.00085006
                    -2.43802e-05     -0.00053999        0.0456513        0.970614     -0.000687957    -0.000402953        -0.176832        0.127574
281702                 -0.923461          -0.266      3.04054e-05     -0.00037704        -0.142013         0.13213      8.78568e-05    -0.000250741
                    -0.000393749    -0.000132006        -0.188045       -0.110511      0.000592771     -0.00069484        0.0457174        0.971203
                       -0.141611         0.13191     -0.000200167    -0.000427645        -0.382474       -0.877015     -0.000781733    -0.000850049
                    -2.44143e-05    -0.000539989        0.0456802        0.970613     -0.000688038    -0.000402916        -0.176827        0.127578
281702.1               -0.923476       -0.265966      3.03994e-05    -0.000377099         -0.14199        0.132119      8.78662e-05    -0.000250746
                    -0.000393726    -0.000132009        -0.188046       -0.110503      0.000592828    -0.000694935        0.0457464        0.971202
                       -0.141588        0.131899     -0.000200232    -0.000427548        -0.382532       -0.876995     -0.000781791    -0.000850038
                    -2.44484e-05    -0.000539987        0.0457092        0.970612     -0.000688119    -0.000402879        -0.176821        0.127581
281702.2               -0.923491       -0.265932      3.03934e-05    -0.000377157        -0.141967        0.132108      8.78757e-05    -0.000250751
                    -0.000393703    -0.000132012        -0.188048       -0.110496      0.000592885     -0.00069503        0.0457755        0.971201
                       -0.141565        0.131888     -0.000200298    -0.000427451         -0.38259       -0.876976     -0.000781849    -0.000850028
                    -2.44826e-05    -0.000539986        0.0457382        0.970611     -0.000688199    -0.000402841        -0.176816        0.127584
281702.3               -0.923505       -0.265898      3.03875e-05    -0.000377215        -0.141944        0.132097      8.78851e-05    -0.000250756
                    -0.000393679    -0.000132014        -0.188049       -0.110488      0.000592943    -0.000695125        0.0458045        0.971201
                       -0.141542        0.131877     -0.000200364    -0.000427354        -0.382648       -0.876956     -0.000781906    -0.000850017
                    -2.45167e-05    -0.000539984        0.0457671         0.97061      -0.00068828    -0.000402804        -0.176811        0.127587
281702.4                -0.92352       -0.265864      3.03814e-05    -0.000377274        -0.141921        0.132086      8.78946e-05    -0.000250761
                    -0.000393656    -0.000132017        -0.188051        -0.11048         0.000593     -0.00069522        0.0458335          0.9712
                       -0.141519        0.131866      -0.00020043    -0.000427257        -0.382706       -0.876936     -0.000781964    -0.000850006
                    -2.45509e-05    -0.000539983        0.0457961        0.970609      -0.00068836    -0.000402767        -0.176805         0.12759
281702.5               -0.923535       -0.265829      3.03754e-05    -0.000377332        -0.141898        0.132075       8.7904e-05    -0.000250766
                    -0.000393632     -0.00013202        -0.188052       -0.110473      0.000593058    -0.000695315        0.0458626        0.971199
                       -0.141496        0.131855     -0.000200496    -0.000427159        -0.382764       -0.876917     -0.000782022    -0.000849996
                     -2.4585e-05    -0.000539982        0.0458251        0.970609     -0.000688441    -0.000402729          -0.1768        0.127593
281702.6                -0.92355       -0.265795      3.03694e-05     -0.00037739        -0.141875        0.132064      8.79135e-05    -0.000250771
                    -0.000393609    -0.000132022        -0.188054       -0.110465      0.000593115     -0.00069541        0.0458916        0.971198
                       -0.141473        0.131844     -0.000200561    -0.000427062        -0.382822       -0.876897      -0.00078208    -0.000849985
                    -2.46191e-05     -0.00053998        0.0458541        0.970608     -0.000688522    -0.000402692        -0.176795        0.127597
281702.7               -0.923565       -0.265761      3.03633e-05    -0.000377449        -0.141852        0.132053      8.79229e-05    -0.000250776
                    -0.000393586    -0.000132025        -0.188055       -0.110458      0.000593172    -0.000695505        0.0459207        0.971197
                        -0.14145        0.131833     -0.000200627    -0.000426965         -0.38288       -0.876877     -0.000782137    -0.000849974
                    -2.46533e-05    -0.000539979         0.045883        0.970607     -0.000688602    -0.000402655        -0.176789          0.1276
281702.8                -0.92358       -0.265727      3.03573e-05    -0.000377507        -0.141829        0.132042      8.79324e-05    -0.000250781
                    -0.000393562    -0.000132028        -0.188057        -0.11045       0.00059323      -0.0006956        0.0459497        0.971196
                       -0.141427        0.131821     -0.000200693    -0.000426868        -0.382938       -0.876857     -0.000782195    -0.000849963
                    -2.46874e-05    -0.000539977         0.045912        0.970606     -0.000688683    -0.000402617        -0.176784        0.127603
281702.9               -0.923595       -0.265692      3.03512e-05    -0.000377566        -0.141806        0.132031      8.79418e-05    -0.000250786
                    -0.000393539     -0.00013203        -0.188058       -0.110443      0.000593287    -0.000695695        0.0459787        0.971196
                       -0.141404         0.13181     -0.000200759     -0.00042677        -0.382996       -0.876838     -0.000782253    -0.000849953
                    -2.47216e-05    -0.000539976         0.045941        0.970605     -0.000688764     -0.00040258        -0.176778        0.127606
281703                  -0.92361       -0.265658      3.03451e-05    -0.000377624        -0.141783         0.13202      8.79513e-05    -0.000250792
                    -0.000393516    -0.000132033         -0.18806       -0.110435      0.000593345     -0.00069579        0.0460078        0.971195
                       -0.141381        0.131799     -0.000200824    -0.000426673        -0.383054       -0.876818     -0.000782311    -0.000849942
                    -2.47557e-05    -0.000539974        0.0459699        0.970604     -0.000688844    -0.000402542        -0.176773        0.127609
281703.1               -0.923625       -0.265624      3.03389e-05    -0.000377683         -0.14176        0.132009      8.79607e-05    -0.000250797
                    -0.000393492    -0.000132036        -0.188062       -0.110428      0.000593402    -0.000695885        0.0460368        0.971194
                       -0.141358        0.131788      -0.00020089    -0.000426576        -0.383112       -0.876798     -0.000782369    -0.000849931
