! TOUCHSTONE file generated by CST MICROWAVE STUDIO
! Date and time: Wed Oct  8 07:00:09 2025
! Project name: Teste_Macro_Metasurface_Nanopilar.cst
! Parameters = {H=600; L_x=150; L_y=80; Lambda=1064; Max_L=200; Min_L=70; PathPara=1; Phi=0; Step_L=10; Theta=0; p=520; phaseX=180; phaseY=0}
! Header version: 2018
! Port assignment regex: !\s*Touchstone port\s*([0-9]+)\s*=\s*(CST MWS port|CST DS port)\s*([0-9]+|Zmin|Zmax)\s*\(\"(.*)\"\)(\s*mode\s*([0-9]+))?.*
! Touchstone port assignment:
! Touchstone port 1 = CST MWS port Zmax ("") mode 1
! Touchstone port 2 = CST MWS port Zmax ("") mode 2
! Touchstone port 3 = CST MWS port Zmin ("") mode 1
! Touchstone port 4 = CST MWS port Zmin ("") mode 2
! S-Parameters are not renormalized. Each port impedance will be approximated by the real part at minimum frequency. The values are described via the [Reference] keyword.
! Default impedance is overridden by [Reference]
[Version] 2.0
# GHz S RI R 376.73
[Number of Ports] 4
[Reference]
376.73 376.73 376.73 376.73 
[Number of Frequencies] 1001
[Network Data]
281700                 0.0715998       -0.105596     -0.000477243     0.000814493        -0.813075        0.566334     -0.000324112    -0.000191173
                    -0.000602385     0.000965084        0.0776887        -0.14013     -5.23998e-05     0.000433885         0.736182       -0.642707
                       -0.812937        0.565892     -6.45304e-05     0.000553167        -0.124101       0.0307799      -0.00102128     0.000322617
                    -0.000191557    -0.000234782         0.736486       -0.642433      -0.00106688      0.00026807        -0.153212       0.0609326
281700.1               0.0715941       -0.105599     -0.000477226     0.000814496        -0.813059        0.566356     -0.000324129    -0.000191176
                    -0.000602364     0.000965098        0.0776799       -0.140134     -5.23833e-05     0.000433899          0.73616       -0.642732
                       -0.812922        0.565914     -6.44996e-05     0.000553169          -0.1241       0.0307803      -0.00102127     0.000322666
                    -0.000191567    -0.000234793         0.736464       -0.642458      -0.00106688     0.000268114         -0.15321       0.0609336
281700.2               0.0715884       -0.105602     -0.000477208     0.000814499        -0.813044        0.566378     -0.000324147     -0.00019118
                    -0.000602343     0.000965113        0.0776711       -0.140138     -5.23668e-05     0.000433912         0.736138       -0.642757
                       -0.812907        0.565936     -6.44688e-05      0.00055317        -0.124099       0.0307806      -0.00102127     0.000322716
                    -0.000191578    -0.000234804         0.736442       -0.642484      -0.00106688     0.000268158        -0.153209       0.0609346
281700.3               0.0715828       -0.105605     -0.000477191     0.000814501        -0.813029          0.5664     -0.000324165    -0.000191183
                    -0.000602322     0.000965128        0.0776624       -0.140142     -5.23502e-05     0.000433926         0.736116       -0.642782
                       -0.812891        0.565958     -6.44379e-05     0.000553172        -0.124098        0.030781      -0.00102126     0.000322765
                    -0.000191588    -0.000234815          0.73642       -0.642509      -0.00106688     0.000268201        -0.153208       0.0609356
281700.4               0.0715771       -0.105608     -0.000477173     0.000814504        -0.813014        0.566422     -0.000324182    -0.000191187
                    -0.000602301     0.000965142        0.0776536       -0.140146     -5.23337e-05      0.00043394         0.736095       -0.642807
                       -0.812876         0.56598     -6.44071e-05     0.000553174        -0.124097       0.0307814      -0.00102125     0.000322815
                    -0.000191598    -0.000234826         0.736398       -0.642534      -0.00106688     0.000268245        -0.153206       0.0609366
281700.5               0.0715714       -0.105611     -0.000477156     0.000814507        -0.812998        0.566444       -0.0003242     -0.00019119
                     -0.00060228     0.000965157        0.0776448        -0.14015     -5.23172e-05     0.000433954         0.736073       -0.642833
                       -0.812861        0.566002     -6.43763e-05     0.000553175        -0.124096       0.0307817      -0.00102125     0.000322864
                    -0.000191608    -0.000234837         0.736377       -0.642559      -0.00106687     0.000268289        -0.153205       0.0609377
281700.6               0.0715657       -0.105613     -0.000477139      0.00081451        -0.812983        0.566466     -0.000324218    -0.000191193
                    -0.000602259     0.000965171         0.077636       -0.140154     -5.23007e-05     0.000433968         0.736051       -0.642858
                       -0.812846        0.566024     -6.43455e-05     0.000553177        -0.124095       0.0307821      -0.00102124     0.000322914
                    -0.000191618    -0.000234848         0.736355       -0.642584      -0.00106687     0.000268333        -0.153204       0.0609387
281700.7                 0.07156       -0.105616     -0.000477121     0.000814513        -0.812968        0.566488     -0.000324235    -0.000191197
                    -0.000602238     0.000965186        0.0776273       -0.140158     -5.22841e-05     0.000433981         0.736029       -0.642883
                        -0.81283        0.566046     -6.43147e-05     0.000553179        -0.124095       0.0307824      -0.00102123     0.000322963
                    -0.000191628    -0.000234859         0.736333        -0.64261      -0.00106687     0.000268377        -0.153203       0.0609397
281700.8               0.0715543       -0.105619     -0.000477104     0.000814516        -0.812953         0.56651     -0.000324253      -0.0001912
                    -0.000602217       0.0009652        0.0776185       -0.140162     -5.22676e-05     0.000433995         0.736007       -0.642908
                       -0.812815        0.566068     -6.42838e-05     0.000553181        -0.124094       0.0307828      -0.00102123     0.000323013
                    -0.000191638     -0.00023487         0.736311       -0.642635      -0.00106687     0.000268421        -0.153201       0.0609407
281700.9               0.0715487       -0.105622     -0.000477086     0.000814519        -0.812937        0.566532     -0.000324271    -0.000191204
                    -0.000602196     0.000965215        0.0776097       -0.140166     -5.22511e-05     0.000434009         0.735986       -0.642933
                         -0.8128         0.56609      -6.4253e-05     0.000553182        -0.124093       0.0307831      -0.00102122     0.000323062
                    -0.000191648    -0.000234881         0.736289        -0.64266      -0.00106687     0.000268465          -0.1532       0.0609417
281701                  0.071543       -0.105625     -0.000477069     0.000814522        -0.812922        0.566554     -0.000324288    -0.000191207
                    -0.000602175     0.000965229        0.0776009        -0.14017     -5.22345e-05     0.000434023         0.735964       -0.642959
                       -0.812785        0.566112     -6.42222e-05     0.000553184        -0.124092       0.0307835      -0.00102121     0.000323112
                    -0.000191658    -0.000234892         0.736268       -0.642685      -0.00106687     0.000268509        -0.153199       0.0609427
281701.1               0.0715373       -0.105628     -0.000477052     0.000814525        -0.812907        0.566576     -0.000324306     -0.00019121
                    -0.000602154     0.000965244        0.0775922       -0.140174      -5.2218e-05     0.000434037         0.735942       -0.642984
                       -0.812769        0.566135     -6.41914e-05     0.000553186        -0.124091       0.0307839      -0.00102121     0.000323161
                    -0.000191668    -0.000234903         0.736246        -0.64271      -0.00106687     0.000268553        -0.153197       0.0609437
281701.2               0.0715316       -0.105631     -0.000477034     0.000814528        -0.812892        0.566598     -0.000324324    -0.000191214
                    -0.000602133     0.000965259        0.0775834       -0.140178     -5.22015e-05      0.00043405          0.73592       -0.643009
                       -0.812754        0.566157     -6.41606e-05     0.000553187         -0.12409       0.0307842       -0.0010212     0.000323211
                    -0.000191678    -0.000234914         0.736224       -0.642736      -0.00106687     0.000268597        -0.153196       0.0609447
281701.3               0.0715259       -0.105634     -0.000477017      0.00081453        -0.812876         0.56662     -0.000324341    -0.000191217
                    -0.000602112     0.000965273        0.0775746       -0.140182     -5.21849e-05     0.000434064         0.735899       -0.643034
                       -0.812739        0.566179     -6.41298e-05     0.000553189        -0.124089       0.0307846      -0.00102119      0.00032326
                    -0.000191688    -0.000234925         0.736202       -0.642761      -0.00106686     0.000268641        -0.153195       0.0609458
281701.4               0.0715203       -0.105637     -0.000476999     0.000814533        -0.812861        0.566642     -0.000324359    -0.000191221
                    -0.000602091     0.000965288        0.0775658       -0.140186     -5.21684e-05     0.000434078         0.735877       -0.643059
                       -0.812724        0.566201      -6.4099e-05     0.000553191        -0.124088       0.0307849      -0.00102119      0.00032331
                    -0.000191698    -0.000234936          0.73618       -0.642786      -0.00106686     0.000268685        -0.153193       0.0609468
281701.5               0.0715146        -0.10564     -0.000476982     0.000814536        -0.812846        0.566664     -0.000324377    -0.000191224
                     -0.00060207     0.000965302        0.0775571        -0.14019     -5.21519e-05     0.000434092         0.735855       -0.643085
                       -0.812708        0.566223     -6.40681e-05     0.000553193        -0.124088       0.0307853      -0.00102118     0.000323359
                    -0.000191708    -0.000234947         0.736159       -0.642811      -0.00106686     0.000268729        -0.153192       0.0609478
281701.6               0.0715089       -0.105643     -0.000476965     0.000814539        -0.812831        0.566686     -0.000324394    -0.000191227
                    -0.000602049     0.000965317        0.0775483       -0.140194     -5.21353e-05     0.000434106         0.735833        -0.64311
                       -0.812693        0.566245     -6.40373e-05     0.000553194        -0.124087       0.0307857      -0.00102117     0.000323409
                    -0.000191718    -0.000234957         0.736137       -0.642836      -0.00106686     0.000268772        -0.153191       0.0609488
281701.7               0.0715032       -0.105646     -0.000476947     0.000814542        -0.812815        0.566708     -0.000324412    -0.000191231
                    -0.000602028     0.000965331        0.0775395       -0.140198     -5.21188e-05     0.000434119         0.735811       -0.643135
                       -0.812678        0.566267     -6.40065e-05     0.000553196        -0.124086        0.030786      -0.00102117     0.000323458
                    -0.000191728    -0.000234968         0.736115       -0.642862      -0.00106686     0.000268816         -0.15319       0.0609498
281701.8               0.0714975       -0.105649      -0.00047693     0.000814545          -0.8128         0.56673      -0.00032443    -0.000191234
                    -0.000602007     0.000965346        0.0775307       -0.140202     -5.21023e-05     0.000434133          0.73579        -0.64316
                       -0.812663        0.566289     -6.39757e-05     0.000553198        -0.124085       0.0307864      -0.00102116     0.000323508
                    -0.000191738    -0.000234979         0.736093       -0.642887      -0.00106686      0.00026886        -0.153188       0.0609508
281701.9               0.0714918       -0.105652     -0.000476912     0.000814548        -0.812785        0.566753     -0.000324447    -0.000191238
                    -0.000601986      0.00096536        0.0775219       -0.140206     -5.20857e-05     0.000434147         0.735768       -0.643185
                       -0.812647        0.566311     -6.39449e-05     0.000553199        -0.124084       0.0307867      -0.00102115     0.000323557
                    -0.000191748     -0.00023499         0.736071       -0.642912      -0.00106686     0.000268904        -0.153187       0.0609518
281702                 0.0714862       -0.105654     -0.000476895     0.000814551         -0.81277        0.566775     -0.000324465    -0.000191241
                    -0.000601965     0.000965375        0.0775132        -0.14021     -5.20692e-05     0.000434161         0.735746       -0.643211
                       -0.812632        0.566333     -6.39141e-05     0.000553201        -0.124083       0.0307871      -0.00102115     0.000323607
                    -0.000191758    -0.000235001          0.73605       -0.642937      -0.00106685     0.000268948        -0.153186       0.0609528
281702.1               0.0714805       -0.105657     -0.000476878     0.000814554        -0.812754        0.566797     -0.000324483    -0.000191244
                    -0.000601944      0.00096539        0.0775044       -0.140214     -5.20526e-05     0.000434175         0.735724       -0.643236
                       -0.812617        0.566355     -6.38833e-05     0.000553203        -0.124082       0.0307874      -0.00102114     0.000323656
                    -0.000191768    -0.000235012         0.736028       -0.642962      -0.00106685     0.000268992        -0.153184       0.0609539
281702.2               0.0714748        -0.10566      -0.00047686     0.000814557        -0.812739        0.566819       -0.0003245    -0.000191248
                    -0.000601923     0.000965404        0.0774956       -0.140218     -5.20361e-05     0.000434189         0.735702       -0.643261
                       -0.812602        0.566377     -6.38525e-05     0.000553204        -0.124081       0.0307878      -0.00102113     0.000323706
                    -0.000191778    -0.000235023         0.736006       -0.642988      -0.00106685     0.000269036        -0.153183       0.0609549
281702.3               0.0714691       -0.105663     -0.000476843      0.00081456        -0.812724        0.566841     -0.000324518    -0.000191251
                    -0.000601902     0.000965419        0.0774868       -0.140222     -5.20196e-05     0.000434202          0.73568       -0.643286
                       -0.812586        0.566399     -6.38217e-05     0.000553206         -0.12408       0.0307882      -0.00102113     0.000323755
                    -0.000191788    -0.000235034         0.735984       -0.643013      -0.00106685      0.00026908        -0.153182       0.0609559
281702.4               0.0714634       -0.105666     -0.000476826     0.000814563        -0.812709        0.566863     -0.000324536    -0.000191254
                    -0.000601881     0.000965433        0.0774781       -0.140227      -5.2003e-05     0.000434216         0.735659       -0.643311
                       -0.812571        0.566421     -6.37909e-05     0.000553208         -0.12408       0.0307885      -0.00102112     0.000323805
                    -0.000191798    -0.000235045         0.735962       -0.643038      -0.00106685     0.000269124         -0.15318       0.0609569
281702.5               0.0714577       -0.105669     -0.000476808     0.000814566        -0.812693        0.566885     -0.000324554    -0.000191258
                    -0.000601861     0.000965448        0.0774693       -0.140231     -5.19865e-05      0.00043423         0.735637       -0.643337
                       -0.812556        0.566443     -6.37601e-05      0.00055321        -0.124079       0.0307889      -0.00102111     0.000323854
                    -0.000191809    -0.000235056         0.735941       -0.643063      -0.00106685     0.000269168        -0.153179       0.0609579
281702.6               0.0714521       -0.105672     -0.000476791     0.000814569        -0.812678        0.566907     -0.000324571    -0.000191261
                     -0.00060184     0.000965462        0.0774605       -0.140235     -5.19699e-05     0.000434244         0.735615       -0.643362
                       -0.812541        0.566465     -6.37293e-05     0.000553211        -0.124078       0.0307892      -0.00102111     0.000323904
                    -0.000191819    -0.000235067         0.735919       -0.643088      -0.00106685     0.000269212        -0.153178       0.0609589
281702.7               0.0714464       -0.105675     -0.000476774     0.000814572        -0.812663        0.566929     -0.000324589    -0.000191265
                    -0.000601819     0.000965477        0.0774517       -0.140239     -5.19534e-05     0.000434258         0.735593       -0.643387
                       -0.812525        0.566487     -6.36984e-05     0.000553213        -0.124077       0.0307896       -0.0010211     0.000323953
                    -0.000191829    -0.000235078         0.735897       -0.643114      -0.00106684     0.000269256        -0.153177       0.0609599
281702.8               0.0714407       -0.105678     -0.000476756     0.000814575        -0.812648        0.566951     -0.000324607    -0.000191268
                    -0.000601798     0.000965491        0.0774429       -0.140243     -5.19368e-05     0.000434271         0.735571       -0.643412
                        -0.81251        0.566509     -6.36676e-05     0.000553215        -0.124076       0.0307899      -0.00102109     0.000324003
                    -0.000191839    -0.000235089         0.735875       -0.643139      -0.00106684       0.0002693        -0.153175        0.060961
281702.9                0.071435       -0.105681     -0.000476739     0.000814578        -0.812632        0.566973     -0.000324624    -0.000191271
                    -0.000601777     0.000965506        0.0774342       -0.140247     -5.19203e-05     0.000434285          0.73555       -0.643437
                       -0.812495        0.566532     -6.36368e-05     0.000553216        -0.124075       0.0307903      -0.00102109     0.000324052
                    -0.000191849      -0.0002351         0.735853       -0.643164      -0.00106684     0.000269344        -0.153174        0.060962
281703                 0.0714293       -0.105684     -0.000476722     0.000814581        -0.812617        0.566995     -0.000324642    -0.000191275
                    -0.000601756      0.00096552        0.0774254       -0.140251     -5.19037e-05     0.000434299         0.735528       -0.643463
                        -0.81248        0.566554      -6.3606e-05     0.000553218        -0.124074       0.0307907      -0.00102108     0.000324102
                    -0.000191859    -0.000235111         0.735832       -0.643189      -0.00106684     0.000269388        -0.153173        0.060963
281703.1               0.0714236       -0.105687     -0.000476704     0.000814584        -0.812602        0.567017      -0.00032466    -0.000191278
                    -0.000601735     0.000965535        0.0774166       -0.140255     -5.18872e-05     0.000434313         0.735506       -0.643488
                       -0.812464        0.566576     -6.35752e-05      0.00055322        -0.124073        0.030791      -0.00102107     0.000324151
