! TOUCHSTONE file generated by CST MICROWAVE STUDIO
! Date and time: Wed Oct  8 07:05:46 2025
! Project name: Teste_Macro_Metasurface_Nanopilar.cst
! Parameters = {H=600; L_x=195; L_y=135; Lambda=1064; Max_L=200; Min_L=70; PathPara=1; Phi=0; Step_L=10; Theta=0; p=520; phaseX=180; phaseY=0}
! Header version: 2018
! Port assignment regex: !\s*Touchstone port\s*([0-9]+)\s*=\s*(CST MWS port|CST DS port)\s*([0-9]+|Zmin|Zmax)\s*\(\"(.*)\"\)(\s*mode\s*([0-9]+))?.*
! Touchstone port assignment:
! Touchstone port 1 = CST MWS port Zmax ("") mode 1
! Touchstone port 2 = CST MWS port Zmax ("") mode 2
! Touchstone port 3 = CST MWS port Zmin ("") mode 1
! Touchstone port 4 = CST MWS port Zmin ("") mode 2
! S-Parameters are not renormalized. Each port impedance will be approximated by the real part at minimum frequency. The values are described via the [Reference] keyword.
! Default impedance is overridden by [Reference]
[Version] 2.0
# GHz S RI R 376.73
[Number of Ports] 4
[Reference]
376.73 376.73 376.73 376.73 
[Number of Frequencies] 1001
[Network Data]
281700                 -0.478811        0.305262      -0.00102559     0.000513886        -0.310163        -0.72904       0.00133617    -0.000486858
                     -0.00108847       0.0004951       -0.0121182      -0.0259961      0.000467391    -0.000774237        -0.991582      -0.0803386
                        -0.30941        -0.72852      0.000435561    -0.000831393        -0.555992        0.069978     -0.000283481     0.000548976
                      0.00124842    -0.000575841        -0.991607       -0.079988       -0.0003886     0.000376565        0.0108877      -0.0255655
281700.1               -0.478779        0.305272       -0.0010256     0.000513911        -0.310207        -0.72904       0.00133614    -0.000486909
                     -0.00108853     0.000495074       -0.0121185      -0.0260028      0.000467367    -0.000774263        -0.991584      -0.0803086
                       -0.309454       -0.728521      0.000435539    -0.000831331        -0.555967       0.0700121     -0.000283432     0.000549029
                      0.00124849    -0.000575762        -0.991609       -0.079958      -0.00038856     0.000376662        0.0108876      -0.0255728
281700.2               -0.478748        0.305281      -0.00102562     0.000513935        -0.310251        -0.72904       0.00133611    -0.000486961
                     -0.00108857     0.000495054       -0.0121187      -0.0260096      0.000467343     -0.00077429        -0.991586      -0.0802786
                       -0.309498       -0.728521      0.000435517     -0.00083127        -0.555941       0.0700462     -0.000283384     0.000549082
                      0.00124855    -0.000575698        -0.991611       -0.079928     -0.000388519      0.00037676        0.0108874      -0.0255802
281700.3               -0.478716         0.30529      -0.00102563      0.00051396        -0.310295       -0.729041       0.00133609    -0.000487012
                     -0.00108861     0.000495041        -0.012119      -0.0260163      0.000467319    -0.000774317        -0.991588      -0.0802486
                       -0.309542       -0.728522      0.000435495    -0.000831208        -0.555916       0.0700803     -0.000283335     0.000549135
                       0.0012486    -0.000575649        -0.991614       -0.079898     -0.000388479     0.000376857        0.0108873      -0.0255875
281700.4               -0.478685        0.305299      -0.00102564     0.000513985        -0.310339       -0.729041       0.00133606    -0.000487063
                     -0.00108864     0.000495034       -0.0121193       -0.026023      0.000467295    -0.000774343        -0.991591      -0.0802186
                       -0.309586       -0.728522      0.000435473    -0.000831146        -0.555891       0.0701144     -0.000283287     0.000549187
                      0.00124863    -0.000575616        -0.991616       -0.079868     -0.000388439     0.000376955        0.0108871      -0.0255949
281700.5               -0.478653        0.305309      -0.00102565     0.000514011        -0.310383       -0.729042       0.00133603    -0.000487115
                     -0.00108867     0.000495034       -0.0121196      -0.0260297      0.000467271     -0.00077437        -0.991593      -0.0801886
                        -0.30963       -0.728523      0.000435452    -0.000831084        -0.555866       0.0701485     -0.000283238      0.00054924
                      0.00124866    -0.000575599        -0.991618       -0.079838     -0.000388399     0.000377052         0.010887      -0.0256022
281700.6               -0.478622        0.305318      -0.00102567     0.000514036        -0.310427       -0.729042       0.00133601    -0.000487166
                     -0.00108868     0.000495042       -0.0121199      -0.0260364      0.000467247    -0.000774397        -0.991595      -0.0801586
                       -0.309674       -0.728524       0.00043543    -0.000831022         -0.55584       0.0701826      -0.00028319     0.000549293
                      0.00124866    -0.000575598         -0.99162       -0.079808     -0.000388358     0.000377149        0.0108868      -0.0256096
281700.7                -0.47859        0.305327      -0.00102568     0.000514062        -0.310471       -0.729043       0.00133598    -0.000487218
                     -0.00108868     0.000495056       -0.0121201      -0.0260431      0.000467223    -0.000774424        -0.991597      -0.0801286
                       -0.309718       -0.728524      0.000435408    -0.000830961        -0.555815       0.0702167     -0.000283141     0.000549346
                      0.00124866    -0.000575615        -0.991623      -0.0797781     -0.000388318     0.000377247        0.0108867      -0.0256169
281700.8               -0.478559        0.305337      -0.00102569     0.000514087        -0.310515       -0.729043       0.00133595    -0.000487269
                     -0.00108868     0.000495077       -0.0121204      -0.0260498        0.0004672     -0.00077445          -0.9916      -0.0800986
                       -0.309763       -0.728525      0.000435387    -0.000830899         -0.55579       0.0702508     -0.000283093     0.000549399
                      0.00124864    -0.000575648        -0.991625      -0.0797481     -0.000388278     0.000377344        0.0108865      -0.0256243
281700.9               -0.478527        0.305346       -0.0010257     0.000514113        -0.310559       -0.729043       0.00133593     -0.00048732
                     -0.00108867     0.000495105       -0.0121207      -0.0260565      0.000467176    -0.000774477        -0.991602      -0.0800687
                       -0.309807       -0.728525      0.000435365    -0.000830837        -0.555764       0.0702848     -0.000283044     0.000549451
                      0.00124862    -0.000575699        -0.991627      -0.0797181     -0.000388237     0.000377441        0.0108864      -0.0256316
281701                 -0.478496        0.305355      -0.00102571     0.000514139        -0.310603       -0.729044        0.0013359    -0.000487372
                     -0.00108864     0.000495141        -0.012121      -0.0260633      0.000467152    -0.000774504        -0.991604      -0.0800387
                       -0.309851       -0.728526      0.000435344    -0.000830775        -0.555739       0.0703189     -0.000282996     0.000549504
                      0.00124857    -0.000575768        -0.991629      -0.0796881     -0.000388197     0.000377539        0.0108862       -0.025639
281701.1               -0.478464        0.305365      -0.00102573     0.000514165        -0.310647       -0.729044       0.00133587    -0.000487423
                     -0.00108861     0.000495184       -0.0121213        -0.02607      0.000467128     -0.00077453        -0.991606      -0.0800087
                       -0.309895       -0.728526      0.000435322    -0.000830712        -0.555714        0.070353     -0.000282947     0.000549557
                      0.00124852    -0.000575856        -0.991631      -0.0796581     -0.000388156     0.000377636         0.010886      -0.0256463
281701.2               -0.478433        0.305374      -0.00102574     0.000514191        -0.310691       -0.729045       0.00133585    -0.000487474
                     -0.00108857     0.000495234       -0.0121216      -0.0260767      0.000467104    -0.000774557        -0.991609      -0.0799787
                       -0.309939       -0.728527      0.000435301     -0.00083065        -0.555689        0.070387     -0.000282899      0.00054961
                      0.00124845    -0.000575962        -0.991634      -0.0796281     -0.000388116     0.000377733        0.0108859      -0.0256536
281701.3               -0.478401        0.305383      -0.00102575     0.000514218        -0.310735       -0.729045       0.00133582    -0.000487526
                     -0.00108852     0.000495293       -0.0121218      -0.0260834       0.00046708    -0.000774584        -0.991611      -0.0799487
                       -0.309983       -0.728528       0.00043528    -0.000830588        -0.555663       0.0704211      -0.00028285     0.000549662
                      0.00124836    -0.000576087        -0.991636      -0.0795981     -0.000388076      0.00037783        0.0108857       -0.025661
281701.4                -0.47837        0.305392      -0.00102576     0.000514244        -0.310779       -0.729045       0.00133579    -0.000487577
                     -0.00108845     0.000495359       -0.0121221      -0.0260901      0.000467056    -0.000774611        -0.991613      -0.0799187
                       -0.310027       -0.728528      0.000435258    -0.000830526        -0.555638       0.0704551     -0.000282802     0.000549715
                      0.00124826    -0.000576231        -0.991638      -0.0795681     -0.000388035     0.000377928        0.0108856      -0.0256683
281701.5               -0.478338        0.305402      -0.00102577     0.000514271        -0.310823       -0.729046       0.00133576    -0.000487628
                     -0.00108838     0.000495433       -0.0121224      -0.0260968      0.000467032    -0.000774637        -0.991615      -0.0798887
                       -0.310071       -0.728529      0.000435237    -0.000830464        -0.555613       0.0704892     -0.000282753     0.000549768
                      0.00124814    -0.000576395         -0.99164      -0.0795381     -0.000387995     0.000378025        0.0108854      -0.0256757
281701.6               -0.478307        0.305411      -0.00102578     0.000514297        -0.310867       -0.729046       0.00133574     -0.00048768
                      -0.0010883     0.000495516       -0.0121227      -0.0261035      0.000467008    -0.000774664        -0.991618      -0.0798587
                       -0.310115       -0.728529      0.000435216    -0.000830402        -0.555587       0.0705232     -0.000282705     0.000549821
                      0.00124801    -0.000576578        -0.991643      -0.0795082     -0.000387954     0.000378122        0.0108853       -0.025683
281701.7               -0.478275         0.30542      -0.00102579     0.000514324        -0.310911       -0.729046       0.00133571    -0.000487731
                     -0.00108821     0.000495607        -0.012123      -0.0261102      0.000466984    -0.000774691         -0.99162      -0.0798287
                       -0.310159        -0.72853      0.000435195    -0.000830339        -0.555562       0.0705572     -0.000282656     0.000549873
                      0.00124786    -0.000576782        -0.991645      -0.0794782     -0.000387914     0.000378219        0.0108851      -0.0256904
281701.8               -0.478244         0.30543      -0.00102581     0.000514351        -0.310955       -0.729047       0.00133568    -0.000487782
                      -0.0010881     0.000495708       -0.0121233       -0.026117       0.00046696    -0.000774718        -0.991622      -0.0797987
                       -0.310203        -0.72853      0.000435174    -0.000830277        -0.555537       0.0705913     -0.000282608     0.000549926
                       0.0012477    -0.000577005        -0.991647      -0.0794482     -0.000387873     0.000378317         0.010885      -0.0256977
281701.9               -0.478212        0.305439      -0.00102582     0.000514377        -0.310999       -0.729047       0.00133566    -0.000487834
                     -0.00108799     0.000495817       -0.0121235      -0.0261237      0.000466936    -0.000774744        -0.991624      -0.0797687
                       -0.310247       -0.728531      0.000435153    -0.000830215        -0.555512       0.0706253     -0.000282559     0.000549979
                      0.00124751    -0.000577249        -0.991649      -0.0794182     -0.000387833     0.000378414        0.0108848      -0.0257051
281702                 -0.478181        0.305448      -0.00102583     0.000514404        -0.311043       -0.729048       0.00133563    -0.000487885
                     -0.00108786     0.000495936       -0.0121238      -0.0261304      0.000466912    -0.000774771        -0.991627      -0.0797387
                       -0.310292       -0.728532      0.000435132    -0.000830152        -0.555486       0.0706593     -0.000282511     0.000550031
                      0.00124731    -0.000577514        -0.991651      -0.0793882     -0.000387792     0.000378511        0.0108847      -0.0257124
281702.1                -0.47815        0.305457      -0.00102584     0.000514432        -0.311087       -0.729048        0.0013356    -0.000487936
                     -0.00108773     0.000496064       -0.0121241      -0.0261371      0.000466889    -0.000774798        -0.991629      -0.0797087
                       -0.310336       -0.728532      0.000435111     -0.00083009        -0.555461       0.0706933     -0.000282462     0.000550084
                      0.00124709    -0.000577799        -0.991654      -0.0793582     -0.000387752     0.000378608        0.0108845      -0.0257197
281702.2               -0.478118        0.305467      -0.00102585     0.000514459        -0.311131       -0.729048       0.00133558    -0.000487987
                     -0.00108758     0.000496203       -0.0121244      -0.0261438      0.000466865    -0.000774825        -0.991631      -0.0796787
                        -0.31038       -0.728533      0.000435091    -0.000830028        -0.555436       0.0707273     -0.000282414     0.000550137
                      0.00124684    -0.000578105        -0.991656      -0.0793282     -0.000387711     0.000378705        0.0108843      -0.0257271
281702.3               -0.478087        0.305476      -0.00102586     0.000514486        -0.311175       -0.729049       0.00133555    -0.000488039
                     -0.00108742     0.000496352       -0.0121247      -0.0261505      0.000466841    -0.000774851        -0.991633      -0.0796487
                       -0.310424       -0.728533       0.00043507    -0.000829965         -0.55541       0.0707613     -0.000282365     0.000550189
                      0.00124657    -0.000578431        -0.991658      -0.0792982     -0.000387671     0.000378802        0.0108842      -0.0257344
281702.4               -0.478055        0.305485      -0.00102587     0.000514513        -0.311219       -0.729049       0.00133552     -0.00048809
                     -0.00108725     0.000496512        -0.012125      -0.0261572      0.000466817    -0.000774878        -0.991636      -0.0796187
                       -0.310468       -0.728534      0.000435049    -0.000829903        -0.555385       0.0707953     -0.000282317     0.000550242
                      0.00124628    -0.000578778         -0.99166      -0.0792683      -0.00038763       0.0003789         0.010884      -0.0257418
281702.5               -0.478024        0.305494      -0.00102588      0.00051454        -0.311263       -0.729049       0.00133549    -0.000488141
                     -0.00108708     0.000496683       -0.0121253      -0.0261639      0.000466793    -0.000774905        -0.991638      -0.0795887
                       -0.310512       -0.728534      0.000435029    -0.000829841         -0.55536       0.0708293     -0.000282268     0.000550295
                      0.00124596    -0.000579145        -0.991663      -0.0792383      -0.00038759     0.000378997        0.0108839      -0.0257491
281702.6               -0.477992        0.305504       -0.0010259     0.000514568        -0.311306        -0.72905       0.00133547    -0.000488192
                     -0.00108689     0.000496866       -0.0121255      -0.0261707      0.000466769    -0.000774932         -0.99164      -0.0795587
                       -0.310556       -0.728535      0.000435008    -0.000829778        -0.555334       0.0708633      -0.00028222     0.000550347
                      0.00124562    -0.000579531        -0.991665      -0.0792083     -0.000387549     0.000379094        0.0108837      -0.0257565
281702.7               -0.477961        0.305513      -0.00102591     0.000514595         -0.31135        -0.72905       0.00133544    -0.000488243
                     -0.00108669     0.000497061       -0.0121258      -0.0261774      0.000466745    -0.000774959        -0.991642      -0.0795287
                         -0.3106       -0.728535      0.000434987    -0.000829716        -0.555309       0.0708973     -0.000282172       0.0005504
                      0.00124524    -0.000579938        -0.991667      -0.0791783     -0.000387509     0.000379191        0.0108835      -0.0257638
281702.8               -0.477929        0.305522      -0.00102592     0.000514623        -0.311394        -0.72905       0.00133541    -0.000488294
                     -0.00108648     0.000497269       -0.0121261      -0.0261841      0.000466721    -0.000774985        -0.991644      -0.0794987
                       -0.310644       -0.728536      0.000434967    -0.000829653        -0.555284       0.0709313     -0.000282123     0.000550453
                      0.00124484    -0.000580363        -0.991669      -0.0791483     -0.000387468     0.000379288        0.0108834      -0.0257712
281702.9               -0.477898        0.305531      -0.00102593     0.000514651        -0.311438       -0.729051       0.00133539    -0.000488346
                     -0.00108626      0.00049749       -0.0121264      -0.0261908      0.000466697    -0.000775012        -0.991647      -0.0794687
                       -0.310688       -0.728536      0.000434947    -0.000829591        -0.555259       0.0709653     -0.000282075     0.000550505
                       0.0012444    -0.000580806        -0.991671      -0.0791183     -0.000387427     0.000379385        0.0108832      -0.0257785
281703                 -0.477866        0.305541      -0.00102594     0.000514678        -0.311482       -0.729051       0.00133536    -0.000488397
                     -0.00108603     0.000497724       -0.0121267      -0.0261975      0.000466673    -0.000775039        -0.991649      -0.0794387
                       -0.310733       -0.728537      0.000434926    -0.000829529        -0.555233       0.0709992     -0.000282026     0.000550558
                      0.00124393    -0.000581267        -0.991674      -0.0790883     -0.000387387     0.000379482        0.0108831      -0.0257859
281703.1               -0.477835         0.30555      -0.00102595     0.000514706        -0.311526       -0.729051       0.00133533    -0.000488448
                     -0.00108579     0.000497972        -0.012127      -0.0262042       0.00046665    -0.000775066        -0.991651      -0.0794087
                       -0.310777       -0.728537      0.000434906    -0.000829466        -0.555208       0.0710332     -0.000281978      0.00055061
