! TOUCHSTONE file generated by CST MICROWAVE STUDIO
! Date and time: Wed Oct  8 07:05:50 2025
! Project name: Teste_Macro_Metasurface_Nanopilar.cst
! Parameters = {H=600; L_x=195; L_y=150; Lambda=1064; Max_L=200; Min_L=70; PathPara=1; Phi=0; Step_L=10; Theta=0; p=520; phaseX=180; phaseY=0}
! Header version: 2018
! Port assignment regex: !\s*Touchstone port\s*([0-9]+)\s*=\s*(CST MWS port|CST DS port)\s*([0-9]+|Zmin|Zmax)\s*\(\"(.*)\"\)(\s*mode\s*([0-9]+))?.*
! Touchstone port assignment:
! Touchstone port 1 = CST MWS port Zmax ("") mode 1
! Touchstone port 2 = CST MWS port Zmax ("") mode 2
! Touchstone port 3 = CST MWS port Zmin ("") mode 1
! Touchstone port 4 = CST MWS port Zmin ("") mode 2
! S-Parameters are not renormalized. Each port impedance will be approximated by the real part at minimum frequency. The values are described via the [Reference] keyword.
! Default impedance is overridden by [Reference]
[Version] 2.0
# GHz S RI R 376.73
[Number of Ports] 4
[Reference]
376.73 376.73 376.73 376.73 
[Number of Frequencies] 1001
[Network Data]
281700                -0.0185086        0.105056     -0.000668142     0.000441791        -0.923943       -0.351296      0.000242604    -0.000722565
                    -0.000657444     0.000462763       -0.0631332       -0.137204      2.57719e-05     -0.00072054        -0.975601        0.131141
                       -0.924074       -0.351214      0.000170699    -0.000689606       -0.0595543       0.0922511      0.000606335     0.000466887
                     0.000148972    -0.000843121        -0.975825        0.131299      0.000513086     0.000652516        0.0200656       -0.149334
281700.1              -0.0185019        0.105052     -0.000667753     0.000443378        -0.923955       -0.351268      0.000242588    -0.000722564
                    -0.000657445     0.000462797       -0.0631375       -0.137209      2.57441e-05    -0.000720546        -0.975597         0.13117
                       -0.924085       -0.351185      0.000169264    -0.000691193       -0.0595511       0.0922477      0.000606365     0.000466877
                     0.000148961    -0.000843129         -0.97582        0.131328      0.000513116     0.000652507        0.0200595       -0.149341
281700.2              -0.0184953        0.105048     -0.000667431     0.000444617        -0.923966       -0.351239      0.000242572    -0.000722562
                    -0.000657446     0.000462831       -0.0631418       -0.137214      2.57163e-05    -0.000720552        -0.975592        0.131199
                       -0.924097       -0.351157       0.00016812    -0.000692413       -0.0595479       0.0922444      0.000606395     0.000466866
                     0.000148949    -0.000843138        -0.975816        0.131357      0.000513147     0.000652498        0.0200535       -0.149348
281700.3              -0.0184886        0.105044     -0.000667178     0.000445518        -0.923977        -0.35121      0.000242556     -0.00072256
                    -0.000657447     0.000462865       -0.0631461       -0.137219      2.56885e-05    -0.000720558        -0.975587        0.131228
                       -0.924108       -0.351128      0.000167278    -0.000693275       -0.0595447        0.092241      0.000606425     0.000466856
                     0.000148937    -0.000843146        -0.975811        0.131386      0.000513178     0.000652489        0.0200474       -0.149356
281700.4              -0.0184819        0.105041     -0.000666996     0.000446083        -0.923988       -0.351182      0.000242541    -0.000722559
                    -0.000657448     0.000462899       -0.0631504       -0.137224      2.56607e-05    -0.000720564        -0.975582        0.131257
                       -0.924119       -0.351099      0.000166745    -0.000693784       -0.0595416       0.0922376      0.000606455     0.000466846
                     0.000148925    -0.000843154        -0.975806        0.131415      0.000513209      0.00065248        0.0200413       -0.149363
281700.5              -0.0184752        0.105037     -0.000666888      0.00044631           -0.924       -0.351153      0.000242525    -0.000722557
                    -0.000657449     0.000462934       -0.0631547       -0.137229      2.56329e-05     -0.00072057        -0.975577        0.131286
                       -0.924131       -0.351071      0.000166531     -0.00069394       -0.0595384       0.0922343      0.000606485     0.000466835
                     0.000148913    -0.000843163        -0.975801        0.131445      0.000513239     0.000652471        0.0200352        -0.14937
281700.6              -0.0184685        0.105033     -0.000666853     0.000446194        -0.924011       -0.351125      0.000242509    -0.000722555
                     -0.00065745     0.000462968       -0.0631591       -0.137234       2.5605e-05    -0.000720576        -0.975572        0.131315
                       -0.924142       -0.351042      0.000166644    -0.000693736       -0.0595352       0.0922309      0.000606515     0.000466825
                     0.000148902    -0.000843171        -0.975796        0.131474       0.00051327     0.000652463        0.0200291       -0.149377
281700.7              -0.0184618         0.10503     -0.000666894     0.000445723        -0.924022       -0.351096      0.000242493    -0.000722554
                    -0.000657451     0.000463002       -0.0631634       -0.137239      2.55772e-05    -0.000720582        -0.975567        0.131344
                       -0.924153       -0.351013      0.000167091    -0.000693159        -0.059532       0.0922276      0.000606545     0.000466814
                      0.00014889    -0.000843179        -0.975791        0.131503      0.000513301     0.000652454         0.020023       -0.149385
281700.8              -0.0184551        0.105026     -0.000667011     0.000444882        -0.924034       -0.351067      0.000242477    -0.000722552
                    -0.000657452     0.000463036       -0.0631677       -0.137244      2.55493e-05    -0.000720588        -0.975562        0.131373
                       -0.924165       -0.350985      0.000167882    -0.000692188       -0.0595289       0.0922242      0.000606575     0.000466804
                     0.000148878    -0.000843187        -0.975786        0.131532      0.000513332     0.000652445        0.0200169       -0.149392
281700.9              -0.0184484        0.105022     -0.000667204     0.000443648        -0.924045       -0.351039      0.000242461    -0.000722551
                    -0.000657453      0.00046307       -0.0631721       -0.137249      2.55213e-05    -0.000720594        -0.975557        0.131402
                       -0.924176       -0.350956      0.000169023    -0.000690796       -0.0595257       0.0922208      0.000606604     0.000466793
                     0.000148866    -0.000843196        -0.975782        0.131561      0.000513363     0.000652436        0.0200108       -0.149399
281701                -0.0184417        0.105019     -0.000667471     0.000441993        -0.924056        -0.35101      0.000242445    -0.000722549
                    -0.000657454     0.000463104       -0.0631764       -0.137254      2.54934e-05      -0.0007206        -0.975553        0.131432
                       -0.924187       -0.350928      0.000170522    -0.000688947       -0.0595225       0.0922175      0.000606634     0.000466783
                     0.000148855    -0.000843204        -0.975777        0.131591      0.000513393     0.000652427        0.0200048       -0.149407
281701.1               -0.018435        0.105015     -0.000667811     0.000439879        -0.924068       -0.350982      0.000242429    -0.000722548
                    -0.000657455     0.000463138       -0.0631807       -0.137259      2.54654e-05    -0.000720606        -0.975548        0.131461
                       -0.924199       -0.350899      0.000172382    -0.000686591       -0.0595193       0.0922141      0.000606664     0.000466773
                     0.000148843    -0.000843212        -0.975772         0.13162      0.000513424     0.000652419        0.0199987       -0.149414
281701.2              -0.0184283        0.105011     -0.000668219     0.000437259        -0.924079       -0.350953      0.000242413    -0.000722546
                    -0.000657456     0.000463172       -0.0631851       -0.137264      2.54374e-05    -0.000720612        -0.975543         0.13149
                        -0.92421        -0.35087      0.000174607    -0.000683672       -0.0595161       0.0922107      0.000606694     0.000466762
                     0.000148831     -0.00084322        -0.975767        0.131649      0.000513455      0.00065241        0.0199926       -0.149421
281701.3              -0.0184216        0.105007     -0.000668689     0.000434074         -0.92409       -0.350924      0.000242397    -0.000722544
                    -0.000657457     0.000463206       -0.0631894       -0.137269      2.54093e-05    -0.000720618        -0.975538        0.131519
                       -0.924221       -0.350842      0.000177191    -0.000680115        -0.059513       0.0922074      0.000606724     0.000466752
                      0.00014882    -0.000843228        -0.975762        0.131679      0.000513486     0.000652401        0.0199865       -0.149429
281701.4              -0.0184149        0.105004     -0.000669208      0.00043025        -0.924102       -0.350896      0.000242381    -0.000722543
                    -0.000657458      0.00046324       -0.0631938       -0.137274      2.53812e-05    -0.000720624        -0.975533        0.131548
                       -0.924232       -0.350813      0.000180124    -0.000675833       -0.0595098        0.092204      0.000606754     0.000466741
                     0.000148808    -0.000843237        -0.975758        0.131708      0.000513517     0.000652392        0.0199804       -0.149436
281701.5              -0.0184082           0.105     -0.000669759     0.000425697        -0.924113       -0.350867      0.000242365    -0.000722541
                    -0.000657459     0.000463274       -0.0631982        -0.13728      2.53531e-05    -0.000720629        -0.975528        0.131577
                       -0.924244       -0.350785      0.000183382    -0.000670718       -0.0595066       0.0922007      0.000606784     0.000466731
                     0.000148797    -0.000843245        -0.975753        0.131738      0.000513548     0.000652383        0.0199743       -0.149443
281701.6              -0.0184016        0.104996     -0.000670316     0.000420297        -0.924124       -0.350838      0.000242349     -0.00072254
                    -0.000657461     0.000463308       -0.0632025       -0.137285      2.53249e-05    -0.000720635        -0.975523        0.131606
                       -0.924255       -0.350756      0.000186924    -0.000664644       -0.0595034       0.0921973      0.000606814      0.00046672
                     0.000148785    -0.000843253        -0.975748        0.131767       0.00051358     0.000652375        0.0199682       -0.149451
281701.7              -0.0183949        0.104993     -0.000670835     0.000413905        -0.924135        -0.35081      0.000242333    -0.000722538
                    -0.000657462     0.000463342       -0.0632069        -0.13729      2.52967e-05    -0.000720641        -0.975518        0.131635
                       -0.924266       -0.350727      0.000190685    -0.000657461       -0.0595003       0.0921939      0.000606843      0.00046671
                     0.000148773    -0.000843261        -0.975744        0.131797      0.000513611     0.000652366        0.0199621       -0.149458
281701.8              -0.0183882        0.104989     -0.000671252     0.000406339        -0.924147       -0.350781      0.000242317    -0.000722537
                    -0.000657463     0.000463376       -0.0632113       -0.137295      2.52685e-05    -0.000720647        -0.975513        0.131664
                       -0.924278       -0.350699      0.000194562    -0.000648996       -0.0594971       0.0921906      0.000606873       0.0004667
                     0.000148762    -0.000843269        -0.975739        0.131826      0.000513642     0.000652357         0.019956       -0.149465
281701.9              -0.0183815        0.104985      -0.00067147     0.000397361        -0.924158       -0.350753      0.000242302    -0.000722535
                    -0.000657464      0.00046341       -0.0632156         -0.1373      2.52401e-05    -0.000720653        -0.975508        0.131693
                       -0.924289        -0.35067      0.000198405    -0.000639056       -0.0594939       0.0921872      0.000606903     0.000466689
                      0.00014875    -0.000843277        -0.975734        0.131856      0.000513673     0.000652348        0.0199499       -0.149473
281702                -0.0183748        0.104981     -0.000671334     0.000386673        -0.924169       -0.350724      0.000242286    -0.000722533
                    -0.000657465     0.000463444         -0.06322       -0.137305      2.52118e-05    -0.000720659        -0.975504        0.131722
                         -0.9243       -0.350641      0.000201995    -0.000627429       -0.0594907       0.0921838      0.000606933     0.000466679
                     0.000148739    -0.000843285         -0.97573        0.131886      0.000513705      0.00065234        0.0199438        -0.14948
281702.1              -0.0183681        0.104978     -0.000670603     0.000373888        -0.924181       -0.350695       0.00024227    -0.000722532
                    -0.000657466     0.000463479       -0.0632244        -0.13731      2.51833e-05    -0.000720665        -0.975499        0.131751
                       -0.924311       -0.350613       0.00020502    -0.000613906       -0.0594876       0.0921805      0.000606963     0.000466668
                     0.000148727    -0.000843294        -0.975725        0.131915      0.000513736     0.000652331        0.0199377       -0.149487
281702.2              -0.0183614        0.104974     -0.000668896     0.000358509        -0.924192       -0.350667      0.000242254     -0.00072253
                    -0.000657468     0.000463513       -0.0632288       -0.137315      2.51548e-05    -0.000720671        -0.975494         0.13178
                       -0.924323       -0.350584      0.000207058    -0.000598297       -0.0594844       0.0921771      0.000606993     0.000466658
                     0.000148716    -0.000843302         -0.97572        0.131945      0.000513767     0.000652322        0.0199317       -0.149494
281702.3              -0.0183547         0.10497     -0.000665595     0.000339906        -0.924203       -0.350638      0.000242238    -0.000722529
                    -0.000657469     0.000463547       -0.0632332        -0.13732      2.51263e-05    -0.000720676        -0.975489        0.131809
                       -0.924334       -0.350556      0.000207545     -0.00058048       -0.0594812       0.0921737      0.000607022     0.000466647
                     0.000148704     -0.00084331        -0.975716        0.131975      0.000513799     0.000652313        0.0199256       -0.149502
281702.4               -0.018348        0.104967     -0.000659684     0.000317303        -0.924215       -0.350609      0.000242222    -0.000722527
                     -0.00065747     0.000463581       -0.0632376       -0.137325      2.50976e-05    -0.000720682        -0.975484        0.131838
                       -0.924345       -0.350527      0.000205769    -0.000560465       -0.0594781       0.0921704      0.000607052     0.000466637
                     0.000148693    -0.000843318        -0.975711        0.132005      0.000513831     0.000652305        0.0199195       -0.149509
281702.5              -0.0183413        0.104963     -0.000649471     0.000289821        -0.924226       -0.350581      0.000242206    -0.000722526
                    -0.000657471     0.000463615        -0.063242        -0.13733      2.50689e-05    -0.000720688        -0.975479        0.131868
                       -0.924357       -0.350498      0.000200885    -0.000538486       -0.0594749        0.092167      0.000607082     0.000466626
                     0.000148681    -0.000843326        -0.975707        0.132035      0.000513862     0.000652296        0.0199134       -0.149516
281702.6              -0.0183346        0.104959     -0.000632117     0.000256692        -0.924237       -0.350552       0.00024219    -0.000722524
                    -0.000657473     0.000463649       -0.0632464       -0.137335      2.50401e-05    -0.000720694        -0.975474        0.131897
                       -0.924368        -0.35047      0.000191977    -0.000515103       -0.0594717       0.0921637      0.000607112     0.000466616
                      0.00014867    -0.000843334        -0.975702        0.132065      0.000513894     0.000652287        0.0199073       -0.149524
281702.7               -0.018328        0.104956     -0.000602922     0.000217953        -0.924248       -0.350524      0.000242174    -0.000722523
                    -0.000657474     0.000463683       -0.0632509        -0.13734      2.50112e-05    -0.000720699        -0.975469        0.131926
                       -0.924379       -0.350441      0.000178203    -0.000491299       -0.0594685       0.0921603      0.000607142     0.000466605
                     0.000148658    -0.000843342        -0.975698        0.132095      0.000513926     0.000652278        0.0199012       -0.149531
281702.8              -0.0183213        0.104952     -0.000554606     0.000176314         -0.92426       -0.350495      0.000242158    -0.000722521
                    -0.000657475     0.000463717       -0.0632553       -0.137345      2.49821e-05    -0.000720705        -0.975464        0.131955
                        -0.92439       -0.350412      0.000159012    -0.000468504       -0.0594654       0.0921569      0.000607171     0.000466595
                     0.000148647     -0.00084335        -0.975693        0.132125      0.000513958      0.00065227        0.0198951       -0.149538
281702.9              -0.0183146        0.104948     -0.000478101     0.000141283        -0.924271       -0.350466      0.000242142     -0.00072252
                    -0.000657476     0.000463751       -0.0632597        -0.13735       2.4953e-05    -0.000720711        -0.975459        0.131984
                       -0.924402       -0.350384      0.000134405     -0.00044849       -0.0594622       0.0921536      0.000607201     0.000466585
                     0.000148635    -0.000843358        -0.975689        0.132155       0.00051399     0.000652261         0.019889       -0.149546
281703                -0.0183079        0.104944     -0.000369622     0.000134657        -0.924282       -0.350438      0.000242127    -0.000722518
                    -0.000657478     0.000463785       -0.0632642       -0.137355      2.49237e-05    -0.000720716        -0.975454        0.132013
                       -0.924413       -0.350355      0.000105141    -0.000433082        -0.059459       0.0921502      0.000607231     0.000466574
                     0.000148624    -0.000843366        -0.975684        0.132186      0.000514023     0.000652252        0.0198829       -0.149553
281703.1              -0.0183012        0.104941     -0.000248362     0.000185865        -0.924294       -0.350409      0.000242111    -0.000722517
                    -0.000657479     0.000463819       -0.0632686        -0.13736      2.48943e-05    -0.000720722        -0.975449        0.132042
                       -0.924424       -0.350327      7.27577e-05    -0.000423757       -0.0594559       0.0921468      0.000607261     0.000466564
