! TOUCHSTONE file generated by CST MICROWAVE STUDIO
! Date and time: Wed Oct  8 07:02:21 2025
! Project name: Teste_Macro_Metasurface_Nanopilar.cst
! Parameters = {H=600; L_x=165; L_y=170; Lambda=1064; Max_L=200; Min_L=70; PathPara=1; Phi=0; Step_L=10; Theta=0; p=520; phaseX=180; phaseY=0}
! Header version: 2018
! Port assignment regex: !\s*Touchstone port\s*([0-9]+)\s*=\s*(CST MWS port|CST DS port)\s*([0-9]+|Zmin|Zmax)\s*\(\"(.*)\"\)(\s*mode\s*([0-9]+))?.*
! Touchstone port assignment:
! Touchstone port 1 = CST MWS port Zmax ("") mode 1
! Touchstone port 2 = CST MWS port Zmax ("") mode 2
! Touchstone port 3 = CST MWS port Zmin ("") mode 1
! Touchstone port 4 = CST MWS port Zmin ("") mode 2
! S-Parameters are not renormalized. Each port impedance will be approximated by the real part at minimum frequency. The values are described via the [Reference] keyword.
! Default impedance is overridden by [Reference]
[Version] 2.0
# GHz S RI R 376.73
[Number of Ports] 4
[Reference]
376.73 376.73 376.73 376.73 
[Number of Frequencies] 1001
[Network Data]
281700                -0.0144537       0.0124236      0.000457743     0.000593926        -0.977395       -0.191315     -2.27668e-05     0.000155779
                     0.000298358     0.000588667       -0.0180905       0.0392956     -9.52086e-05     0.000204612        -0.963542       -0.248293
                       -0.977093       -0.191426     -8.07929e-05     0.000145394       0.00477416       0.0155249     -0.000639549     0.000376066
                     9.42011e-07     0.000157785        -0.963511       -0.248121     -0.000566244     0.000286857      -0.00692665       0.0415878
281700.1              -0.0144518       0.0124178      0.000457751     0.000593909        -0.977401       -0.191286     -2.27813e-05     0.000155777
                     0.000298376     0.000588656       -0.0180874       0.0392902     -9.51813e-05     0.000204614         -0.96355       -0.248265
                       -0.977099       -0.191398     -8.08036e-05     0.000145387       0.00477548       0.0155184      -0.00063953     0.000376085
                     9.44052e-07     0.000157771        -0.963519       -0.248093     -0.000566223      0.00028686      -0.00692449       0.0415816
281700.2              -0.0144499        0.012412      0.000457758     0.000593891        -0.977407       -0.191257     -2.27958e-05     0.000155774
                     0.000298395     0.000588645       -0.0180843       0.0392847     -9.51541e-05     0.000204615        -0.963559       -0.248236
                       -0.977104       -0.191369     -8.08142e-05     0.000145381       0.00477681       0.0155119      -0.00063951     0.000376104
                     9.46163e-07     0.000157757        -0.963526       -0.248064     -0.000566201     0.000286864      -0.00692234       0.0415753
281700.3               -0.014448       0.0124062      0.000457766     0.000593874        -0.977412       -0.191228     -2.28104e-05     0.000155772
                     0.000298413     0.000588634       -0.0180813       0.0392792     -9.51268e-05     0.000204617        -0.963567       -0.248207
                        -0.97711        -0.19134     -8.08248e-05     0.000145374       0.00477813       0.0155054      -0.00063949     0.000376123
                     9.48343e-07     0.000157742        -0.963534       -0.248036      -0.00056618     0.000286867      -0.00692018        0.041569
281700.4              -0.0144461       0.0124004      0.000457774     0.000593856        -0.977418       -0.191199     -2.28251e-05      0.00015577
                     0.000298431     0.000588623       -0.0180782       0.0392737     -9.50994e-05     0.000204618        -0.963575       -0.248179
                       -0.977116       -0.191311     -8.08354e-05     0.000145368       0.00477946       0.0154989     -0.000639471     0.000376142
                     9.50593e-07     0.000157728        -0.963542       -0.248007     -0.000566159      0.00028687      -0.00691803       0.0415628
281700.5              -0.0144442       0.0123946      0.000457782     0.000593839        -0.977424       -0.191169     -2.28398e-05     0.000155767
                     0.000298449     0.000588612       -0.0180751       0.0392683     -9.50721e-05      0.00020462        -0.963584        -0.24815
                       -0.977122       -0.191282     -8.08459e-05     0.000145361       0.00478078       0.0154924     -0.000639451     0.000376161
                     9.52914e-07     0.000157714        -0.963549       -0.247979     -0.000566137     0.000286874      -0.00691587       0.0415565
281700.6              -0.0144423       0.0123888      0.000457789     0.000593821         -0.97743        -0.19114     -2.28546e-05     0.000155765
                     0.000298467     0.000588601       -0.0180721       0.0392628     -9.50447e-05     0.000204621        -0.963592       -0.248121
                       -0.977127       -0.191253     -8.08564e-05     0.000145355        0.0047821       0.0154859     -0.000639431     0.000376181
                     9.55306e-07     0.000157699        -0.963557        -0.24795     -0.000566116     0.000286877      -0.00691372       0.0415502
281700.7              -0.0144404        0.012383      0.000457797     0.000593804        -0.977436       -0.191111     -2.28695e-05     0.000155763
                     0.000298486     0.000588591        -0.018069       0.0392573     -9.50172e-05     0.000204623        -0.963601       -0.248093
                       -0.977133       -0.191224     -8.08669e-05     0.000145349       0.00478342       0.0154794     -0.000639411       0.0003762
                     9.57769e-07     0.000157685        -0.963565       -0.247922     -0.000566094      0.00028688      -0.00691156        0.041544
281700.8              -0.0144385       0.0123772      0.000457805     0.000593786        -0.977441       -0.191082     -2.28845e-05      0.00015576
                     0.000298504      0.00058858        -0.018066       0.0392519     -9.49897e-05     0.000204624        -0.963609       -0.248064
                       -0.977139       -0.191195     -8.08773e-05     0.000145342       0.00478475       0.0154729     -0.000639391     0.000376219
                     9.60305e-07      0.00015767        -0.963572       -0.247893     -0.000566073     0.000286884       -0.0069094       0.0415377
281700.9              -0.0144365       0.0123714      0.000457812     0.000593769        -0.977447       -0.191053     -2.28995e-05     0.000155758
                     0.000298522     0.000588569       -0.0180629       0.0392464     -9.49622e-05     0.000204626        -0.963618       -0.248035
                       -0.977145       -0.191166     -8.08877e-05     0.000145336       0.00478607       0.0154664     -0.000639371     0.000376238
                     9.62914e-07     0.000157656         -0.96358       -0.247865     -0.000566051     0.000286887      -0.00690725       0.0415315
281701                -0.0144346       0.0123656       0.00045782     0.000593751        -0.977453       -0.191024     -2.29145e-05     0.000155756
                      0.00029854     0.000588558       -0.0180598       0.0392409     -9.49346e-05     0.000204628        -0.963626       -0.248007
                        -0.97715       -0.191137      -8.0898e-05      0.00014533       0.00478739       0.0154599     -0.000639351     0.000376258
                     9.65596e-07     0.000157642        -0.963588       -0.247836     -0.000566029      0.00028689      -0.00690509       0.0415252
281701.1              -0.0144327       0.0123598      0.000457828     0.000593734        -0.977459       -0.190995     -2.29297e-05     0.000155754
                     0.000298558     0.000588547       -0.0180568       0.0392354      -9.4907e-05     0.000204629        -0.963635       -0.247978
                       -0.977156       -0.191108     -8.09083e-05     0.000145324       0.00478871       0.0154534      -0.00063933     0.000376277
                     9.68352e-07     0.000157627        -0.963595       -0.247808     -0.000566008     0.000286894      -0.00690294        0.041519
281701.2              -0.0144308       0.0123539      0.000457835     0.000593716        -0.977464       -0.190966     -2.29449e-05     0.000155751
                     0.000298577     0.000588537       -0.0180537         0.03923     -9.48794e-05     0.000204631        -0.963643       -0.247949
                       -0.977162       -0.191079     -8.09186e-05     0.000145318       0.00479003       0.0154469      -0.00063931     0.000376296
                     9.71182e-07     0.000157613        -0.963603       -0.247779     -0.000565986     0.000286897      -0.00690078       0.0415127
281701.3              -0.0144289       0.0123481      0.000457843     0.000593699         -0.97747       -0.190937     -2.29602e-05     0.000155749
                     0.000298595     0.000588526       -0.0180506       0.0392245     -9.48517e-05     0.000204633        -0.963652       -0.247921
                       -0.977168        -0.19105     -8.09288e-05     0.000145313       0.00479135       0.0154404     -0.000639289     0.000376316
                     9.74088e-07     0.000157598        -0.963611       -0.247751     -0.000565964       0.0002869      -0.00689863       0.0415065
281701.4               -0.014427       0.0123423      0.000457851     0.000593681        -0.977476       -0.190908     -2.29756e-05     0.000155747
                     0.000298613     0.000588515       -0.0180476        0.039219      -9.4824e-05     0.000204635         -0.96366       -0.247892
                       -0.977174       -0.191021      -8.0939e-05     0.000145307       0.00479267       0.0154339     -0.000639269     0.000376335
                      9.7707e-07     0.000157584        -0.963618       -0.247722     -0.000565942     0.000286903      -0.00689647       0.0415002
281701.5              -0.0144251       0.0123365      0.000457858     0.000593664        -0.977482       -0.190878      -2.2991e-05     0.000155745
                     0.000298632     0.000588504       -0.0180445       0.0392135     -9.47962e-05     0.000204637        -0.963669       -0.247863
                       -0.977179       -0.190992     -8.09491e-05     0.000145301       0.00479399       0.0154274     -0.000639248     0.000376355
                     9.80128e-07     0.000157569        -0.963626       -0.247694      -0.00056592     0.000286906      -0.00689432        0.041494
281701.6              -0.0144232       0.0123307      0.000457866     0.000593646        -0.977488       -0.190849     -2.30066e-05     0.000155743
                      0.00029865     0.000588494       -0.0180415       0.0392081     -9.47684e-05     0.000204639        -0.963677       -0.247834
                       -0.977185       -0.190963     -8.09592e-05     0.000145296       0.00479531       0.0154209     -0.000639228     0.000376374
                     9.83263e-07     0.000157555        -0.963634       -0.247665     -0.000565898      0.00028691      -0.00689216       0.0414878
281701.7              -0.0144213       0.0123249      0.000457874     0.000593629        -0.977493        -0.19082     -2.30222e-05     0.000155741
                     0.000298668     0.000588483       -0.0180384       0.0392026     -9.47406e-05     0.000204641        -0.963686       -0.247806
                       -0.977191       -0.190934     -8.09693e-05     0.000145291       0.00479663       0.0154144     -0.000639207     0.000376394
                     9.86476e-07     0.000157541        -0.963641       -0.247636     -0.000565876     0.000286913         -0.00689       0.0414815
281701.8              -0.0144194       0.0123191      0.000457881     0.000593611        -0.977499       -0.190791     -2.30378e-05     0.000155739
                     0.000298686     0.000588472       -0.0180353       0.0391971     -9.47127e-05     0.000204643        -0.963694       -0.247777
                       -0.977197       -0.190905     -8.09793e-05     0.000145285       0.00479795       0.0154079     -0.000639186     0.000376413
                     9.89767e-07     0.000157526        -0.963649       -0.247608     -0.000565854     0.000286916      -0.00688785       0.0414753
281701.9              -0.0144175       0.0123133      0.000457889     0.000593594        -0.977505       -0.190762     -2.30536e-05     0.000155737
                     0.000298705     0.000588461       -0.0180323       0.0391916     -9.46848e-05     0.000204645        -0.963703       -0.247748
                       -0.977202       -0.190876     -8.09893e-05      0.00014528       0.00479927       0.0154014     -0.000639165     0.000376433
                     9.93137e-07     0.000157512        -0.963656       -0.247579     -0.000565832     0.000286919      -0.00688569       0.0414691
281702                -0.0144155       0.0123075      0.000457896     0.000593576        -0.977511       -0.190733     -2.30694e-05     0.000155735
                     0.000298723     0.000588451       -0.0180292       0.0391862     -9.46568e-05     0.000204648        -0.963711        -0.24772
                       -0.977208       -0.190847     -8.09992e-05     0.000145275       0.00480058       0.0153949     -0.000639144     0.000376453
                     9.96586e-07     0.000157497        -0.963664       -0.247551     -0.000565809     0.000286922      -0.00688354       0.0414628
281702.1              -0.0144136       0.0123017      0.000457904     0.000593558        -0.977517       -0.190704     -2.30853e-05     0.000155734
                     0.000298741      0.00058844       -0.0180262       0.0391807     -9.46288e-05      0.00020465         -0.96372       -0.247691
                       -0.977214       -0.190818     -8.10091e-05      0.00014527        0.0048019       0.0153884     -0.000639123     0.000376472
                     1.00012e-06     0.000157483        -0.963672       -0.247522     -0.000565787     0.000286926      -0.00688138       0.0414566
281702.2              -0.0144117       0.0122958      0.000457912     0.000593541        -0.977522       -0.190675     -2.31013e-05     0.000155732
                      0.00029876      0.00058843       -0.0180231       0.0391752     -9.46008e-05     0.000204652        -0.963728       -0.247662
                       -0.977219       -0.190789     -8.10189e-05     0.000145265       0.00480322       0.0153819     -0.000639102     0.000376492
                     1.00373e-06     0.000157469        -0.963679       -0.247494     -0.000565765     0.000286929      -0.00687922       0.0414504
281702.3              -0.0144098         0.01229      0.000457919     0.000593523        -0.977528       -0.190646     -2.31174e-05      0.00015573
                     0.000298778     0.000588419         -0.01802       0.0391697     -9.45727e-05     0.000204654        -0.963737       -0.247633
                       -0.977225       -0.190761     -8.10287e-05      0.00014526       0.00480454       0.0153754      -0.00063908     0.000376512
                     1.00742e-06     0.000157454        -0.963687       -0.247465     -0.000565742     0.000286932      -0.00687707       0.0414442
281702.4              -0.0144079       0.0122842      0.000457927     0.000593506        -0.977534       -0.190616     -2.31335e-05     0.000155728
                     0.000298797     0.000588408        -0.018017       0.0391643     -9.45446e-05     0.000204657        -0.963745       -0.247605
                       -0.977231       -0.190732     -8.10385e-05     0.000145255       0.00480585       0.0153689     -0.000639059     0.000376532
                     1.01119e-06      0.00015744        -0.963695       -0.247437      -0.00056572     0.000286935      -0.00687491       0.0414379
281702.5               -0.014406       0.0122784      0.000457934     0.000593488         -0.97754       -0.190587     -2.31497e-05     0.000155727
                     0.000298815     0.000588398       -0.0180139       0.0391588     -9.45164e-05     0.000204659        -0.963754       -0.247576
                       -0.977237       -0.190703     -8.10482e-05      0.00014525       0.00480717       0.0153624     -0.000639037     0.000376552
                     1.01505e-06     0.000157425        -0.963702       -0.247408     -0.000565697     0.000286938      -0.00687275       0.0414317
281702.6              -0.0144041       0.0122726      0.000457942     0.000593471        -0.977545       -0.190558     -2.31661e-05     0.000155725
                     0.000298833     0.000588387       -0.0180109       0.0391533     -9.44882e-05     0.000204662        -0.963762       -0.247547
                       -0.977242       -0.190674     -8.10579e-05     0.000145246       0.00480849       0.0153559     -0.000639016     0.000376571
                     1.01899e-06     0.000157411         -0.96371        -0.24738     -0.000565674     0.000286941       -0.0068706       0.0414255
281702.7              -0.0144022       0.0122668      0.000457949     0.000593453        -0.977551       -0.190529     -2.31825e-05     0.000155723
                     0.000298852     0.000588377       -0.0180078       0.0391478     -9.44599e-05     0.000204664        -0.963771       -0.247518
                       -0.977248       -0.190645     -8.10675e-05     0.000145241        0.0048098       0.0153494     -0.000638994     0.000376591
                     1.02301e-06     0.000157396        -0.963718       -0.247351     -0.000565652     0.000286944      -0.00686844       0.0414193
281702.8              -0.0144003        0.012261      0.000457957     0.000593435        -0.977557         -0.1905     -2.31989e-05     0.000155722
                      0.00029887     0.000588366       -0.0180048       0.0391424     -9.44317e-05     0.000204667        -0.963779        -0.24749
                       -0.977254       -0.190616     -8.10771e-05     0.000145237       0.00481112       0.0153429     -0.000638972     0.000376611
                     1.02712e-06     0.000157382        -0.963725       -0.247323     -0.000565629     0.000286947      -0.00686628       0.0414131
281702.9              -0.0143984       0.0122552      0.000457965     0.000593418        -0.977563       -0.190471     -2.32155e-05      0.00015572
                     0.000298889     0.000588356       -0.0180017       0.0391369     -9.44033e-05      0.00020467        -0.963788       -0.247461
                        -0.97726       -0.190587     -8.10866e-05     0.000145232       0.00481243       0.0153364      -0.00063895     0.000376632
                     1.03132e-06     0.000157368        -0.963733       -0.247294     -0.000565606      0.00028695      -0.00686413       0.0414069
281703                -0.0143965       0.0122493      0.000457972       0.0005934        -0.977569       -0.190442     -2.32322e-05     0.000155719
                     0.000298907     0.000588346       -0.0179987       0.0391314     -9.43749e-05     0.000204672        -0.963797       -0.247432
                       -0.977265       -0.190558     -8.10961e-05     0.000145228       0.00481375       0.0153299     -0.000638928     0.000376652
                      1.0356e-06     0.000157353        -0.963741       -0.247265     -0.000565583     0.000286954      -0.00686197       0.0414007
281703.1              -0.0143945       0.0122435       0.00045798     0.000593382        -0.977574       -0.190413     -2.32489e-05     0.000155717
                     0.000298926     0.000588335       -0.0179956       0.0391259     -9.43465e-05     0.000204675        -0.963805       -0.247403
                       -0.977271       -0.190529     -8.11056e-05     0.000145223       0.00481506       0.0153234     -0.000638906     0.000376672
