! TOUCHSTONE file generated by CST MICROWAVE STUDIO
! Date and time: Wed Oct  8 07:03:10 2025
! Project name: Teste_Macro_Metasurface_Nanopilar.cst
! Parameters = {H=600; L_x=175; L_y=85; Lambda=1064; Max_L=200; Min_L=70; PathPara=1; Phi=0; Step_L=10; Theta=0; p=520; phaseX=180; phaseY=0}
! Header version: 2018
! Port assignment regex: !\s*Touchstone port\s*([0-9]+)\s*=\s*(CST MWS port|CST DS port)\s*([0-9]+|Zmin|Zmax)\s*\(\"(.*)\"\)(\s*mode\s*([0-9]+))?.*
! Touchstone port assignment:
! Touchstone port 1 = CST MWS port Zmax ("") mode 1
! Touchstone port 2 = CST MWS port Zmax ("") mode 2
! Touchstone port 3 = CST MWS port Zmin ("") mode 1
! Touchstone port 4 = CST MWS port Zmin ("") mode 2
! S-Parameters are not renormalized. Each port impedance will be approximated by the real part at minimum frequency. The values are described via the [Reference] keyword.
! Default impedance is overridden by [Reference]
[Version] 2.0
# GHz S RI R 376.73
[Number of Ports] 4
[Reference]
376.73 376.73 376.73 376.73 
[Number of Frequencies] 1001
[Network Data]
281700                -0.0513621       -0.179769      0.000938765    -0.000564621        -0.508883        0.838088      0.000409299     0.000121536
                     0.000951407    -0.000533421        -0.151061      -0.0669452     -0.000477483     0.000152609        -0.529998       -0.825339
                       -0.508964        0.837875     -0.000442005    -3.61138e-05        -0.183336       0.0378251     -0.000857433    -0.000629952
                     0.000350479    -2.65211e-05        -0.530054       -0.825187     -0.000877995      -0.0005196      -0.00346025         0.16297
281700.1               -0.051369       -0.179766      0.000938768    -0.000564651        -0.508859        0.838102      0.000409315     0.000121528
                     0.000951401    -0.000533457        -0.151057      -0.0669422      -0.00047748     0.000152624        -0.530025       -0.825323
                       -0.508941        0.837889     -0.000442002    -3.60992e-05        -0.183335        0.037828     -0.000857463    -0.000629941
                     0.000350479    -2.65228e-05        -0.530081       -0.825171     -0.000878025     -0.00051959      -0.00345074        0.162965
281700.2               -0.051376       -0.179764       0.00093877    -0.000564681        -0.508836        0.838116       0.00040933      0.00012152
                     0.000951395    -0.000533493        -0.151053      -0.0669392     -0.000477476     0.000152638        -0.530053       -0.825306
                       -0.508918        0.837903        -0.000442    -3.60847e-05        -0.183334       0.0378309     -0.000857494    -0.000629931
                     0.000350478    -2.65245e-05        -0.530108       -0.825155     -0.000878054     -0.00051958      -0.00344123         0.16296
281700.3              -0.0513829       -0.179761      0.000938773    -0.000564711        -0.508813         0.83813      0.000409345     0.000121511
                      0.00095139    -0.000533529        -0.151049      -0.0669362     -0.000477473     0.000152653         -0.53008        -0.82529
                       -0.508894        0.837917     -0.000441997    -3.60701e-05        -0.183333       0.0378338     -0.000857524    -0.000629921
                     0.000350478    -2.65261e-05        -0.530135       -0.825138     -0.000878084    -0.000519571      -0.00343173        0.162955
281700.4              -0.0513898       -0.179759      0.000938775    -0.000564741        -0.508789        0.838145       0.00040936     0.000121503
                     0.000951384    -0.000533566        -0.151045      -0.0669332      -0.00047747     0.000152668        -0.530107       -0.825274
                       -0.508871        0.837932     -0.000441994    -3.60556e-05        -0.183332       0.0378367     -0.000857555     -0.00062991
                     0.000350478    -2.65278e-05        -0.530162       -0.825122     -0.000878114    -0.000519561      -0.00342223         0.16295
281700.5              -0.0513968       -0.179756      0.000938777    -0.000564771        -0.508766        0.838159      0.000409376     0.000121495
                     0.000951378    -0.000533602        -0.151041      -0.0669301     -0.000477467     0.000152683        -0.530134       -0.825257
                       -0.508848        0.837946     -0.000441991    -3.60411e-05        -0.183331       0.0378396     -0.000857585      -0.0006299
                     0.000350478    -2.65295e-05        -0.530189       -0.825105     -0.000878144    -0.000519551      -0.00341272        0.162946
281700.6              -0.0514037       -0.179754       0.00093878    -0.000564801        -0.508743        0.838173      0.000409391     0.000121487
                     0.000951372    -0.000533638        -0.151037      -0.0669271     -0.000477464     0.000152698        -0.530161       -0.825241
                       -0.508824         0.83796     -0.000441988    -3.60265e-05         -0.18333       0.0378425     -0.000857615     -0.00062989
                     0.000350477    -2.65312e-05        -0.530216       -0.825089     -0.000878173    -0.000519542      -0.00340322        0.162941
281700.7              -0.0514106       -0.179751      0.000938782    -0.000564831         -0.50872        0.838188      0.000409406     0.000121478
                     0.000951367    -0.000533674        -0.151033      -0.0669241     -0.000477461     0.000152713        -0.530188       -0.825224
                       -0.508801        0.837974     -0.000441985     -3.6012e-05        -0.183329       0.0378454     -0.000857646    -0.000629879
                     0.000350477    -2.65329e-05        -0.530243       -0.825072     -0.000878203    -0.000519532      -0.00339371        0.162936
281700.8              -0.0514176       -0.179749      0.000938784    -0.000564861        -0.508696        0.838202      0.000409421      0.00012147
                     0.000951361     -0.00053371        -0.151029      -0.0669211     -0.000477457     0.000152728        -0.530215       -0.825208
                       -0.508778        0.837989     -0.000441982    -3.59974e-05        -0.183328       0.0378483     -0.000857676    -0.000629869
                     0.000350477    -2.65346e-05         -0.53027       -0.825056     -0.000878233    -0.000519523      -0.00338421        0.162931
281700.9              -0.0514245       -0.179747      0.000938787    -0.000564891        -0.508673        0.838216      0.000409437     0.000121462
                     0.000951355    -0.000533746        -0.151025      -0.0669181     -0.000477454     0.000152743        -0.530242       -0.825191
                       -0.508755        0.838003      -0.00044198    -3.59829e-05        -0.183327       0.0378512     -0.000857706    -0.000629859
                     0.000350476    -2.65362e-05        -0.530298       -0.825039     -0.000878263    -0.000519513       -0.0033747        0.162926
281701                -0.0514314       -0.179744      0.000938789    -0.000564921         -0.50865         0.83823      0.000409452     0.000121454
                      0.00095135    -0.000533782        -0.151021      -0.0669151     -0.000477451     0.000152757        -0.530269       -0.825175
                       -0.508731        0.838017     -0.000441977    -3.59683e-05        -0.183326       0.0378542     -0.000857737    -0.000629848
                     0.000350476    -2.65379e-05        -0.530325       -0.825023     -0.000878292    -0.000519503       -0.0033652        0.162921
281701.1              -0.0514384       -0.179742      0.000938791    -0.000564952        -0.508626        0.838245      0.000409467     0.000121445
                     0.000951344    -0.000533818        -0.151017       -0.066912     -0.000477448     0.000152772        -0.530296       -0.825158
                       -0.508708        0.838031     -0.000441974    -3.59538e-05        -0.183324       0.0378571     -0.000857767    -0.000629838
                     0.000350476    -2.65396e-05        -0.530352       -0.825006     -0.000878322    -0.000519494       -0.0033557        0.162917
281701.2              -0.0514453       -0.179739      0.000938794    -0.000564982        -0.508603        0.838259      0.000409483     0.000121437
                     0.000951338    -0.000533854        -0.151013       -0.066909     -0.000477445     0.000152787        -0.530323       -0.825142
                       -0.508685        0.838046     -0.000441971    -3.59392e-05        -0.183323         0.03786     -0.000857798    -0.000629827
                     0.000350476    -2.65413e-05        -0.530379        -0.82499     -0.000878352    -0.000519484      -0.00334619        0.162912
281701.3              -0.0514523       -0.179737      0.000938796    -0.000565012         -0.50858        0.838273      0.000409498     0.000121429
                     0.000951332    -0.000533891        -0.151009       -0.066906     -0.000477442     0.000152802         -0.53035       -0.825125
                       -0.508661         0.83806     -0.000441968    -3.59247e-05        -0.183322       0.0378629     -0.000857828    -0.000629817
                     0.000350475     -2.6543e-05        -0.530406       -0.824974     -0.000878382    -0.000519474      -0.00333669        0.162907
281701.4              -0.0514592       -0.179734      0.000938798    -0.000565042        -0.508556        0.838287      0.000409513     0.000121421
                     0.000951327    -0.000533927        -0.151005       -0.066903     -0.000477438     0.000152817        -0.530377       -0.825109
                       -0.508638        0.838074     -0.000441965    -3.59101e-05        -0.183321       0.0378658     -0.000857858    -0.000629807
                     0.000350475    -2.65446e-05        -0.530433       -0.824957     -0.000878412    -0.000519465      -0.00332719        0.162902
281701.5              -0.0514661       -0.179732      0.000938801    -0.000565072        -0.508533        0.838302      0.000409528     0.000121412
                     0.000951321    -0.000533963           -0.151         -0.0669     -0.000477435     0.000152832        -0.530404       -0.825092
                       -0.508615        0.838088     -0.000441962    -3.58956e-05         -0.18332       0.0378687     -0.000857889    -0.000629796
                     0.000350475    -2.65463e-05         -0.53046       -0.824941     -0.000878441    -0.000519455      -0.00331769        0.162897
281701.6              -0.0514731       -0.179729      0.000938803    -0.000565102         -0.50851        0.838316      0.000409544     0.000121404
                     0.000951315    -0.000533999        -0.150996       -0.066897     -0.000477432     0.000152847        -0.530432       -0.825076
                       -0.508592        0.838103      -0.00044196     -3.5881e-05        -0.183319       0.0378716     -0.000857919    -0.000629786
                     0.000350475     -2.6548e-05        -0.530487       -0.824924     -0.000878471    -0.000519445      -0.00330819        0.162892
281701.7                -0.05148       -0.179727      0.000938805    -0.000565132        -0.508487         0.83833      0.000409559     0.000121396
                     0.000951309    -0.000534035        -0.150992      -0.0668939     -0.000477429     0.000152861        -0.530459       -0.825059
                       -0.508568        0.838117     -0.000441957    -3.58665e-05        -0.183318       0.0378745      -0.00085795    -0.000629775
                     0.000350474    -2.65497e-05        -0.530514       -0.824908     -0.000878501    -0.000519436      -0.00329868        0.162887
281701.8              -0.0514869       -0.179724      0.000938808    -0.000565162        -0.508463        0.838344      0.000409574     0.000121388
                     0.000951304    -0.000534071        -0.150988      -0.0668909     -0.000477426     0.000152876        -0.530486       -0.825043
                       -0.508545        0.838131     -0.000441954    -3.58519e-05        -0.183317       0.0378774      -0.00085798    -0.000629765
                     0.000350474    -2.65514e-05        -0.530541       -0.824891     -0.000878531    -0.000519426      -0.00328918        0.162883
281701.9              -0.0514939       -0.179722       0.00093881    -0.000565192         -0.50844        0.838359      0.000409589     0.000121379
                     0.000951298    -0.000534107        -0.150984      -0.0668879     -0.000477422     0.000152891        -0.530513       -0.825027
                       -0.508522        0.838145     -0.000441951    -3.58374e-05        -0.183316       0.0378803      -0.00085801    -0.000629755
                     0.000350474     -2.6553e-05        -0.530569       -0.824875      -0.00087856    -0.000519416      -0.00327968        0.162878
281702                -0.0515008       -0.179719      0.000938812    -0.000565222        -0.508417        0.838373      0.000409605     0.000121371
                     0.000951292    -0.000534143         -0.15098      -0.0668849     -0.000477419     0.000152906         -0.53054        -0.82501
                       -0.508498         0.83816     -0.000441948    -3.58228e-05        -0.183315       0.0378832     -0.000858041    -0.000629744
                     0.000350474    -2.65547e-05        -0.530596       -0.824858      -0.00087859    -0.000519407      -0.00327018        0.162873
281702.1              -0.0515077       -0.179717      0.000938815    -0.000565253        -0.508393        0.838387       0.00040962     0.000121363
                     0.000951286    -0.000534179        -0.150976      -0.0668819     -0.000477416     0.000152921        -0.530567       -0.824994
                       -0.508475        0.838174     -0.000441945    -3.58083e-05        -0.183314       0.0378861     -0.000858071    -0.000629734
                     0.000350473    -2.65564e-05        -0.530623       -0.824842      -0.00087862    -0.000519397      -0.00326068        0.162868
281702.2              -0.0515147       -0.179714      0.000938817    -0.000565283         -0.50837        0.838401      0.000409635     0.000121355
                     0.000951281    -0.000534216        -0.150972      -0.0668789     -0.000477413     0.000152936        -0.530594       -0.824977
                       -0.508452        0.838188     -0.000441943    -3.57937e-05        -0.183313        0.037889     -0.000858102    -0.000629724
                     0.000350473    -2.65581e-05         -0.53065       -0.824825      -0.00087865    -0.000519387      -0.00325118        0.162863
281702.3              -0.0515216       -0.179712      0.000938819    -0.000565313        -0.508347        0.838416      0.000409651     0.000121346
                     0.000951275    -0.000534252        -0.150968      -0.0668759      -0.00047741      0.00015295        -0.530621       -0.824961
                       -0.508428        0.838202      -0.00044194    -3.57791e-05        -0.183311       0.0378919     -0.000858132    -0.000629713
                     0.000350473    -2.65598e-05        -0.530677       -0.824809     -0.000878679    -0.000519378      -0.00324168        0.162858
281702.4              -0.0515285        -0.17971      0.000938822    -0.000565343        -0.508323         0.83843      0.000409666     0.000121338
                     0.000951269    -0.000534288        -0.150964      -0.0668728     -0.000477407     0.000152965        -0.530648       -0.824944
                       -0.508405        0.838216     -0.000441937    -3.57646e-05         -0.18331       0.0378948     -0.000858162    -0.000629703
                     0.000350472    -2.65615e-05        -0.530704       -0.824792     -0.000878709    -0.000519368      -0.00323218        0.162853
281702.5              -0.0515355       -0.179707      0.000938824    -0.000565373          -0.5083        0.838444      0.000409681      0.00012133
                     0.000951263    -0.000534324         -0.15096      -0.0668698     -0.000477403      0.00015298        -0.530675       -0.824928
                       -0.508382        0.838231     -0.000441934      -3.575e-05        -0.183309       0.0378977     -0.000858193    -0.000629692
                     0.000350472    -2.65631e-05        -0.530731       -0.824776     -0.000878739    -0.000519358      -0.00322268        0.162849
281702.6              -0.0515424       -0.179705      0.000938826    -0.000565403        -0.508277        0.838458      0.000409696     0.000121321
                     0.000951258     -0.00053436        -0.150956      -0.0668668       -0.0004774     0.000152995        -0.530702       -0.824911
                       -0.508359        0.838245     -0.000441931    -3.57355e-05        -0.183308       0.0379006     -0.000858223    -0.000629682
                     0.000350472    -2.65648e-05        -0.530758        -0.82476     -0.000878769    -0.000519349      -0.00321318        0.162844
281702.7              -0.0515493       -0.179702      0.000938829    -0.000565433        -0.508253        0.838472      0.000409712     0.000121313
                     0.000951252    -0.000534396        -0.150952      -0.0668638     -0.000477397      0.00015301        -0.530729       -0.824895
                       -0.508335        0.838259     -0.000441928    -3.57209e-05        -0.183307       0.0379035     -0.000858254    -0.000629671
                     0.000350472    -2.65665e-05        -0.530785       -0.824743     -0.000878799    -0.000519339      -0.00320368        0.162839
281702.8              -0.0515563         -0.1797      0.000938831    -0.000565463         -0.50823        0.838487      0.000409727     0.000121305
                     0.000951246    -0.000534432        -0.150948      -0.0668608     -0.000477394     0.000153024        -0.530756       -0.824878
                       -0.508312        0.838273     -0.000441925    -3.57063e-05        -0.183306       0.0379064     -0.000858284    -0.000629661
                     0.000350471    -2.65682e-05        -0.530812       -0.824727     -0.000878828     -0.00051933      -0.00319418        0.162834
281702.9              -0.0515632       -0.179697      0.000938833    -0.000565493        -0.508207        0.838501      0.000409742     0.000121297
                      0.00095124    -0.000534468        -0.150944      -0.0668578     -0.000477391     0.000153039        -0.530783       -0.824862
                       -0.508289        0.838288     -0.000441923    -3.56918e-05        -0.183305       0.0379093     -0.000858314    -0.000629651
                     0.000350471    -2.65699e-05         -0.53084        -0.82471     -0.000878858     -0.00051932      -0.00318468        0.162829
281703                -0.0515701       -0.179695      0.000938836    -0.000565524        -0.508183        0.838515      0.000409757     0.000121288
                     0.000951235    -0.000534504         -0.15094      -0.0668548     -0.000477387     0.000153054         -0.53081       -0.824845
                       -0.508265        0.838302      -0.00044192    -3.56772e-05        -0.183304       0.0379122     -0.000858345     -0.00062964
                     0.000350471    -2.65715e-05        -0.530867       -0.824694     -0.000878888     -0.00051931      -0.00317518        0.162824
281703.1              -0.0515771       -0.179692      0.000938838    -0.000565554         -0.50816        0.838529      0.000409773      0.00012128
                     0.000951229    -0.000534541        -0.150936      -0.0668518     -0.000477384     0.000153069        -0.530837       -0.824829
                       -0.508242        0.838316     -0.000441917    -3.56626e-05        -0.183303       0.0379151     -0.000858375     -0.00062963
