! TOUCHSTONE file generated by CST MICROWAVE STUDIO
! Date and time: Wed Oct  8 06:54:53 2025
! Project name: Teste_Macro_Metasurface_Nanopilar.cst
! Parameters = {H=600; L_x=105; L_y=105; Lambda=1064; Max_L=200; Min_L=70; PathPara=1; Phi=0; Step_L=10; Theta=0; p=520; phaseX=180; phaseY=0}
! Header version: 2018
! Port assignment regex: !\s*Touchstone port\s*([0-9]+)\s*=\s*(CST MWS port|CST DS port)\s*([0-9]+|Zmin|Zmax)\s*\(\"(.*)\"\)(\s*mode\s*([0-9]+))?.*
! Touchstone port assignment:
! Touchstone port 1 = CST MWS port Zmax ("") mode 1
! Touchstone port 2 = CST MWS port Zmax ("") mode 2
! Touchstone port 3 = CST MWS port Zmin ("") mode 1
! Touchstone port 4 = CST MWS port Zmin ("") mode 2
! S-Parameters are not renormalized. Each port impedance will be approximated by the real part at minimum frequency. The values are described via the [Reference] keyword.
! Default impedance is overridden by [Reference]
[Version] 2.0
# GHz S RI R 376.73
[Number of Ports] 4
[Reference]
376.73 376.73 376.73 376.73 
[Number of Frequencies] 1001
[Network Data]
281700                 -0.177116       -0.150969      0.000250745     0.000114799        -0.272692        0.930027      0.000176758     2.94565e-05
                     0.000254469     0.000103001        -0.176975        -0.15153      0.000128395     0.000154792        -0.272825        0.929888
                       -0.272779        0.929726       3.8323e-05     0.000289046        -0.231053       0.0321441       0.00023654     -1.7907e-05
                     0.000144639     0.000182128        -0.272802        0.929667      0.000264142     2.72675e-06        -0.231223       0.0325939
281700.1               -0.177121       -0.150963      0.000250747     0.000114803        -0.272665        0.930035       0.00017676      2.9452e-05
                     0.000254474     0.000103004         -0.17698       -0.151523      0.000128398     0.000154786        -0.272798        0.929896
                       -0.272752        0.929734      3.83341e-05     0.000289043        -0.231052       0.0321492      0.000236541    -1.79163e-05
                     0.000144647     0.000182122        -0.272775        0.929675      0.000264152      2.7188e-06        -0.231222        0.032599
281700.2               -0.177126       -0.150956       0.00025075     0.000114807        -0.272638        0.930043      0.000176763     2.94476e-05
                     0.000254479     0.000103008        -0.176985       -0.151517      0.000128401     0.000154781        -0.272771        0.929904
                       -0.272725        0.929742      3.83453e-05     0.000289041        -0.231052       0.0321542      0.000236542    -1.79256e-05
                     0.000144655     0.000182115        -0.272748        0.929683      0.000264162     2.71084e-06        -0.231221        0.032604
281700.3               -0.177132        -0.15095      0.000250753     0.000114811        -0.272612        0.930051      0.000176766     2.94431e-05
                     0.000254485     0.000103011        -0.176991        -0.15151      0.000128404     0.000154776        -0.272744        0.929912
                       -0.272698         0.92975      3.83565e-05     0.000289038        -0.231051       0.0321592      0.000236543    -1.79349e-05
                     0.000144662     0.000182108        -0.272722        0.929691      0.000264172     2.70289e-06         -0.23122        0.032609
281700.4               -0.177137       -0.150944      0.000250755     0.000114815        -0.272585        0.930059      0.000176768     2.94387e-05
                      0.00025449     0.000103015        -0.176996       -0.151504      0.000128407     0.000154771        -0.272717         0.92992
                       -0.272672        0.929758      3.83677e-05     0.000289036         -0.23105       0.0321643      0.000236543    -1.79442e-05
                      0.00014467     0.000182102        -0.272695        0.929699      0.000264181     2.69493e-06        -0.231219       0.0326141
281700.5               -0.177142       -0.150937      0.000250758     0.000114819        -0.272558        0.930067      0.000176771     2.94342e-05
                     0.000254495     0.000103018        -0.177001       -0.151498       0.00012841     0.000154766         -0.27269        0.929927
                       -0.272645        0.929765      3.83788e-05     0.000289033        -0.231049       0.0321693      0.000236544    -1.79535e-05
                     0.000144677     0.000182095        -0.272668        0.929707      0.000264191     2.68698e-06        -0.231218       0.0326191
281700.6               -0.177147       -0.150931      0.000250761     0.000114823        -0.272531        0.930075      0.000176774     2.94298e-05
                     0.000254501     0.000103022        -0.177007       -0.151491      0.000128413      0.00015476        -0.272664        0.929935
                       -0.272618        0.929773        3.839e-05     0.000289031        -0.231048       0.0321743      0.000236545    -1.79628e-05
                     0.000144685     0.000182088        -0.272641        0.929715      0.000264201     2.67902e-06        -0.231217       0.0326241
281700.7               -0.177153       -0.150924      0.000250764     0.000114827        -0.272504        0.930083      0.000176776     2.94253e-05
                     0.000254506     0.000103025        -0.177012       -0.151485      0.000128416     0.000154755        -0.272637        0.929943
                       -0.272591        0.929781      3.84012e-05     0.000289028        -0.231047       0.0321794      0.000236546    -1.79721e-05
                     0.000144693     0.000182081        -0.272614        0.929723      0.000264211     2.67107e-06        -0.231216       0.0326291
281700.8               -0.177158       -0.150918      0.000250766     0.000114831        -0.272477         0.93009      0.000176779     2.94209e-05
                     0.000254511     0.000103029        -0.177017       -0.151478      0.000128419      0.00015475         -0.27261        0.929951
                       -0.272564        0.929789      3.84124e-05     0.000289025        -0.231046       0.0321844      0.000236546    -1.79814e-05
                       0.0001447     0.000182075        -0.272588         0.92973       0.00026422     2.66312e-06        -0.231215       0.0326342
281700.9               -0.177163       -0.150911      0.000250769     0.000114835        -0.272451        0.930098      0.000176782     2.94164e-05
                     0.000254516     0.000103032        -0.177022       -0.151472      0.000128422     0.000154745        -0.272583        0.929959
                       -0.272537        0.929797      3.84235e-05     0.000289023        -0.231045       0.0321894      0.000236547    -1.79908e-05
                     0.000144708     0.000182068        -0.272561        0.929738       0.00026423     2.65516e-06        -0.231214       0.0326392
281701                 -0.177168       -0.150905      0.000250772     0.000114839        -0.272424        0.930106      0.000176784      2.9412e-05
                     0.000254522     0.000103036        -0.177028       -0.151465      0.000128426      0.00015474        -0.272556        0.929967
                       -0.272511        0.929805      3.84347e-05      0.00028902        -0.231044       0.0321945      0.000236548    -1.80001e-05
                     0.000144716     0.000182061        -0.272534        0.929746       0.00026424     2.64721e-06        -0.231213       0.0326442
281701.1               -0.177174       -0.150898      0.000250774     0.000114843        -0.272397        0.930114      0.000176787     2.94075e-05
                     0.000254527     0.000103039        -0.177033       -0.151459      0.000128429     0.000154734        -0.272529        0.929975
                       -0.272484        0.929813      3.84459e-05     0.000289018        -0.231043       0.0321995      0.000236549    -1.80094e-05
                     0.000144723     0.000182055        -0.272507        0.929754       0.00026425     2.63925e-06        -0.231213       0.0326493
281701.2               -0.177179       -0.150892      0.000250777     0.000114847         -0.27237        0.930122       0.00017679     2.94031e-05
                     0.000254532     0.000103042        -0.177038       -0.151452      0.000128432     0.000154729        -0.272503        0.929983
                       -0.272457        0.929821      3.84571e-05     0.000289015        -0.231043       0.0322045       0.00023655    -1.80187e-05
                     0.000144731     0.000182048         -0.27248        0.929762      0.000264259      2.6313e-06        -0.231212       0.0326543
281701.3               -0.177184       -0.150886       0.00025078     0.000114851        -0.272343         0.93013      0.000176792     2.93986e-05
                     0.000254538     0.000103046        -0.177044       -0.151446      0.000128435     0.000154724        -0.272476        0.929991
                        -0.27243        0.929829      3.84682e-05     0.000289013        -0.231042       0.0322096       0.00023655     -1.8028e-05
                     0.000144738     0.000182041        -0.272453         0.92977      0.000264269     2.62335e-06        -0.231211       0.0326593
281701.4               -0.177189       -0.150879      0.000250783     0.000114855        -0.272316        0.930138      0.000176795     2.93942e-05
                     0.000254543     0.000103049        -0.177049        -0.15144      0.000128438     0.000154719        -0.272449        0.929998
                       -0.272403        0.929836      3.84794e-05      0.00028901        -0.231041       0.0322146      0.000236551    -1.80373e-05
                     0.000144746     0.000182035        -0.272427        0.929778      0.000264279     2.61539e-06         -0.23121       0.0326643
281701.5               -0.177195       -0.150873      0.000250785     0.000114859         -0.27229        0.930146      0.000176798     2.93898e-05
                     0.000254548     0.000103053        -0.177054       -0.151433      0.000128441     0.000154714        -0.272422        0.930006
                       -0.272376        0.929844      3.84906e-05     0.000289008         -0.23104       0.0322196      0.000236552    -1.80466e-05
                     0.000144754     0.000182028          -0.2724        0.929786      0.000264289     2.60744e-06        -0.231209       0.0326694
281701.6                 -0.1772       -0.150866      0.000250788     0.000114863        -0.272263        0.930154        0.0001768     2.93853e-05
                     0.000254553     0.000103056        -0.177059       -0.151427      0.000128444     0.000154708        -0.272395        0.930014
                        -0.27235        0.929852      3.85018e-05     0.000289005        -0.231039       0.0322246      0.000236553    -1.80559e-05
                     0.000144761     0.000182021        -0.272373        0.929794      0.000264298     2.59949e-06        -0.231208       0.0326744
281701.7               -0.177205        -0.15086      0.000250791     0.000114868        -0.272236        0.930161      0.000176803     2.93809e-05
                     0.000254559      0.00010306        -0.177065        -0.15142      0.000128447     0.000154703        -0.272369        0.930022
                       -0.272323         0.92986       3.8513e-05     0.000289002        -0.231038       0.0322297      0.000236553    -1.80653e-05
                     0.000144769     0.000182014        -0.272346        0.929802      0.000264308     2.59153e-06        -0.231207       0.0326794
281701.8                -0.17721       -0.150853      0.000250794     0.000114872        -0.272209        0.930169      0.000176806     2.93764e-05
                     0.000254564     0.000103063         -0.17707       -0.151414       0.00012845     0.000154698        -0.272342         0.93003
                       -0.272296        0.929868      3.85241e-05        0.000289        -0.231037       0.0322347      0.000236554    -1.80746e-05
                     0.000144777     0.000182008        -0.272319        0.929809      0.000264318     2.58358e-06        -0.231206       0.0326845
281701.9               -0.177216       -0.150847      0.000250796     0.000114876        -0.272182        0.930177      0.000176808      2.9372e-05
                     0.000254569     0.000103067        -0.177075       -0.151407      0.000128453     0.000154693        -0.272315        0.930038
                       -0.272269        0.929876      3.85353e-05     0.000288997        -0.231036       0.0322397      0.000236555    -1.80839e-05
                     0.000144784     0.000182001        -0.272292        0.929817      0.000264328     2.57563e-06        -0.231205       0.0326895
281702                 -0.177221        -0.15084      0.000250799      0.00011488        -0.272156        0.930185      0.000176811     2.93675e-05
                     0.000254575      0.00010307         -0.17708       -0.151401      0.000128456     0.000154688        -0.272288        0.930046
                       -0.272242        0.929884      3.85465e-05     0.000288995        -0.231035       0.0322448      0.000236556    -1.80932e-05
                     0.000144792     0.000181994        -0.272266        0.929825      0.000264337     2.56767e-06        -0.231204       0.0326945
281702.1               -0.177226       -0.150834      0.000250802     0.000114884        -0.272129        0.930193      0.000176814     2.93631e-05
                      0.00025458     0.000103074        -0.177086       -0.151394      0.000128459     0.000154682        -0.272261        0.930054
                       -0.272215        0.929892      3.85577e-05     0.000288992        -0.231034       0.0322498      0.000236556    -1.81025e-05
                     0.000144799     0.000181988        -0.272239        0.929833      0.000264347     2.55972e-06        -0.231203       0.0326995
281702.2               -0.177231       -0.150828      0.000250804     0.000114888        -0.272102        0.930201      0.000176816     2.93586e-05
                     0.000254585     0.000103077        -0.177091       -0.151388      0.000128462     0.000154677        -0.272234        0.930062
                       -0.272189          0.9299      3.85689e-05      0.00028899        -0.231034       0.0322548      0.000236557    -1.81118e-05
                     0.000144807     0.000181981        -0.272212        0.929841      0.000264357     2.55177e-06        -0.231203       0.0327046
281702.3               -0.177237       -0.150821      0.000250807     0.000114892        -0.272075        0.930209      0.000176819     2.93542e-05
                      0.00025459     0.000103081        -0.177096       -0.151381      0.000128465     0.000154672        -0.272208        0.930069
                       -0.272162        0.929907        3.858e-05     0.000288987        -0.231033       0.0322599      0.000236558    -1.81211e-05
                     0.000144815     0.000181974        -0.272185        0.929849      0.000264367     2.54382e-06        -0.231202       0.0327096
281702.4               -0.177242       -0.150815       0.00025081     0.000114896        -0.272048        0.930217      0.000176822     2.93498e-05
                     0.000254596     0.000103084        -0.177102       -0.151375      0.000128468     0.000154667        -0.272181        0.930077
                       -0.272135        0.929915      3.85912e-05     0.000288984        -0.231032       0.0322649      0.000236559    -1.81304e-05
                     0.000144822     0.000181968        -0.272158        0.929857      0.000264376     2.53586e-06        -0.231201       0.0327146
281702.5               -0.177247       -0.150808      0.000250813       0.0001149        -0.272021        0.930224      0.000176824     2.93453e-05
                     0.000254601     0.000103087        -0.177107       -0.151369      0.000128471     0.000154662        -0.272154        0.930085
                       -0.272108        0.929923      3.86024e-05     0.000288982        -0.231031       0.0322699      0.000236559    -1.81398e-05
                      0.00014483     0.000181961        -0.272131        0.929865      0.000264386     2.52791e-06          -0.2312       0.0327196
281702.6               -0.177252       -0.150802      0.000250815     0.000114904        -0.271995        0.930232      0.000176827     2.93409e-05
                     0.000254606     0.000103091        -0.177112       -0.151362      0.000128475     0.000154656        -0.272127        0.930093
                       -0.272081        0.929931      3.86136e-05     0.000288979         -0.23103        0.032275       0.00023656    -1.81491e-05
                     0.000144838     0.000181954        -0.272105        0.929873      0.000264396     2.51996e-06        -0.231199       0.0327247
281702.7               -0.177258       -0.150795      0.000250818     0.000114908        -0.271968         0.93024       0.00017683     2.93364e-05
                     0.000254612     0.000103094        -0.177117       -0.151356      0.000128478     0.000154651          -0.2721        0.930101
                       -0.272055        0.929939      3.86248e-05     0.000288977        -0.231029         0.03228      0.000236561    -1.81584e-05
                     0.000144845     0.000181947        -0.272078         0.92988      0.000264406     2.51201e-06        -0.231198       0.0327297
281702.8               -0.177263       -0.150789      0.000250821     0.000114912        -0.271941        0.930248      0.000176832      2.9332e-05
                     0.000254617     0.000103098        -0.177123       -0.151349      0.000128481     0.000154646        -0.272073        0.930109
                       -0.272028        0.929947       3.8636e-05     0.000288974        -0.231028        0.032285      0.000236562    -1.81677e-05
                     0.000144853     0.000181941        -0.272051        0.929888      0.000264415     2.50405e-06        -0.231197       0.0327347
281702.9               -0.177268       -0.150782      0.000250824     0.000114916        -0.271914        0.930256      0.000176835     2.93276e-05
                     0.000254622     0.000103101        -0.177128       -0.151343      0.000128484     0.000154641        -0.272047        0.930117
                       -0.272001        0.929955      3.86471e-05     0.000288972        -0.231027         0.03229      0.000236562     -1.8177e-05
                     0.000144861     0.000181934        -0.272024        0.929896      0.000264425      2.4961e-06        -0.231196       0.0327398
281703                 -0.177273       -0.150776      0.000250826      0.00011492        -0.271887        0.930264      0.000176838     2.93231e-05
                     0.000254627     0.000103105        -0.177133       -0.151336      0.000128487     0.000154636         -0.27202        0.930125
                       -0.271974        0.929963      3.86583e-05     0.000288969        -0.231026       0.0322951      0.000236563    -1.81863e-05
                     0.000144868     0.000181927        -0.271997        0.929904      0.000264435     2.48815e-06        -0.231195       0.0327448
281703.1               -0.177279       -0.150769      0.000250829     0.000114924         -0.27186        0.930272       0.00017684     2.93187e-05
                     0.000254633     0.000103108        -0.177139        -0.15133       0.00012849      0.00015463        -0.271993        0.930132
                       -0.271947         0.92997      3.86695e-05     0.000288967        -0.231026       0.0323001      0.000236564    -1.81957e-05
