! TOUCHSTONE file generated by CST MICROWAVE STUDIO
! Date and time: Wed Oct  8 07:02:38 2025
! Project name: Teste_Macro_Metasurface_Nanopilar.cst
! Parameters = {H=600; L_x=170; L_y=100; Lambda=1064; Max_L=200; Min_L=70; PathPara=1; Phi=0; Step_L=10; Theta=0; p=520; phaseX=180; phaseY=0}
! Header version: 2018
! Port assignment regex: !\s*Touchstone port\s*([0-9]+)\s*=\s*(CST MWS port|CST DS port)\s*([0-9]+|Zmin|Zmax)\s*\(\"(.*)\"\)(\s*mode\s*([0-9]+))?.*
! Touchstone port assignment:
! Touchstone port 1 = CST MWS port Zmax ("") mode 1
! Touchstone port 2 = CST MWS port Zmax ("") mode 2
! Touchstone port 3 = CST MWS port Zmin ("") mode 1
! Touchstone port 4 = CST MWS port Zmin ("") mode 2
! S-Parameters are not renormalized. Each port impedance will be approximated by the real part at minimum frequency. The values are described via the [Reference] keyword.
! Default impedance is overridden by [Reference]
[Version] 2.0
# GHz S RI R 376.73
[Number of Ports] 4
[Reference]
376.73 376.73 376.73 376.73 
[Number of Frequencies] 1001
[Network Data]
281700                 -0.134042       0.0633962      7.75519e-05     0.000172175         0.725965        0.660139      1.20646e-05    -0.000211079
                     2.26159e-05     0.000492966       -0.0952851       -0.177516     -0.000158135     9.47256e-05        -0.838898       -0.491555
                        0.725811        0.660593      -0.00016305     0.000174563       -0.0532983        0.138139      0.000537587    -0.000307753
                     1.11738e-05    -0.000207809        -0.838982        -0.49204      0.000394683    -0.000165066         0.195586     -0.00948257
281700.1               -0.134035       0.0633979      7.75877e-05     0.000172181         0.725988        0.660115      1.20651e-05    -0.000211089
                     2.26178e-05     0.000492981       -0.0952846       -0.177522     -0.000158132     9.47349e-05        -0.838915       -0.491524
                        0.725834         0.66057     -0.000163047     0.000174563       -0.0532913        0.138136      0.000537587    -0.000307783
                     1.11664e-05    -0.000207816        -0.838999       -0.492009       0.00039468    -0.000165081          0.19559     -0.00950046
281700.2               -0.134028       0.0633995      7.76235e-05     0.000172187         0.726011        0.660091      1.20656e-05    -0.000211098
                     2.26196e-05     0.000492997       -0.0952841       -0.177528     -0.000158129     9.47443e-05        -0.838931       -0.491493
                        0.725857        0.660546     -0.000163044     0.000174563       -0.0532843        0.138133      0.000537586    -0.000307812
                      1.1159e-05    -0.000207823        -0.839015       -0.491978      0.000394678    -0.000165096         0.195595     -0.00951834
281700.3               -0.134021       0.0634012      7.76593e-05     0.000172194         0.726034        0.660067      1.20661e-05    -0.000211108
                     2.26214e-05     0.000493013       -0.0952835       -0.177534     -0.000158127     9.47537e-05        -0.838948       -0.491462
                         0.72588        0.660522     -0.000163041     0.000174562       -0.0532773        0.138129      0.000537586    -0.000307841
                     1.11516e-05     -0.00020783        -0.839032       -0.491948      0.000394675    -0.000165111         0.195599     -0.00953622
281700.4               -0.134015       0.0634028      7.76951e-05       0.0001722         0.726056        0.660044      1.20666e-05    -0.000211118
                     2.26232e-05     0.000493028        -0.095283        -0.17754     -0.000158124      9.4763e-05        -0.838965       -0.491431
                        0.725902        0.660498     -0.000163039     0.000174562       -0.0532703        0.138126      0.000537585     -0.00030787
                     1.11441e-05    -0.000207837        -0.839049       -0.491917      0.000394672    -0.000165126         0.195603      -0.0095541
281700.5               -0.134008       0.0634045       7.7731e-05     0.000172206         0.726079         0.66002      1.20671e-05    -0.000211128
                      2.2625e-05     0.000493044       -0.0952825       -0.177546     -0.000158121     9.47724e-05        -0.838982         -0.4914
                        0.725925        0.660474     -0.000163036     0.000174561       -0.0532633        0.138123      0.000537585    -0.000307899
                     1.11367e-05    -0.000207844        -0.839066       -0.491886      0.000394669    -0.000165142         0.195608     -0.00957199
281700.6               -0.134001       0.0634061      7.77668e-05     0.000172213         0.726102        0.659996      1.20676e-05    -0.000211138
                     2.26269e-05      0.00049306       -0.0952819       -0.177552     -0.000158118     9.47817e-05        -0.838998        -0.49137
                        0.725948         0.66045     -0.000163033     0.000174561       -0.0532563         0.13812      0.000537584    -0.000307929
                     1.11293e-05    -0.000207851        -0.839082       -0.491855      0.000394666    -0.000165157         0.195612     -0.00958987
281700.7               -0.133994       0.0634078      7.78026e-05     0.000172219         0.726125        0.659972      1.20681e-05    -0.000211147
                     2.26287e-05     0.000493075       -0.0952814       -0.177558     -0.000158115     9.47911e-05        -0.839015       -0.491339
                        0.725971        0.660426     -0.000163031      0.00017456       -0.0532494        0.138117      0.000537583    -0.000307958
                     1.11219e-05    -0.000207859        -0.839099       -0.491824      0.000394663    -0.000165172         0.195616     -0.00960776
281700.8               -0.133987       0.0634094      7.78384e-05     0.000172225         0.726147        0.659948      1.20686e-05    -0.000211157
                     2.26305e-05     0.000493091       -0.0952809       -0.177564     -0.000158112     9.48004e-05        -0.839032       -0.491308
                        0.725994        0.660403     -0.000163028      0.00017456       -0.0532424        0.138113      0.000537583    -0.000307987
                     1.11145e-05    -0.000207866        -0.839116       -0.491794      0.000394661    -0.000165187          0.19562     -0.00962564
281700.9                -0.13398       0.0634111      7.78742e-05     0.000172232          0.72617        0.659924      1.20691e-05    -0.000211167
                     2.26323e-05     0.000493107       -0.0952803        -0.17757     -0.000158109     9.48098e-05        -0.839048       -0.491277
                        0.726016        0.660379     -0.000163025     0.000174559       -0.0532354         0.13811      0.000537582    -0.000308016
                     1.11071e-05    -0.000207873        -0.839133       -0.491763      0.000394658    -0.000165203         0.195625     -0.00964353
281701                 -0.133974       0.0634127        7.791e-05     0.000172238         0.726193          0.6599      1.20696e-05    -0.000211177
                     2.26342e-05     0.000493122       -0.0952798       -0.177576     -0.000158107     9.48192e-05        -0.839065       -0.491246
                        0.726039        0.660355     -0.000163022     0.000174559       -0.0532284        0.138107      0.000537582    -0.000308045
                     1.10997e-05     -0.00020788        -0.839149       -0.491732      0.000394655    -0.000165218         0.195629     -0.00966141
281701.1               -0.133967       0.0634144      7.79458e-05     0.000172244         0.726216        0.659876      1.20701e-05    -0.000211186
                      2.2636e-05     0.000493138       -0.0952793       -0.177582     -0.000158104     9.48285e-05        -0.839082       -0.491216
                        0.726062        0.660331      -0.00016302     0.000174558       -0.0532214        0.138104      0.000537581    -0.000308075
                     1.10923e-05    -0.000207887        -0.839166       -0.491701      0.000394652    -0.000165233         0.195633      -0.0096793
281701.2                -0.13396       0.0634161      7.79816e-05     0.000172251         0.726238        0.659852      1.20706e-05    -0.000211196
                     2.26378e-05     0.000493154       -0.0952787       -0.177588     -0.000158101     9.48379e-05        -0.839098       -0.491185
                        0.726085        0.660307     -0.000163017     0.000174558       -0.0532144        0.138101       0.00053758    -0.000308104
                     1.10849e-05    -0.000207894        -0.839183        -0.49167      0.000394649    -0.000165248         0.195637     -0.00969719
281701.3               -0.133953       0.0634177      7.80174e-05     0.000172257         0.726261        0.659829      1.20711e-05    -0.000211206
                     2.26397e-05     0.000493169       -0.0952782       -0.177594     -0.000158098     9.48472e-05        -0.839115       -0.491154
                        0.726107        0.660283     -0.000163014     0.000174557       -0.0532074        0.138097       0.00053758    -0.000308133
                     1.10775e-05    -0.000207901        -0.839199       -0.491639      0.000394646    -0.000165263         0.195642     -0.00971508
281701.4               -0.133946       0.0634194      7.80533e-05     0.000172263         0.726284        0.659805      1.20716e-05    -0.000211216
                     2.26415e-05     0.000493185       -0.0952777         -0.1776     -0.000158095     9.48566e-05        -0.839132       -0.491123
                         0.72613        0.660259     -0.000163011     0.000174557       -0.0532005        0.138094      0.000537579    -0.000308162
                     1.10701e-05    -0.000207908        -0.839216       -0.491609      0.000394643    -0.000165279         0.195646     -0.00973297
281701.5               -0.133939        0.063421      7.80891e-05      0.00017227         0.726306        0.659781      1.20721e-05    -0.000211226
                     2.26433e-05     0.000493201       -0.0952772       -0.177606     -0.000158092     9.48659e-05        -0.839148       -0.491092
                        0.726153        0.660236     -0.000163009     0.000174556       -0.0531935        0.138091      0.000537579    -0.000308191
                     1.10626e-05    -0.000207915        -0.839233       -0.491578      0.000394641    -0.000165294          0.19565     -0.00975086
281701.6               -0.133933       0.0634227      7.81249e-05     0.000172276         0.726329        0.659757      1.20727e-05    -0.000211235
                     2.26451e-05     0.000493216       -0.0952766       -0.177612     -0.000158089     9.48753e-05        -0.839165       -0.491061
                        0.726176        0.660212     -0.000163006     0.000174556       -0.0531865        0.138088      0.000537578    -0.000308221
                     1.10552e-05    -0.000207922         -0.83925       -0.491547      0.000394638    -0.000165309         0.195654     -0.00976875
281701.7               -0.133926       0.0634243      7.81607e-05     0.000172283         0.726352        0.659733      1.20732e-05    -0.000211245
                      2.2647e-05     0.000493232       -0.0952761       -0.177618     -0.000158087     9.48847e-05        -0.839182       -0.491031
                        0.726198        0.660188     -0.000163003     0.000174555       -0.0531795        0.138085      0.000537577     -0.00030825
                     1.10478e-05    -0.000207929        -0.839266       -0.491516      0.000394635    -0.000165324         0.195659     -0.00978664
281701.8               -0.133919        0.063426      7.81965e-05     0.000172289         0.726375        0.659709      1.20737e-05    -0.000211255
                     2.26488e-05     0.000493248       -0.0952756       -0.177624     -0.000158084      9.4894e-05        -0.839198          -0.491
                        0.726221        0.660164        -0.000163     0.000174555       -0.0531725        0.138081      0.000537577    -0.000308279
                     1.10404e-05    -0.000207936        -0.839283       -0.491485      0.000394632     -0.00016534         0.195663     -0.00980453
281701.9               -0.133912       0.0634276      7.82323e-05     0.000172295         0.726397        0.659685      1.20742e-05    -0.000211265
                     2.26506e-05     0.000493263        -0.095275        -0.17763     -0.000158081     9.49034e-05        -0.839215       -0.490969
                        0.726244         0.66014     -0.000162998     0.000174554       -0.0531655        0.138078      0.000537576    -0.000308308
                      1.1033e-05    -0.000207943          -0.8393       -0.491455      0.000394629    -0.000165355         0.195667     -0.00982242
281702                 -0.133905       0.0634293      7.82681e-05     0.000172302          0.72642        0.659661      1.20747e-05    -0.000211275
                     2.26525e-05     0.000493279       -0.0952745       -0.177636     -0.000158078     9.49127e-05        -0.839232       -0.490938
                        0.726267        0.660116     -0.000162995     0.000174554       -0.0531585        0.138075      0.000537576    -0.000308337
                     1.10256e-05    -0.000207951        -0.839316       -0.491424      0.000394626     -0.00016537         0.195671     -0.00984031
281702.1               -0.133899       0.0634309      7.83039e-05     0.000172308         0.726443        0.659637      1.20752e-05    -0.000211284
                     2.26543e-05     0.000493295        -0.095274       -0.177642     -0.000158075     9.49221e-05        -0.839248       -0.490907
                        0.726289        0.660092     -0.000162992     0.000174553       -0.0531516        0.138072      0.000537575    -0.000308366
                     1.10182e-05    -0.000207958        -0.839333       -0.491393      0.000394624    -0.000165385         0.195676      -0.0098582
281702.2               -0.133892       0.0634326      7.83397e-05     0.000172315         0.726466        0.659613      1.20758e-05    -0.000211294
                     2.26561e-05      0.00049331       -0.0952735       -0.177648     -0.000158072     9.49315e-05        -0.839265       -0.490876
                        0.726312        0.660068     -0.000162989     0.000174553       -0.0531446        0.138069      0.000537574    -0.000308396
                     1.10107e-05    -0.000207965         -0.83935       -0.491362      0.000394621      -0.0001654          0.19568      -0.0098761
281702.3               -0.133885       0.0634342      7.83755e-05     0.000172321         0.726488        0.659589      1.20763e-05    -0.000211304
                      2.2658e-05     0.000493326       -0.0952729       -0.177654     -0.000158069     9.49408e-05        -0.839282       -0.490846
                        0.726335        0.660045     -0.000162987     0.000174552       -0.0531376        0.138065      0.000537574    -0.000308425
                     1.10033e-05    -0.000207972        -0.839367       -0.491331      0.000394618    -0.000165416         0.195684     -0.00989399
281702.4               -0.133878       0.0634359      7.84113e-05     0.000172328         0.726511        0.659566      1.20768e-05    -0.000211314
                     2.26598e-05     0.000493342       -0.0952724        -0.17766     -0.000158067     9.49502e-05        -0.839298       -0.490815
                        0.726358        0.660021     -0.000162984     0.000174552       -0.0531306        0.138062      0.000537573    -0.000308454
                     1.09959e-05    -0.000207979        -0.839383         -0.4913      0.000394615    -0.000165431         0.195688     -0.00991188
281702.5               -0.133871       0.0634375      7.84471e-05     0.000172334         0.726534        0.659542      1.20773e-05    -0.000211323
                     2.26616e-05     0.000493357       -0.0952719       -0.177666     -0.000158064     9.49595e-05        -0.839315       -0.490784
                         0.72638        0.659997     -0.000162981     0.000174551       -0.0531236        0.138059      0.000537572    -0.000308483
                     1.09885e-05    -0.000207986          -0.8394        -0.49127      0.000394612    -0.000165446         0.195693     -0.00992978
281702.6               -0.133864       0.0634391      7.84829e-05     0.000172341         0.726557        0.659518      1.20779e-05    -0.000211333
                     2.26635e-05     0.000493373       -0.0952714       -0.177672     -0.000158061     9.49689e-05        -0.839332       -0.490753
                        0.726403        0.659973     -0.000162978     0.000174551       -0.0531166        0.138056      0.000537572    -0.000308512
                     1.09811e-05    -0.000207993        -0.839417       -0.491239      0.000394609    -0.000165461         0.195697     -0.00994768
281702.7               -0.133858       0.0634408      7.85187e-05     0.000172347         0.726579        0.659494      1.20784e-05    -0.000211343
                     2.26653e-05     0.000493388       -0.0952709       -0.177678     -0.000158058     9.49782e-05        -0.839348       -0.490722
                        0.726426        0.659949     -0.000162975      0.00017455       -0.0531097        0.138052      0.000537571    -0.000308542
                     1.09736e-05       -0.000208        -0.839433       -0.491208      0.000394606    -0.000165477         0.195701     -0.00996557
281702.8               -0.133851       0.0634424      7.85545e-05     0.000172354         0.726602         0.65947      1.20789e-05    -0.000211353
                     2.26671e-05     0.000493404       -0.0952703       -0.177684     -0.000158055     9.49876e-05        -0.839365       -0.490691
                        0.726449        0.659925     -0.000162973      0.00017455       -0.0531027        0.138049      0.000537571    -0.000308571
                     1.09662e-05    -0.000208007         -0.83945       -0.491177      0.000394604    -0.000165492         0.195705     -0.00998347
281702.9               -0.133844       0.0634441      7.85903e-05      0.00017236         0.726625        0.659446      1.20795e-05    -0.000211363
                      2.2669e-05      0.00049342       -0.0952698        -0.17769     -0.000158052      9.4997e-05        -0.839382        -0.49066
                        0.726472        0.659901      -0.00016297     0.000174549       -0.0530957        0.138046       0.00053757      -0.0003086
                     1.09588e-05    -0.000208014        -0.839467       -0.491146      0.000394601    -0.000165507          0.19571      -0.0100014
281703                 -0.133837       0.0634457      7.86261e-05     0.000172367         0.726648        0.659422        1.208e-05    -0.000211372
                     2.26708e-05     0.000493435       -0.0952693       -0.177696     -0.000158049     9.50063e-05        -0.839398        -0.49063
                        0.726494        0.659877     -0.000162967     0.000174549       -0.0530887        0.138043      0.000537569    -0.000308629
                     1.09514e-05    -0.000208021        -0.839483       -0.491115      0.000394598    -0.000165522         0.195714      -0.0100193
281703.1                -0.13383       0.0634474      7.86619e-05     0.000172373          0.72667        0.659398      1.20805e-05    -0.000211382
                     2.26727e-05     0.000493451       -0.0952688       -0.177702     -0.000158046     9.50157e-05        -0.839415       -0.490599
                        0.726517        0.659854     -0.000162964     0.000174548       -0.0530817         0.13804      0.000537569    -0.000308658
