! TOUCHSTONE file generated by CST MICROWAVE STUDIO
! Date and time: Wed Oct  8 06:55:00 2025
! Project name: Teste_Macro_Metasurface_Nanopilar.cst
! Parameters = {H=600; L_x=105; L_y=130; Lambda=1064; Max_L=200; Min_L=70; PathPara=1; Phi=0; Step_L=10; Theta=0; p=520; phaseX=180; phaseY=0}
! Header version: 2018
! Port assignment regex: !\s*Touchstone port\s*([0-9]+)\s*=\s*(CST MWS port|CST DS port)\s*([0-9]+|Zmin|Zmax)\s*\(\"(.*)\"\)(\s*mode\s*([0-9]+))?.*
! Touchstone port assignment:
! Touchstone port 1 = CST MWS port Zmax ("") mode 1
! Touchstone port 2 = CST MWS port Zmax ("") mode 2
! Touchstone port 3 = CST MWS port Zmin ("") mode 1
! Touchstone port 4 = CST MWS port Zmin ("") mode 2
! S-Parameters are not renormalized. Each port impedance will be approximated by the real part at minimum frequency. The values are described via the [Reference] keyword.
! Default impedance is overridden by [Reference]
[Version] 2.0
# GHz S RI R 376.73
[Number of Ports] 4
[Reference]
376.73 376.73 376.73 376.73 
[Number of Frequencies] 1001
[Network Data]
281700                 0.0200479       -0.141407      0.000530109    -6.61506e-05         0.746593       -0.635075     -0.000296235    -5.10298e-05
                     0.000544804    -2.21453e-05        -0.233559       0.0315181      0.000256343    -6.85279e-05          0.37325        0.890548
                        0.746486       -0.634969       0.00036328     9.11671e-05        -0.146387     0.000195716     -0.000441759     4.72769e-05
                     -0.00034376    -4.35723e-05         0.373304        0.890171     -0.000296356      -2.266e-05        -0.187282        0.143909
281700.1               0.0200392        -0.14141      0.000530107    -6.61695e-05         0.746571       -0.635101     -0.000290632    -4.05607e-05
                     0.000544808    -2.21642e-05        -0.233555       0.0315258      0.000256338     -6.8541e-05         0.373278        0.890537
                        0.746464       -0.634995      0.000363286     9.11485e-05        -0.146388     0.000196535     -0.000430379     3.67787e-05
                    -0.000343764    -4.35556e-05         0.373333         0.89016     -0.000296351    -2.26421e-05        -0.187276        0.143912
281700.2               0.0200305       -0.141413      0.000530106    -6.61884e-05         0.746549       -0.635126      -0.00028324    -3.31269e-05
                     0.000544812    -2.21831e-05        -0.233551       0.0315334      0.000256334    -6.85541e-05         0.373307        0.890526
                        0.746442        -0.63502      0.000363292       9.113e-05         -0.14639     0.000197354     -0.000420902     2.77303e-05
                    -0.000343769    -4.35388e-05         0.373361        0.890149     -0.000296347    -2.26242e-05        -0.187269        0.143915
281700.3               0.0200218       -0.141416      0.000530104    -6.62073e-05         0.746527       -0.635152     -0.000275553    -2.85664e-05
                     0.000544816     -2.2202e-05        -0.233547       0.0315411      0.000256329    -6.85672e-05         0.373335        0.890515
                         0.74642       -0.635046      0.000363298     9.11115e-05        -0.146392     0.000198173     -0.000412951     1.99166e-05
                    -0.000343773    -4.35221e-05          0.37339        0.890137     -0.000296342    -2.26062e-05        -0.187263        0.143919
281700.4               0.0200132       -0.141419      0.000530102    -6.62263e-05         0.746505       -0.635177     -0.000268484    -2.62049e-05
                      0.00054482     -2.2221e-05        -0.233542       0.0315487      0.000256324    -6.85804e-05         0.373364        0.890503
                        0.746398       -0.635071      0.000363304     9.10929e-05        -0.146393     0.000198992     -0.000406245     1.31656e-05
                    -0.000343778    -4.35054e-05         0.373418        0.890126     -0.000296338    -2.25883e-05        -0.187256        0.143922
281700.5               0.0200045       -0.141422        0.0005301    -6.62452e-05         0.746483       -0.635203     -0.000262412    -2.53124e-05
                     0.000544824    -2.22399e-05        -0.233538       0.0315564      0.000256319    -6.85935e-05         0.373392        0.890492
                        0.746376       -0.635097       0.00036331     9.10744e-05        -0.146395     0.000199812     -0.000400575     7.33968e-06
                    -0.000343782    -4.34887e-05         0.373447        0.890115     -0.000296334    -2.25704e-05        -0.187249        0.143926
281700.6               0.0199958       -0.141425      0.000530099    -6.62641e-05         0.746461       -0.635228     -0.000257396    -2.53058e-05
                     0.000544827    -2.22588e-05        -0.233534        0.031564      0.000256314    -6.86066e-05         0.373421        0.890481
                        0.746354       -0.635122      0.000363316     9.10558e-05        -0.146396     0.000200631      -0.00039578     2.32822e-06
                    -0.000343786     -4.3472e-05         0.373475        0.890104     -0.000296329    -2.25525e-05        -0.187243        0.143929
281700.7               0.0199871       -0.141428      0.000530097     -6.6283e-05         0.746439       -0.635254     -0.000253344    -2.57798e-05
                     0.000544831    -2.22777e-05         -0.23353       0.0315717      0.000256309    -6.86197e-05         0.373449         0.89047
                        0.746332       -0.635148      0.000363322     9.10373e-05        -0.146398     0.000201451     -0.000391735    -1.95748e-06
                    -0.000343791    -4.34553e-05         0.373504        0.890093     -0.000296325    -2.25346e-05        -0.187236        0.143933
281700.8               0.0199784       -0.141431      0.000530095    -6.63019e-05         0.746417       -0.635279     -0.000250119    -2.64733e-05
                     0.000544835    -2.22966e-05        -0.233526       0.0315793      0.000256304    -6.86329e-05         0.373477        0.890459
                         0.74631       -0.635173      0.000363328     9.10188e-05        -0.146399     0.000202271     -0.000388347    -5.58839e-06
                    -0.000343795    -4.34386e-05         0.373532        0.890081      -0.00029632    -2.25167e-05        -0.187229        0.143936
281700.9               0.0199697       -0.141434      0.000530093    -6.63208e-05         0.746395       -0.635305     -0.000247583     -2.7225e-05
                     0.000544839    -2.23156e-05        -0.233521        0.031587      0.000256299     -6.8646e-05         0.373506        0.890447
                        0.746288       -0.635199      0.000363334     9.10002e-05        -0.146401     0.000203091     -0.000385539    -8.62086e-06
                    -0.000343799     -4.3422e-05         0.373561         0.89007     -0.000296316    -2.24988e-05        -0.187223         0.14394
281701                  0.019961       -0.141437      0.000530091    -6.63397e-05         0.746373        -0.63533     -0.000245622     -2.7938e-05
                     0.000544843    -2.23345e-05        -0.233517       0.0315946      0.000256294    -6.86591e-05         0.373534        0.890436
                        0.746266       -0.635225       0.00036334     9.09817e-05        -0.146403     0.000203911     -0.000383257    -1.10989e-05
                    -0.000343804    -4.34053e-05         0.373589        0.890059     -0.000296311    -2.24809e-05        -0.187216        0.143943
281701.1               0.0199523        -0.14144       0.00053009    -6.63586e-05         0.746351       -0.635356     -0.000244142    -2.85551e-05
                     0.000544847    -2.23534e-05        -0.233513       0.0316023       0.00025629    -6.86722e-05         0.373563        0.890425
                        0.746244        -0.63525      0.000363346     9.09631e-05        -0.146404     0.000204731     -0.000381456    -1.30561e-05
                    -0.000343808    -4.33886e-05         0.373618        0.890048     -0.000296307     -2.2463e-05         -0.18721        0.143946
281701.2               0.0199436       -0.141443      0.000530088    -6.63775e-05         0.746329       -0.635381     -0.000243075    -2.90426e-05
                      0.00054485    -2.23723e-05        -0.233509       0.0316099      0.000256285    -6.86854e-05         0.373591        0.890414
                        0.746222       -0.635276      0.000363352     9.09446e-05        -0.146406     0.000205551     -0.000380108    -1.45164e-05
                    -0.000343812    -4.33719e-05         0.373646        0.890037     -0.000296302    -2.24451e-05        -0.187203         0.14395
281701.3               0.0199349       -0.141446      0.000530086    -6.63964e-05         0.746307       -0.635407     -0.000242372    -2.93808e-05
                     0.000544854    -2.23913e-05        -0.233505       0.0316176       0.00025628    -6.86985e-05          0.37362        0.890403
                          0.7462       -0.635301      0.000363358     9.09261e-05        -0.146407     0.000206372      -0.00037919    -1.54955e-05
                    -0.000343817    -4.33552e-05         0.373675        0.890025     -0.000296298    -2.24272e-05        -0.187196        0.143953
281701.4               0.0199262       -0.141449      0.000530084    -6.64153e-05         0.746285       -0.635432     -0.000242005    -2.95582e-05
                     0.000544858    -2.24102e-05        -0.233501       0.0316252      0.000256275    -6.87116e-05         0.373648        0.890391
                        0.746178       -0.635327      0.000363364     9.09075e-05        -0.146409     0.000207193     -0.000378693    -1.60011e-05
                    -0.000343821    -4.33386e-05         0.373703        0.890014     -0.000296293    -2.24093e-05         -0.18719        0.143957
281701.5               0.0199175       -0.141451      0.000530083    -6.64342e-05         0.746263       -0.635458     -0.000241961    -2.95678e-05
                     0.000544862    -2.24291e-05        -0.233496       0.0316329       0.00025627    -6.87247e-05         0.373677         0.89038
                        0.746156       -0.635352       0.00036337      9.0889e-05         -0.14641     0.000208014     -0.000378614    -1.60329e-05
                    -0.000343825    -4.33219e-05         0.373732        0.890003     -0.000296289    -2.23914e-05        -0.187183         0.14396
281701.6               0.0199088       -0.141454      0.000530081    -6.64532e-05         0.746241       -0.635483     -0.000242244    -2.94057e-05
                     0.000544866    -2.24481e-05        -0.233492       0.0316405      0.000256265    -6.87378e-05         0.373705        0.890369
                        0.746134       -0.635378      0.000363376     9.08704e-05        -0.146412     0.000208835     -0.000378961    -1.55828e-05
                     -0.00034383    -4.33052e-05          0.37376        0.889992     -0.000296284    -2.23735e-05        -0.187177        0.143964
281701.7               0.0199002       -0.141457      0.000530079    -6.64721e-05         0.746219       -0.635509     -0.000242876    -2.90713e-05
                     0.000544869     -2.2467e-05        -0.233488       0.0316482       0.00025626     -6.8751e-05         0.373734        0.890358
                        0.746112       -0.635403      0.000363382     9.08519e-05        -0.146414     0.000209656     -0.000379751    -1.46342e-05
                    -0.000343834    -4.32886e-05         0.373789        0.889981      -0.00029628    -2.23556e-05         -0.18717        0.143967
281701.8               0.0198915        -0.14146      0.000530077     -6.6491e-05         0.746197       -0.635534       -0.0002439     -2.8569e-05
                     0.000544873     -2.2486e-05        -0.233484       0.0316558      0.000256255    -6.87641e-05         0.373763        0.890347
                         0.74609       -0.635429      0.000363388     9.08334e-05        -0.146415     0.000210477     -0.000381011    -1.31611e-05
                    -0.000343838    -4.32719e-05         0.373817         0.88997     -0.000296275    -2.23377e-05        -0.187164         0.14397
281701.9               0.0198828       -0.141463      0.000530075    -6.65099e-05         0.746175        -0.63556     -0.000245381    -2.79123e-05
                     0.000544877    -2.25049e-05         -0.23348       0.0316635       0.00025625    -6.87772e-05         0.373791        0.890336
                        0.746068       -0.635454      0.000363394     9.08148e-05        -0.146417     0.000211299     -0.000382781    -1.11272e-05
                    -0.000343843    -4.32552e-05         0.373846        0.889958     -0.000296271    -2.23198e-05        -0.187157        0.143974
281702                 0.0198741       -0.141466      0.000530074    -6.65288e-05         0.746153       -0.635585     -0.000247417    -2.71318e-05
                     0.000544881    -2.25238e-05        -0.233476       0.0316711      0.000256246    -6.87903e-05          0.37382        0.890324
                        0.746046        -0.63548        0.0003634     9.07963e-05        -0.146418      0.00021212     -0.000385119    -8.48358e-06
                    -0.000343847    -4.32386e-05         0.373874        0.889947     -0.000296266    -2.23019e-05         -0.18715        0.143977
281702.1               0.0198654       -0.141469      0.000530072    -6.65477e-05         0.746131       -0.635611      -0.00025014    -2.62905e-05
                     0.000544885    -2.25428e-05        -0.233471       0.0316788      0.000256241    -6.88034e-05         0.373848        0.890313
                        0.746024       -0.635505      0.000363406     9.07777e-05         -0.14642     0.000212942     -0.000388098     -5.1666e-06
                    -0.000343851    -4.32219e-05         0.373903        0.889936     -0.000296262     -2.2284e-05        -0.187144        0.143981
281702.2               0.0198567       -0.141472       0.00053007    -6.65666e-05         0.746109       -0.635636     -0.000253729    -2.55107e-05
                     0.000544888    -2.25617e-05        -0.233467       0.0316864      0.000256236    -6.88165e-05         0.373877        0.890302
                        0.746002        -0.63553      0.000363412     9.07592e-05        -0.146421     0.000213764     -0.000391818     -1.0941e-06
                    -0.000343856    -4.32053e-05         0.373931        0.889925     -0.000296257    -2.22661e-05        -0.187137        0.143984
281702.3                0.019848       -0.141475      0.000530068    -6.65855e-05         0.746087       -0.635662     -0.000258403    -2.50209e-05
                     0.000544892    -2.25807e-05        -0.233463       0.0316941      0.000256231    -6.88297e-05         0.373905        0.890291
                         0.74598       -0.635556      0.000363417     9.07406e-05        -0.146423     0.000214586     -0.000396413     3.83918e-06
                     -0.00034386    -4.31886e-05          0.37396        0.889914     -0.000296253    -2.22483e-05        -0.187131        0.143988
281702.4               0.0198393       -0.141478      0.000530067    -6.66044e-05         0.746065       -0.635687     -0.000264391    -2.52316e-05
                     0.000544896    -2.25997e-05        -0.233459       0.0317017      0.000256226    -6.88428e-05         0.373934         0.89028
                        0.745958       -0.635581      0.000363423     9.07221e-05        -0.146425     0.000215408     -0.000402062     9.76817e-06
                    -0.000343864     -4.3172e-05         0.373988        0.889902     -0.000296248    -2.22304e-05        -0.187124        0.143991
281702.5               0.0198306       -0.141481      0.000530065    -6.66233e-05         0.746043       -0.635713     -0.000271828    -2.68375e-05
                       0.0005449    -2.26186e-05        -0.233455       0.0317094      0.000256221    -6.88559e-05         0.373962        0.890269
                        0.745936       -0.635607      0.000363429     9.07035e-05        -0.146426     0.000216231     -0.000409006     1.68664e-05
                    -0.000343868    -4.31554e-05         0.374017        0.889891     -0.000296244    -2.22125e-05        -0.187117        0.143995
281702.6               0.0198219       -0.141484      0.000530063    -6.66423e-05         0.746021       -0.635738     -0.000280504    -3.08893e-05
                     0.000544903    -2.26376e-05         -0.23345        0.031717      0.000256216     -6.8869e-05         0.373991        0.890258
                        0.745914       -0.635632      0.000363435      9.0685e-05        -0.146428     0.000217053     -0.000417581     2.53585e-05
                    -0.000343873    -4.31387e-05         0.374046         0.88988     -0.000296239    -2.21946e-05        -0.187111        0.143998
281702.7               0.0198132       -0.141487      0.000530061    -6.66612e-05         0.745999       -0.635764     -0.000289404    -3.86315e-05
                     0.000544907    -2.26565e-05        -0.233446       0.0317246      0.000256211    -6.88821e-05          0.37402        0.890246
                        0.745892       -0.635658      0.000363441     9.06665e-05        -0.146429     0.000217876     -0.000428257     3.55372e-05
                    -0.000343877    -4.31221e-05         0.374074        0.889869     -0.000296235    -2.21767e-05        -0.187104        0.144002
281702.8               0.0198045        -0.14149      0.000530059    -6.66801e-05         0.745977       -0.635789     -0.000296311    -5.07443e-05
                     0.000544911    -2.26755e-05        -0.233442       0.0317323      0.000256206    -6.88952e-05         0.374048        0.890235
                         0.74587       -0.635683      0.000363447     9.06479e-05        -0.146431     0.000218699     -0.000441715     4.77865e-05
                    -0.000343881    -4.31055e-05         0.374103        0.889858      -0.00029623    -2.21588e-05        -0.187098        0.144005
281702.9               0.0197958       -0.141493      0.000530058     -6.6699e-05         0.745955       -0.635815     -0.000298369     -6.6044e-05
                     0.000544915    -2.26945e-05        -0.233438       0.0317399      0.000256201    -6.89084e-05         0.374077        0.890224
                        0.745848       -0.635709      0.000363453     9.06294e-05        -0.146432     0.000219522     -0.000458973     6.26128e-05
                    -0.000343885    -4.30888e-05         0.374131        0.889846     -0.000296226     -2.2141e-05        -0.187091        0.144008
281703                 0.0197871       -0.141496      0.000530056    -6.67179e-05         0.745933        -0.63584     -0.000294118    -8.11588e-05
                     0.000544919    -2.27134e-05        -0.233434       0.0317476      0.000256196    -6.89215e-05         0.374105        0.890213
                        0.745826       -0.635734      0.000363459     9.06108e-05        -0.146434     0.000220345     -0.000481603     8.06806e-05
                     -0.00034389    -4.30722e-05          0.37416        0.889835     -0.000296221    -2.21231e-05        -0.187085        0.144012
281703.1               0.0197784       -0.141499      0.000530054    -6.67368e-05         0.745911       -0.635866      -0.00028502    -9.26152e-05
                     0.000544922    -2.27324e-05         -0.23343       0.0317552      0.000256192    -6.89346e-05         0.374134        0.890202
                        0.745804        -0.63576      0.000363465     9.05923e-05        -0.146436     0.000221168     -0.000512155     0.000102837
