! TOUCHSTONE file generated by CST MICROWAVE STUDIO
! Date and time: Wed Oct  8 06:50:35 2025
! Project name: Teste_Macro_Metasurface_Nanopilar.cst
! Parameters = {H=600; L_x=70; L_y=75; Lambda=1064; Max_L=200; Min_L=70; PathPara=1; Phi=0; Step_L=10; Theta=0; p=520; phaseX=180; phaseY=0}
! Header version: 2018
! Port assignment regex: !\s*Touchstone port\s*([0-9]+)\s*=\s*(CST MWS port|CST DS port)\s*([0-9]+|Zmin|Zmax)\s*\(\"(.*)\"\)(\s*mode\s*([0-9]+))?.*
! Touchstone port assignment:
! Touchstone port 1 = CST MWS port Zmax ("") mode 1
! Touchstone port 2 = CST MWS port Zmax ("") mode 2
! Touchstone port 3 = CST MWS port Zmin ("") mode 1
! Touchstone port 4 = CST MWS port Zmin ("") mode 2
! S-Parameters are not renormalized. Each port impedance will be approximated by the real part at minimum frequency. The values are described via the [Reference] keyword.
! Default impedance is overridden by [Reference]
[Version] 2.0
# GHz S RI R 376.73
[Number of Ports] 4
[Reference]
376.73 376.73 376.73 376.73 
[Number of Frequencies] 1001
[Network Data]
281700                  0.114463       0.0913779      0.000645048    -8.74075e-05        -0.984582       0.0936818     -9.95527e-05    -0.000170202
                     0.000449898    -0.000161695         0.110266        0.104565     -6.80193e-05    -0.000118887        -0.985188       0.0625594
                       -0.984253       0.0932971      -0.00020478    -0.000196978       -0.0953449        0.111279     -0.000264121    -0.000197911
                     0.000153622    -0.000225998        -0.986401       0.0629985     -0.000487142     -6.3616e-05       -0.0962448        0.117708
281700.1                0.114464       0.0913719      0.000645047    -8.74218e-05         -0.98458       0.0937077     -9.95754e-05    -0.000170181
                     0.000449893    -0.000161707         0.110268        0.104559     -6.80248e-05    -0.000118889        -0.985187       0.0625854
                       -0.984251        0.093323     -0.000204792    -0.000196965        -0.095341        0.111279     -0.000264135    -0.000197944
                     0.000153611    -0.000225997          -0.9864       0.0630244      -0.00048714    -6.36023e-05       -0.0962406        0.117707
281700.2                0.114464       0.0913659      0.000645047    -8.74361e-05        -0.984579       0.0937337     -9.95982e-05     -0.00017016
                     0.000449889    -0.000161719         0.110269        0.104553     -6.80303e-05    -0.000118891        -0.985186       0.0626113
                       -0.984249        0.093349     -0.000204804    -0.000196953        -0.095337        0.111278      -0.00026415    -0.000197977
                     0.000153601    -0.000225997        -0.986399       0.0630504     -0.000487137    -6.35886e-05       -0.0962363        0.117706
281700.3                0.114465       0.0913599      0.000645046    -8.74504e-05        -0.984577       0.0937597     -9.96209e-05    -0.000170138
                     0.000449885    -0.000161731          0.11027        0.104547     -6.80359e-05    -0.000118893        -0.985185       0.0626373
                       -0.984247       0.0933749     -0.000204816    -0.000196941        -0.095333        0.111277     -0.000264165     -0.00019801
                     0.000153591    -0.000225996        -0.986398       0.0630763     -0.000487135    -6.35748e-05       -0.0962321        0.117706
281700.4                0.114466       0.0913539      0.000645046    -8.74647e-05        -0.984575       0.0937856     -9.96436e-05    -0.000170117
                      0.00044988    -0.000161743         0.110271        0.104541     -6.80414e-05    -0.000118895        -0.985184       0.0626632
                       -0.984245       0.0934008     -0.000204827    -0.000196928        -0.095329        0.111276      -0.00026418    -0.000198043
                     0.000153581    -0.000225996        -0.986396       0.0631023     -0.000487132    -6.35611e-05       -0.0962279        0.117705
281700.5                0.114467       0.0913479      0.000645045     -8.7479e-05        -0.984573       0.0938116     -9.96664e-05    -0.000170095
                     0.000449876    -0.000161754         0.110272        0.104535     -6.80469e-05    -0.000118898        -0.985183       0.0626892
                       -0.984243       0.0934268     -0.000204839    -0.000196916        -0.095325        0.111276     -0.000264195    -0.000198076
                     0.000153571    -0.000225995        -0.986395       0.0631282      -0.00048713    -6.35474e-05       -0.0962236        0.117704
281700.6                0.114467       0.0913419      0.000645044    -8.74932e-05        -0.984571       0.0938375     -9.96891e-05    -0.000170074
                     0.000449871    -0.000161766         0.110274        0.104529     -6.80524e-05      -0.0001189        -0.985181       0.0627151
                       -0.984241       0.0934527     -0.000204851    -0.000196904        -0.095321        0.111275     -0.000264209    -0.000198109
                     0.000153561    -0.000225994        -0.986394       0.0631541     -0.000487127    -6.35336e-05       -0.0962194        0.117704
281700.7                0.114468       0.0913359      0.000645044    -8.75075e-05        -0.984569       0.0938635     -9.97119e-05    -0.000170053
                     0.000449867    -0.000161778         0.110275        0.104523      -6.8058e-05    -0.000118902         -0.98518       0.0627411
                       -0.984239       0.0934786     -0.000204863    -0.000196891        -0.095317        0.111274     -0.000264224    -0.000198142
                      0.00015355    -0.000225994        -0.986393       0.0631801     -0.000487124    -6.35199e-05       -0.0962152        0.117703
281700.8                0.114469       0.0913299      0.000645043    -8.75218e-05        -0.984567       0.0938894     -9.97346e-05    -0.000170031
                     0.000449863     -0.00016179         0.110276        0.104517     -6.80635e-05    -0.000118904        -0.985179        0.062767
                       -0.984237       0.0935046     -0.000204875    -0.000196879        -0.095313        0.111273     -0.000264239    -0.000198175
                      0.00015354    -0.000225993        -0.986392        0.063206     -0.000487122    -6.35062e-05        -0.096211        0.117702
281700.9                 0.11447       0.0913239      0.000645043    -8.75361e-05        -0.984565       0.0939154     -9.97574e-05     -0.00017001
                     0.000449858    -0.000161802         0.110277        0.104511      -6.8069e-05    -0.000118906        -0.985178        0.062793
                       -0.984235       0.0935305     -0.000204887    -0.000196867       -0.0953091        0.111273     -0.000264254    -0.000198208
                      0.00015353    -0.000225993        -0.986391        0.063232     -0.000487119    -6.34925e-05       -0.0962067        0.117702
281701                   0.11447       0.0913179      0.000645042    -8.75504e-05        -0.984563       0.0939414     -9.97801e-05    -0.000169988
                     0.000449854    -0.000161814         0.110278        0.104505     -6.80746e-05    -0.000118908        -0.985177       0.0628189
                       -0.984233       0.0935565     -0.000204899    -0.000196854       -0.0953051        0.111272     -0.000264269    -0.000198241
                      0.00015352    -0.000225992        -0.986389       0.0632579     -0.000487117    -6.34787e-05       -0.0962025        0.117701
281701.1                0.114471       0.0913119      0.000645042    -8.75647e-05        -0.984561       0.0939673     -9.98029e-05    -0.000169967
                     0.000449849    -0.000161826          0.11028        0.104499     -6.80801e-05     -0.00011891        -0.985175       0.0628449
                       -0.984231       0.0935824      -0.00020491    -0.000196842       -0.0953011        0.111271     -0.000264284    -0.000198273
                      0.00015351    -0.000225992        -0.986388       0.0632838     -0.000487114     -6.3465e-05       -0.0961983          0.1177
281701.2                0.114472       0.0913059      0.000645041    -8.75789e-05        -0.984559       0.0939933     -9.98256e-05    -0.000169945
                     0.000449845    -0.000161838         0.110281        0.104493     -6.80856e-05    -0.000118912        -0.985174       0.0628708
                       -0.984229       0.0936083     -0.000204922    -0.000196829       -0.0952971        0.111271     -0.000264299    -0.000198306
                       0.0001535    -0.000225991        -0.986387       0.0633098     -0.000487112    -6.34513e-05        -0.096194        0.117699
281701.3                0.114473       0.0912999       0.00064504    -8.75932e-05        -0.984557       0.0940192     -9.98484e-05    -0.000169924
                     0.000449841     -0.00016185         0.110282        0.104487     -6.80912e-05    -0.000118914        -0.985173       0.0628968
                       -0.984227       0.0936343     -0.000204934    -0.000196817       -0.0952931         0.11127     -0.000264313    -0.000198339
                     0.000153489    -0.000225991        -0.986386       0.0633357     -0.000487109    -6.34375e-05       -0.0961898        0.117699
281701.4                0.114473       0.0912939       0.00064504    -8.76075e-05        -0.984555       0.0940452     -9.98711e-05    -0.000169903
                     0.000449836    -0.000161862         0.110283        0.104481     -6.80967e-05    -0.000118916        -0.985172       0.0629227
                       -0.984225       0.0936602     -0.000204946    -0.000196805       -0.0952891        0.111269     -0.000264328    -0.000198372
                     0.000153479     -0.00022599        -0.986385       0.0633617     -0.000487107    -6.34238e-05       -0.0961856        0.117698
281701.5                0.114474       0.0912879      0.000645039    -8.76218e-05        -0.984553       0.0940711     -9.98939e-05    -0.000169881
                     0.000449832    -0.000161874         0.110284        0.104475     -6.81022e-05    -0.000118919        -0.985171       0.0629487
                       -0.984223       0.0936862     -0.000204958    -0.000196792       -0.0952851        0.111268     -0.000264343    -0.000198405
                     0.000153469     -0.00022599        -0.986384       0.0633876     -0.000487104    -6.34101e-05       -0.0961813        0.117697
281701.6                0.114475       0.0912819      0.000645039    -8.76361e-05        -0.984551       0.0940971     -9.99166e-05     -0.00016986
                     0.000449827    -0.000161886         0.110286        0.104469     -6.81078e-05    -0.000118921        -0.985169       0.0629746
                       -0.984221       0.0937121      -0.00020497     -0.00019678       -0.0952811        0.111268     -0.000264358    -0.000198438
                     0.000153459    -0.000225989        -0.986383       0.0634135     -0.000487102    -6.33963e-05       -0.0961771        0.117697
281701.7                0.114476       0.0912759      0.000645038    -8.76504e-05        -0.984549        0.094123     -9.99394e-05    -0.000169838
                     0.000449823    -0.000161898         0.110287        0.104463     -6.81133e-05    -0.000118923        -0.985168       0.0630006
                       -0.984219        0.093738     -0.000204981    -0.000196768       -0.0952772        0.111267     -0.000264373    -0.000198471
                     0.000153449    -0.000225989        -0.986381       0.0634395     -0.000487099    -6.33826e-05       -0.0961729        0.117696
281701.8                0.114476       0.0912699      0.000645037    -8.76646e-05        -0.984547        0.094149     -9.99622e-05    -0.000169817
                     0.000449819     -0.00016191         0.110288        0.104458     -6.81188e-05    -0.000118925        -0.985167       0.0630265
                       -0.984217        0.093764     -0.000204993    -0.000196755       -0.0952732        0.111266     -0.000264388    -0.000198504
                     0.000153439    -0.000225988         -0.98638       0.0634654     -0.000487096    -6.33689e-05       -0.0961686        0.117695
281701.9                0.114477       0.0912639      0.000645037    -8.76789e-05        -0.984545        0.094175     -9.99849e-05    -0.000169796
                     0.000449814    -0.000161922         0.110289        0.104452     -6.81244e-05    -0.000118927        -0.985166       0.0630525
                       -0.984215       0.0937899     -0.000205005    -0.000196743       -0.0952692        0.111265     -0.000264403    -0.000198537
                     0.000153429    -0.000225988        -0.986379       0.0634914     -0.000487094    -6.33552e-05       -0.0961644        0.117695
281702                  0.114478       0.0912579      0.000645036    -8.76932e-05        -0.984543       0.0942009     -0.000100008    -0.000169774
                      0.00044981    -0.000161934          0.11029        0.104446     -6.81299e-05    -0.000118929        -0.985165       0.0630784
                       -0.984213       0.0938158     -0.000205017    -0.000196731       -0.0952652        0.111265     -0.000264418     -0.00019857
                     0.000153418    -0.000225987        -0.986378       0.0635173     -0.000487091    -6.33414e-05       -0.0961602        0.117694
281702.1                0.114479       0.0912519      0.000645036    -8.77075e-05        -0.984541       0.0942269      -0.00010003    -0.000169753
                     0.000449805    -0.000161946         0.110292         0.10444     -6.81354e-05    -0.000118931        -0.985163       0.0631044
                       -0.984211       0.0938418     -0.000205029    -0.000196718       -0.0952612        0.111264     -0.000264433    -0.000198603
                     0.000153408    -0.000225987        -0.986377       0.0635432     -0.000487089    -6.33277e-05        -0.096156        0.117693
281702.2                0.114479       0.0912459      0.000645035    -8.77218e-05        -0.984539       0.0942528     -0.000100053    -0.000169731
                     0.000449801    -0.000161958         0.110293        0.104434      -6.8141e-05    -0.000118933        -0.985162       0.0631303
                       -0.984209       0.0938677     -0.000205041    -0.000196706       -0.0952572        0.111263     -0.000264447    -0.000198636
                     0.000153398    -0.000225986        -0.986376       0.0635692     -0.000487086     -6.3314e-05       -0.0961517        0.117692
281702.3                 0.11448       0.0912399      0.000645034    -8.77361e-05        -0.984537       0.0942788     -0.000100076     -0.00016971
                     0.000449797     -0.00016197         0.110294        0.104428     -6.81465e-05    -0.000118935        -0.985161       0.0631563
                       -0.984207       0.0938937     -0.000205053    -0.000196693       -0.0952532        0.111262     -0.000264462    -0.000198669
                     0.000153388    -0.000225986        -0.986374       0.0635951     -0.000487084    -6.33002e-05       -0.0961475        0.117692
281702.4                0.114481       0.0912339      0.000645034    -8.77503e-05        -0.984535       0.0943047     -0.000100099    -0.000169689
                     0.000449792    -0.000161982         0.110295        0.104422      -6.8152e-05    -0.000118937         -0.98516       0.0631822
                       -0.984205       0.0939196     -0.000205064    -0.000196681       -0.0952493        0.111262     -0.000264477    -0.000198702
                     0.000153378    -0.000225985        -0.986373       0.0636211     -0.000487081    -6.32865e-05       -0.0961433        0.117691
281702.5                0.114482       0.0912279      0.000645033    -8.77646e-05        -0.984533       0.0943307     -0.000100121    -0.000169667
                     0.000449788    -0.000161994         0.110297        0.104416     -6.81576e-05    -0.000118939        -0.985159       0.0632082
                       -0.984203       0.0939455     -0.000205076    -0.000196669       -0.0952453        0.111261     -0.000264492    -0.000198735
                     0.000153368    -0.000225985        -0.986372        0.063647     -0.000487079    -6.32728e-05        -0.096139         0.11769
281702.6                0.114483       0.0912219      0.000645033    -8.77789e-05        -0.984531       0.0943566     -0.000100144    -0.000169646
                     0.000449783    -0.000162006         0.110298         0.10441     -6.81631e-05    -0.000118941        -0.985157       0.0632341
                       -0.984201       0.0939715     -0.000205088    -0.000196656       -0.0952413         0.11126     -0.000264507    -0.000198768
                     0.000153358    -0.000225984        -0.986371       0.0636729     -0.000487076    -6.32591e-05       -0.0961348         0.11769
281702.7                0.114483       0.0912159      0.000645032    -8.77932e-05        -0.984529       0.0943826     -0.000100167    -0.000169625
                     0.000449779    -0.000162018         0.110299        0.104404     -6.81686e-05    -0.000118944        -0.985156       0.0632601
                       -0.984199       0.0939974       -0.0002051    -0.000196644       -0.0952373        0.111259     -0.000264522    -0.000198801
                     0.000153347    -0.000225983         -0.98637       0.0636989     -0.000487074    -6.32453e-05       -0.0961306        0.117689
281702.8                0.114484       0.0912099      0.000645031    -8.78075e-05        -0.984527       0.0944086      -0.00010019    -0.000169603
                     0.000449775     -0.00016203           0.1103        0.104398     -6.81742e-05    -0.000118946        -0.985155        0.063286
                       -0.984197       0.0940233     -0.000205112    -0.000196631       -0.0952333        0.111259     -0.000264537    -0.000198834
                     0.000153337    -0.000225983        -0.986369       0.0637248     -0.000487071    -6.32316e-05       -0.0961263        0.117688
281702.9                0.114485       0.0912039      0.000645031    -8.78218e-05        -0.984525       0.0944345     -0.000100213    -0.000169582
                      0.00044977    -0.000162042         0.110301        0.104392     -6.81797e-05    -0.000118948        -0.985154        0.063312
                       -0.984195       0.0940493     -0.000205123    -0.000196619       -0.0952293        0.111258     -0.000264552    -0.000198867
                     0.000153327    -0.000225982        -0.986368       0.0637508     -0.000487069    -6.32179e-05       -0.0961221        0.117688
281703                  0.114486       0.0911979       0.00064503     -8.7836e-05        -0.984523       0.0944605     -0.000100235     -0.00016956
                     0.000449766    -0.000162054         0.110303        0.104386     -6.81852e-05     -0.00011895        -0.985153       0.0633379
                       -0.984193       0.0940752     -0.000205135    -0.000196607       -0.0952254        0.111257     -0.000264567      -0.0001989
                     0.000153317    -0.000225982        -0.986366       0.0637767     -0.000487066    -6.32041e-05       -0.0961179        0.117687
281703.1                0.114486       0.0911919       0.00064503    -8.78503e-05        -0.984521       0.0944864     -0.000100258    -0.000169539
                     0.000449761    -0.000162066         0.110304         0.10438     -6.81907e-05    -0.000118952        -0.985151       0.0633639
                       -0.984191       0.0941012     -0.000205147    -0.000196594       -0.0952214        0.111256     -0.000264582    -0.000198933
