! TOUCHSTONE file generated by CST MICROWAVE STUDIO
! Date and time: Wed Oct  8 06:50:43 2025
! Project name: Teste_Macro_Metasurface_Nanopilar.cst
! Parameters = {H=600; L_x=70; L_y=105; Lambda=1064; Max_L=200; Min_L=70; PathPara=1; Phi=0; Step_L=10; Theta=0; p=520; phaseX=180; phaseY=0}
! Header version: 2018
! Port assignment regex: !\s*Touchstone port\s*([0-9]+)\s*=\s*(CST MWS port|CST DS port)\s*([0-9]+|Zmin|Zmax)\s*\(\"(.*)\"\)(\s*mode\s*([0-9]+))?.*
! Touchstone port assignment:
! Touchstone port 1 = CST MWS port Zmax ("") mode 1
! Touchstone port 2 = CST MWS port Zmax ("") mode 2
! Touchstone port 3 = CST MWS port Zmin ("") mode 1
! Touchstone port 4 = CST MWS port Zmin ("") mode 2
! S-Parameters are not renormalized. Each port impedance will be approximated by the real part at minimum frequency. The values are described via the [Reference] keyword.
! Default impedance is overridden by [Reference]
[Version] 2.0
# GHz S RI R 376.73
[Number of Ports] 4
[Reference]
376.73 376.73 376.73 376.73 
[Number of Frequencies] 1001
[Network Data]
281700                 0.0569885       -0.113212      0.000104731      0.00026096        -0.818903        0.557689      5.79504e-05     0.000324184
                     0.000232921     8.96366e-05         0.121534       0.0614235      0.000196945     0.000279943        -0.975992        0.167303
                       -0.818894         0.55791      0.000312812     0.000100642         -0.12667       0.0119106     -9.80645e-06     0.000247487
                     8.84128e-05      0.00028997        -0.976288        0.167397     -0.000101889     0.000273557       -0.0942403       0.0984452
281700.1               0.0569826       -0.113215      0.000104753     0.000260968        -0.818888        0.557711      5.79547e-05     0.000324187
                     0.000232921     8.96418e-05         0.121534       0.0614174      0.000196955     0.000279939        -0.975988        0.167328
                       -0.818879        0.557933      0.000312803     0.000100625        -0.126669       0.0119109     -9.79499e-06     0.000247489
                      8.8421e-05     0.000289964        -0.976284        0.167423      -0.00010188     0.000273562       -0.0942369       0.0984444
281700.2               0.0569768       -0.113218      0.000104776     0.000260975        -0.818873        0.557734       5.7959e-05      0.00032419
                      0.00023292      8.9647e-05         0.121533       0.0614113      0.000196965     0.000279935        -0.975984        0.167354
                       -0.818864        0.557955      0.000312795     0.000100609        -0.126669       0.0119113     -9.78353e-06      0.00024749
                     8.84292e-05     0.000289957         -0.97628        0.167449      -0.00010187     0.000273566       -0.0942334       0.0984435
281700.3               0.0569709       -0.113221      0.000104799     0.000260983        -0.818858        0.557756      5.79633e-05     0.000324193
                     0.000232919     8.96522e-05         0.121533       0.0614052      0.000196975     0.000279931         -0.97598         0.16738
                       -0.818849        0.557977      0.000312786     0.000100593        -0.126669       0.0119116     -9.77207e-06     0.000247492
                     8.84374e-05     0.000289951        -0.976276        0.167475     -0.000101861     0.000273571       -0.0942299       0.0984426
281700.4                0.056965       -0.113224      0.000104822     0.000260991        -0.818843        0.557778      5.79676e-05     0.000324195
                     0.000232919     8.96574e-05         0.121533       0.0613991      0.000196985     0.000279928        -0.975976        0.167406
                       -0.818834        0.557999      0.000312778     0.000100577        -0.126669       0.0119119     -9.76061e-06     0.000247494
                     8.84456e-05     0.000289945        -0.976272          0.1675     -0.000101852     0.000273575       -0.0942265       0.0984417
281700.5               0.0569592       -0.113227      0.000104844     0.000260998        -0.818828          0.5578       5.7972e-05     0.000324198
                     0.000232918     8.96626e-05         0.121532        0.061393      0.000196995     0.000279924        -0.975972        0.167432
                       -0.818819        0.558021      0.000312769     0.000100561        -0.126669       0.0119122     -9.74915e-06     0.000247495
                     8.84537e-05     0.000289939        -0.976268        0.167526     -0.000101843      0.00027358        -0.094223       0.0984408
281700.6               0.0569533        -0.11323      0.000104867     0.000261006        -0.818813        0.557822      5.79763e-05     0.000324201
                     0.000232917     8.96678e-05         0.121532       0.0613869      0.000197004      0.00027992        -0.975968        0.167458
                       -0.818804        0.558044      0.000312761     0.000100545        -0.126669       0.0119125     -9.73769e-06     0.000247497
                     8.84619e-05     0.000289933        -0.976264        0.167552     -0.000101834     0.000273584       -0.0942196       0.0984399
281700.7               0.0569475       -0.113233       0.00010489     0.000261013        -0.818797        0.557845      5.79806e-05     0.000324203
                     0.000232917      8.9673e-05         0.121532       0.0613808      0.000197014     0.000279916        -0.975964        0.167484
                       -0.818788        0.558066      0.000312753     0.000100528        -0.126669       0.0119129     -9.72623e-06     0.000247498
                     8.84701e-05     0.000289927         -0.97626        0.167578     -0.000101825     0.000273589       -0.0942161        0.098439
281700.8               0.0569416       -0.113236      0.000104912     0.000261021        -0.818782        0.557867      5.79849e-05     0.000324206
                     0.000232916     8.96783e-05         0.121532       0.0613747      0.000197024     0.000279912         -0.97596        0.167509
                       -0.818773        0.558088      0.000312744     0.000100512        -0.126669       0.0119132     -9.71477e-06       0.0002475
                     8.84783e-05      0.00028992        -0.976256        0.167604     -0.000101816     0.000273594       -0.0942127       0.0984381
281700.9               0.0569358       -0.113239      0.000104935     0.000261028        -0.818767        0.557889      5.79893e-05     0.000324209
                     0.000232915     8.96835e-05         0.121531       0.0613686      0.000197034     0.000279908        -0.975955        0.167535
                       -0.818758         0.55811      0.000312736     0.000100496        -0.126669       0.0119135     -9.70331e-06     0.000247501
                     8.84865e-05     0.000289914        -0.976252         0.16763     -0.000101807     0.000273598       -0.0942092       0.0984372
281701                 0.0569299       -0.113242      0.000104958     0.000261036        -0.818752        0.557911      5.79936e-05     0.000324212
                     0.000232914     8.96887e-05         0.121531       0.0613624      0.000197044     0.000279904        -0.975951        0.167561
                       -0.818743        0.558132      0.000312727      0.00010048        -0.126669       0.0119138     -9.69185e-06     0.000247503
                     8.84947e-05     0.000289908        -0.976248        0.167656     -0.000101798     0.000273603       -0.0942057       0.0984364
281701.1               0.0569241       -0.113245       0.00010498     0.000261043        -0.818737        0.557933      5.79979e-05     0.000324214
                     0.000232914     8.96939e-05         0.121531       0.0613563      0.000197054     0.000279901        -0.975947        0.167587
                       -0.818728        0.558155      0.000312719     0.000100464        -0.126669       0.0119142      -9.6804e-06     0.000247505
                     8.85028e-05     0.000289902        -0.976244        0.167682     -0.000101788     0.000273607       -0.0942023       0.0984355
281701.2               0.0569182       -0.113248      0.000105003     0.000261051        -0.818722        0.557956      5.80022e-05     0.000324217
                     0.000232913     8.96991e-05          0.12153       0.0613502      0.000197064     0.000279897        -0.975943        0.167613
                       -0.818713        0.558177       0.00031271     0.000100448        -0.126669       0.0119145     -9.66894e-06     0.000247506
                      8.8511e-05     0.000289896         -0.97624        0.167707     -0.000101779     0.000273612       -0.0941988       0.0984346
281701.3               0.0569124       -0.113251      0.000105026     0.000261059        -0.818707        0.557978      5.80066e-05      0.00032422
                     0.000232912     8.97043e-05          0.12153       0.0613441      0.000197074     0.000279893        -0.975939        0.167639
                       -0.818698        0.558199      0.000312702     0.000100431        -0.126669       0.0119148     -9.65748e-06     0.000247508
                     8.85192e-05      0.00028989        -0.976236        0.167733      -0.00010177     0.000273616       -0.0941954       0.0984337
281701.4               0.0569065       -0.113254      0.000105048     0.000261066        -0.818691           0.558      5.80109e-05     0.000324222
                     0.000232912     8.97095e-05          0.12153        0.061338      0.000197084     0.000279889        -0.975935        0.167665
                       -0.818682        0.558221      0.000312694     0.000100415        -0.126669       0.0119151     -9.64603e-06     0.000247509
                     8.85273e-05     0.000289884        -0.976231        0.167759     -0.000101761     0.000273621       -0.0941919       0.0984328
281701.5               0.0569006       -0.113257      0.000105071     0.000261074        -0.818676        0.558022      5.80152e-05     0.000324225
                     0.000232911     8.97147e-05         0.121529       0.0613319      0.000197094     0.000279885        -0.975931         0.16769
                       -0.818667        0.558243      0.000312685     0.000100399        -0.126669       0.0119155     -9.63457e-06     0.000247511
                     8.85355e-05     0.000289877        -0.976227        0.167785     -0.000101752     0.000273625       -0.0941884       0.0984319
281701.6               0.0568948        -0.11326      0.000105094     0.000261081        -0.818661        0.558044      5.80195e-05     0.000324228
                      0.00023291     8.97199e-05         0.121529       0.0613258      0.000197104     0.000279881        -0.975927        0.167716
                       -0.818652        0.558266      0.000312677     0.000100383        -0.126669       0.0119158     -9.62311e-06     0.000247512
                     8.85437e-05     0.000289871        -0.976223        0.167811     -0.000101743      0.00027363        -0.094185        0.098431
281701.7               0.0568889       -0.113263      0.000105116     0.000261089        -0.818646        0.558066      5.80239e-05     0.000324231
                      0.00023291     8.97251e-05         0.121529       0.0613197      0.000197114     0.000279877        -0.975923        0.167742
                       -0.818637        0.558288      0.000312668     0.000100367        -0.126669       0.0119161     -9.61166e-06     0.000247514
                     8.85518e-05     0.000289865        -0.976219        0.167837     -0.000101734     0.000273634       -0.0941815       0.0984301
281701.8               0.0568831       -0.113265      0.000105139     0.000261096        -0.818631        0.558089      5.80282e-05     0.000324233
                     0.000232909     8.97303e-05         0.121528       0.0613136      0.000197124     0.000279874        -0.975919        0.167768
                       -0.818622         0.55831       0.00031266     0.000100351        -0.126669       0.0119164      -9.6002e-06     0.000247515
                       8.856e-05     0.000289859        -0.976215        0.167863     -0.000101725     0.000273639       -0.0941781       0.0984292
281701.9               0.0568772       -0.113268      0.000105161     0.000261104        -0.818616        0.558111      5.80325e-05     0.000324236
                     0.000232908     8.97355e-05         0.121528       0.0613075      0.000197134      0.00027987        -0.975915        0.167794
                       -0.818607        0.558332      0.000312652     0.000100335        -0.126669       0.0119168     -9.58875e-06     0.000247517
                     8.85682e-05     0.000289853        -0.976211        0.167888     -0.000101715     0.000273643       -0.0941746       0.0984283
281702                 0.0568714       -0.113271      0.000105184     0.000261111        -0.818601        0.558133      5.80368e-05     0.000324239
                     0.000232908     8.97407e-05         0.121528       0.0613014      0.000197144     0.000279866        -0.975911         0.16782
                       -0.818592        0.558354      0.000312643     0.000100319        -0.126669       0.0119171     -9.57729e-06     0.000247518
                     8.85763e-05     0.000289847        -0.976207        0.167914     -0.000101706     0.000273648       -0.0941712       0.0984275
281702.1               0.0568655       -0.113274      0.000105207     0.000261119        -0.818586        0.558155      5.80412e-05     0.000324241
                     0.000232907     8.97459e-05         0.121527       0.0612953      0.000197154     0.000279862        -0.975907        0.167846
                       -0.818576        0.558376      0.000312635     0.000100302        -0.126669       0.0119174     -9.56583e-06      0.00024752
                     8.85845e-05      0.00028984        -0.976203         0.16794     -0.000101697     0.000273652       -0.0941677       0.0984266
281702.2               0.0568596       -0.113277      0.000105229     0.000261126         -0.81857        0.558177      5.80455e-05     0.000324244
                     0.000232906     8.97511e-05         0.121527       0.0612891      0.000197164     0.000279858        -0.975903        0.167871
                       -0.818561        0.558399      0.000312626     0.000100286        -0.126669       0.0119177     -9.55438e-06     0.000247522
                     8.85926e-05     0.000289834        -0.976199        0.167966     -0.000101688     0.000273657       -0.0941642       0.0984257
281702.3               0.0568538        -0.11328      0.000105252     0.000261134        -0.818555          0.5582      5.80498e-05     0.000324247
                     0.000232906     8.97563e-05         0.121527        0.061283      0.000197173     0.000279854        -0.975899        0.167897
                       -0.818546        0.558421      0.000312618      0.00010027        -0.126669       0.0119181     -9.54292e-06     0.000247523
                     8.86008e-05     0.000289828        -0.976195        0.167992     -0.000101679     0.000273661       -0.0941608       0.0984248
281702.4               0.0568479       -0.113283      0.000105275     0.000261141         -0.81854        0.558222      5.80541e-05      0.00032425
                     0.000232905     8.97615e-05         0.121527       0.0612769      0.000197183      0.00027985        -0.975895        0.167923
                       -0.818531        0.558443       0.00031261     0.000100254        -0.126669       0.0119184     -9.53147e-06     0.000247525
                      8.8609e-05     0.000289822        -0.976191        0.168018      -0.00010167     0.000273666       -0.0941573       0.0984239
281702.5               0.0568421       -0.113286      0.000105297     0.000261149        -0.818525        0.558244      5.80585e-05     0.000324252
                     0.000232904     8.97667e-05         0.121526       0.0612708      0.000197193     0.000279847        -0.975891        0.167949
                       -0.818516        0.558465      0.000312601     0.000100238        -0.126669       0.0119187     -9.52001e-06     0.000247526
                     8.86171e-05     0.000289816        -0.976187        0.168044     -0.000101661     0.000273671       -0.0941539        0.098423
281702.6               0.0568362       -0.113289       0.00010532     0.000261156         -0.81851        0.558266      5.80628e-05     0.000324255
                     0.000232904     8.97719e-05         0.121526       0.0612647      0.000197203     0.000279843        -0.975887        0.167975
                       -0.818501        0.558487      0.000312593     0.000100222        -0.126669        0.011919     -9.50855e-06     0.000247528
                     8.86252e-05      0.00028981        -0.976183         0.16807     -0.000101652     0.000273675       -0.0941504       0.0984221
281702.7               0.0568304       -0.113292      0.000105343     0.000261164        -0.818495        0.558288      5.80671e-05     0.000324258
                     0.000232903     8.97771e-05         0.121526       0.0612586      0.000197213     0.000279839        -0.975883        0.168001
                       -0.818486         0.55851      0.000312584     0.000100206        -0.126669       0.0119194      -9.4971e-06     0.000247529
                     8.86334e-05     0.000289803        -0.976179        0.168095     -0.000101643      0.00027368        -0.094147       0.0984212
281702.8               0.0568245       -0.113295      0.000105365     0.000261171         -0.81848        0.558311      5.80714e-05     0.000324261
                     0.000232902     8.97824e-05         0.121525       0.0612525      0.000197223     0.000279835        -0.975879        0.168027
                        -0.81847        0.558532      0.000312576      0.00010019        -0.126669       0.0119197     -9.48564e-06     0.000247531
                     8.86415e-05     0.000289797        -0.976175        0.168121     -0.000101633     0.000273684       -0.0941435       0.0984203
281702.9               0.0568186       -0.113298      0.000105388     0.000261179        -0.818464        0.558333      5.80758e-05     0.000324263
                     0.000232901     8.97876e-05         0.121525       0.0612464      0.000197233     0.000279831        -0.975875        0.168053
                       -0.818455        0.558554      0.000312568     0.000100174        -0.126669         0.01192     -9.47418e-06     0.000247532
                     8.86497e-05     0.000289791        -0.976171        0.168147     -0.000101624     0.000273689       -0.0941401       0.0984194
281703                 0.0568128       -0.113301       0.00010541     0.000261186        -0.818449        0.558355      5.80801e-05     0.000324266
                     0.000232901     8.97928e-05         0.121525       0.0612403      0.000197243     0.000279827        -0.975871        0.168078
                        -0.81844        0.558576      0.000312559     0.000100157        -0.126668       0.0119203     -9.46272e-06     0.000247534
                     8.86578e-05     0.000289785        -0.976167        0.168173     -0.000101615     0.000273693       -0.0941366       0.0984185
281703.1               0.0568069       -0.113304      0.000105433     0.000261194        -0.818434        0.558377      5.80844e-05     0.000324269
                       0.0002329      8.9798e-05         0.121524       0.0612342      0.000197253     0.000279823        -0.975867        0.168104
                       -0.818425        0.558598      0.000312551     0.000100141        -0.126668       0.0119207     -9.45126e-06     0.000247535
