! TOUCHSTONE file generated by CST MICROWAVE STUDIO
! Date and time: Wed Oct  8 06:54:56 2025
! Project name: Teste_Macro_Metasurface_Nanopilar.cst
! Parameters = {H=600; L_x=105; L_y=115; Lambda=1064; Max_L=200; Min_L=70; PathPara=1; Phi=0; Step_L=10; Theta=0; p=520; phaseX=180; phaseY=0}
! Header version: 2018
! Port assignment regex: !\s*Touchstone port\s*([0-9]+)\s*=\s*(CST MWS port|CST DS port)\s*([0-9]+|Zmin|Zmax)\s*\(\"(.*)\"\)(\s*mode\s*([0-9]+))?.*
! Touchstone port assignment:
! Touchstone port 1 = CST MWS port Zmax ("") mode 1
! Touchstone port 2 = CST MWS port Zmax ("") mode 2
! Touchstone port 3 = CST MWS port Zmin ("") mode 1
! Touchstone port 4 = CST MWS port Zmin ("") mode 2
! S-Parameters are not renormalized. Each port impedance will be approximated by the real part at minimum frequency. The values are described via the [Reference] keyword.
! Default impedance is overridden by [Reference]
[Version] 2.0
# GHz S RI R 376.73
[Number of Ports] 4
[Reference]
376.73 376.73 376.73 376.73 
[Number of Frequencies] 1001
[Network Data]
281700                 -0.231214        0.120208      0.000108847     0.000442569         0.501928        0.816566     -3.99758e-06     0.000107785
                     0.000130266     0.000444407        -0.233026      -0.0940618     -0.000228482     0.000273424       -0.0330637        0.963375
                        0.502086        0.816069      0.000155743     9.37774e-05        -0.213296         0.15159     -4.12621e-05    -0.000566607
                     0.000121265    -4.61987e-05       -0.0329533        0.962674      5.24167e-05    -0.000506057         -0.23935       0.0782911
281700.1               -0.231207        0.120215      0.000108866     0.000442571         0.501954         0.81655     -3.98522e-06     0.000107786
                     0.000130285     0.000444406        -0.233029      -0.0940533     -0.000226834     0.000269376        -0.033035        0.963376
                        0.502112        0.816053      0.000155751     9.37751e-05        -0.213289        0.151594     -4.12757e-05    -0.000566612
                     0.000121266    -4.62026e-05       -0.0329246        0.962676      5.28374e-05    -0.000505759        -0.239347       0.0782967
281700.2                 -0.2312        0.120221      0.000108884     0.000442573         0.501981        0.816534     -3.97285e-06     0.000107787
                     0.000130303     0.000444405        -0.233031      -0.0940447     -0.000225207     0.000265442       -0.0330063        0.963377
                        0.502139        0.816038      0.000155758     9.37727e-05        -0.213282        0.151599     -4.12894e-05    -0.000566618
                     0.000121266    -4.62065e-05       -0.0328959        0.962677      5.32552e-05    -0.000505458        -0.239344       0.0783022
281700.3               -0.231193        0.120228      0.000108903     0.000442575         0.502008        0.816518     -3.96049e-06     0.000107787
                     0.000130322     0.000444405        -0.233033      -0.0940362     -0.000223602     0.000261615       -0.0329777        0.963379
                        0.502166        0.816022      0.000155765     9.37703e-05        -0.213275        0.151603     -4.13031e-05    -0.000566623
                     0.000121266    -4.62104e-05       -0.0328672        0.962678        5.367e-05    -0.000505155        -0.239341       0.0783078
281700.4               -0.231185        0.120235      0.000108922     0.000442577         0.502035        0.816502     -3.94813e-06     0.000107788
                     0.000130341     0.000444404        -0.233035      -0.0940277     -0.000222018     0.000257893        -0.032949         0.96338
                        0.502193        0.816007      0.000155772      9.3768e-05        -0.213268        0.151607     -4.13167e-05    -0.000566629
                     0.000121266    -4.62144e-05       -0.0328386        0.962679      5.40818e-05     -0.00050485        -0.239338       0.0783133
281700.5               -0.231178        0.120242       0.00010894     0.000442579         0.502061        0.816486     -3.93576e-06     0.000107789
                      0.00013036     0.000444404        -0.233038      -0.0940191     -0.000220457      0.00025427       -0.0329203        0.963381
                         0.50222        0.815991       0.00015578     9.37656e-05        -0.213261        0.151611     -4.13304e-05    -0.000566634
                     0.000121267    -4.62183e-05       -0.0328099        0.962681      5.44906e-05    -0.000504541        -0.239335       0.0783189
281700.6               -0.231171        0.120248      0.000108959     0.000442581         0.502088         0.81647      -3.9234e-06      0.00010779
                     0.000130378     0.000444403         -0.23304      -0.0940106     -0.000218917     0.000250744       -0.0328917        0.963382
                        0.502246        0.815976      0.000155787     9.37632e-05        -0.213254        0.151616     -4.13441e-05     -0.00056664
                     0.000121267    -4.62222e-05       -0.0327812        0.962682      5.48964e-05    -0.000504231        -0.239332       0.0783244
281700.7               -0.231164        0.120255      0.000108977     0.000442583         0.502115        0.816454     -3.91104e-06      0.00010779
                     0.000130397     0.000444402        -0.233042      -0.0940021     -0.000217399     0.000247311        -0.032863        0.963384
                        0.502273         0.81596      0.000155794     9.37609e-05        -0.213248         0.15162     -4.13577e-05    -0.000566645
                     0.000121267    -4.62261e-05       -0.0327526        0.962683      5.52992e-05    -0.000503917        -0.239329       0.0783299
281700.8               -0.231157        0.120262      0.000108996     0.000442585         0.502141        0.816439     -3.89867e-06     0.000107791
                     0.000130416     0.000444402        -0.233044      -0.0939935     -0.000215902     0.000243966       -0.0328343        0.963385
                          0.5023        0.815945      0.000155801     9.37585e-05        -0.213241        0.151624     -4.13714e-05    -0.000566651
                     0.000121268      -4.623e-05       -0.0327239        0.962684      5.56989e-05    -0.000503602        -0.239326       0.0783355
281700.9                -0.23115        0.120269      0.000109014     0.000442587         0.502168        0.816423     -3.88631e-06     0.000107792
                     0.000130435     0.000444401        -0.233046       -0.093985     -0.000214426     0.000240708       -0.0328057        0.963386
                        0.502327        0.815929      0.000155809     9.37562e-05        -0.213234        0.151628     -4.13851e-05    -0.000566656
                     0.000121268    -4.62339e-05       -0.0326952        0.962686      5.60955e-05    -0.000503284        -0.239323        0.078341
281701                 -0.231143        0.120275      0.000109033     0.000442589         0.502195        0.816407     -3.87395e-06     0.000107793
                     0.000130453       0.0004444        -0.233049      -0.0939765     -0.000212971     0.000237532        -0.032777        0.963387
                        0.502354        0.815914      0.000155816     9.37538e-05        -0.213227        0.151633     -4.13988e-05    -0.000566662
                     0.000121268    -4.62379e-05       -0.0326665        0.962687       5.6489e-05    -0.000502964         -0.23932       0.0783466
281701.1               -0.231135        0.120282      0.000109051     0.000442591         0.502221        0.816391     -3.86159e-06     0.000107793
                     0.000130472       0.0004444        -0.233051      -0.0939679     -0.000211538     0.000234436       -0.0327483        0.963389
                         0.50238        0.815898      0.000155823     9.37514e-05         -0.21322        0.151637     -4.14124e-05    -0.000566667
                     0.000121269    -4.62418e-05       -0.0326379        0.962688      5.68793e-05    -0.000502641        -0.239317       0.0783521
281701.2               -0.231128        0.120289       0.00010907     0.000442592         0.502248        0.816375     -3.84922e-06     0.000107794
                     0.000130491     0.000444399        -0.233053      -0.0939594     -0.000210124     0.000231417       -0.0327197         0.96339
                        0.502407        0.815882       0.00015583     9.37491e-05        -0.213213        0.151641     -4.14261e-05    -0.000566673
                     0.000121269    -4.62457e-05       -0.0326092        0.962689      5.72665e-05    -0.000502316        -0.239314       0.0783576
281701.3               -0.231121        0.120296      0.000109088     0.000442594         0.502275        0.816359     -3.83686e-06     0.000107795
                      0.00013051     0.000444398        -0.233055      -0.0939509     -0.000208731     0.000228472        -0.032691        0.963391
                        0.502434        0.815867      0.000155838     9.37467e-05        -0.213206        0.151645     -4.14398e-05    -0.000566678
                     0.000121269    -4.62496e-05       -0.0325805        0.962691      5.76505e-05    -0.000501989        -0.239311       0.0783632
281701.4               -0.231114        0.120302      0.000109107     0.000442596         0.502302        0.816343      -3.8245e-06     0.000107796
                     0.000130528     0.000444398        -0.233058      -0.0939423     -0.000207358     0.000225599       -0.0326623        0.963392
                        0.502461        0.815851      0.000155845     9.37443e-05        -0.213199         0.15165     -4.14535e-05    -0.000566684
                      0.00012127    -4.62535e-05       -0.0325518        0.962692      5.80313e-05     -0.00050166        -0.239308       0.0783687
281701.5               -0.231107        0.120309      0.000109125     0.000442598         0.502328        0.816327     -3.81213e-06     0.000107796
                     0.000130547     0.000444397         -0.23306      -0.0939338     -0.000206005     0.000222795       -0.0326337        0.963393
                        0.502487        0.815836      0.000155852      9.3742e-05        -0.213192        0.151654     -4.14672e-05    -0.000566689
                      0.00012127    -4.62574e-05       -0.0325232        0.962693      5.84089e-05    -0.000501329        -0.239305       0.0783743
281701.6                 -0.2311        0.120316      0.000109144       0.0004426         0.502355        0.816311     -3.79977e-06     0.000107797
                     0.000130566     0.000444397        -0.233062      -0.0939253     -0.000204672     0.000220057        -0.032605        0.963395
                        0.502514         0.81582      0.000155859     9.37396e-05        -0.213185        0.151658     -4.14809e-05    -0.000566695
                      0.00012127    -4.62613e-05       -0.0324945        0.962694      5.87833e-05    -0.000500996        -0.239302       0.0783798
281701.7               -0.231093        0.120323      0.000109162     0.000442602         0.502382        0.816295     -3.78741e-06     0.000107798
                     0.000130585     0.000444396        -0.233064      -0.0939167     -0.000203358     0.000217384       -0.0325763        0.963396
                        0.502541        0.815805      0.000155867     9.37372e-05        -0.213178        0.151662     -4.14945e-05      -0.0005667
                     0.000121271    -4.62653e-05       -0.0324658        0.962695      5.91545e-05    -0.000500661        -0.239299       0.0783853
281701.8               -0.231085        0.120329      0.000109181     0.000442604         0.502408        0.816279     -3.77504e-06     0.000107799
                     0.000130603     0.000444395        -0.233066      -0.0939082     -0.000202063     0.000214774       -0.0325476        0.963397
                        0.502568        0.815789      0.000155874     9.37349e-05        -0.213171        0.151666     -4.15082e-05    -0.000566706
                     0.000121271    -4.62692e-05       -0.0324372        0.962697      5.95223e-05    -0.000500324        -0.239296       0.0783909
281701.9               -0.231078        0.120336      0.000109199     0.000442606         0.502435        0.816263     -3.76268e-06     0.000107799
                     0.000130622     0.000444395        -0.233069      -0.0938997     -0.000200786     0.000212224        -0.032519        0.963398
                        0.502595        0.815774      0.000155881     9.37325e-05        -0.213164        0.151671     -4.15219e-05    -0.000566711
                     0.000121271    -4.62731e-05       -0.0324085        0.962698       5.9887e-05    -0.000499985        -0.239293       0.0783964
281702                 -0.231071        0.120343      0.000109218     0.000442608         0.502462        0.816247     -3.75032e-06       0.0001078
                     0.000130641     0.000444394        -0.233071      -0.0938911     -0.000199528     0.000209731       -0.0324903        0.963399
                        0.502621        0.815758      0.000155888     9.37301e-05        -0.213157        0.151675     -4.15356e-05    -0.000566717
                     0.000121271     -4.6277e-05       -0.0323798        0.962699      6.02483e-05    -0.000499644         -0.23929        0.078402
281702.1               -0.231064         0.12035      0.000109236      0.00044261         0.502489        0.816232     -3.73796e-06     0.000107801
                      0.00013066     0.000444393        -0.233073      -0.0938826     -0.000198288     0.000207296       -0.0324616        0.963401
                        0.502648        0.815743      0.000155896     9.37278e-05         -0.21315        0.151679     -4.15493e-05    -0.000566722
                     0.000121272    -4.62809e-05       -0.0323511          0.9627      6.06063e-05    -0.000499301        -0.239287       0.0784075
281702.2               -0.231057        0.120356      0.000109255     0.000442611         0.502515        0.816216     -3.72559e-06     0.000107802
                     0.000130679     0.000444393        -0.233075      -0.0938741     -0.000197067     0.000204915        -0.032433        0.963402
                        0.502675        0.815727      0.000155903     9.37254e-05        -0.213143        0.151683      -4.1563e-05    -0.000566728
                     0.000121272    -4.62848e-05       -0.0323225        0.962702       6.0961e-05    -0.000498957        -0.239284        0.078413
281702.3                -0.23105        0.120363      0.000109274     0.000442613         0.502542          0.8162     -3.71323e-06     0.000107803
                     0.000130697     0.000444392        -0.233077      -0.0938655     -0.000195862     0.000202586       -0.0324043        0.963403
                        0.502702        0.815712       0.00015591      9.3723e-05        -0.213137        0.151688     -4.15767e-05    -0.000566733
                     0.000121272    -4.62888e-05       -0.0322938        0.962703      6.13124e-05    -0.000498611        -0.239281       0.0784186
281702.4               -0.231043         0.12037      0.000109292     0.000442615         0.502569        0.816184     -3.70087e-06     0.000107803
                     0.000130716     0.000444391         -0.23308       -0.093857     -0.000194676     0.000200309       -0.0323756        0.963404
                        0.502728        0.815696      0.000155917     9.37207e-05         -0.21313        0.151692     -4.15904e-05    -0.000566739
                     0.000121273    -4.62927e-05       -0.0322651        0.962704      6.16604e-05    -0.000498263        -0.239278       0.0784241
281702.5               -0.231035        0.120377      0.000109311     0.000442617         0.502595        0.816168      -3.6885e-06     0.000107804
                     0.000130735     0.000444391        -0.233082      -0.0938485     -0.000193506     0.000198082        -0.032347        0.963406
                        0.502755        0.815681      0.000155925     9.37183e-05        -0.213123        0.151696     -4.16041e-05    -0.000566745
                     0.000121273    -4.62966e-05       -0.0322364        0.962705      6.20051e-05    -0.000497913        -0.239275       0.0784297
281702.6               -0.231028        0.120383      0.000109329     0.000442619         0.502622        0.816152     -3.67614e-06     0.000107805
                     0.000130754      0.00044439        -0.233084      -0.0938399     -0.000192353     0.000195902       -0.0323183        0.963407
                        0.502782        0.815665      0.000155932     9.37159e-05        -0.213116          0.1517     -4.16178e-05     -0.00056675
                     0.000121273    -4.63005e-05       -0.0322078        0.962707      6.23464e-05    -0.000497562        -0.239272       0.0784352
281702.7               -0.231021         0.12039      0.000109348     0.000442621         0.502649        0.816136     -3.66378e-06     0.000107806
                     0.000130772     0.000444389        -0.233086      -0.0938314     -0.000191216     0.000193769       -0.0322896        0.963408
                        0.502809         0.81565      0.000155939     9.37135e-05        -0.213109        0.151705     -4.16315e-05    -0.000566756
                     0.000121274    -4.63044e-05       -0.0321791        0.962708      6.26844e-05    -0.000497209        -0.239268       0.0784407
281702.8               -0.231014        0.120397      0.000109366     0.000442623         0.502675         0.81612     -3.65142e-06     0.000107806
                     0.000130791     0.000444389        -0.233089      -0.0938229     -0.000190096     0.000191681        -0.032261        0.963409
                        0.502836        0.815634      0.000155946     9.37112e-05        -0.213102        0.151709     -4.16453e-05    -0.000566761
                     0.000121274    -4.63083e-05       -0.0321504        0.962709       6.3019e-05    -0.000496855        -0.239265       0.0784463
281702.9               -0.231007        0.120404      0.000109385     0.000442625         0.502702        0.816104     -3.63905e-06     0.000107807
                      0.00013081     0.000444388        -0.233091      -0.0938143     -0.000188992     0.000189637       -0.0322323         0.96341
                        0.502862        0.815619      0.000155954     9.37088e-05        -0.213095        0.151713      -4.1659e-05    -0.000566767
                     0.000121274    -4.63122e-05       -0.0321217         0.96271      6.33502e-05      -0.0004965        -0.239262       0.0784518
281703                    -0.231         0.12041      0.000109403     0.000442627         0.502729        0.816088     -3.62669e-06     0.000107808
                     0.000130829     0.000444387        -0.233093      -0.0938058     -0.000187903     0.000187635       -0.0322036        0.963412
                        0.502889        0.815603      0.000155961     9.37064e-05        -0.213088        0.151717     -4.16727e-05    -0.000566772
                     0.000121274    -4.63161e-05       -0.0320931        0.962711       6.3678e-05    -0.000496143        -0.239259       0.0784574
281703.1               -0.230993        0.120417      0.000109422     0.000442629         0.502756        0.816072     -3.61433e-06     0.000107809
                     0.000130847     0.000444387        -0.233095      -0.0937973      -0.00018683     0.000185674       -0.0321749        0.963413
                        0.502916        0.815588      0.000155968      9.3704e-05        -0.213081        0.151721     -4.16864e-05    -0.000566778
