! TOUCHSTONE file generated by CST MICROWAVE STUDIO
! Date and time: Wed Oct  8 07:02:56 2025
! Project name: Teste_Macro_Metasurface_Nanopilar.cst
! Parameters = {H=600; L_x=170; L_y=170; Lambda=1064; Max_L=200; Min_L=70; PathPara=1; Phi=0; Step_L=10; Theta=0; p=520; phaseX=180; phaseY=0}
! Header version: 2018
! Port assignment regex: !\s*Touchstone port\s*([0-9]+)\s*=\s*(CST MWS port|CST DS port)\s*([0-9]+|Zmin|Zmax)\s*\(\"(.*)\"\)(\s*mode\s*([0-9]+))?.*
! Touchstone port assignment:
! Touchstone port 1 = CST MWS port Zmax ("") mode 1
! Touchstone port 2 = CST MWS port Zmax ("") mode 2
! Touchstone port 3 = CST MWS port Zmin ("") mode 1
! Touchstone port 4 = CST MWS port Zmin ("") mode 2
! S-Parameters are not renormalized. Each port impedance will be approximated by the real part at minimum frequency. The values are described via the [Reference] keyword.
! Default impedance is overridden by [Reference]
[Version] 2.0
# GHz S RI R 376.73
[Number of Ports] 4
[Reference]
376.73 376.73 376.73 376.73 
[Number of Frequencies] 1001
[Network Data]
281700                -0.0114809     -0.00988773      0.000289356     7.61726e-05        -0.985166          -0.147     -6.62117e-05     0.000208842
                      0.00027305      0.00014066       -0.0139798      -0.0109565       5.2972e-06     0.000228333        -0.985174       -0.145226
                       -0.985135       -0.146933     -8.48571e-06     0.000187887         0.010083     -0.00704345     -0.000229902     -4.8046e-06
                    -0.000104013     0.000112015         -0.98537       -0.145304     -0.000117159    -3.04307e-05        0.0127146     -0.00737016
281700.1              -0.0114797     -0.00989361      0.000289349      7.6165e-05        -0.985171        -0.14697     -6.62065e-05     0.000208846
                     0.000273036     0.000140663       -0.0139787      -0.0109624       5.3009e-06     0.000228328        -0.985178       -0.145196
                        -0.98514       -0.146904     -8.47625e-06     0.000187883        0.0100832     -0.00705011     -0.000229887     -4.7874e-06
                    -0.000103998     0.000112016        -0.985375       -0.145274     -0.000117158    -3.04202e-05        0.0127148     -0.00737694
281700.2              -0.0114786      -0.0098995      0.000289341     7.61573e-05        -0.985175       -0.146941     -6.62013e-05      0.00020885
                     0.000273022     0.000140666       -0.0139776      -0.0109683       5.3046e-06     0.000228323        -0.985182       -0.145167
                       -0.985144       -0.146874     -8.46679e-06      0.00018788        0.0100835     -0.00705677     -0.000229873    -4.77021e-06
                    -0.000103982     0.000112016        -0.985379       -0.145245     -0.000117158    -3.04098e-05        0.0127151     -0.00738372
281700.3              -0.0114774     -0.00990538      0.000289334     7.61497e-05        -0.985179       -0.146912      -6.6196e-05     0.000208854
                     0.000273008     0.000140669       -0.0139765      -0.0109741       5.3083e-06     0.000228319        -0.985186       -0.145138
                       -0.985148       -0.146845     -8.45733e-06     0.000187876        0.0100837     -0.00706343     -0.000229858    -4.75302e-06
                    -0.000103967     0.000112017        -0.985383       -0.145216     -0.000117158    -3.03994e-05        0.0127153      -0.0073905
281700.4              -0.0114762     -0.00991126      0.000289326      7.6142e-05        -0.985184       -0.146883     -6.61908e-05     0.000208858
                     0.000272994     0.000140672       -0.0139753        -0.01098        5.312e-06     0.000228314        -0.985191       -0.145108
                       -0.985153       -0.146816     -8.44787e-06     0.000187872        0.0100839     -0.00707008     -0.000229843    -4.73583e-06
                    -0.000103952     0.000112018        -0.985387       -0.145186     -0.000117158     -3.0389e-05        0.0127155     -0.00739728
281700.5              -0.0114751     -0.00991715      0.000289319     7.61343e-05        -0.985188       -0.146853     -6.61856e-05     0.000208863
                      0.00027298     0.000140675       -0.0139742      -0.0109859      5.31569e-06     0.000228309        -0.985195       -0.145079
                       -0.985157       -0.146787     -8.43842e-06     0.000187868        0.0100841     -0.00707674     -0.000229829    -4.71865e-06
                    -0.000103936     0.000112019        -0.985392       -0.145157     -0.000117157    -3.03785e-05        0.0127157     -0.00740406
281700.6              -0.0114739     -0.00992303      0.000289311     7.61266e-05        -0.985192       -0.146824     -6.61804e-05     0.000208867
                     0.000272966     0.000140679       -0.0139731      -0.0109917      5.31938e-06     0.000228305        -0.985199        -0.14505
                       -0.985161       -0.146757     -8.42898e-06     0.000187864        0.0100843      -0.0070834     -0.000229814    -4.70147e-06
                    -0.000103921      0.00011202        -0.985396       -0.145128     -0.000117157    -3.03681e-05        0.0127159     -0.00741084
281700.7              -0.0114728     -0.00992892      0.000289304     7.61189e-05        -0.985197       -0.146795     -6.61751e-05     0.000208871
                     0.000272952     0.000140682        -0.013972      -0.0109976      5.32307e-06       0.0002283        -0.985203        -0.14502
                       -0.985165       -0.146728     -8.41953e-06     0.000187861        0.0100845     -0.00709006       -0.0002298     -4.6843e-06
                    -0.000103905      0.00011202          -0.9854       -0.145099     -0.000117157    -3.03577e-05        0.0127161     -0.00741762
281700.8              -0.0114716      -0.0099348      0.000289297     7.61112e-05        -0.985201       -0.146765     -6.61699e-05     0.000208875
                     0.000272939     0.000140685       -0.0139709      -0.0110035      5.32675e-06     0.000228296        -0.985208       -0.144991
                        -0.98517       -0.146699     -8.41009e-06     0.000187857        0.0100848     -0.00709672     -0.000229785    -4.66713e-06
                     -0.00010389     0.000112021        -0.985404       -0.145069     -0.000117156    -3.03472e-05        0.0127163     -0.00742441
281700.9              -0.0114704     -0.00994069      0.000289289     7.61035e-05        -0.985205       -0.146736     -6.61647e-05     0.000208879
                     0.000272925     0.000140688       -0.0139698      -0.0110093      5.33044e-06     0.000228291        -0.985212       -0.144962
                       -0.985174       -0.146669     -8.40066e-06     0.000187853         0.010085     -0.00710338      -0.00022977    -4.64996e-06
                    -0.000103875     0.000112022        -0.985409        -0.14504     -0.000117156    -3.03368e-05        0.0127166     -0.00743119
281701                -0.0114693     -0.00994657      0.000289282     7.60957e-05         -0.98521       -0.146707     -6.61595e-05     0.000208883
                     0.000272911     0.000140691       -0.0139687      -0.0110152      5.33412e-06     0.000228286        -0.985216       -0.144933
                       -0.985178        -0.14664     -8.39123e-06     0.000187849        0.0100852     -0.00711004     -0.000229756    -4.63279e-06
                    -0.000103859     0.000112023        -0.985413       -0.145011     -0.000117156    -3.03264e-05        0.0127168     -0.00743797
281701.1              -0.0114681     -0.00995246      0.000289274     7.60879e-05        -0.985214       -0.146678     -6.61542e-05     0.000208887
                     0.000272897     0.000140694       -0.0139675      -0.0110211      5.33779e-06     0.000228282         -0.98522       -0.144903
                       -0.985183       -0.146611      -8.3818e-06     0.000187845        0.0100854      -0.0071167     -0.000229741    -4.61563e-06
                    -0.000103844     0.000112023        -0.985417       -0.144981     -0.000117156    -3.03159e-05         0.012717     -0.00744475
281701.2               -0.011467     -0.00995834      0.000289267     7.60801e-05        -0.985218       -0.146648      -6.6149e-05     0.000208891
                     0.000272883     0.000140697       -0.0139664      -0.0110269      5.34147e-06     0.000228277        -0.985225       -0.144874
                       -0.985187       -0.146581     -8.37237e-06     0.000187842        0.0100856     -0.00712335     -0.000229727    -4.59848e-06
                    -0.000103829     0.000112024        -0.985422       -0.144952     -0.000117155    -3.03055e-05        0.0127172     -0.00745153
281701.3              -0.0114658     -0.00996423      0.000289259     7.60723e-05        -0.985223       -0.146619     -6.61438e-05     0.000208895
                     0.000272869       0.0001407       -0.0139653      -0.0110328      5.34514e-06     0.000228272        -0.985229       -0.144845
                       -0.985191       -0.146552     -8.36295e-06     0.000187838        0.0100858     -0.00713001     -0.000229712    -4.58133e-06
                    -0.000103813     0.000112025        -0.985426       -0.144923     -0.000117155    -3.02951e-05        0.0127174     -0.00745831
281701.4              -0.0114647     -0.00997011      0.000289252     7.60645e-05        -0.985227        -0.14659     -6.61386e-05       0.0002089
                     0.000272855     0.000140703       -0.0139642      -0.0110387      5.34881e-06     0.000228268        -0.985233       -0.144815
                       -0.985196       -0.146523     -8.35353e-06     0.000187834         0.010086     -0.00713667     -0.000229698    -4.56418e-06
                    -0.000103798     0.000112026         -0.98543       -0.144893     -0.000117155    -3.02846e-05        0.0127176      -0.0074651
281701.5              -0.0114635       -0.009976      0.000289244     7.60567e-05        -0.985231        -0.14656     -6.61334e-05     0.000208904
                     0.000272841     0.000140707       -0.0139631      -0.0110445      5.35248e-06     0.000228263        -0.985237       -0.144786
                         -0.9852       -0.146494     -8.34412e-06      0.00018783        0.0100862     -0.00714333     -0.000229683    -4.54703e-06
                    -0.000103783     0.000112026        -0.985434       -0.144864     -0.000117154    -3.02742e-05        0.0127178     -0.00747188
281701.6              -0.0114624     -0.00998188      0.000289237     7.60488e-05        -0.985236       -0.146531     -6.61282e-05     0.000208908
                     0.000272827      0.00014071        -0.013962      -0.0110504      5.35614e-06     0.000228259        -0.985242       -0.144757
                       -0.985204       -0.146464     -8.33471e-06     0.000187827        0.0100865     -0.00714999     -0.000229669    -4.52989e-06
                    -0.000103767     0.000112027        -0.985439       -0.144835     -0.000117154    -3.02638e-05         0.012718     -0.00747866
281701.7              -0.0114612     -0.00998777      0.000289229      7.6041e-05         -0.98524       -0.146502      -6.6123e-05     0.000208912
                     0.000272813     0.000140713       -0.0139609      -0.0110563      5.35981e-06     0.000228254        -0.985246       -0.144727
                       -0.985208       -0.146435      -8.3253e-06     0.000187823        0.0100867     -0.00715665     -0.000229654    -4.51275e-06
                    -0.000103752     0.000112028        -0.985443       -0.144806     -0.000117154    -3.02533e-05        0.0127182     -0.00748544
281701.8                -0.01146     -0.00999365      0.000289221     7.60331e-05        -0.985244       -0.146473     -6.61177e-05     0.000208916
                     0.000272799     0.000140716       -0.0139598      -0.0110621      5.36347e-06      0.00022825         -0.98525       -0.144698
                       -0.985213       -0.146406      -8.3159e-06     0.000187819        0.0100869     -0.00716331      -0.00022964    -4.49562e-06
                    -0.000103737     0.000112029        -0.985447       -0.144776     -0.000117154    -3.02429e-05        0.0127185     -0.00749222
281701.9              -0.0114589     -0.00999954      0.000289214     7.60252e-05        -0.985248       -0.146443     -6.61125e-05      0.00020892
                     0.000272785     0.000140719       -0.0139586       -0.011068      5.36712e-06     0.000228245        -0.985254       -0.144669
                       -0.985217       -0.146376      -8.3065e-06     0.000187815        0.0100871     -0.00716997     -0.000229625    -4.47849e-06
                    -0.000103721     0.000112029        -0.985451       -0.144747     -0.000117153    -3.02325e-05        0.0127187       -0.007499
281702                -0.0114577      -0.0100054      0.000289206     7.60173e-05        -0.985253       -0.146414     -6.61073e-05     0.000208924
                     0.000272771     0.000140722       -0.0139575      -0.0110739      5.37078e-06      0.00022824        -0.985259        -0.14464
                       -0.985221       -0.146347     -8.29711e-06     0.000187811        0.0100873     -0.00717663     -0.000229611    -4.46136e-06
                    -0.000103706      0.00011203        -0.985456       -0.144718     -0.000117153     -3.0222e-05        0.0127189     -0.00750578
281702.1              -0.0114566      -0.0100113      0.000289199     7.60094e-05        -0.985257       -0.146385     -6.61021e-05     0.000208929
                     0.000272757     0.000140725       -0.0139564      -0.0110797      5.37443e-06     0.000228236        -0.985263        -0.14461
                       -0.985226       -0.146318     -8.28772e-06     0.000187808        0.0100875     -0.00718328     -0.000229596    -4.44424e-06
                    -0.000103691     0.000112031         -0.98546       -0.144688     -0.000117153    -3.02116e-05        0.0127191     -0.00751257
281702.2              -0.0114554      -0.0100172      0.000289191     7.60014e-05        -0.985261       -0.146355     -6.60969e-05     0.000208933
                     0.000272743     0.000140728       -0.0139553      -0.0110856      5.37808e-06     0.000228231        -0.985267       -0.144581
                        -0.98523       -0.146289     -8.27833e-06     0.000187804        0.0100877     -0.00718994     -0.000229582    -4.42712e-06
                    -0.000103675     0.000112031        -0.985464       -0.144659     -0.000117152    -3.02012e-05        0.0127193     -0.00751935
281702.3              -0.0114543      -0.0100231      0.000289184     7.59934e-05        -0.985266       -0.146326     -6.60917e-05     0.000208937
                     0.000272729     0.000140731       -0.0139542      -0.0110915      5.38172e-06     0.000228227        -0.985271       -0.144552
                       -0.985234       -0.146259     -8.26895e-06       0.0001878        0.0100879      -0.0071966     -0.000229567    -4.41001e-06
                     -0.00010366     0.000112032        -0.985468        -0.14463     -0.000117152    -3.01907e-05        0.0127195     -0.00752613
281702.4              -0.0114531       -0.010029      0.000289176     7.59855e-05         -0.98527       -0.146297     -6.60865e-05     0.000208941
                     0.000272715     0.000140734       -0.0139531      -0.0110973      5.38536e-06     0.000228222        -0.985276       -0.144522
                       -0.985238        -0.14623     -8.25957e-06     0.000187796        0.0100881     -0.00720326     -0.000229553     -4.3929e-06
                    -0.000103645     0.000112033        -0.985473         -0.1446     -0.000117152    -3.01803e-05        0.0127197     -0.00753291
281702.5               -0.011452      -0.0100349      0.000289169     7.59775e-05        -0.985274       -0.146267     -6.60813e-05     0.000208945
                     0.000272702     0.000140738        -0.013952      -0.0111032        5.389e-06     0.000228218         -0.98528       -0.144493
                       -0.985243       -0.146201     -8.25019e-06     0.000187793        0.0100883     -0.00720992     -0.000229539    -4.37579e-06
                     -0.00010363     0.000112034        -0.985477       -0.144571     -0.000117151    -3.01698e-05        0.0127199     -0.00753969
281702.6              -0.0114508      -0.0100407      0.000289161     7.59695e-05        -0.985279       -0.146238     -6.60761e-05     0.000208949
                     0.000272688     0.000140741       -0.0139509      -0.0111091      5.39264e-06     0.000228213        -0.985284       -0.144464
                       -0.985247       -0.146171     -8.24082e-06     0.000187789        0.0100886     -0.00721658     -0.000229524    -4.35869e-06
                    -0.000103614     0.000112034        -0.985481       -0.144542     -0.000117151    -3.01594e-05        0.0127201     -0.00754647
281702.7              -0.0114497      -0.0100466      0.000289154     7.59614e-05        -0.985283       -0.146209     -6.60709e-05     0.000208953
                     0.000272674     0.000140744       -0.0139498      -0.0111149      5.39628e-06     0.000228209        -0.985288       -0.144434
                       -0.985251       -0.146142     -8.23145e-06     0.000187785        0.0100888     -0.00722324      -0.00022951    -4.34159e-06
                    -0.000103599     0.000112035        -0.985485       -0.144512     -0.000117151    -3.01489e-05        0.0127203     -0.00755326
281702.8              -0.0114485      -0.0100525      0.000289146     7.59534e-05        -0.985287        -0.14618     -6.60657e-05     0.000208958
                      0.00027266     0.000140747       -0.0139487      -0.0111208      5.39991e-06     0.000228204        -0.985293       -0.144405
                       -0.985256       -0.146113     -8.22209e-06     0.000187781         0.010089      -0.0072299     -0.000229495    -4.32449e-06
                    -0.000103584     0.000112036         -0.98549       -0.144483     -0.000117151    -3.01385e-05        0.0127205     -0.00756004
281702.9              -0.0114474      -0.0100584      0.000289139     7.59453e-05        -0.985291        -0.14615     -6.60606e-05     0.000208962
                     0.000272646      0.00014075       -0.0139476      -0.0111267      5.40354e-06       0.0002282        -0.985297       -0.144376
                        -0.98526       -0.146083     -8.21273e-06     0.000187777        0.0100892     -0.00723656     -0.000229481     -4.3074e-06
                    -0.000103569     0.000112036        -0.985494       -0.144454      -0.00011715    -3.01281e-05        0.0127207     -0.00756682
281703                -0.0114462      -0.0100643      0.000289131     7.59372e-05        -0.985296       -0.146121     -6.60554e-05     0.000208966
                     0.000272632     0.000140753       -0.0139464      -0.0111325      5.40716e-06     0.000228195        -0.985301       -0.144346
                       -0.985264       -0.146054     -8.20337e-06     0.000187774        0.0100894     -0.00724322     -0.000229467    -4.29031e-06
                    -0.000103553     0.000112037        -0.985498       -0.144424      -0.00011715    -3.01176e-05        0.0127209      -0.0075736
281703.1              -0.0114451      -0.0100702      0.000289123     7.59291e-05          -0.9853       -0.146092     -6.60502e-05      0.00020897
                     0.000272618     0.000140756       -0.0139453      -0.0111384      5.41079e-06      0.00022819        -0.985305       -0.144317
                       -0.985268       -0.146025     -8.19402e-06      0.00018777        0.0100896     -0.00724988     -0.000229452    -4.27323e-06
