! TOUCHSTONE file generated by CST MICROWAVE STUDIO
! Date and time: Wed Oct  8 06:54:24 2025
! Project name: Teste_Macro_Metasurface_Nanopilar.cst
! Parameters = {H=600; L_x=100; L_y=130; Lambda=1064; Max_L=200; Min_L=70; PathPara=1; Phi=0; Step_L=10; Theta=0; p=520; phaseX=180; phaseY=0}
! Header version: 2018
! Port assignment regex: !\s*Touchstone port\s*([0-9]+)\s*=\s*(CST MWS port|CST DS port)\s*([0-9]+|Zmin|Zmax)\s*\(\"(.*)\"\)(\s*mode\s*([0-9]+))?.*
! Touchstone port assignment:
! Touchstone port 1 = CST MWS port Zmax ("") mode 1
! Touchstone port 2 = CST MWS port Zmax ("") mode 2
! Touchstone port 3 = CST MWS port Zmin ("") mode 1
! Touchstone port 4 = CST MWS port Zmin ("") mode 2
! S-Parameters are not renormalized. Each port impedance will be approximated by the real part at minimum frequency. The values are described via the [Reference] keyword.
! Default impedance is overridden by [Reference]
[Version] 2.0
# GHz S RI R 376.73
[Number of Ports] 4
[Reference]
376.73 376.73 376.73 376.73 
[Number of Frequencies] 1001
[Network Data]
281700                 0.0898564      -0.0555377     -0.000889124    -0.000252029         0.905324       -0.385441     -0.000128114     0.000365423
                    -0.000393427    -0.000166287        -0.207836       -0.110922     -0.000327879     0.000205057       -0.0890706        0.963532
                        0.905431       -0.385594     -0.000666221     0.000298878        -0.107237       0.0288801      0.000331775     0.000344402
                    -0.000224639     0.000281783       -0.0890047        0.963812      0.000269642     0.000516957        -0.224917       0.0713192
281700.1               0.0898512      -0.0555454      -0.00088915    -0.000251987         0.905311       -0.385473     -0.000128099     0.000365425
                    -0.000393431    -0.000166273        -0.207839       -0.110914     -0.000327867     0.000205083       -0.0890421        0.963535
                        0.905418       -0.385626     -0.000666237     0.000298904        -0.107237       0.0288783      0.000331786     0.000344391
                    -0.000224627     0.000281801       -0.0889762        0.963815      0.000269676     0.000516929        -0.224914       0.0713242
281700.2                0.089846      -0.0555531     -0.000889176    -0.000251946         0.905297       -0.385505     -0.000128084     0.000365428
                    -0.000393435     -0.00016626        -0.207842       -0.110906     -0.000327856     0.000205108       -0.0890136        0.963538
                        0.905404       -0.385658     -0.000666253      0.00029893        -0.107237       0.0288766      0.000331796     0.000344379
                    -0.000224615     0.000281819       -0.0889477        0.963818       0.00026971     0.000516901        -0.224911       0.0713293
281700.3               0.0898409      -0.0555607     -0.000889202    -0.000251905         0.905284       -0.385537     -0.000128069      0.00036543
                    -0.000393439    -0.000166247        -0.207845       -0.110899     -0.000327844     0.000205134       -0.0889852        0.963541
                        0.905391        -0.38569     -0.000666269     0.000298955        -0.107237       0.0288749      0.000331807     0.000344368
                    -0.000224602     0.000281837       -0.0889192        0.963821      0.000269745     0.000516874        -0.224908       0.0713343
281700.4               0.0898357      -0.0555684     -0.000889228    -0.000251864          0.90527       -0.385568     -0.000128054     0.000365432
                    -0.000393443    -0.000166234        -0.207848       -0.110891     -0.000327832      0.00020516       -0.0889567        0.963544
                        0.905377       -0.385721     -0.000666285     0.000298981        -0.107237       0.0288732      0.000331818     0.000344356
                     -0.00022459     0.000281855       -0.0888907        0.963824      0.000269779     0.000516846        -0.224906       0.0713393
281700.5               0.0898305       -0.055576     -0.000889254    -0.000251822         0.905257         -0.3856     -0.000128038     0.000365435
                    -0.000393447    -0.000166221        -0.207851       -0.110883      -0.00032782     0.000205185       -0.0889282        0.963547
                        0.905364       -0.385753     -0.000666301     0.000299007        -0.107237       0.0288715      0.000331828     0.000344345
                    -0.000224577     0.000281873       -0.0888622        0.963827      0.000269814     0.000516818        -0.224903       0.0713444
281700.6               0.0898254      -0.0555837      -0.00088928    -0.000251781         0.905243       -0.385632     -0.000128023     0.000365437
                    -0.000393451    -0.000166207        -0.207854       -0.110875     -0.000327809     0.000205211       -0.0888998         0.96355
                         0.90535       -0.385785     -0.000666317     0.000299033        -0.107237       0.0288698      0.000331839     0.000344334
                    -0.000224565     0.000281891       -0.0888338         0.96383      0.000269848      0.00051679          -0.2249       0.0713494
281700.7               0.0898202      -0.0555914     -0.000889306     -0.00025174          0.90523       -0.385664     -0.000128008     0.000365439
                    -0.000393455    -0.000166194        -0.207856       -0.110867     -0.000327797     0.000205237       -0.0888713        0.963553
                        0.905337       -0.385817     -0.000666333     0.000299059        -0.107237       0.0288681       0.00033185     0.000344322
                    -0.000224553     0.000281909       -0.0888053        0.963833      0.000269882     0.000516762        -0.224897       0.0713544
281700.8                0.089815       -0.055599     -0.000889332    -0.000251699         0.905216       -0.385696     -0.000127993     0.000365442
                    -0.000393459    -0.000166181        -0.207859       -0.110859     -0.000327785     0.000205262       -0.0888428        0.963556
                        0.905323       -0.385849     -0.000666349     0.000299085        -0.107237       0.0288664       0.00033186     0.000344311
                     -0.00022454     0.000281927       -0.0887768        0.963835      0.000269917     0.000516735        -0.224894       0.0713594
281700.9               0.0898099      -0.0556067     -0.000889358    -0.000251657         0.905202       -0.385728     -0.000127978     0.000365444
                    -0.000393463    -0.000166168        -0.207862       -0.110852     -0.000327773     0.000205288       -0.0888144        0.963558
                         0.90531       -0.385881     -0.000666365     0.000299111        -0.107237       0.0288647      0.000331871     0.000344299
                    -0.000224528     0.000281945       -0.0887483        0.963838      0.000269951     0.000516707        -0.224891       0.0713645
281701                 0.0898047      -0.0556143     -0.000889384    -0.000251616         0.905189       -0.385759     -0.000127963     0.000365446
                    -0.000393467    -0.000166154        -0.207865       -0.110844     -0.000327762     0.000205314       -0.0887859        0.963561
                        0.905296       -0.385913     -0.000666381     0.000299137        -0.107237        0.028863      0.000331882     0.000344288
                    -0.000224515     0.000281963       -0.0887198        0.963841      0.000269985     0.000516679        -0.224888       0.0713695
281701.1               0.0897995       -0.055622      -0.00088941    -0.000251575         0.905175       -0.385791     -0.000127948     0.000365449
                    -0.000393471    -0.000166141        -0.207868       -0.110836      -0.00032775     0.000205339       -0.0887574        0.963564
                        0.905283       -0.385944     -0.000666397     0.000299163        -0.107237       0.0288613      0.000331892     0.000344276
                    -0.000224503     0.000281981       -0.0886913        0.963844       0.00027002     0.000516651        -0.224886       0.0713745
281701.2               0.0897943      -0.0556296     -0.000889436    -0.000251534         0.905162       -0.385823     -0.000127933     0.000365451
                    -0.000393475    -0.000166128        -0.207871       -0.110828     -0.000327738     0.000205365        -0.088729        0.963567
                        0.905269       -0.385976     -0.000666413     0.000299189        -0.107237       0.0288595      0.000331903     0.000344265
                    -0.000224491     0.000281999       -0.0886628        0.963847      0.000270054     0.000516623        -0.224883       0.0713796
281701.3               0.0897892      -0.0556373     -0.000889462    -0.000251492         0.905148       -0.385855     -0.000127918     0.000365453
                    -0.000393479    -0.000166115        -0.207873        -0.11082     -0.000327726     0.000205391       -0.0887005         0.96357
                        0.905255       -0.386008     -0.000666429     0.000299215        -0.107237       0.0288578      0.000331914     0.000344254
                    -0.000224478     0.000282017       -0.0886344         0.96385      0.000270089     0.000516595         -0.22488       0.0713846
281701.4                0.089784      -0.0556449     -0.000889488    -0.000251451         0.905135       -0.385887     -0.000127903     0.000365456
                    -0.000393483    -0.000166101        -0.207876       -0.110812     -0.000327715     0.000205416        -0.088672        0.963573
                        0.905242        -0.38604     -0.000666444     0.000299241        -0.107237       0.0288561      0.000331925     0.000344242
                    -0.000224466     0.000282035       -0.0886059        0.963853      0.000270123     0.000516568        -0.224877       0.0713896
281701.5               0.0897788      -0.0556526     -0.000889514     -0.00025141         0.905121       -0.385919     -0.000127888     0.000365458
                    -0.000393487    -0.000166088        -0.207879       -0.110805     -0.000327703     0.000205442       -0.0886436        0.963576
                        0.905228       -0.386072      -0.00066646     0.000299267        -0.107237       0.0288544      0.000331935     0.000344231
                    -0.000224453     0.000282052       -0.0885774        0.963856      0.000270157      0.00051654        -0.224874       0.0713947
281701.6               0.0897736      -0.0556602      -0.00088954    -0.000251369         0.905108        -0.38595     -0.000127873      0.00036546
                    -0.000393491    -0.000166075        -0.207882       -0.110797     -0.000327691     0.000205468       -0.0886151        0.963579
                        0.905215       -0.386104     -0.000666476     0.000299293        -0.107237       0.0288527      0.000331946     0.000344219
                    -0.000224441      0.00028207       -0.0885489        0.963859      0.000270192     0.000516512        -0.224871       0.0713997
281701.7               0.0897685      -0.0556679     -0.000889566    -0.000251327         0.905094       -0.385982     -0.000127858     0.000365463
                    -0.000393495    -0.000166062        -0.207885       -0.110789     -0.000327679     0.000205493       -0.0885867        0.963582
                        0.905201       -0.386136     -0.000666492     0.000299318        -0.107237        0.028851      0.000331957     0.000344208
                    -0.000224429     0.000282088       -0.0885204        0.963862      0.000270226     0.000516484        -0.224868       0.0714047
281701.8               0.0897633      -0.0556756     -0.000889592    -0.000251286         0.905081       -0.386014     -0.000127843     0.000365465
                    -0.000393499    -0.000166049        -0.207888       -0.110781     -0.000327668     0.000205519       -0.0885582        0.963584
                        0.905188       -0.386167     -0.000666508     0.000299344        -0.107236       0.0288493      0.000331967     0.000344196
                    -0.000224416     0.000282106       -0.0884919        0.963864      0.000270261     0.000516456        -0.224866       0.0714097
281701.9               0.0897581      -0.0556832     -0.000889618    -0.000251245         0.905067       -0.386046     -0.000127828     0.000365467
                    -0.000393503    -0.000166035         -0.20789       -0.110773     -0.000327656     0.000205545       -0.0885297        0.963587
                        0.905174       -0.386199     -0.000666524      0.00029937        -0.107236       0.0288476      0.000331978     0.000344185
                    -0.000224404     0.000282124       -0.0884635        0.963867      0.000270295     0.000516428        -0.224863       0.0714148
281702                 0.0897529      -0.0556909     -0.000889644    -0.000251203         0.905054       -0.386078     -0.000127813     0.000365469
                    -0.000393507    -0.000166022        -0.207893       -0.110765     -0.000327644      0.00020557       -0.0885013         0.96359
                        0.905161       -0.386231      -0.00066654     0.000299396        -0.107236       0.0288459      0.000331989     0.000344173
                    -0.000224391     0.000282142        -0.088435         0.96387      0.000270329       0.0005164         -0.22486       0.0714198
281702.1               0.0897478      -0.0556985      -0.00088967    -0.000251162          0.90504        -0.38611     -0.000127798     0.000365472
                    -0.000393512    -0.000166009        -0.207896       -0.110757     -0.000327632     0.000205596       -0.0884728        0.963593
                        0.905147       -0.386263     -0.000666556     0.000299422        -0.107236       0.0288442      0.000331999     0.000344162
                    -0.000224379      0.00028216       -0.0884065        0.963873      0.000270364     0.000516373        -0.224857       0.0714248
281702.2               0.0897426      -0.0557062     -0.000889696    -0.000251121         0.905026       -0.386141     -0.000127783     0.000365474
                    -0.000393516    -0.000165996        -0.207899        -0.11075      -0.00032762     0.000205622       -0.0884443        0.963596
                        0.905134       -0.386295     -0.000666572     0.000299448        -0.107236       0.0288425       0.00033201     0.000344151
                    -0.000224366     0.000282178        -0.088378        0.963876      0.000270398     0.000516345        -0.224854       0.0714299
281702.3               0.0897374      -0.0557138     -0.000889722     -0.00025108         0.905013       -0.386173     -0.000127768     0.000365476
                     -0.00039352    -0.000165982        -0.207902       -0.110742     -0.000327609     0.000205647       -0.0884159        0.963599
                         0.90512       -0.386327     -0.000666588     0.000299474        -0.107236       0.0288407      0.000332021     0.000344139
                    -0.000224354     0.000282196       -0.0883495        0.963879      0.000270433     0.000516317        -0.224851       0.0714349
281702.4               0.0897322      -0.0557215     -0.000889748    -0.000251038         0.904999       -0.386205     -0.000127753     0.000365479
                    -0.000393524    -0.000165969        -0.207904       -0.110734     -0.000327597     0.000205673       -0.0883874        0.963602
                        0.905107       -0.386358     -0.000666604       0.0002995        -0.107236        0.028839      0.000332031     0.000344128
                    -0.000224342     0.000282214        -0.088321        0.963882      0.000270467     0.000516289        -0.224848       0.0714399
281702.5               0.0897271      -0.0557291     -0.000889774    -0.000250997         0.904986       -0.386237     -0.000127738     0.000365481
                    -0.000393528    -0.000165956        -0.207907       -0.110726     -0.000327585     0.000205699       -0.0883589        0.963605
                        0.905093        -0.38639      -0.00066662     0.000299526        -0.107236       0.0288373      0.000332042     0.000344116
                    -0.000224329     0.000282232       -0.0882925        0.963885      0.000270502     0.000516261        -0.224846        0.071445
281702.6               0.0897219      -0.0557368       -0.0008898    -0.000250956         0.904972       -0.386269     -0.000127722     0.000365483
                    -0.000393532    -0.000165943         -0.20791       -0.110718     -0.000327573     0.000205724       -0.0883305        0.963608
                         0.90508       -0.386422     -0.000666636     0.000299552        -0.107236       0.0288356      0.000332053     0.000344105
                    -0.000224317      0.00028225       -0.0882641        0.963888      0.000270536     0.000516233        -0.224843         0.07145
281702.7               0.0897167      -0.0557444     -0.000889826    -0.000250914         0.904959       -0.386301     -0.000127707     0.000365486
                    -0.000393536    -0.000165929        -0.207913        -0.11071     -0.000327561      0.00020575        -0.088302         0.96361
                        0.905066       -0.386454     -0.000666651     0.000299578        -0.107236       0.0288339      0.000332063     0.000344093
                    -0.000224304     0.000282267       -0.0882356         0.96389       0.00027057     0.000516205         -0.22484        0.071455
281702.8               0.0897115      -0.0557521     -0.000889852    -0.000250873         0.904945       -0.386332     -0.000127692     0.000365488
                     -0.00039354    -0.000165916        -0.207916       -0.110703      -0.00032755     0.000205776       -0.0882735        0.963613
                        0.905053       -0.386486     -0.000666667     0.000299604        -0.107236       0.0288322      0.000332074     0.000344082
                    -0.000224292     0.000282285       -0.0882071        0.963893      0.000270605     0.000516177        -0.224837         0.07146
281702.9               0.0897063      -0.0557597     -0.000889878    -0.000250832         0.904932       -0.386364     -0.000127677      0.00036549
                    -0.000393544    -0.000165903        -0.207919       -0.110695     -0.000327538     0.000205802        -0.088245        0.963616
                        0.905039       -0.386518     -0.000666683      0.00029963        -0.107236       0.0288305      0.000332085      0.00034407
                    -0.000224279     0.000282303       -0.0881786        0.963896      0.000270639      0.00051615        -0.224834       0.0714651
281703                 0.0897012      -0.0557674     -0.000889904    -0.000250791         0.904918       -0.386396     -0.000127662     0.000365493
                    -0.000393548     -0.00016589        -0.207921       -0.110687     -0.000327526     0.000205827       -0.0882166        0.963619
                        0.905026       -0.386549     -0.000666699     0.000299656        -0.107236       0.0288288      0.000332095     0.000344059
                    -0.000224267     0.000282321       -0.0881501        0.963899      0.000270674     0.000516122        -0.224831       0.0714701
281703.1                0.089696       -0.055775      -0.00088993    -0.000250749         0.904904       -0.386428     -0.000127647     0.000365495
                    -0.000393552    -0.000165876        -0.207924       -0.110679     -0.000327514     0.000205853       -0.0881881        0.963622
                        0.905012       -0.386581     -0.000666715     0.000299682        -0.107236       0.0288271      0.000332106     0.000344048
