! TOUCHSTONE file generated by CST MICROWAVE STUDIO
! Date and time: Wed Oct  8 07:01:10 2025
! Project name: Teste_Macro_Metasurface_Nanopilar.cst
! Parameters = {H=600; L_x=155; L_y=175; Lambda=1064; Max_L=200; Min_L=70; PathPara=1; Phi=0; Step_L=10; Theta=0; p=520; phaseX=180; phaseY=0}
! Header version: 2018
! Port assignment regex: !\s*Touchstone port\s*([0-9]+)\s*=\s*(CST MWS port|CST DS port)\s*([0-9]+|Zmin|Zmax)\s*\(\"(.*)\"\)(\s*mode\s*([0-9]+))?.*
! Touchstone port assignment:
! Touchstone port 1 = CST MWS port Zmax ("") mode 1
! Touchstone port 2 = CST MWS port Zmax ("") mode 2
! Touchstone port 3 = CST MWS port Zmin ("") mode 1
! Touchstone port 4 = CST MWS port Zmin ("") mode 2
! S-Parameters are not renormalized. Each port impedance will be approximated by the real part at minimum frequency. The values are described via the [Reference] keyword.
! Default impedance is overridden by [Reference]
[Version] 2.0
# GHz S RI R 376.73
[Number of Ports] 4
[Reference]
376.73 376.73 376.73 376.73 
[Number of Frequencies] 1001
[Network Data]
281700                 -0.011232       0.0182401      5.01687e-05    -0.000856658        -0.977712       -0.189339     -0.000647234     0.000974217
                     0.000132582    -0.000812868       -0.0494251        0.117514     -0.000529163     0.000948194        -0.895334       -0.416426
                       -0.977538       -0.189571     -0.000265161     0.000849457     -0.000596115        0.019495      0.000410871    -0.000797424
                    -0.000347611     0.000832593        -0.895367       -0.416525       0.00032382     -0.00087749       -0.0619198        0.110802
281700.1              -0.0112299       0.0182342      5.01729e-05     -0.00085663        -0.977719        -0.18931     -0.000647406     0.000973832
                      0.00013252    -0.000812803       -0.0494191         0.11751     -0.000529068     0.000948237        -0.895347         -0.4164
                       -0.977544       -0.189542     -0.000265133     0.000849469      -0.00059437       0.0194884      0.000410953    -0.000797364
                    -0.000347572     0.000832599         -0.89538       -0.416499      0.000323612    -0.000877569       -0.0619139        0.110798
281700.2              -0.0112278       0.0182284      5.01771e-05    -0.000856601        -0.977725       -0.189281     -0.000647578     0.000973447
                     0.000132457    -0.000812738       -0.0494132        0.117506     -0.000528974      0.00094828        -0.895361       -0.416375
                        -0.97755       -0.189513     -0.000265105     0.000849482     -0.000592625       0.0194818      0.000411036    -0.000797304
                    -0.000347532     0.000832605        -0.895393       -0.416472      0.000323404    -0.000877648        -0.061908        0.110795
281700.3              -0.0112257       0.0182226      5.01814e-05    -0.000856573        -0.977731       -0.189252      -0.00064775     0.000973061
                     0.000132395    -0.000812672       -0.0494072        0.117502     -0.000528878     0.000948324        -0.895374       -0.416349
                       -0.977556       -0.189484     -0.000265077     0.000849494     -0.000590882       0.0194752      0.000411119    -0.000797243
                    -0.000347493     0.000832612        -0.895407       -0.416446      0.000323196    -0.000877727       -0.0619021        0.110791
281700.4              -0.0112237       0.0182167      5.01857e-05    -0.000856545        -0.977737       -0.189223     -0.000647922     0.000972676
                     0.000132333    -0.000812607       -0.0494012        0.117498     -0.000528783     0.000948367        -0.895388       -0.416323
                       -0.977562       -0.189455     -0.000265049     0.000849506      -0.00058914       0.0194685      0.000411202    -0.000797183
                    -0.000347454     0.000832618         -0.89542        -0.41642      0.000322987    -0.000877805       -0.0618963        0.110788
281700.5              -0.0112216       0.0182109        5.019e-05    -0.000856517        -0.977744       -0.189194     -0.000648093      0.00097229
                     0.000132271    -0.000812541       -0.0493953        0.117494     -0.000528687      0.00094841        -0.895401       -0.416297
                       -0.977567       -0.189425     -0.000265022     0.000849519     -0.000587399       0.0194619      0.000411285    -0.000797123
                    -0.000347415     0.000832624        -0.895433       -0.416393      0.000322779    -0.000877884       -0.0618904        0.110784
281700.6              -0.0112195       0.0182051      5.01943e-05    -0.000856489         -0.97775       -0.189165     -0.000648264     0.000971905
                     0.000132209    -0.000812475       -0.0493893         0.11749     -0.000528591     0.000948453        -0.895415       -0.416271
                       -0.977573       -0.189396     -0.000264994     0.000849531     -0.000585659       0.0194553      0.000411367    -0.000797063
                    -0.000347376     0.000832631        -0.895446       -0.416367      0.000322571    -0.000877963       -0.0618845        0.110781
281700.7              -0.0112175       0.0181992      5.01987e-05     -0.00085646        -0.977756       -0.189136     -0.000648435     0.000971519
                     0.000132147     -0.00081241       -0.0493833        0.117486     -0.000528495     0.000948497        -0.895428       -0.416245
                       -0.977579       -0.189367     -0.000264966     0.000849543      -0.00058392       0.0194487       0.00041145    -0.000797003
                    -0.000347336     0.000832637        -0.895459       -0.416341      0.000322363    -0.000878041       -0.0618786        0.110777
281700.8              -0.0112154       0.0181934      5.02031e-05    -0.000856432        -0.977762       -0.189107     -0.000648606     0.000971133
                     0.000132085    -0.000812344       -0.0493774        0.117482     -0.000528398      0.00094854        -0.895442        -0.41622
                       -0.977585       -0.189338     -0.000264938     0.000849556     -0.000582183       0.0194421      0.000411533    -0.000796943
                    -0.000347297     0.000832644        -0.895472       -0.416314      0.000322154     -0.00087812       -0.0618727        0.110774
281700.9              -0.0112134       0.0181876      5.02075e-05    -0.000856404        -0.977769       -0.189078     -0.000648776     0.000970747
                     0.000132023    -0.000812278       -0.0493714        0.117478     -0.000528301     0.000948583        -0.895455       -0.416194
                       -0.977591       -0.189309      -0.00026491     0.000849568     -0.000580446       0.0194354      0.000411616    -0.000796883
                    -0.000347258      0.00083265        -0.895485       -0.416288      0.000321946    -0.000878199       -0.0618669         0.11077
281701                -0.0112113       0.0181817      5.02119e-05    -0.000856375        -0.977775       -0.189049     -0.000648946     0.000970361
                     0.000131962    -0.000812213       -0.0493654        0.117474     -0.000528203     0.000948627        -0.895469       -0.416168
                       -0.977596        -0.18928     -0.000264882      0.00084958      -0.00057871       0.0194288      0.000411699    -0.000796822
                    -0.000347219     0.000832657        -0.895499       -0.416262      0.000321737    -0.000878277        -0.061861        0.110767
281701.1              -0.0112092       0.0181759      5.02164e-05    -0.000856347        -0.977781        -0.18902     -0.000649116     0.000969975
                       0.0001319    -0.000812147       -0.0493595         0.11747     -0.000528106      0.00094867        -0.895482       -0.416142
                       -0.977602        -0.18925     -0.000264855     0.000849593     -0.000576976       0.0194222      0.000411782    -0.000796762
                     -0.00034718     0.000832663        -0.895512       -0.416235      0.000321529    -0.000878356       -0.0618551        0.110764
281701.2              -0.0112072       0.0181701      5.02209e-05    -0.000856318        -0.977787       -0.188991     -0.000649286     0.000969589
                     0.000131839    -0.000812081       -0.0493535        0.117466     -0.000528008     0.000948714        -0.895496       -0.416116
                       -0.977608       -0.189221     -0.000264827     0.000849605     -0.000575243       0.0194156      0.000411865    -0.000796702
                    -0.000347141      0.00083267        -0.895525       -0.416209       0.00032132    -0.000878434       -0.0618492         0.11076
281701.3              -0.0112051       0.0181642      5.02254e-05     -0.00085629        -0.977793       -0.188962     -0.000649456     0.000969203
                     0.000131778    -0.000812015       -0.0493475        0.117462      -0.00052791     0.000948758        -0.895509        -0.41609
                       -0.977614       -0.189192     -0.000264799     0.000849617      -0.00057351        0.019409      0.000411948    -0.000796641
                    -0.000347102     0.000832676        -0.895538       -0.416183      0.000321111    -0.000878513       -0.0618434        0.110757
281701.4              -0.0112031       0.0181584      5.02299e-05    -0.000856261          -0.9778       -0.188933     -0.000649625     0.000968816
                     0.000131716    -0.000811949       -0.0493416        0.117458     -0.000527811     0.000948801        -0.895523       -0.416065
                        -0.97762       -0.189163     -0.000264771     0.000849629     -0.000571779       0.0194024      0.000412031    -0.000796581
                    -0.000347063     0.000832683        -0.895551       -0.416156      0.000320902    -0.000878592       -0.0618375        0.110753
281701.5               -0.011201       0.0181525      5.02344e-05    -0.000856233        -0.977806       -0.188904     -0.000649794      0.00096843
                     0.000131655    -0.000811883       -0.0493356        0.117454     -0.000527712     0.000948845        -0.895536       -0.416039
                       -0.977626       -0.189134     -0.000264743     0.000849642     -0.000570049       0.0193958      0.000412114    -0.000796521
                    -0.000347023     0.000832689        -0.895564        -0.41613      0.000320694     -0.00087867       -0.0618316         0.11075
281701.6              -0.0111989       0.0181467       5.0239e-05    -0.000856204        -0.977812       -0.188875     -0.000649963     0.000968043
                     0.000131594    -0.000811817       -0.0493297         0.11745     -0.000527613     0.000948889         -0.89555       -0.416013
                       -0.977631       -0.189104     -0.000264716     0.000849654      -0.00056832       0.0193892      0.000412197     -0.00079646
                    -0.000346984     0.000832696        -0.895577       -0.416104      0.000320485    -0.000878749       -0.0618257        0.110746
281701.7              -0.0111969       0.0181408      5.02436e-05    -0.000856175        -0.977818       -0.188846     -0.000650131     0.000967656
                     0.000131534    -0.000811751       -0.0493237        0.117446     -0.000527513     0.000948933        -0.895563       -0.415987
                       -0.977637       -0.189075     -0.000264688     0.000849666     -0.000566592       0.0193826       0.00041228      -0.0007964
                    -0.000346945     0.000832702        -0.895591       -0.416077      0.000320276    -0.000878827       -0.0618198        0.110743
281701.8              -0.0111948        0.018135      5.02482e-05    -0.000856147        -0.977825       -0.188817       -0.0006503      0.00096727
                     0.000131473    -0.000811685       -0.0493177        0.117442     -0.000527413     0.000948977        -0.895577       -0.415961
                       -0.977643       -0.189046      -0.00026466     0.000849678     -0.000564865        0.019376      0.000412363    -0.000796339
                    -0.000346906     0.000832709        -0.895604       -0.416051      0.000320067    -0.000878906        -0.061814        0.110739
281701.9              -0.0111928       0.0181292      5.02529e-05    -0.000856118        -0.977831       -0.188788     -0.000650468     0.000966883
                     0.000131412    -0.000811619       -0.0493118        0.117438     -0.000527313     0.000949021         -0.89559       -0.415935
                       -0.977649       -0.189017     -0.000264632     0.000849691     -0.000563139       0.0193694      0.000412446    -0.000796279
                    -0.000346867     0.000832715        -0.895617       -0.416025      0.000319858    -0.000878984       -0.0618081        0.110736
281702                -0.0111907       0.0181233      5.02576e-05    -0.000856089        -0.977837       -0.188759     -0.000650636     0.000966496
                     0.000131352    -0.000811553       -0.0493058        0.117434     -0.000527213     0.000949065        -0.895604       -0.415909
                       -0.977655       -0.188988     -0.000264605     0.000849703     -0.000561414       0.0193628      0.000412529    -0.000796218
                    -0.000346828     0.000832722         -0.89563       -0.415998      0.000319649    -0.000879063       -0.0618022        0.110732
281702.1              -0.0111887       0.0181175      5.02623e-05     -0.00085606        -0.977843        -0.18873     -0.000650803     0.000966109
                     0.000131291    -0.000811487       -0.0492998         0.11743     -0.000527112     0.000949109        -0.895617       -0.415884
                        -0.97766       -0.188959     -0.000264577     0.000849715     -0.000559691       0.0193562      0.000412613    -0.000796158
                    -0.000346789     0.000832728        -0.895643       -0.415972      0.000319439    -0.000879142       -0.0617963        0.110729
281702.2              -0.0111866       0.0181116       5.0267e-05    -0.000856031         -0.97785       -0.188701     -0.000650971     0.000965721
                     0.000131231    -0.000811421       -0.0492939        0.117426     -0.000527011     0.000949154        -0.895631       -0.415858
                       -0.977666       -0.188929     -0.000264549     0.000849727     -0.000557968       0.0193496      0.000412696    -0.000796097
                     -0.00034675     0.000832735        -0.895656       -0.415946       0.00031923     -0.00087922       -0.0617905        0.110726
281702.3              -0.0111846       0.0181058      5.02718e-05    -0.000856002        -0.977856       -0.188672     -0.000651138     0.000965334
                     0.000131171    -0.000811355       -0.0492879        0.117422     -0.000526909     0.000949198        -0.895644       -0.415832
                       -0.977672         -0.1889     -0.000264521      0.00084974     -0.000556247        0.019343      0.000412779    -0.000796037
                    -0.000346711     0.000832742        -0.895669       -0.415919      0.000319021    -0.000879299       -0.0617846        0.110722
281702.4              -0.0111825       0.0180999      5.02765e-05    -0.000855973        -0.977862       -0.188643     -0.000651305     0.000964947
                     0.000131111    -0.000811288        -0.049282        0.117418     -0.000526807     0.000949242        -0.895658       -0.415806
                       -0.977678       -0.188871     -0.000264493     0.000849752     -0.000554526       0.0193364      0.000412862    -0.000795976
                    -0.000346672     0.000832748        -0.895682       -0.415893      0.000318811    -0.000879377       -0.0617787        0.110719
281702.5              -0.0111805       0.0180941      5.02813e-05    -0.000855944        -0.977868       -0.188614     -0.000651472     0.000964559
                     0.000131051    -0.000811222        -0.049276        0.117414     -0.000526705     0.000949287        -0.895671        -0.41578
                       -0.977684       -0.188842     -0.000264466     0.000849764     -0.000552807       0.0193298      0.000412946    -0.000795916
                    -0.000346633     0.000832755        -0.895696       -0.415866      0.000318602    -0.000879456       -0.0617728        0.110715
281702.6              -0.0111784       0.0180882      5.02862e-05    -0.000855915        -0.977874       -0.188585     -0.000651638     0.000964172
                     0.000130991    -0.000811156         -0.04927         0.11741     -0.000526602     0.000949331        -0.895685       -0.415754
                       -0.977689       -0.188813     -0.000264438     0.000849776     -0.000551088       0.0193232      0.000413029    -0.000795855
                    -0.000346593     0.000832761        -0.895709        -0.41584      0.000318393    -0.000879534       -0.0617669        0.110712
281702.7              -0.0111764       0.0180824       5.0291e-05    -0.000855886        -0.977881       -0.188556     -0.000651805     0.000963784
                     0.000130931    -0.000811089       -0.0492641        0.117406     -0.000526499     0.000949376        -0.895698       -0.415729
                       -0.977695       -0.188783      -0.00026441     0.000849788     -0.000549371       0.0193167      0.000413112    -0.000795794
                    -0.000346554     0.000832768        -0.895722       -0.415814      0.000318183    -0.000879613       -0.0617611        0.110708
281702.8              -0.0111743       0.0180765      5.02959e-05    -0.000855857        -0.977887       -0.188527     -0.000651971     0.000963396
                     0.000130871    -0.000811023       -0.0492581        0.117402     -0.000526396      0.00094942        -0.895711       -0.415703
                       -0.977701       -0.188754     -0.000264382     0.000849801     -0.000547655       0.0193101      0.000413196    -0.000795733
                    -0.000346515     0.000832775        -0.895735       -0.415787      0.000317973    -0.000879691       -0.0617552        0.110705
281702.9              -0.0111723       0.0180707      5.03008e-05    -0.000855828        -0.977893       -0.188498     -0.000652136     0.000963008
                     0.000130812    -0.000810956       -0.0492521        0.117398     -0.000526292     0.000949465        -0.895725       -0.415677
                       -0.977707       -0.188725     -0.000264355     0.000849813     -0.000545939       0.0193035      0.000413279    -0.000795673
                    -0.000346476     0.000832781        -0.895748       -0.415761      0.000317764     -0.00087977       -0.0617493        0.110701
281703                -0.0111703       0.0180648      5.03058e-05    -0.000855798        -0.977899       -0.188469     -0.000652302      0.00096262
                     0.000130753     -0.00081089       -0.0492462        0.117394     -0.000526188      0.00094951        -0.895738       -0.415651
                       -0.977712       -0.188696     -0.000264327     0.000849825     -0.000544225       0.0192969      0.000413362    -0.000795612
                    -0.000346437     0.000832788        -0.895761       -0.415735      0.000317554    -0.000879848       -0.0617434        0.110698
281703.1              -0.0111682       0.0180589      5.03107e-05    -0.000855769        -0.977905        -0.18844     -0.000652467     0.000962232
                     0.000130693    -0.000810823       -0.0492402         0.11739     -0.000526084     0.000949555        -0.895752       -0.415625
                       -0.977718       -0.188667     -0.000264299     0.000849837     -0.000542512       0.0192903      0.000413446    -0.000795551
