! TOUCHSTONE file generated by CST MICROWAVE STUDIO
! Date and time: Wed Oct  8 07:00:26 2025
! Project name: Teste_Macro_Metasurface_Nanopilar.cst
! Parameters = {H=600; L_x=150; L_y=145; Lambda=1064; Max_L=200; Min_L=70; PathPara=1; Phi=0; Step_L=10; Theta=0; p=520; phaseX=180; phaseY=0}
! Header version: 2018
! Port assignment regex: !\s*Touchstone port\s*([0-9]+)\s*=\s*(CST MWS port|CST DS port)\s*([0-9]+|Zmin|Zmax)\s*\(\"(.*)\"\)(\s*mode\s*([0-9]+))?.*
! Touchstone port assignment:
! Touchstone port 1 = CST MWS port Zmax ("") mode 1
! Touchstone port 2 = CST MWS port Zmax ("") mode 2
! Touchstone port 3 = CST MWS port Zmin ("") mode 1
! Touchstone port 4 = CST MWS port Zmin ("") mode 2
! S-Parameters are not renormalized. Each port impedance will be approximated by the real part at minimum frequency. The values are described via the [Reference] keyword.
! Default impedance is overridden by [Reference]
[Version] 2.0
# GHz S RI R 376.73
[Number of Ports] 4
[Reference]
376.73 376.73 376.73 376.73 
[Number of Frequencies] 1001
[Network Data]
281700                 -0.209746       -0.420595      0.000697044    -0.000363848         -0.84095       -0.144702      -0.00155983    -0.000351536
                      0.00101772    -0.000509255        -0.929412      -0.0607693     -0.000934074     0.000263612       0.00814489       -0.159362
                        -0.84105       -0.145205      -0.00104612     0.000202582         0.287077       -0.356829       0.00227644     0.000426541
                     -0.00189321    -3.30114e-05       0.00816624       -0.159364       0.00264913     0.000491187        -0.630538       -0.670026
281700.1               -0.209773       -0.420616      0.000696735    -0.000366644         -0.84094       -0.144647      -0.00155969    -0.000351274
                      0.00101757     -0.00050938        -0.929408      -0.0606956     -0.000933855     0.000263487       0.00816039       -0.159424
                        -0.84104        -0.14515      -0.00104242     0.000206164         0.287061       -0.356881       0.00227623     0.000426259
                     -0.00189308    -3.28049e-05       0.00818146       -0.159425       0.00264894     0.000491049        -0.630606       -0.669951
281700.2                 -0.2098       -0.420636      0.000696469    -0.000369507         -0.84093       -0.144592      -0.00155956    -0.000351013
                      0.00101742    -0.000509505        -0.929404      -0.0606218     -0.000933636     0.000263361       0.00817587       -0.159485
                        -0.84103       -0.145095      -0.00103845     0.000209709         0.287045       -0.356933       0.00227602     0.000425978
                     -0.00189295    -3.25986e-05       0.00819666       -0.159485       0.00264876     0.000490912        -0.630674       -0.669876
281700.3               -0.209826       -0.420656      0.000696252    -0.000372438         -0.84092       -0.144537      -0.00155942    -0.000350752
                      0.00101727    -0.000509629          -0.9294      -0.0605481     -0.000933417     0.000263236       0.00819134       -0.159546
                       -0.841019        -0.14504      -0.00103418     0.000213199          0.28703       -0.356985       0.00227581     0.000425696
                     -0.00189282    -3.23924e-05       0.00821185       -0.159546       0.00264858     0.000490775        -0.630742       -0.669802
281700.4               -0.209853       -0.420677      0.000696086    -0.000375437         -0.84091       -0.144482      -0.00155929     -0.00035049
                      0.00101712    -0.000509754        -0.929396      -0.0604743     -0.000933198     0.000263112       0.00820679       -0.159607
                       -0.841009       -0.144985      -0.00102962     0.000216609         0.287014       -0.357037        0.0022756     0.000425414
                     -0.00189269    -3.21863e-05       0.00822702       -0.159607       0.00264839     0.000490637        -0.630809       -0.669727
281700.5                -0.20988       -0.420697      0.000695975    -0.000378505          -0.8409       -0.144427      -0.00155915    -0.000350229
                      0.00101697    -0.000509878        -0.929392      -0.0604006     -0.000932979     0.000262987       0.00822223       -0.159669
                       -0.840999        -0.14493      -0.00102474     0.000219912         0.286998       -0.357089       0.00227539     0.000425132
                     -0.00189256    -3.19804e-05       0.00824219       -0.159667       0.00264821       0.0004905        -0.630877       -0.669653
281700.6               -0.209907       -0.420718      0.000695924    -0.000381644         -0.84089       -0.144372      -0.00155901    -0.000349967
                      0.00101682    -0.000510002        -0.929387      -0.0603268      -0.00093276     0.000262862       0.00823766        -0.15973
                       -0.840989       -0.144875      -0.00101955     0.000223081         0.286982       -0.357141       0.00227518      0.00042485
                     -0.00189243    -3.17746e-05       0.00825734       -0.159728       0.00264802     0.000490362        -0.630945       -0.669578
281700.7               -0.209934       -0.420738      0.000695937    -0.000384854         -0.84088       -0.144317      -0.00155888    -0.000349706
                      0.00101667    -0.000510126        -0.929383      -0.0602531     -0.000932542     0.000262738       0.00825307       -0.159791
                       -0.840979        -0.14482      -0.00101404     0.000226084         0.286966       -0.357193       0.00227497     0.000424568
                      -0.0018923    -3.15689e-05       0.00827248       -0.159788       0.00264784     0.000490225        -0.631013       -0.669503
281700.8                -0.20996       -0.420758      0.000696018    -0.000388134         -0.84087       -0.144262      -0.00155874    -0.000349444
                      0.00101652    -0.000510251        -0.929379      -0.0601793     -0.000932323     0.000262614       0.00826848       -0.159853
                       -0.840969       -0.144765       -0.0010082     0.000228887          0.28695       -0.357245       0.00227476     0.000424286
                     -0.00189217    -3.13634e-05       0.00828761       -0.159849       0.00264765     0.000490088         -0.63108       -0.669429
281700.9               -0.209987       -0.420779      0.000696171    -0.000391487         -0.84086       -0.144207      -0.00155861    -0.000349182
                      0.00101637    -0.000510374        -0.929375      -0.0601056     -0.000932105     0.000262489       0.00828386       -0.159914
                       -0.840959        -0.14471      -0.00100205     0.000231454         0.286935       -0.357297       0.00227455     0.000424004
                     -0.00189204     -3.1158e-05       0.00830272        -0.15991       0.00264747      0.00048995        -0.631148       -0.669354
281701                 -0.210014       -0.420799      0.000696403     -0.00039491         -0.84085       -0.144152      -0.00155847     -0.00034892
                      0.00101622    -0.000510498        -0.929371      -0.0600318     -0.000931887     0.000262365       0.00829923       -0.159975
                       -0.840949       -0.144655     -0.000995578     0.000233748         0.286919       -0.357349       0.00227434     0.000423722
                     -0.00189191    -3.09527e-05       0.00831782        -0.15997       0.00264729     0.000489813        -0.631216       -0.669279
281701.1               -0.210041       -0.420819      0.000696719    -0.000398405         -0.84084       -0.144097      -0.00155833    -0.000348659
                      0.00101607    -0.000510622        -0.929366      -0.0599581     -0.000931668     0.000262241       0.00831459       -0.160036
                       -0.840939         -0.1446     -0.000988805     0.000235728         0.286903       -0.357401       0.00227413     0.000423439
                     -0.00189178    -3.07476e-05       0.00833292       -0.160031        0.0026471     0.000489675        -0.631283       -0.669205
281701.2               -0.210068        -0.42084      0.000697123    -0.000401971         -0.84083       -0.144042       -0.0015582    -0.000348397
                      0.00101593    -0.000510746        -0.929362      -0.0598843      -0.00093145     0.000262118       0.00832994       -0.160098
                       -0.840929       -0.144545     -0.000981745     0.000237355         0.286887       -0.357453       0.00227392     0.000423157
                     -0.00189164    -3.05426e-05       0.00834799       -0.160091       0.00264692     0.000489538        -0.631351        -0.66913
281701.3               -0.210095        -0.42086      0.000697622    -0.000405608         -0.84082       -0.143987      -0.00155806    -0.000348135
                      0.00101578    -0.000510869        -0.929358      -0.0598106     -0.000931232     0.000261994       0.00834527       -0.160159
                       -0.840919        -0.14449     -0.000974421     0.000238589         0.286871       -0.357505       0.00227371     0.000422874
                     -0.00189151    -3.03378e-05       0.00836306       -0.160152       0.00264673     0.000489401        -0.631419       -0.669055
281701.4               -0.210121       -0.420881      0.000698221    -0.000409313         -0.84081       -0.143932      -0.00155792    -0.000347873
                      0.00101563    -0.000510993        -0.929353      -0.0597369     -0.000931014      0.00026187       0.00836059        -0.16022
                       -0.840908       -0.144435     -0.000966861     0.000239391         0.286855       -0.357557        0.0022735     0.000422591
                     -0.00189138    -3.01331e-05       0.00837811       -0.160213       0.00264655     0.000489263        -0.631486       -0.668981
281701.5               -0.210148       -0.420901      0.000698927    -0.000413086          -0.8408       -0.143876      -0.00155778    -0.000347611
                      0.00101548    -0.000511116        -0.929349      -0.0596632     -0.000930797     0.000261747       0.00837589       -0.160281
                       -0.840898        -0.14438       -0.0009591     0.000239725         0.286839       -0.357609       0.00227329     0.000422309
                     -0.00189125    -2.99285e-05       0.00839316       -0.160273       0.00264636     0.000489126        -0.631554       -0.668906
281701.6               -0.210175       -0.420921      0.000699746    -0.000416925         -0.84079       -0.143821      -0.00155765    -0.000347348
                      0.00101533    -0.000511239        -0.929345      -0.0595894     -0.000930579     0.000261624       0.00839119       -0.160343
                       -0.840888       -0.144325     -0.000951179     0.000239555         0.286823       -0.357661       0.00227308     0.000422026
                     -0.00189112    -2.97241e-05       0.00840818       -0.160334       0.00264618     0.000488989        -0.631621       -0.668831
281701.7               -0.210202       -0.420942      0.000700685    -0.000420828         -0.84078       -0.143766      -0.00155751    -0.000347086
                      0.00101518    -0.000511363        -0.929341      -0.0595157     -0.000930361       0.0002615       0.00840646       -0.160404
                       -0.840878        -0.14427     -0.000943144     0.000238854         0.286807       -0.357713       0.00227286     0.000421743
                     -0.00189099    -2.95198e-05        0.0084232       -0.160395         0.002646     0.000488852        -0.631689       -0.668756
281701.8               -0.210229       -0.420962       0.00070175    -0.000424793         -0.84077       -0.143711      -0.00155737    -0.000346824
                      0.00101503    -0.000511486        -0.929336       -0.059442     -0.000930144     0.000261377       0.00842173       -0.160465
                       -0.840868       -0.144215     -0.000935047     0.000237597         0.286791       -0.357765       0.00227265      0.00042146
                     -0.00189086    -2.93156e-05       0.00843821       -0.160455       0.00264581     0.000488714        -0.631757       -0.668682
281701.9               -0.210256       -0.420983      0.000702949    -0.000428815         -0.84076       -0.143656      -0.00155723    -0.000346561
                      0.00101488    -0.000511609        -0.929332      -0.0593682     -0.000929926     0.000261254       0.00843698       -0.160527
                       -0.840858        -0.14416     -0.000926947     0.000235767         0.286776       -0.357817       0.00227244     0.000421177
                     -0.00189073    -2.91116e-05        0.0084532       -0.160516       0.00264563     0.000488577        -0.631824       -0.668607
281702                 -0.210283       -0.421003      0.000704289    -0.000432891         -0.84075       -0.143601       -0.0015571    -0.000346299
                      0.00101473    -0.000511732        -0.929328      -0.0592945     -0.000929709     0.000261132       0.00845221       -0.160588
                       -0.840848       -0.144105     -0.000918904     0.000233355          0.28676       -0.357869       0.00227223     0.000420893
                      -0.0018906    -2.89077e-05       0.00846818       -0.160576       0.00264544      0.00048844        -0.631892       -0.668532
281702.1                -0.21031       -0.421023      0.000705776    -0.000437018        -0.840739       -0.143546      -0.00155696    -0.000346036
                      0.00101458    -0.000511854        -0.929323      -0.0592208     -0.000929492     0.000261009       0.00846744       -0.160649
                       -0.840837        -0.14405      -0.00091098     0.000230361         0.286744       -0.357921       0.00227202      0.00042061
                     -0.00189046     -2.8704e-05       0.00848315       -0.160637       0.00264526     0.000488303        -0.631959       -0.668457
281702.2               -0.210336       -0.421044      0.000707419     -0.00044119        -0.840729       -0.143491      -0.00155682    -0.000345774
                      0.00101443    -0.000511977        -0.929319      -0.0591471     -0.000929275     0.000260886       0.00848265        -0.16071
                       -0.840827       -0.143995      -0.00090324     0.000226791         0.286728       -0.357973        0.0022718     0.000420327
                     -0.00189033    -2.85004e-05        0.0084981       -0.160698       0.00264507     0.000488165        -0.632027       -0.668383
281702.3               -0.210363       -0.421064      0.000709225    -0.000445401        -0.840719       -0.143436      -0.00155668    -0.000345511
                      0.00101428    -0.000512099        -0.929315      -0.0590734     -0.000929058     0.000260764       0.00849784       -0.160772
                       -0.840817        -0.14394     -0.000895746     0.000222665         0.286712       -0.358025       0.00227159     0.000420043
                      -0.0018902     -2.8297e-05       0.00851305       -0.160758       0.00264489     0.000488028        -0.632094       -0.668308
281702.4                -0.21039       -0.421085        0.0007112    -0.000449645        -0.840709       -0.143381      -0.00155654    -0.000345248
                      0.00101413    -0.000512222         -0.92931      -0.0589997     -0.000928841     0.000260642       0.00851302       -0.160833
                       -0.840807       -0.143885     -0.000888558     0.000218007         0.286696       -0.358077       0.00227138     0.000419759
                     -0.00189007    -2.80937e-05       0.00852798       -0.160819        0.0026447     0.000487891        -0.632162       -0.668233
281702.5               -0.210417       -0.421105      0.000713352    -0.000453916        -0.840699       -0.143326       -0.0015564    -0.000344985
                      0.00101398    -0.000512344        -0.929306      -0.0589259     -0.000928624     0.000260519       0.00852819       -0.160894
                       -0.840797        -0.14383     -0.000881734     0.000212855          0.28668       -0.358129       0.00227116     0.000419475
                     -0.00188994    -2.78905e-05        0.0085429        -0.16088       0.00264452     0.000487754        -0.632229       -0.668158
281702.6               -0.210444       -0.421125      0.000715689    -0.000458204        -0.840689       -0.143271      -0.00155627    -0.000344723
                      0.00101383    -0.000512466        -0.929301      -0.0588522     -0.000928407     0.000260397       0.00854335       -0.160956
                       -0.840787       -0.143775     -0.000875323     0.000207249         0.286664       -0.358181       0.00227095     0.000419191
                     -0.00188981    -2.76875e-05       0.00855781        -0.16094       0.00264433     0.000487616        -0.632297       -0.668084
281702.7               -0.210471       -0.421146      0.000718216    -0.000462503        -0.840679       -0.143216      -0.00155613    -0.000344459
                      0.00101368    -0.000512589        -0.929297      -0.0587785     -0.000928191     0.000260276       0.00855849       -0.161017
                       -0.840776        -0.14372     -0.000869369      0.00020124         0.286648       -0.358233       0.00227074     0.000418907
                     -0.00188967    -2.74847e-05        0.0085727       -0.161001       0.00264415     0.000487479        -0.632364       -0.668009
281702.8               -0.210498       -0.421166      0.000720942    -0.000466801        -0.840669        -0.14316      -0.00155599    -0.000344196
                      0.00101353    -0.000512711        -0.929293      -0.0587048     -0.000927974     0.000260154       0.00857362       -0.161078
                       -0.840766       -0.143665     -0.000863909     0.000194882         0.286632       -0.358285       0.00227052     0.000418623
                     -0.00188954     -2.7282e-05       0.00858758       -0.161062       0.00264396     0.000487342        -0.632431       -0.667934
281702.9               -0.210525       -0.421187      0.000723871     -0.00047109        -0.840659       -0.143105      -0.00155585    -0.000343933
                      0.00101338    -0.000512833        -0.929288      -0.0586311     -0.000927758     0.000260032       0.00858873        -0.16114
                       -0.840756        -0.14361     -0.000858969     0.000188234         0.286616       -0.358337       0.00227031     0.000418339
                     -0.00188941    -2.70794e-05       0.00860245       -0.161122       0.00264378     0.000487205        -0.632499       -0.667859
281703                 -0.210552       -0.421207      0.000727009    -0.000475357        -0.840648        -0.14305      -0.00155571     -0.00034367
                      0.00101323    -0.000512954        -0.929284      -0.0585574     -0.000927541     0.000259911       0.00860383       -0.161201
                       -0.840746       -0.143555     -0.000854568     0.000181356           0.2866       -0.358389       0.00227009     0.000418054
                     -0.00188928     -2.6877e-05       0.00861731       -0.161183        0.0026436     0.000487068        -0.632566       -0.667784
281703.1               -0.210579       -0.421227      0.000730363    -0.000479591        -0.840638       -0.142995      -0.00155557    -0.000343406
                      0.00101308    -0.000513076        -0.929279      -0.0584837     -0.000927325     0.000259789       0.00861892       -0.161262
                       -0.840736         -0.1435     -0.000850716     0.000174309         0.286584       -0.358441       0.00226988      0.00041777
