! TOUCHSTONE file generated by CST MICROWAVE STUDIO
! Date and time: Wed Oct  8 06:55:21 2025
! Project name: Teste_Macro_Metasurface_Nanopilar.cst
! Parameters = {H=600; L_x=110; L_y=75; Lambda=1064; Max_L=200; Min_L=70; PathPara=1; Phi=0; Step_L=10; Theta=0; p=520; phaseX=180; phaseY=0}
! Header version: 2018
! Port assignment regex: !\s*Touchstone port\s*([0-9]+)\s*=\s*(CST MWS port|CST DS port)\s*([0-9]+|Zmin|Zmax)\s*\(\"(.*)\"\)(\s*mode\s*([0-9]+))?.*
! Touchstone port assignment:
! Touchstone port 1 = CST MWS port Zmax ("") mode 1
! Touchstone port 2 = CST MWS port Zmax ("") mode 2
! Touchstone port 3 = CST MWS port Zmin ("") mode 1
! Touchstone port 4 = CST MWS port Zmin ("") mode 2
! S-Parameters are not renormalized. Each port impedance will be approximated by the real part at minimum frequency. The values are described via the [Reference] keyword.
! Default impedance is overridden by [Reference]
[Version] 2.0
# GHz S RI R 376.73
[Number of Ports] 4
[Reference]
376.73 376.73 376.73 376.73 
[Number of Frequencies] 1001
[Network Data]
281700                  0.117263       0.0182666     -0.000141782     0.000369118        -0.956056        0.266907      0.000174654    -6.95374e-05
                    -0.000116074     0.000361119       -0.0314009       -0.162467     -0.000336527     0.000179953        -0.658332        0.731914
                       -0.956057        0.266679     -0.000103309     0.000114662       -0.0910837       0.0763993      0.000331963      0.00012168
                     0.000226474    -0.000202154        -0.658325         0.73205      0.000389293    -1.52172e-05        -0.165459      -0.0134801
281700.1                0.117261       0.0182609     -0.000141782     0.000369125        -0.956049        0.266932      0.000174651    -6.95396e-05
                    -0.000116071     0.000361115        -0.031408       -0.162466     -0.000336515     0.000179972        -0.658312        0.731932
                       -0.956051        0.266705     -0.000103302     0.000114663        -0.091081       0.0763983      0.000331964     0.000121672
                     0.000226475    -0.000202154        -0.658305        0.732068      0.000389292     -1.5237e-05         -0.16546      -0.0134781
281700.2                0.117259       0.0182553     -0.000141782     0.000369132        -0.956043        0.266958      0.000174647    -6.95419e-05
                    -0.000116068      0.00036111       -0.0314151       -0.162466     -0.000336503     0.000179992        -0.658291         0.73195
                       -0.956044         0.26673     -0.000103295     0.000114664       -0.0910783       0.0763974      0.000331965     0.000121663
                     0.000226475    -0.000202154        -0.658284        0.732086      0.000389292    -1.52567e-05        -0.165461      -0.0134761
281700.3                0.117258       0.0182496     -0.000141783     0.000369138        -0.956036        0.266983      0.000174643    -6.95441e-05
                    -0.000116064     0.000361105       -0.0314222       -0.162465     -0.000336491     0.000180011        -0.658271        0.731968
                       -0.956037        0.266755     -0.000103287     0.000114665       -0.0910757       0.0763965      0.000331966     0.000121654
                     0.000226476    -0.000202153        -0.658264        0.732104      0.000389291    -1.52764e-05        -0.165462      -0.0134741
281700.4                0.117256        0.018244     -0.000141783     0.000369145        -0.956029        0.267009      0.000174639    -6.95463e-05
                    -0.000116061       0.0003611       -0.0314293       -0.162465      -0.00033648      0.00018003        -0.658251        0.731986
                        -0.95603        0.266781      -0.00010328     0.000114666        -0.091073       0.0763955      0.000331968     0.000121645
                     0.000226477    -0.000202153        -0.658244        0.732122       0.00038929    -1.52962e-05        -0.165463      -0.0134721
281700.5                0.117254       0.0182383     -0.000141783     0.000369152        -0.956022        0.267034      0.000174636    -6.95485e-05
                    -0.000116058     0.000361095       -0.0314364       -0.162464     -0.000336468      0.00018005        -0.658231        0.732004
                       -0.956023        0.266806     -0.000103273     0.000114666       -0.0910704       0.0763946      0.000331969     0.000121637
                     0.000226477    -0.000202153        -0.658223         0.73214      0.000389289    -1.53159e-05        -0.165464      -0.0134701
281700.6                0.117252       0.0182326     -0.000141783     0.000369158        -0.956015        0.267059      0.000174632    -6.95508e-05
                    -0.000116055      0.00036109       -0.0314435       -0.162464     -0.000336456     0.000180069         -0.65821        0.732022
                       -0.956017        0.266832     -0.000103266     0.000114667       -0.0910677       0.0763937       0.00033197     0.000121628
                     0.000226478    -0.000202152        -0.658203        0.732159      0.000389288    -1.53356e-05        -0.165465      -0.0134681
281700.7                 0.11725        0.018227     -0.000141783     0.000369165        -0.956009        0.267085      0.000174628     -6.9553e-05
                    -0.000116051     0.000361085       -0.0314506       -0.162463     -0.000336444     0.000180089         -0.65819         0.73204
                        -0.95601        0.266857     -0.000103259     0.000114668       -0.0910651       0.0763927      0.000331971     0.000121619
                     0.000226479    -0.000202152        -0.658183        0.732177      0.000389288    -1.53554e-05        -0.165466      -0.0134661
281700.8                0.117249       0.0182213     -0.000141783     0.000369172        -0.956002         0.26711      0.000174625    -6.95552e-05
                    -0.000116048      0.00036108       -0.0314576       -0.162463     -0.000336432     0.000180108         -0.65817        0.732058
                       -0.956003        0.266883     -0.000103251     0.000114669       -0.0910624       0.0763918      0.000331972      0.00012161
                      0.00022648    -0.000202152        -0.658163        0.732195      0.000389287    -1.53751e-05        -0.165467      -0.0134641
281700.9                0.117247       0.0182156     -0.000141784     0.000369178        -0.955995        0.267136      0.000174621    -6.95574e-05
                    -0.000116045     0.000361075       -0.0314647       -0.162462      -0.00033642     0.000180127        -0.658149        0.732076
                       -0.955996        0.266908     -0.000103244      0.00011467       -0.0910597       0.0763909      0.000331973     0.000121601
                      0.00022648    -0.000202151        -0.658142        0.732213      0.000389286    -1.53948e-05        -0.165468      -0.0134621
281701                  0.117245         0.01821     -0.000141784     0.000369185        -0.955988        0.267161      0.000174617    -6.95597e-05
                    -0.000116041      0.00036107       -0.0314718       -0.162462     -0.000336409     0.000180147        -0.658129        0.732094
                       -0.955989        0.266934     -0.000103237      0.00011467       -0.0910571       0.0763899      0.000331975     0.000121593
                     0.000226481    -0.000202151        -0.658122        0.732231      0.000389285    -1.54146e-05        -0.165469      -0.0134601
281701.1                0.117243       0.0182043     -0.000141784     0.000369192        -0.955981        0.267187      0.000174613    -6.95619e-05
                    -0.000116038     0.000361065       -0.0314789       -0.162461     -0.000336397     0.000180166        -0.658109        0.732112
                       -0.955983        0.266959      -0.00010323     0.000114671       -0.0910544        0.076389      0.000331976     0.000121584
                     0.000226482    -0.000202151        -0.658102        0.732249      0.000389285    -1.54343e-05         -0.16547      -0.0134581
281701.2                0.117242       0.0181987     -0.000141784     0.000369198        -0.955975        0.267212       0.00017461    -6.95641e-05
                    -0.000116035      0.00036106        -0.031486        -0.16246     -0.000336385     0.000180185        -0.658089         0.73213
                       -0.955976        0.266985     -0.000103222     0.000114672       -0.0910518       0.0763881      0.000331977     0.000121575
                     0.000226482     -0.00020215        -0.658081        0.732267      0.000389284     -1.5454e-05        -0.165471      -0.0134561
281701.3                 0.11724        0.018193     -0.000141784     0.000369205        -0.955968        0.267238      0.000174606    -6.95664e-05
                    -0.000116032     0.000361055       -0.0314931        -0.16246     -0.000336373     0.000180205        -0.658068        0.732148
                       -0.955969         0.26701     -0.000103215     0.000114673       -0.0910491       0.0763871      0.000331978     0.000121566
                     0.000226483     -0.00020215        -0.658061        0.732285      0.000389283    -1.54738e-05        -0.165472      -0.0134541
281701.4                0.117238       0.0181873     -0.000141785     0.000369212        -0.955961        0.267263      0.000174602    -6.95686e-05
                    -0.000116028      0.00036105       -0.0315002       -0.162459     -0.000336361     0.000180224        -0.658048        0.732166
                       -0.955962        0.267036     -0.000103208     0.000114673       -0.0910465       0.0763862      0.000331979     0.000121558
                     0.000226484    -0.000202149        -0.658041        0.732303      0.000389282    -1.54935e-05        -0.165473      -0.0134521
281701.5                0.117236       0.0181817     -0.000141785     0.000369218        -0.955954        0.267289      0.000174598    -6.95708e-05
                    -0.000116025     0.000361045       -0.0315073       -0.162459     -0.000336349     0.000180244        -0.658028        0.732184
                       -0.955955        0.267061     -0.000103201     0.000114674       -0.0910438       0.0763852       0.00033198     0.000121549
                     0.000226484    -0.000202149        -0.658021        0.732321      0.000389281    -1.55132e-05        -0.165474      -0.0134501
281701.6                0.117234        0.018176     -0.000141785     0.000369225        -0.955948        0.267314      0.000174595     -6.9573e-05
                    -0.000116022      0.00036104       -0.0315144       -0.162458     -0.000336338     0.000180263        -0.658007        0.732202
                       -0.955949        0.267087     -0.000103193     0.000114675       -0.0910411       0.0763843      0.000331982      0.00012154
                     0.000226485    -0.000202149           -0.658        0.732339      0.000389281     -1.5533e-05        -0.165475      -0.0134482
281701.7                0.117233       0.0181704     -0.000141785     0.000369232        -0.955941         0.26734      0.000174591    -6.95753e-05
                    -0.000116019     0.000361036       -0.0315215       -0.162458     -0.000336326     0.000180282        -0.657987         0.73222
                       -0.955942        0.267112     -0.000103186     0.000114675       -0.0910385       0.0763834      0.000331983     0.000121531
                     0.000226486    -0.000202148         -0.65798        0.732357       0.00038928    -1.55527e-05        -0.165476      -0.0134462
281701.8                0.117231       0.0181647     -0.000141785     0.000369238        -0.955934        0.267365      0.000174587    -6.95775e-05
                    -0.000116015     0.000361031       -0.0315286       -0.162457     -0.000336314     0.000180302        -0.657967        0.732238
                       -0.955935        0.267138     -0.000103179     0.000114676       -0.0910358       0.0763824      0.000331984     0.000121522
                     0.000226486    -0.000202148         -0.65796        0.732375      0.000389279    -1.55724e-05        -0.165477      -0.0134442
281701.9                0.117229        0.018159     -0.000141786     0.000369245        -0.955927        0.267391      0.000174584    -6.95797e-05
                    -0.000116012     0.000361026       -0.0315357       -0.162457     -0.000336302     0.000180321        -0.657947        0.732256
                       -0.955928        0.267163     -0.000103172     0.000114677       -0.0910332       0.0763815      0.000331985     0.000121514
                     0.000226487    -0.000202148        -0.657939        0.732393      0.000389278    -1.55922e-05        -0.165478      -0.0134422
281702                  0.117227       0.0181534     -0.000141786     0.000369252         -0.95592        0.267416       0.00017458    -6.95819e-05
                    -0.000116009     0.000361021       -0.0315427       -0.162456      -0.00033629      0.00018034        -0.657926        0.732275
                       -0.955922        0.267189     -0.000103164     0.000114677       -0.0910305       0.0763806      0.000331986     0.000121505
                     0.000226488    -0.000202147        -0.657919        0.732411      0.000389277    -1.56119e-05        -0.165479      -0.0134402
281702.1                0.117225       0.0181477     -0.000141786     0.000369258        -0.955914        0.267442      0.000174576    -6.95842e-05
                    -0.000116006     0.000361016       -0.0315498       -0.162456     -0.000336278      0.00018036        -0.657906        0.732293
                       -0.955915        0.267214     -0.000103157     0.000114678       -0.0910279       0.0763796      0.000331987     0.000121496
                     0.000226488    -0.000202147        -0.657899        0.732429      0.000389276    -1.56316e-05         -0.16548      -0.0134382
281702.2                0.117224       0.0181421     -0.000141786     0.000369265        -0.955907        0.267467      0.000174572    -6.95864e-05
                    -0.000116002     0.000361011       -0.0315569       -0.162455     -0.000336267     0.000180379        -0.657886        0.732311
                       -0.955908         0.26724      -0.00010315     0.000114679       -0.0910252       0.0763787      0.000331988     0.000121487
                     0.000226489    -0.000202147        -0.657878        0.732447      0.000389276    -1.56514e-05        -0.165481      -0.0134362
281702.3                0.117222       0.0181364     -0.000141786     0.000369272          -0.9559        0.267493      0.000174569    -6.95886e-05
                    -0.000115999     0.000361006        -0.031564       -0.162455     -0.000336255     0.000180399        -0.657865        0.732329
                       -0.955901        0.267265     -0.000103143     0.000114679       -0.0910226       0.0763778       0.00033199     0.000121478
                      0.00022649    -0.000202146        -0.657858        0.732465      0.000389275    -1.56711e-05        -0.165482      -0.0134342
281702.4                 0.11722       0.0181307     -0.000141786     0.000369279        -0.955893        0.267518      0.000174565    -6.95909e-05
                    -0.000115996     0.000361001       -0.0315711       -0.162454     -0.000336243     0.000180418        -0.657845        0.732347
                       -0.955894        0.267291     -0.000103136      0.00011468       -0.0910199       0.0763768      0.000331991      0.00012147
                      0.00022649    -0.000202146        -0.657838        0.732483      0.000389274    -1.56908e-05        -0.165483      -0.0134322
281702.5                0.117218       0.0181251     -0.000141787     0.000369285        -0.955886        0.267544      0.000174561    -6.95931e-05
                    -0.000115993     0.000360996       -0.0315782       -0.162454     -0.000336231     0.000180437        -0.657825        0.732365
                       -0.955888        0.267316     -0.000103128     0.000114681       -0.0910172       0.0763759      0.000331992     0.000121461
                     0.000226491    -0.000202146        -0.657818        0.732501      0.000389273    -1.57106e-05        -0.165484      -0.0134302
281702.6                0.117217       0.0181194     -0.000141787     0.000369292         -0.95588        0.267569      0.000174557    -6.95953e-05
                    -0.000115989     0.000360991       -0.0315853       -0.162453     -0.000336219     0.000180457        -0.657804        0.732383
                       -0.955881        0.267342     -0.000103121     0.000114681       -0.0910146       0.0763749      0.000331993     0.000121452
                     0.000226492    -0.000202145        -0.657797        0.732519      0.000389272    -1.57303e-05        -0.165485      -0.0134282
281702.7                0.117215       0.0181138     -0.000141787     0.000369299        -0.955873        0.267595      0.000174554    -6.95975e-05
                    -0.000115986     0.000360986       -0.0315924       -0.162452     -0.000336207     0.000180476        -0.657784        0.732401
                       -0.955874        0.267367     -0.000103114     0.000114682       -0.0910119        0.076374      0.000331994     0.000121443
                     0.000226492    -0.000202145        -0.657777        0.732537      0.000389272      -1.575e-05        -0.165486      -0.0134262
281702.8                0.117213       0.0181081     -0.000141787     0.000369305        -0.955866         0.26762       0.00017455    -6.95998e-05
                    -0.000115983     0.000360981       -0.0315995       -0.162452     -0.000336195     0.000180495        -0.657764        0.732419
                       -0.955867        0.267393     -0.000103107     0.000114682       -0.0910093       0.0763731      0.000331995     0.000121434
                     0.000226493    -0.000202145        -0.657756        0.732555      0.000389271    -1.57698e-05        -0.165486      -0.0134242
281702.9                0.117211       0.0181024     -0.000141787     0.000369312        -0.955859        0.267645      0.000174546     -6.9602e-05
                     -0.00011598     0.000360976       -0.0316066       -0.162451     -0.000336184     0.000180515        -0.657744        0.732437
                        -0.95586        0.267418       -0.0001031     0.000114683       -0.0910066       0.0763721      0.000331997     0.000121425
                     0.000226494    -0.000202144        -0.657736        0.732573       0.00038927    -1.57895e-05        -0.165487      -0.0134222
281703                  0.117209       0.0180968     -0.000141788     0.000369319        -0.955852        0.267671      0.000174543    -6.96042e-05
                    -0.000115976     0.000360971       -0.0316137       -0.162451     -0.000336172     0.000180534        -0.657723        0.732455
                       -0.955854        0.267444     -0.000103092     0.000114683        -0.091004       0.0763712      0.000331998     0.000121417
                     0.000226494    -0.000202144        -0.657716        0.732591      0.000389269    -1.58092e-05        -0.165488      -0.0134202
281703.1                0.117208       0.0180911     -0.000141788     0.000369326        -0.955846        0.267696      0.000174539    -6.96065e-05
                    -0.000115973     0.000360966       -0.0316207        -0.16245      -0.00033616     0.000180554        -0.657703        0.732473
                       -0.955847        0.267469     -0.000103085     0.000114684       -0.0910013       0.0763703      0.000331999     0.000121408
