! TOUCHSTONE file generated by CST MICROWAVE STUDIO
! Date and time: Wed Oct  8 06:53:51 2025
! Project name: Teste_Macro_Metasurface_Nanopilar.cst
! Parameters = {H=600; L_x=95; L_y=140; Lambda=1064; Max_L=200; Min_L=70; PathPara=1; Phi=0; Step_L=10; Theta=0; p=520; phaseX=180; phaseY=0}
! Header version: 2018
! Port assignment regex: !\s*Touchstone port\s*([0-9]+)\s*=\s*(CST MWS port|CST DS port)\s*([0-9]+|Zmin|Zmax)\s*\(\"(.*)\"\)(\s*mode\s*([0-9]+))?.*
! Touchstone port assignment:
! Touchstone port 1 = CST MWS port Zmax ("") mode 1
! Touchstone port 2 = CST MWS port Zmax ("") mode 2
! Touchstone port 3 = CST MWS port Zmin ("") mode 1
! Touchstone port 4 = CST MWS port Zmin ("") mode 2
! S-Parameters are not renormalized. Each port impedance will be approximated by the real part at minimum frequency. The values are described via the [Reference] keyword.
! Default impedance is overridden by [Reference]
[Version] 2.0
# GHz S RI R 376.73
[Number of Ports] 4
[Reference]
376.73 376.73 376.73 376.73 
[Number of Frequencies] 1001
[Network Data]
281700                -0.0517719       -0.178076     -0.000407829     8.17811e-05         0.520067       -0.823299      0.000207676     0.000334386
                    -0.000295311     0.000118574        -0.145664        -0.15986     -0.000431604     3.41121e-05        -0.278969        0.932541
                        0.519992       -0.823306     -0.000531694     0.000111821        -0.185394       0.0325276      3.79647e-05     1.44874e-05
                     0.000149003     0.000469577        -0.278827        0.932064      3.35838e-05      0.00024029        -0.209734       0.0542271
281700.1               -0.051781       -0.178074      -0.00040781     8.17907e-05          0.52004       -0.823316      0.000207692     0.000334365
                     -0.00029527     0.000118566         -0.14567       -0.159854     -0.000431609     3.41158e-05        -0.278943         0.93255
                        0.519965       -0.823323     -0.000531682      0.00011184        -0.185393       0.0325307      3.79775e-05     1.44614e-05
                      0.00014901     0.000469558          -0.2788        0.932072      3.36079e-05     0.000240284        -0.209732       0.0542313
281700.2              -0.0517901       -0.178072     -0.000407791     8.18003e-05         0.520012       -0.823333      0.000207708     0.000334344
                    -0.000295229     0.000118558        -0.145675       -0.159848     -0.000431614     3.41195e-05        -0.278916        0.932558
                        0.519937        -0.82334     -0.000531671     0.000111858        -0.185393       0.0325338      3.79902e-05     1.44355e-05
                     0.000149017     0.000469539        -0.278774         0.93208      3.36319e-05     0.000240279        -0.209731       0.0542356
281700.3              -0.0517992        -0.17807     -0.000407772     8.18099e-05         0.519985        -0.82335      0.000207723     0.000334322
                    -0.000295189      0.00011855         -0.14568       -0.159843     -0.000431619     3.41232e-05        -0.278889        0.932566
                         0.51991       -0.823358     -0.000531659     0.000111876        -0.185393       0.0325368       3.8003e-05     1.44095e-05
                     0.000149024     0.000469519        -0.278747        0.932088       3.3656e-05     0.000240273        -0.209729       0.0542398
281700.4              -0.0518082       -0.178068     -0.000407753     8.18194e-05         0.519958       -0.823368      0.000207739     0.000334301
                    -0.000295148     0.000118542        -0.145686       -0.159837     -0.000431624     3.41269e-05        -0.278862        0.932574
                        0.519882       -0.823375     -0.000531648     0.000111894        -0.185393       0.0325399      3.80158e-05     1.43835e-05
                     0.000149031       0.0004695         -0.27872        0.932096      3.36801e-05     0.000240267        -0.209727        0.054244
281700.5              -0.0518173       -0.178066     -0.000407734      8.1829e-05          0.51993       -0.823385      0.000207755      0.00033428
                    -0.000295107     0.000118533        -0.145691       -0.159831      -0.00043163     3.41306e-05        -0.278835        0.932582
                        0.519855       -0.823392     -0.000531636     0.000111912        -0.185393        0.032543      3.80285e-05     1.43576e-05
                     0.000149037     0.000469481        -0.278693        0.932104      3.37041e-05     0.000240261        -0.209725       0.0542483
281700.6              -0.0518264       -0.178064     -0.000407715     8.18386e-05         0.519903       -0.823402      0.000207771     0.000334259
                    -0.000295067     0.000118525        -0.145697       -0.159825     -0.000431635     3.41343e-05        -0.278808         0.93259
                        0.519827       -0.823409     -0.000531625      0.00011193        -0.185393       0.0325461      3.80413e-05     1.43316e-05
                     0.000149044     0.000469461        -0.278666        0.932113      3.37282e-05     0.000240256        -0.209723       0.0542525
281700.7              -0.0518355       -0.178061     -0.000407696     8.18482e-05         0.519875       -0.823419      0.000207787     0.000334238
                    -0.000295026     0.000118517        -0.145702       -0.159819      -0.00043164      3.4138e-05        -0.278782        0.932599
                          0.5198       -0.823426     -0.000531613     0.000111949        -0.185393       0.0325492      3.80541e-05     1.43056e-05
                     0.000149051     0.000469442        -0.278639        0.932121      3.37522e-05      0.00024025        -0.209722       0.0542568
281700.8              -0.0518446       -0.178059     -0.000407676     8.18577e-05         0.519848       -0.823437      0.000207803     0.000334217
                    -0.000294985     0.000118509        -0.145707       -0.159814     -0.000431645     3.41417e-05        -0.278755        0.932607
                        0.519772       -0.823444     -0.000531602     0.000111967        -0.185393       0.0325523      3.80668e-05     1.42797e-05
                     0.000149058     0.000469423        -0.278612        0.932129      3.37763e-05     0.000240244         -0.20972        0.054261
281700.9              -0.0518537       -0.178057     -0.000407657     8.18673e-05          0.51982       -0.823454      0.000207818     0.000334196
                    -0.000294945     0.000118501        -0.145713       -0.159808      -0.00043165     3.41454e-05        -0.278728        0.932615
                        0.519745       -0.823461      -0.00053159     0.000111985        -0.185393       0.0325554      3.80796e-05     1.42537e-05
                     0.000149065     0.000469403        -0.278585        0.932137      3.38004e-05     0.000240239        -0.209718       0.0542652
281701                -0.0518627       -0.178055     -0.000407638     8.18768e-05         0.519793       -0.823471      0.000207834     0.000334174
                    -0.000294904     0.000118493        -0.145718       -0.159802     -0.000431655     3.41491e-05        -0.278701        0.932623
                        0.519717       -0.823478     -0.000531579     0.000112003        -0.185393       0.0325585      3.80924e-05     1.42277e-05
                     0.000149072     0.000469384        -0.278558        0.932145      3.38244e-05     0.000240233        -0.209716       0.0542695
281701.1              -0.0518718       -0.178053     -0.000407619     8.18864e-05         0.519766       -0.823488       0.00020785     0.000334153
                    -0.000294863     0.000118484        -0.145724       -0.159796      -0.00043166     3.41528e-05        -0.278674        0.932631
                         0.51969       -0.823495     -0.000531567     0.000112021        -0.185393       0.0325616      3.81052e-05     1.42017e-05
                     0.000149079     0.000469365        -0.278532        0.932153      3.38485e-05     0.000240227        -0.209715       0.0542737
281701.2              -0.0518809       -0.178051       -0.0004076      8.1896e-05         0.519738       -0.823506      0.000207866     0.000334132
                    -0.000294822     0.000118476        -0.145729        -0.15979     -0.000431665     3.41566e-05        -0.278647        0.932639
                        0.519663       -0.823512     -0.000531556     0.000112039        -0.185393       0.0325647      3.81179e-05     1.41757e-05
                     0.000149086     0.000469345        -0.278505        0.932161      3.38726e-05     0.000240222        -0.209713       0.0542779
281701.3                -0.05189       -0.178049     -0.000407581     8.19055e-05         0.519711       -0.823523      0.000207882     0.000334111
                    -0.000294782     0.000118468        -0.145734       -0.159785      -0.00043167     3.41603e-05        -0.278621        0.932648
                        0.519635        -0.82353     -0.000531544     0.000112057        -0.185393       0.0325678      3.81307e-05     1.41497e-05
                     0.000149092     0.000469326        -0.278478        0.932169      3.38966e-05     0.000240216        -0.209711       0.0542822
281701.4              -0.0518991       -0.178047     -0.000407562     8.19151e-05         0.519683        -0.82354      0.000207898      0.00033409
                    -0.000294741      0.00011846         -0.14574       -0.159779     -0.000431675      3.4164e-05        -0.278594        0.932656
                        0.519608       -0.823547     -0.000531532     0.000112076        -0.185392       0.0325709      3.81435e-05     1.41238e-05
                     0.000149099     0.000469307        -0.278451        0.932177      3.39207e-05      0.00024021        -0.209709       0.0542864
281701.5              -0.0519082       -0.178045     -0.000407542     8.19246e-05         0.519656       -0.823557      0.000207913     0.000334069
                      -0.0002947     0.000118452        -0.145745       -0.159773     -0.000431681     3.41677e-05        -0.278567        0.932664
                         0.51958       -0.823564     -0.000531521     0.000112094        -0.185392        0.032574      3.81563e-05     1.40978e-05
                     0.000149106     0.000469287        -0.278424        0.932186      3.39448e-05     0.000240204        -0.209707       0.0542906
281701.6              -0.0519172       -0.178043     -0.000407523     8.19342e-05         0.519628       -0.823574      0.000207929     0.000334047
                    -0.000294659     0.000118443        -0.145751       -0.159767     -0.000431686     3.41714e-05         -0.27854        0.932672
                        0.519553       -0.823581     -0.000531509     0.000112112        -0.185392       0.0325771      3.81691e-05     1.40718e-05
                     0.000149113     0.000469268        -0.278397        0.932194      3.39688e-05     0.000240199        -0.209706       0.0542949
281701.7              -0.0519263       -0.178041     -0.000407504     8.19437e-05         0.519601       -0.823592      0.000207945     0.000334026
                    -0.000294618     0.000118435        -0.145756       -0.159761     -0.000431691     3.41752e-05        -0.278513         0.93268
                        0.519525       -0.823598     -0.000531498      0.00011213        -0.185392       0.0325802      3.81818e-05     1.40458e-05
                      0.00014912     0.000469248         -0.27837        0.932202      3.39929e-05     0.000240193        -0.209704       0.0542991
281701.8              -0.0519354       -0.178039     -0.000407485     8.19533e-05         0.519574       -0.823609      0.000207961     0.000334005
                    -0.000294577     0.000118427        -0.145761       -0.159756     -0.000431696     3.41789e-05        -0.278486        0.932688
                        0.519498       -0.823615     -0.000531486     0.000112148        -0.185392       0.0325833      3.81946e-05     1.40198e-05
                     0.000149127     0.000469229        -0.278343         0.93221      3.40169e-05     0.000240187        -0.209702       0.0543034
281701.9              -0.0519445       -0.178037     -0.000407466     8.19628e-05         0.519546       -0.823626      0.000207977     0.000333984
                    -0.000294536     0.000118419        -0.145767        -0.15975     -0.000431701     3.41826e-05         -0.27846        0.932697
                         0.51947       -0.823633     -0.000531474     0.000112166        -0.185392       0.0325863      3.82074e-05     1.39938e-05
                     0.000149133     0.000469209        -0.278316        0.932218       3.4041e-05     0.000240182          -0.2097       0.0543076
281702                -0.0519536       -0.178035     -0.000407446     8.19724e-05         0.519519       -0.823643      0.000207993     0.000333963
                    -0.000294495      0.00011841        -0.145772       -0.159744     -0.000431706     3.41863e-05        -0.278433        0.932705
                        0.519443        -0.82365     -0.000531463     0.000112185        -0.185392       0.0325894      3.82202e-05     1.39678e-05
                      0.00014914      0.00046919        -0.278289        0.932226      3.40651e-05     0.000240176        -0.209699       0.0543118
281702.1              -0.0519627       -0.178033     -0.000407427     8.19819e-05         0.519491       -0.823661      0.000208009     0.000333941
                    -0.000294455     0.000118402        -0.145778       -0.159738     -0.000431711     3.41901e-05        -0.278406        0.932713
                        0.519415       -0.823667     -0.000531451     0.000112203        -0.185392       0.0325925       3.8233e-05     1.39417e-05
                     0.000149147      0.00046917        -0.278263        0.932234      3.40891e-05      0.00024017        -0.209697       0.0543161
281702.2              -0.0519717       -0.178031     -0.000407408     8.19914e-05         0.519464       -0.823678      0.000208024      0.00033392
                    -0.000294414     0.000118394        -0.145783       -0.159732     -0.000431716     3.41938e-05        -0.278379        0.932721
                        0.519388       -0.823684      -0.00053144     0.000112221        -0.185392       0.0325956      3.82458e-05     1.39157e-05
                     0.000149154     0.000469151        -0.278236        0.932242      3.41132e-05     0.000240164        -0.209695       0.0543203
281702.3              -0.0519808       -0.178029     -0.000407389      8.2001e-05         0.519436       -0.823695       0.00020804     0.000333899
                    -0.000294373     0.000118386        -0.145788       -0.159727     -0.000431721     3.41975e-05        -0.278352        0.932729
                         0.51936       -0.823701     -0.000531428     0.000112239        -0.185392       0.0325987      3.82586e-05     1.38897e-05
                     0.000149161     0.000469132        -0.278209         0.93225      3.41373e-05     0.000240159        -0.209693       0.0543245
281702.4              -0.0519899       -0.178026     -0.000407369     8.20105e-05         0.519409       -0.823712      0.000208056     0.000333878
                    -0.000294332     0.000118378        -0.145794       -0.159721     -0.000431727     3.42013e-05        -0.278325        0.932737
                        0.519333       -0.823719     -0.000531416     0.000112257        -0.185392       0.0326018      3.82714e-05     1.38637e-05
                     0.000149168     0.000469112        -0.278182        0.932258      3.41613e-05     0.000240153        -0.209691       0.0543288
281702.5               -0.051999       -0.178024      -0.00040735       8.202e-05         0.519382       -0.823729      0.000208072     0.000333857
                    -0.000294291     0.000118369        -0.145799       -0.159715     -0.000431732      3.4205e-05        -0.278299        0.932746
                        0.519305       -0.823736     -0.000531405     0.000112275        -0.185392       0.0326049      3.82842e-05     1.38377e-05
                     0.000149174     0.000469093        -0.278155        0.932267      3.41854e-05     0.000240147         -0.20969        0.054333
281702.6              -0.0520081       -0.178022     -0.000407331     8.20296e-05         0.519354       -0.823747      0.000208088     0.000333836
                     -0.00029425     0.000118361        -0.145804       -0.159709     -0.000431737     3.42087e-05        -0.278272        0.932754
                        0.519278       -0.823753     -0.000531393     0.000112293        -0.185392        0.032608       3.8297e-05     1.38116e-05
                     0.000149181     0.000469073        -0.278128        0.932275      3.42095e-05     0.000240141        -0.209688       0.0543372
281702.7              -0.0520171        -0.17802     -0.000407312     8.20391e-05         0.519327       -0.823764      0.000208104     0.000333814
                    -0.000294209     0.000118353         -0.14581       -0.159703     -0.000431742     3.42125e-05        -0.278245        0.932762
                         0.51925        -0.82377     -0.000531381     0.000112312        -0.185391       0.0326111      3.83098e-05     1.37856e-05
                     0.000149188     0.000469054        -0.278101        0.932283      3.42335e-05     0.000240136        -0.209686       0.0543415
281702.8              -0.0520262       -0.178018     -0.000407292     8.20486e-05         0.519299       -0.823781      0.000208119     0.000333793
                    -0.000294168     0.000118345        -0.145815       -0.159698     -0.000431747     3.42162e-05        -0.278218         0.93277
                        0.519223       -0.823787      -0.00053137      0.00011233        -0.185391       0.0326142      3.83225e-05     1.37596e-05
                     0.000149195     0.000469034        -0.278074        0.932291      3.42576e-05      0.00024013        -0.209684       0.0543457
281702.9              -0.0520353       -0.178016     -0.000407273     8.20581e-05         0.519272       -0.823798      0.000208135     0.000333772
                    -0.000294127     0.000118336        -0.145821       -0.159692     -0.000431752       3.422e-05        -0.278191        0.932778
                        0.519196       -0.823804     -0.000531358     0.000112348        -0.185391       0.0326173      3.83353e-05     1.37335e-05
                     0.000149202     0.000469015        -0.278047        0.932299      3.42817e-05     0.000240124        -0.209683       0.0543499
281703                -0.0520444       -0.178014     -0.000407254     8.20676e-05         0.519244       -0.823816      0.000208151     0.000333751
                    -0.000294086     0.000118328        -0.145826       -0.159686     -0.000431757     3.42237e-05        -0.278164        0.932786
                        0.519168       -0.823822     -0.000531346     0.000112366        -0.185391       0.0326204      3.83482e-05     1.37075e-05
                     0.000149209     0.000468995        -0.278021        0.932307      3.43058e-05     0.000240118        -0.209681       0.0543542
281703.1              -0.0520535       -0.178012     -0.000407235     8.20772e-05         0.519217       -0.823833      0.000208167      0.00033373
                    -0.000294044      0.00011832        -0.145831        -0.15968     -0.000431762     3.42275e-05        -0.278138        0.932795
                        0.519141       -0.823839     -0.000531335     0.000112384        -0.185391       0.0326235       3.8361e-05     1.36815e-05
