! TOUCHSTONE file generated by CST MICROWAVE STUDIO
! Date and time: Wed Oct  8 06:53:54 2025
! Project name: Teste_Macro_Metasurface_Nanopilar.cst
! Parameters = {H=600; L_x=95; L_y=150; Lambda=1064; Max_L=200; Min_L=70; PathPara=1; Phi=0; Step_L=10; Theta=0; p=520; phaseX=180; phaseY=0}
! Header version: 2018
! Port assignment regex: !\s*Touchstone port\s*([0-9]+)\s*=\s*(CST MWS port|CST DS port)\s*([0-9]+|Zmin|Zmax)\s*\(\"(.*)\"\)(\s*mode\s*([0-9]+))?.*
! Touchstone port assignment:
! Touchstone port 1 = CST MWS port Zmax ("") mode 1
! Touchstone port 2 = CST MWS port Zmax ("") mode 2
! Touchstone port 3 = CST MWS port Zmin ("") mode 1
! Touchstone port 4 = CST MWS port Zmin ("") mode 2
! S-Parameters are not renormalized. Each port impedance will be approximated by the real part at minimum frequency. The values are described via the [Reference] keyword.
! Default impedance is overridden by [Reference]
[Version] 2.0
# GHz S RI R 376.73
[Number of Ports] 4
[Reference]
376.73 376.73 376.73 376.73 
[Number of Frequencies] 1001
[Network Data]
281700                 -0.199757       -0.106373     -0.000696425    -0.000319608       -0.0185654       -0.967498      0.000387612     0.000185135
                    -0.000518681    -0.000388794        -0.182475       -0.134421     -0.000244775     0.000244978        -0.135812        0.960709
                      -0.0184473       -0.967354     -0.000296175     0.000125361        -0.196375        0.114423      0.000739746    -7.66539e-05
                     0.000160656      0.00012339        -0.135862        0.960497      0.000595686     -0.00026545        -0.212723       0.0788447
281700.1               -0.199759       -0.106364     -0.000696433    -0.000319633       -0.0185957       -0.967498      0.000387607     0.000185106
                    -0.000518692    -0.000388784        -0.182478       -0.134414     -0.000244768     0.000244995        -0.135784        0.960713
                      -0.0184776       -0.967354     -0.000296159      0.00012535         -0.19637        0.114427      0.000739751    -7.66914e-05
                     0.000160654     0.000123381        -0.135834        0.960501      0.000595683    -0.000265481         -0.21272       0.0788491
281700.2               -0.199761       -0.106356      -0.00069644    -0.000319659        -0.018626       -0.967498      0.000387602     0.000185077
                    -0.000518704    -0.000388774        -0.182482       -0.134407     -0.000244761     0.000245011        -0.135755        0.960718
                      -0.0185079       -0.967354     -0.000296144     0.000125338        -0.196365        0.114432      0.000739757     -7.6729e-05
                     0.000160651     0.000123371        -0.135806        0.960506      0.000595679    -0.000265512        -0.212717       0.0788536
281700.3               -0.199763       -0.106348     -0.000696447    -0.000319684       -0.0186563       -0.967498      0.000387597     0.000185049
                    -0.000518715    -0.000388764        -0.182486         -0.1344     -0.000244754     0.000245027        -0.135727        0.960722
                      -0.0185382       -0.967354     -0.000296128     0.000125326         -0.19636        0.114436      0.000739763    -7.67665e-05
                     0.000160649     0.000123362        -0.135778         0.96051      0.000595675    -0.000265543        -0.212714       0.0788581
281700.4               -0.199765        -0.10634     -0.000696454     -0.00031971       -0.0186867       -0.967498      0.000387593      0.00018502
                    -0.000518727    -0.000388754        -0.182489       -0.134392     -0.000244746     0.000245044        -0.135699        0.960726
                      -0.0185685       -0.967354     -0.000296113     0.000125314        -0.196355         0.11444      0.000739769     -7.6804e-05
                     0.000160647     0.000123353         -0.13575        0.960514      0.000595672    -0.000265574        -0.212711       0.0788626
281700.5               -0.199767       -0.106332     -0.000696462    -0.000319735        -0.018717       -0.967497      0.000387588     0.000184991
                    -0.000518738    -0.000388744        -0.182493       -0.134385     -0.000244739      0.00024506        -0.135671        0.960731
                      -0.0185988       -0.967354     -0.000296097     0.000125302         -0.19635        0.114444      0.000739774    -7.68415e-05
                     0.000160645     0.000123344        -0.135721        0.960519      0.000595668    -0.000265605        -0.212708        0.078867
281700.6               -0.199768       -0.106324     -0.000696469     -0.00031976       -0.0187473       -0.967497      0.000387583     0.000184962
                    -0.000518749    -0.000388733        -0.182497       -0.134378     -0.000244732     0.000245077        -0.135643        0.960735
                      -0.0186291       -0.967354     -0.000296082      0.00012529        -0.196345        0.114448       0.00073978     -7.6879e-05
                     0.000160643     0.000123334        -0.135693        0.960523      0.000595664    -0.000265636        -0.212705       0.0788715
281700.7                -0.19977       -0.106316     -0.000696476    -0.000319786       -0.0187776       -0.967497      0.000387578     0.000184933
                    -0.000518761    -0.000388723          -0.1825       -0.134371     -0.000244724     0.000245093        -0.135615        0.960739
                      -0.0186594       -0.967354     -0.000296066     0.000125279         -0.19634        0.114452      0.000739786    -7.69166e-05
                     0.000160641     0.000123325        -0.135665        0.960527      0.000595661    -0.000265667        -0.212702        0.078876
281700.8               -0.199772       -0.106307     -0.000696483    -0.000319811       -0.0188079       -0.967497      0.000387573     0.000184905
                    -0.000518772    -0.000388713        -0.182504       -0.134364     -0.000244717     0.000245109        -0.135587        0.960743
                      -0.0186897       -0.967354      -0.00029605     0.000125267        -0.196335        0.114456      0.000739792    -7.69541e-05
                     0.000160638     0.000123316        -0.135637        0.960531      0.000595657    -0.000265697        -0.212699       0.0788805
281700.9               -0.199774       -0.106299     -0.000696491    -0.000319836       -0.0188382       -0.967497      0.000387569     0.000184876
                    -0.000518784    -0.000388703        -0.182508       -0.134356      -0.00024471     0.000245126        -0.135559        0.960748
                        -0.01872       -0.967354     -0.000296035     0.000125255         -0.19633         0.11446      0.000739797    -7.69917e-05
                     0.000160636     0.000123306        -0.135609        0.960536      0.000595653    -0.000265728        -0.212696       0.0788849
281701                 -0.199776       -0.106291     -0.000696498    -0.000319862       -0.0188686       -0.967497      0.000387564     0.000184847
                    -0.000518795    -0.000388693        -0.182512       -0.134349     -0.000244702     0.000245142         -0.13553        0.960752
                      -0.0187503       -0.967354     -0.000296019     0.000125243        -0.196325        0.114464      0.000739803    -7.70292e-05
                     0.000160634     0.000123297        -0.135581         0.96054       0.00059565    -0.000265759        -0.212693       0.0788894
281701.1               -0.199778       -0.106283     -0.000696505    -0.000319887       -0.0188989       -0.967497      0.000387559     0.000184818
                    -0.000518806    -0.000388683        -0.182515       -0.134342     -0.000244695     0.000245159        -0.135502        0.960756
                      -0.0187806       -0.967354     -0.000296004     0.000125232         -0.19632        0.114469      0.000739809    -7.70667e-05
                     0.000160632     0.000123288        -0.135553        0.960544      0.000595646     -0.00026579         -0.21269       0.0788939
281701.2                -0.19978       -0.106275     -0.000696512    -0.000319912       -0.0189292       -0.967497      0.000387554     0.000184789
                    -0.000518818    -0.000388672        -0.182519       -0.134335     -0.000244688     0.000245175        -0.135474         0.96076
                      -0.0188109       -0.967354     -0.000295988      0.00012522        -0.196315        0.114473      0.000739815    -7.71043e-05
                      0.00016063     0.000123279        -0.135524        0.960548      0.000595642    -0.000265821        -0.212687       0.0788983
281701.3               -0.199782       -0.106267      -0.00069652    -0.000319938       -0.0189595       -0.967497      0.000387549     0.000184761
                    -0.000518829    -0.000388662        -0.182523       -0.134327      -0.00024468     0.000245191        -0.135446        0.960765
                      -0.0188412       -0.967354     -0.000295973     0.000125208         -0.19631        0.114477       0.00073982    -7.71418e-05
                     0.000160628     0.000123269        -0.135496        0.960553      0.000595638    -0.000265852        -0.212684       0.0789028
281701.4               -0.199784       -0.106258     -0.000696527    -0.000319963       -0.0189898       -0.967497      0.000387545     0.000184732
                    -0.000518841    -0.000388652        -0.182526        -0.13432     -0.000244673     0.000245208        -0.135418        0.960769
                      -0.0188715       -0.967353     -0.000295957     0.000125197        -0.196305        0.114481      0.000739826    -7.71794e-05
                     0.000160625      0.00012326        -0.135468        0.960557      0.000595635    -0.000265883        -0.212681       0.0789073
281701.5               -0.199785        -0.10625     -0.000696534    -0.000319988       -0.0190201       -0.967497       0.00038754     0.000184703
                    -0.000518852    -0.000388642         -0.18253       -0.134313     -0.000244666     0.000245224         -0.13539        0.960773
                      -0.0189018       -0.967353     -0.000295941     0.000125185        -0.196301        0.114485      0.000739832     -7.7217e-05
                     0.000160623     0.000123251         -0.13544        0.960561      0.000595631    -0.000265914        -0.212678       0.0789118
281701.6               -0.199787       -0.106242     -0.000696541    -0.000320014       -0.0190504       -0.967497      0.000387535     0.000184674
                    -0.000518863    -0.000388632        -0.182534       -0.134306     -0.000244658     0.000245241        -0.135362        0.960778
                      -0.0189321       -0.967353     -0.000295926     0.000125173        -0.196296        0.114489      0.000739838    -7.72545e-05
                     0.000160621     0.000123242        -0.135412        0.960565      0.000595627    -0.000265944        -0.212675       0.0789162
281701.7               -0.199789       -0.106234     -0.000696548    -0.000320039       -0.0190808       -0.967497       0.00038753     0.000184645
                    -0.000518875    -0.000388622        -0.182537       -0.134299     -0.000244651     0.000245257        -0.135334        0.960782
                      -0.0189624       -0.967353      -0.00029591     0.000125162        -0.196291        0.114493      0.000739843    -7.72921e-05
                     0.000160619     0.000123232        -0.135384        0.960569      0.000595624    -0.000265975        -0.212671       0.0789207
281701.8               -0.199791       -0.106226     -0.000696556    -0.000320064       -0.0191111       -0.967497      0.000387525     0.000184616
                    -0.000518886    -0.000388611        -0.182541       -0.134291     -0.000244644     0.000245273        -0.135306        0.960786
                      -0.0189927       -0.967353     -0.000295895      0.00012515        -0.196286        0.114497      0.000739849    -7.73297e-05
                     0.000160617     0.000123223        -0.135356        0.960574       0.00059562    -0.000266006        -0.212668       0.0789252
281701.9               -0.199793       -0.106218     -0.000696563    -0.000320089       -0.0191414       -0.967497       0.00038752     0.000184588
                    -0.000518897    -0.000388601        -0.182545       -0.134284     -0.000244636      0.00024529        -0.135277         0.96079
                       -0.019023       -0.967353     -0.000295879     0.000125139        -0.196281        0.114502      0.000739855    -7.73672e-05
                     0.000160615     0.000123214        -0.135327        0.960578      0.000595616    -0.000266037        -0.212665       0.0789297
281702                 -0.199795        -0.10621      -0.00069657    -0.000320115       -0.0191717       -0.967497      0.000387516     0.000184559
                    -0.000518909    -0.000388591        -0.182548       -0.134277     -0.000244629     0.000245306        -0.135249        0.960795
                      -0.0190533       -0.967353     -0.000295864     0.000125127        -0.196276        0.114506      0.000739861    -7.74048e-05
                     0.000160612     0.000123205        -0.135299        0.960582      0.000595613    -0.000266068        -0.212662       0.0789341
281702.1               -0.199797       -0.106201     -0.000696577     -0.00032014        -0.019202       -0.967496      0.000387511      0.00018453
                     -0.00051892    -0.000388581        -0.182552        -0.13427     -0.000244622     0.000245323        -0.135221        0.960799
                      -0.0190836       -0.967353     -0.000295848     0.000125115        -0.196271         0.11451      0.000739866    -7.74424e-05
                      0.00016061     0.000123195        -0.135271        0.960586      0.000595609    -0.000266099        -0.212659       0.0789386
281702.2               -0.199799       -0.106193     -0.000696584    -0.000320165       -0.0192323       -0.967496      0.000387506     0.000184501
                    -0.000518932    -0.000388571        -0.182556       -0.134263     -0.000244614     0.000245339        -0.135193        0.960803
                      -0.0191138       -0.967353     -0.000295832     0.000125104        -0.196266        0.114514      0.000739872      -7.748e-05
                     0.000160608     0.000123186        -0.135243        0.960591      0.000595605     -0.00026613        -0.212656       0.0789431
281702.3               -0.199801       -0.106185     -0.000696591    -0.000320191       -0.0192627       -0.967496      0.000387501     0.000184472
                    -0.000518943    -0.000388561         -0.18256       -0.134255     -0.000244607     0.000245356        -0.135165        0.960807
                      -0.0191441       -0.967353     -0.000295817     0.000125092        -0.196261        0.114518      0.000739878    -7.75176e-05
                     0.000160606     0.000123177        -0.135215        0.960595      0.000595602     -0.00026616        -0.212653       0.0789476
281702.4               -0.199802       -0.106177     -0.000696598    -0.000320216        -0.019293       -0.967496      0.000387496     0.000184443
                    -0.000518954     -0.00038855        -0.182563       -0.134248       -0.0002446     0.000245372        -0.135137        0.960812
                      -0.0191744       -0.967353     -0.000295801     0.000125081        -0.196256        0.114522      0.000739884    -7.75552e-05
                     0.000160604     0.000123168        -0.135187        0.960599      0.000595598    -0.000266191         -0.21265        0.078952
281702.5               -0.199804       -0.106169     -0.000696606    -0.000320241       -0.0193233       -0.967496      0.000387491     0.000184415
                    -0.000518966     -0.00038854        -0.182567       -0.134241     -0.000244592     0.000245388        -0.135109        0.960816
                      -0.0192047       -0.967353     -0.000295786     0.000125069        -0.196251        0.114526      0.000739889    -7.75928e-05
                     0.000160602     0.000123158        -0.135159        0.960603      0.000595594    -0.000266222        -0.212647       0.0789565
281702.6               -0.199806       -0.106161     -0.000696613    -0.000320267       -0.0193536       -0.967496      0.000387486     0.000184386
                    -0.000518977     -0.00038853        -0.182571       -0.134234     -0.000244585     0.000245405        -0.135081         0.96082
                       -0.019235       -0.967353      -0.00029577     0.000125058        -0.196246         0.11453      0.000739895    -7.76304e-05
                     0.000160599     0.000123149        -0.135131        0.960608      0.000595591    -0.000266253        -0.212644        0.078961
281702.7               -0.199808       -0.106152      -0.00069662    -0.000320292       -0.0193839       -0.967496      0.000387482     0.000184357
                    -0.000518989     -0.00038852        -0.182574       -0.134227     -0.000244577     0.000245421        -0.135053        0.960824
                      -0.0192653       -0.967353     -0.000295755     0.000125046        -0.196241        0.114534      0.000739901     -7.7668e-05
                     0.000160597      0.00012314        -0.135102        0.960612      0.000595587    -0.000266284        -0.212641       0.0789654
281702.8                -0.19981       -0.106144     -0.000696627    -0.000320317       -0.0194142       -0.967496      0.000387477     0.000184328
                       -0.000519     -0.00038851        -0.182578       -0.134219      -0.00024457     0.000245438        -0.135024        0.960829
                      -0.0192956       -0.967353     -0.000295739     0.000125035        -0.196236        0.114539      0.000739906    -7.77056e-05
                     0.000160595     0.000123131        -0.135074        0.960616      0.000595583    -0.000266315        -0.212638       0.0789699
281702.9               -0.199812       -0.106136     -0.000696634    -0.000320342       -0.0194445       -0.967496      0.000387472     0.000184299
                    -0.000519011    -0.000388499        -0.182582       -0.134212     -0.000244563     0.000245454        -0.134996        0.960833
                      -0.0193259       -0.967353     -0.000295723     0.000125023        -0.196231        0.114543      0.000739912    -7.77432e-05
                     0.000160593     0.000123121        -0.135046         0.96062      0.000595579    -0.000266346        -0.212635       0.0789744
281703                 -0.199814       -0.106128     -0.000696641    -0.000320368       -0.0194749       -0.967496      0.000387467      0.00018427
                    -0.000519023    -0.000388489        -0.182585       -0.134205     -0.000244555     0.000245471        -0.134968        0.960837
                      -0.0193562       -0.967353     -0.000295708     0.000125012        -0.196226        0.114547      0.000739918    -7.77808e-05
                     0.000160591     0.000123112        -0.135018        0.960625      0.000595576    -0.000266377        -0.212632       0.0789789
281703.1               -0.199816        -0.10612     -0.000696648    -0.000320393       -0.0195052       -0.967496      0.000387462     0.000184242
                    -0.000519034    -0.000388479        -0.182589       -0.134198     -0.000244548     0.000245487         -0.13494        0.960841
                      -0.0193865       -0.967352     -0.000295692        0.000125        -0.196221        0.114551      0.000739924    -7.78184e-05
