! TOUCHSTONE file generated by CST MICROWAVE STUDIO
! Date and time: Wed Oct  8 06:56:38 2025
! Project name: Teste_Macro_Metasurface_Nanopilar.cst
! Parameters = {H=600; L_x=120; L_y=95; Lambda=1064; Max_L=200; Min_L=70; PathPara=1; Phi=0; Step_L=10; Theta=0; p=520; phaseX=180; phaseY=0}
! Header version: 2018
! Port assignment regex: !\s*Touchstone port\s*([0-9]+)\s*=\s*(CST MWS port|CST DS port)\s*([0-9]+|Zmin|Zmax)\s*\(\"(.*)\"\)(\s*mode\s*([0-9]+))?.*
! Touchstone port assignment:
! Touchstone port 1 = CST MWS port Zmax ("") mode 1
! Touchstone port 2 = CST MWS port Zmax ("") mode 2
! Touchstone port 3 = CST MWS port Zmin ("") mode 1
! Touchstone port 4 = CST MWS port Zmin ("") mode 2
! S-Parameters are not renormalized. Each port impedance will be approximated by the real part at minimum frequency. The values are described via the [Reference] keyword.
! Default impedance is overridden by [Reference]
[Version] 2.0
# GHz S RI R 376.73
[Number of Ports] 4
[Reference]
376.73 376.73 376.73 376.73 
[Number of Frequencies] 1001
[Network Data]
281700                -0.0536302       -0.177846      0.000278925    -0.000237093        -0.551774        0.810282     -9.98889e-05    -0.000350192
                     0.000366253    -0.000302845         -0.23484        0.144004      -0.00013137     0.000401552         0.513151        0.804166
                       -0.552213         0.81035     -0.000168329     0.000402625        -0.185492        0.015862      0.000186302     0.000224063
                    -0.000247664    -0.000142541         0.513213        0.803998      4.39477e-05     8.44964e-05        -0.231354        0.151843
281700.1              -0.0536374       -0.177844      0.000278922    -0.000237087        -0.551751        0.810297      -9.9901e-05    -0.000350193
                     0.000366243     -0.00030285        -0.234832        0.144011     -0.000131361     0.000401554         0.513177        0.804151
                        -0.55219        0.810366     -0.000168325     0.000402634        -0.185492       0.0158649      0.000186303     0.000224057
                    -0.000247664    -0.000142528          0.51324        0.803982      4.39438e-05     8.44972e-05        -0.231347        0.151848
281700.2              -0.0536446       -0.177842      0.000278918     -0.00023708        -0.551728        0.810313     -9.99131e-05    -0.000350194
                     0.000366234    -0.000302855        -0.234825        0.144018     -0.000131352     0.000401555         0.513203        0.804135
                       -0.552168        0.810381     -0.000168321     0.000402642        -0.185492       0.0158678      0.000186304     0.000224051
                    -0.000247665    -0.000142515         0.513266        0.803967      4.39399e-05     8.44979e-05        -0.231341        0.151853
281700.3              -0.0536518        -0.17784      0.000278915    -0.000237074        -0.551706        0.810328     -9.99252e-05    -0.000350195
                     0.000366225     -0.00030286        -0.234817        0.144024     -0.000131343     0.000401557          0.51323        0.804119
                       -0.552145        0.810396     -0.000168318     0.000402651        -0.185492       0.0158707      0.000186304     0.000224046
                    -0.000247665    -0.000142502         0.513292        0.803951       4.3936e-05     8.44987e-05        -0.231334        0.151858
281700.4               -0.053659       -0.177838      0.000278912    -0.000237068        -0.551683        0.810344     -9.99372e-05    -0.000350196
                     0.000366216    -0.000302865        -0.234809        0.144031     -0.000131333     0.000401558         0.513256        0.804103
                       -0.552123        0.810412     -0.000168314     0.000402659        -0.185491       0.0158736      0.000186305      0.00022404
                    -0.000247666    -0.000142489         0.513319        0.803935      4.39321e-05     8.44994e-05        -0.231327        0.151863
281700.5              -0.0536662       -0.177836      0.000278909    -0.000237061         -0.55166        0.810359     -9.99493e-05    -0.000350197
                     0.000366206     -0.00030287        -0.234802        0.144038     -0.000131324      0.00040156         0.513282        0.804087
                         -0.5521        0.810427      -0.00016831     0.000402668        -0.185491       0.0158765      0.000186305     0.000224034
                    -0.000247666    -0.000142476         0.513345        0.803919      4.39282e-05     8.45002e-05         -0.23132        0.151868
281700.6              -0.0536734       -0.177834      0.000278906    -0.000237055        -0.551638        0.810374     -9.99614e-05    -0.000350198
                     0.000366197    -0.000302875        -0.234794        0.144044     -0.000131315     0.000401561         0.513309        0.804071
                       -0.552077        0.810442     -0.000168307     0.000402676        -0.185491       0.0158794      0.000186306     0.000224029
                    -0.000247666    -0.000142463         0.513371        0.803903      4.39243e-05     8.45009e-05        -0.231313        0.151873
281700.7              -0.0536806       -0.177832      0.000278902    -0.000237048        -0.551615         0.81039     -9.99735e-05    -0.000350199
                     0.000366188     -0.00030288        -0.234786        0.144051     -0.000131306     0.000401562         0.513335        0.804056
                       -0.552055        0.810458     -0.000168303     0.000402684        -0.185491       0.0158824      0.000186307     0.000224023
                    -0.000247667     -0.00014245         0.513398        0.803887      4.39203e-05     8.45017e-05        -0.231306        0.151878
281700.8              -0.0536878        -0.17783      0.000278899    -0.000237042        -0.551592        0.810405     -9.99856e-05      -0.0003502
                     0.000366178    -0.000302885        -0.234779        0.144058     -0.000131296     0.000401564         0.513361         0.80404
                       -0.552032        0.810473     -0.000168299     0.000402693        -0.185491       0.0158853      0.000186307     0.000224018
                    -0.000247667    -0.000142438         0.513424        0.803872      4.39164e-05     8.45024e-05        -0.231299        0.151883
281700.9               -0.053695       -0.177828      0.000278896    -0.000237036         -0.55157         0.81042     -9.99977e-05    -0.000350201
                     0.000366169    -0.000302891        -0.234771        0.144064     -0.000131287     0.000401565         0.513388        0.804024
                       -0.552009        0.810489     -0.000168296     0.000402701        -0.185491       0.0158882      0.000186308     0.000224012
                    -0.000247668    -0.000142425          0.51345        0.803856      4.39125e-05     8.45032e-05        -0.231292        0.151888
281701                -0.0537022       -0.177826      0.000278893    -0.000237029        -0.551547        0.810436      -0.00010001    -0.000350202
                      0.00036616    -0.000302896        -0.234763        0.144071     -0.000131278     0.000401567         0.513414        0.804008
                       -0.551987        0.810504     -0.000168292      0.00040271        -0.185491       0.0158911      0.000186308     0.000224006
                    -0.000247668    -0.000142412         0.513477         0.80384      4.39086e-05     8.45039e-05        -0.231285        0.151893
281701.1              -0.0537094       -0.177824       0.00027889    -0.000237023        -0.551524        0.810451     -0.000100022    -0.000350203
                     0.000366151    -0.000302901        -0.234756        0.144078     -0.000131269     0.000401568         0.513441        0.803992
                       -0.551964        0.810519     -0.000168288     0.000402718        -0.185491        0.015894      0.000186309     0.000224001
                    -0.000247669    -0.000142399         0.513503        0.803824      4.39047e-05     8.45047e-05        -0.231278        0.151898
281701.2              -0.0537165       -0.177822      0.000278886    -0.000237017        -0.551502        0.810467     -0.000100034    -0.000350204
                     0.000366141    -0.000302906        -0.234748        0.144085     -0.000131259      0.00040157         0.513467        0.803976
                       -0.551941        0.810535     -0.000168285     0.000402727        -0.185491       0.0158969      0.000186309     0.000223995
                    -0.000247669    -0.000142386         0.513529        0.803808      4.39007e-05     8.45054e-05        -0.231271        0.151903
281701.3              -0.0537237        -0.17782      0.000278883     -0.00023701        -0.551479        0.810482     -0.000100046    -0.000350205
                     0.000366132    -0.000302911         -0.23474        0.144091      -0.00013125     0.000401571         0.513493        0.803961
                       -0.551919         0.81055     -0.000168281     0.000402735        -0.185491       0.0158998       0.00018631     0.000223989
                    -0.000247669    -0.000142373         0.513556        0.803793      4.38968e-05     8.45062e-05        -0.231264        0.151908
281701.4              -0.0537309       -0.177818       0.00027888    -0.000237004        -0.551456        0.810497     -0.000100058    -0.000350206
                     0.000366123    -0.000302916        -0.234733        0.144098     -0.000131241     0.000401573          0.51352        0.803945
                       -0.551896        0.810566     -0.000168278     0.000402744         -0.18549       0.0159028      0.000186311     0.000223984
                     -0.00024767     -0.00014236         0.513582        0.803777      4.38929e-05     8.45069e-05        -0.231257        0.151913
281701.5              -0.0537381       -0.177816      0.000278877    -0.000236997        -0.551434        0.810513      -0.00010007    -0.000350207
                     0.000366114    -0.000302921        -0.234725        0.144105     -0.000131232     0.000401574         0.513546        0.803929
                       -0.551873        0.810581     -0.000168274     0.000402752         -0.18549       0.0159057      0.000186311     0.000223978
                     -0.00024767    -0.000142347         0.513608        0.803761      4.38889e-05     8.45077e-05        -0.231251        0.151918
281701.6              -0.0537453       -0.177814      0.000278874    -0.000236991        -0.551411        0.810528     -0.000100082    -0.000350208
                     0.000366104    -0.000302926        -0.234717        0.144111     -0.000131222     0.000401575         0.513572        0.803913
                       -0.551851        0.810596      -0.00016827     0.000402761         -0.18549       0.0159086      0.000186312     0.000223972
                    -0.000247671    -0.000142334         0.513635        0.803745       4.3885e-05     8.45084e-05        -0.231244        0.151923
281701.7              -0.0537525       -0.177812       0.00027887    -0.000236985        -0.551388        0.810543     -0.000100094    -0.000350209
                     0.000366095    -0.000302931         -0.23471        0.144118     -0.000131213     0.000401577         0.513599        0.803897
                       -0.551828        0.810612     -0.000168267     0.000402769         -0.18549       0.0159115      0.000186312     0.000223967
                    -0.000247671    -0.000142321         0.513661        0.803729       4.3881e-05     8.45092e-05        -0.231237        0.151928
281701.8              -0.0537597        -0.17781      0.000278867    -0.000236978        -0.551366        0.810559     -0.000100106     -0.00035021
                     0.000366086    -0.000302936        -0.234702        0.144125     -0.000131204     0.000401578         0.513625        0.803881
                       -0.551805        0.810627     -0.000168263     0.000402778         -0.18549       0.0159144      0.000186313     0.000223961
                    -0.000247671    -0.000142308         0.513687        0.803713      4.38771e-05     8.45099e-05         -0.23123        0.151933
281701.9              -0.0537669       -0.177808      0.000278864    -0.000236972        -0.551343        0.810574     -0.000100119    -0.000350212
                     0.000366077    -0.000302941        -0.234695        0.144131     -0.000131195      0.00040158         0.513651        0.803866
                       -0.551783        0.810643     -0.000168259     0.000402786         -0.18549       0.0159173      0.000186314     0.000223956
                    -0.000247672    -0.000142295         0.513714        0.803698      4.38732e-05     8.45107e-05        -0.231223        0.151938
281702                -0.0537741       -0.177806      0.000278861    -0.000236965         -0.55132         0.81059     -0.000100131    -0.000350213
                     0.000366067    -0.000302947        -0.234687        0.144138     -0.000131185     0.000401581         0.513678         0.80385
                        -0.55176        0.810658     -0.000168256     0.000402795         -0.18549       0.0159202      0.000186314      0.00022395
                    -0.000247672    -0.000142282          0.51374        0.803682      4.38692e-05     8.45114e-05        -0.231216        0.151943
281702.1              -0.0537813       -0.177804      0.000278857    -0.000236959        -0.551298        0.810605     -0.000100143    -0.000350214
                     0.000366058    -0.000302952        -0.234679        0.144145     -0.000131176     0.000401583         0.513704        0.803834
                       -0.551737        0.810673     -0.000168252     0.000402803         -0.18549       0.0159231      0.000186315     0.000223944
                    -0.000247673    -0.000142269         0.513767        0.803666      4.38653e-05     8.45121e-05        -0.231209        0.151948
281702.2              -0.0537885       -0.177802      0.000278854    -0.000236953        -0.551275         0.81062     -0.000100155    -0.000350215
                     0.000366049    -0.000302957        -0.234672        0.144151     -0.000131167     0.000401584          0.51373        0.803818
                       -0.551715        0.810689     -0.000168248     0.000402812         -0.18549       0.0159261      0.000186315     0.000223939
                    -0.000247673    -0.000142257         0.513793         0.80365      4.38613e-05     8.45129e-05        -0.231202        0.151953
281702.3              -0.0537957         -0.1778      0.000278851    -0.000236946        -0.551252        0.810636     -0.000100167    -0.000350216
                      0.00036604    -0.000302962        -0.234664        0.144158     -0.000131158     0.000401585         0.513757        0.803802
                       -0.551692        0.810704     -0.000168245      0.00040282        -0.185489        0.015929      0.000186316     0.000223933
                    -0.000247674    -0.000142244         0.513819        0.803634      4.38573e-05     8.45136e-05        -0.231195        0.151958
281702.4              -0.0538029       -0.177798      0.000278848     -0.00023694         -0.55123        0.810651     -0.000100179    -0.000350217
                      0.00036603    -0.000302967        -0.234656        0.144165     -0.000131149     0.000401587         0.513783        0.803786
                       -0.551669        0.810719     -0.000168241     0.000402829        -0.185489       0.0159319      0.000186317     0.000223927
                    -0.000247674    -0.000142231         0.513846        0.803618      4.38534e-05     8.45144e-05        -0.231188        0.151963
281702.5              -0.0538101       -0.177796      0.000278845    -0.000236934        -0.551207        0.810666     -0.000100191    -0.000350218
                     0.000366021    -0.000302972        -0.234649        0.144171     -0.000131139     0.000401588         0.513809        0.803771
                       -0.551647        0.810735     -0.000168237     0.000402837        -0.185489       0.0159348      0.000186317     0.000223922
                    -0.000247674    -0.000142218         0.513872        0.803603      4.38494e-05     8.45151e-05        -0.231181        0.151968
281702.6              -0.0538173       -0.177794      0.000278841    -0.000236927        -0.551184        0.810682     -0.000100203    -0.000350219
                     0.000366012    -0.000302977        -0.234641        0.144178      -0.00013113      0.00040159         0.513836        0.803755
                       -0.551624         0.81075     -0.000168234     0.000402845        -0.185489       0.0159377      0.000186318     0.000223916
                    -0.000247675    -0.000142205         0.513898        0.803587      4.38455e-05     8.45159e-05        -0.231174        0.151973
281702.7              -0.0538244       -0.177792      0.000278838    -0.000236921        -0.551162        0.810697     -0.000100215     -0.00035022
                     0.000366003    -0.000302982        -0.234633        0.144185     -0.000131121     0.000401591         0.513862        0.803739
                       -0.551601        0.810766      -0.00016823     0.000402854        -0.185489       0.0159406      0.000186318      0.00022391
                    -0.000247675    -0.000142192         0.513925        0.803571      4.38415e-05     8.45166e-05        -0.231167        0.151978
281702.8              -0.0538316        -0.17779      0.000278835    -0.000236914        -0.551139        0.810712     -0.000100227    -0.000350221
                     0.000365993    -0.000302987        -0.234626        0.144191     -0.000131112     0.000401593         0.513888        0.803723
                       -0.551579        0.810781     -0.000168226     0.000402862        -0.185489       0.0159435      0.000186319     0.000223905
                    -0.000247676    -0.000142179         0.513951        0.803555      4.38375e-05     8.45174e-05         -0.23116        0.151983
281702.9              -0.0538388       -0.177788      0.000278832    -0.000236908        -0.551116        0.810728     -0.000100239    -0.000350222
                     0.000365984    -0.000302992        -0.234618        0.144198     -0.000131102     0.000401594         0.513915        0.803707
                       -0.551556        0.810796     -0.000168223     0.000402871        -0.185489       0.0159464       0.00018632     0.000223899
                    -0.000247676    -0.000142166         0.513977        0.803539      4.38336e-05     8.45181e-05        -0.231154        0.151988
281703                 -0.053846       -0.177786      0.000278828    -0.000236902        -0.551094        0.810743     -0.000100252    -0.000350223
                     0.000365975    -0.000302997         -0.23461        0.144205     -0.000131093     0.000401595         0.513941        0.803691
                       -0.551533        0.810812     -0.000168219     0.000402879        -0.185489       0.0159494       0.00018632     0.000223894
                    -0.000247676    -0.000142153         0.514004        0.803523      4.38296e-05     8.45189e-05        -0.231147        0.151993
281703.1              -0.0538532       -0.177784      0.000278825    -0.000236895        -0.551071        0.810759     -0.000100264    -0.000350224
                     0.000365966    -0.000303002        -0.234603        0.144211     -0.000131084     0.000401597         0.513967        0.803675
                       -0.551511        0.810827     -0.000168215     0.000402888        -0.185489       0.0159523      0.000186321     0.000223888
