! TOUCHSTONE file generated by CST MICROWAVE STUDIO
! Date and time: Wed Oct  8 06:57:00 2025
! Project name: Teste_Macro_Metasurface_Nanopilar.cst
! Parameters = {H=600; L_x=120; L_y=180; Lambda=1064; Max_L=200; Min_L=70; PathPara=1; Phi=0; Step_L=10; Theta=0; p=520; phaseX=180; phaseY=0}
! Header version: 2018
! Port assignment regex: !\s*Touchstone port\s*([0-9]+)\s*=\s*(CST MWS port|CST DS port)\s*([0-9]+|Zmin|Zmax)\s*\(\"(.*)\"\)(\s*mode\s*([0-9]+))?.*
! Touchstone port assignment:
! Touchstone port 1 = CST MWS port Zmax ("") mode 1
! Touchstone port 2 = CST MWS port Zmax ("") mode 2
! Touchstone port 3 = CST MWS port Zmin ("") mode 1
! Touchstone port 4 = CST MWS port Zmin ("") mode 2
! S-Parameters are not renormalized. Each port impedance will be approximated by the real part at minimum frequency. The values are described via the [Reference] keyword.
! Default impedance is overridden by [Reference]
[Version] 2.0
# GHz S RI R 376.73
[Number of Ports] 4
[Reference]
376.73 376.73 376.73 376.73 
[Number of Frequencies] 1001
[Network Data]
281700                 -0.152785        0.319833      0.000526025     0.000362844        -0.712362       -0.593537     -0.000464308     0.000783092
                     0.000184958     0.000267322         -0.24403      -0.0224338      -0.00082772    -0.000101696        -0.195748       -0.944273
                       -0.712394       -0.593498      -0.00092217    -0.000133714        -0.292944        0.198156       0.00022958    -7.98452e-05
                    -0.000463441     0.000731962        -0.195642        -0.94414      0.000255022    -8.07365e-05        -0.215486        0.117034
281700.1               -0.152773        0.319831      0.000526024     0.000362831        -0.712384       -0.593517     -0.000464294     0.000783103
                     0.000184997     0.000267312        -0.244028      -0.0224257     -0.000827788    -0.000101664        -0.195776       -0.944268
                       -0.712415       -0.593477     -0.000922168    -0.000133679        -0.292931        0.198162      0.000229571    -7.98454e-05
                    -0.000463438     0.000731968        -0.195671       -0.944134      0.000254971    -8.07589e-05         -0.21548        0.117039
281700.2               -0.152761        0.319829      0.000526024     0.000362818        -0.712405       -0.593496     -0.000464281     0.000783113
                     0.000185036     0.000267302        -0.244026      -0.0224175     -0.000827856    -0.000101633        -0.195805       -0.944263
                       -0.712435       -0.593456     -0.000922165    -0.000133644        -0.292919        0.198168      0.000229562    -7.98457e-05
                    -0.000463435     0.000731975          -0.1957       -0.944129       0.00025492    -8.07813e-05        -0.215475        0.117044
281700.3               -0.152748        0.319827      0.000526024     0.000362805        -0.712426       -0.593475     -0.000464268     0.000783124
                     0.000185074     0.000267292        -0.244024      -0.0224094     -0.000827923    -0.000101602        -0.195834       -0.944258
                       -0.712456       -0.593436     -0.000922163    -0.000133609        -0.292906        0.198175      0.000229554    -7.98459e-05
                    -0.000463432     0.000731982        -0.195728       -0.944124      0.000254869    -8.08036e-05        -0.215469        0.117049
281700.4               -0.152736        0.319825      0.000526024     0.000362791        -0.712447       -0.593455     -0.000464254     0.000783134
                     0.000185113     0.000267282        -0.244023      -0.0224012      -0.00082799    -0.000101571        -0.195862       -0.944252
                       -0.712477       -0.593415     -0.000922161    -0.000133574        -0.292894        0.198181      0.000229545    -7.98462e-05
                     -0.00046343     0.000731989        -0.195757       -0.944119      0.000254819    -8.08258e-05        -0.215464        0.117053
281700.5               -0.152724        0.319823      0.000526023     0.000362778        -0.712469       -0.593434     -0.000464241     0.000783145
                     0.000185152     0.000267272        -0.244021      -0.0223931     -0.000828058     -0.00010154        -0.195891       -0.944247
                       -0.712498       -0.593394     -0.000922159     -0.00013354        -0.292881        0.198187      0.000229537    -7.98464e-05
                    -0.000463427     0.000731996        -0.195786       -0.944113      0.000254768     -8.0848e-05        -0.215458        0.117058
281700.6               -0.152712        0.319821      0.000526023     0.000362765         -0.71249       -0.593413     -0.000464227     0.000783155
                      0.00018519     0.000267262        -0.244019      -0.0223849     -0.000828125    -0.000101509         -0.19592       -0.944242
                       -0.712519       -0.593373     -0.000922157    -0.000133505        -0.292869        0.198193      0.000229528    -7.98467e-05
                    -0.000463424     0.000732003        -0.195814       -0.944108      0.000254718    -8.08702e-05        -0.215453        0.117063
281700.7                 -0.1527        0.319819      0.000526023     0.000362752        -0.712511       -0.593393     -0.000464214     0.000783166
                     0.000185229     0.000267252        -0.244017      -0.0223768     -0.000828192    -0.000101477        -0.195948       -0.944236
                        -0.71254       -0.593352     -0.000922154     -0.00013347        -0.292856        0.198199      0.000229519    -7.98469e-05
                    -0.000463421     0.000732009        -0.195843       -0.944103      0.000254667    -8.08923e-05        -0.215447        0.117068
281700.8               -0.152687        0.319817      0.000526023     0.000362739        -0.712532       -0.593372     -0.000464201     0.000783176
                     0.000185267     0.000267241        -0.244015      -0.0223686     -0.000828258    -0.000101446        -0.195977       -0.944231
                        -0.71256       -0.593332     -0.000922152    -0.000133435        -0.292844        0.198205      0.000229511    -7.98472e-05
                    -0.000463418     0.000732016        -0.195872       -0.944097      0.000254617    -8.09144e-05        -0.215442        0.117072
281700.9               -0.152675        0.319815      0.000526022     0.000362726        -0.712554       -0.593352     -0.000464187     0.000783187
                     0.000185306     0.000267231        -0.244014      -0.0223605     -0.000828325    -0.000101415        -0.196006       -0.944226
                       -0.712581       -0.593311      -0.00092215      -0.0001334        -0.292831        0.198212      0.000229502    -7.98474e-05
                    -0.000463415     0.000732023        -0.195901       -0.944092      0.000254567    -8.09364e-05        -0.215436        0.117077
281701                 -0.152663        0.319813      0.000526022     0.000362712        -0.712575       -0.593331     -0.000464174     0.000783197
                     0.000185344     0.000267221        -0.244012      -0.0223523     -0.000828391    -0.000101384        -0.196034        -0.94422
                       -0.712602        -0.59329     -0.000922148    -0.000133365        -0.292819        0.198218      0.000229494    -7.98477e-05
                    -0.000463413      0.00073203        -0.195929       -0.944087      0.000254517    -8.09584e-05        -0.215431        0.117082
281701.1               -0.152651        0.319812      0.000526022     0.000362699        -0.712596        -0.59331      -0.00046416     0.000783208
                     0.000185383     0.000267211         -0.24401      -0.0223442     -0.000828458    -0.000101353        -0.196063       -0.944215
                       -0.712623       -0.593269     -0.000922145    -0.000133331        -0.292806        0.198224      0.000229485    -7.98479e-05
                     -0.00046341     0.000732037        -0.195958       -0.944082      0.000254467    -8.09803e-05        -0.215425        0.117087
281701.2               -0.152638         0.31981      0.000526022     0.000362686        -0.712617        -0.59329     -0.000464147     0.000783218
                     0.000185421     0.000267201        -0.244008       -0.022336     -0.000828524    -0.000101322        -0.196092        -0.94421
                       -0.712644       -0.593249     -0.000922143    -0.000133296        -0.292794         0.19823      0.000229476    -7.98482e-05
                    -0.000463407     0.000732043        -0.195987       -0.944076      0.000254417    -8.10022e-05         -0.21542        0.117092
281701.3               -0.152626        0.319808      0.000526021     0.000362673        -0.712639       -0.593269     -0.000464133     0.000783229
                      0.00018546     0.000267191        -0.244006      -0.0223279      -0.00082859    -0.000101291        -0.196121       -0.944205
                       -0.712665       -0.593228     -0.000922141    -0.000133261        -0.292781        0.198236      0.000229468    -7.98485e-05
                    -0.000463404      0.00073205        -0.196015       -0.944071      0.000254367    -8.10241e-05        -0.215414        0.117096
281701.4               -0.152614        0.319806      0.000526021      0.00036266         -0.71266       -0.593248      -0.00046412     0.000783239
                     0.000185498     0.000267181        -0.244005      -0.0223197     -0.000828656     -0.00010126        -0.196149       -0.944199
                       -0.712685       -0.593207     -0.000922139    -0.000133226        -0.292769        0.198242      0.000229459    -7.98487e-05
                    -0.000463401     0.000732057        -0.196044       -0.944066      0.000254318    -8.10459e-05        -0.215409        0.117101
281701.5               -0.152602        0.319804      0.000526021     0.000362647        -0.712681       -0.593228     -0.000464106      0.00078325
                     0.000185537     0.000267171        -0.244003      -0.0223116     -0.000828722    -0.000101229        -0.196178       -0.944194
                       -0.712706       -0.593186     -0.000922136    -0.000133191        -0.292756        0.198248      0.000229451     -7.9849e-05
                    -0.000463398     0.000732063        -0.196073        -0.94406      0.000254268    -8.10676e-05        -0.215403        0.117106
281701.6                -0.15259        0.319802       0.00052602     0.000362633        -0.712702       -0.593207     -0.000464093      0.00078326
                     0.000185575     0.000267161        -0.244001      -0.0223034     -0.000828787    -0.000101198        -0.196207       -0.944189
                       -0.712727       -0.593165     -0.000922134    -0.000133156        -0.292744        0.198255      0.000229442    -7.98493e-05
                    -0.000463395      0.00073207        -0.196101       -0.944055      0.000254219    -8.10893e-05        -0.215398        0.117111
281701.7               -0.152577          0.3198       0.00052602      0.00036262        -0.712724       -0.593186     -0.000464079     0.000783271
                     0.000185614     0.000267151        -0.243999      -0.0222953     -0.000828853    -0.000101167        -0.196235       -0.944183
                       -0.712748       -0.593145     -0.000922132    -0.000133122        -0.292731        0.198261      0.000229433    -7.98495e-05
                    -0.000463392     0.000732077         -0.19613        -0.94405       0.00025417     -8.1111e-05        -0.215392        0.117115
281701.8               -0.152565        0.319798       0.00052602     0.000362607        -0.712745       -0.593166     -0.000464066     0.000783281
                     0.000185652     0.000267141        -0.243997      -0.0222871     -0.000828918    -0.000101136        -0.196264       -0.944178
                       -0.712769       -0.593124      -0.00092213    -0.000133087        -0.292719        0.198267      0.000229425    -7.98498e-05
                    -0.000463389     0.000732084        -0.196159       -0.944044      0.000254121    -8.11326e-05        -0.215387         0.11712
281701.9               -0.152553        0.319796       0.00052602     0.000362594        -0.712766       -0.593145     -0.000464053     0.000783292
                     0.000185691     0.000267131        -0.243996       -0.022279     -0.000828983    -0.000101105        -0.196293       -0.944173
                        -0.71279       -0.593103     -0.000922128    -0.000133052        -0.292706        0.198273      0.000229416    -7.98501e-05
                    -0.000463386      0.00073209        -0.196187       -0.944039      0.000254072    -8.11542e-05        -0.215381        0.117125
281702                 -0.152541        0.319794      0.000526019     0.000362581        -0.712787       -0.593124     -0.000464039     0.000783302
                     0.000185729     0.000267121        -0.243994      -0.0222709     -0.000829048    -0.000101074        -0.196321       -0.944167
                        -0.71281       -0.593082     -0.000922125    -0.000133017        -0.292694        0.198279      0.000229408    -7.98503e-05
                    -0.000463383     0.000732097        -0.196216       -0.944034      0.000254023    -8.11757e-05        -0.215376         0.11713
281702.1               -0.152529        0.319792      0.000526019     0.000362567        -0.712808       -0.593104     -0.000464026     0.000783313
                     0.000185768     0.000267111        -0.243992      -0.0222627     -0.000829113    -0.000101043         -0.19635       -0.944162
                       -0.712831       -0.593061     -0.000922123    -0.000132982        -0.292681        0.198285      0.000229399    -7.98506e-05
                     -0.00046338     0.000732104        -0.196245       -0.944029      0.000253974    -8.11972e-05         -0.21537        0.117134
281702.2               -0.152516         0.31979      0.000526019     0.000362554         -0.71283       -0.593083     -0.000464012     0.000783323
                     0.000185806     0.000267101         -0.24399      -0.0222546     -0.000829178    -0.000101012        -0.196379       -0.944157
                       -0.712852       -0.593041     -0.000922121    -0.000132947        -0.292669        0.198291       0.00022939    -7.98509e-05
                    -0.000463377      0.00073211        -0.196273       -0.944023      0.000253926    -8.12186e-05        -0.215365        0.117139
281702.3               -0.152504        0.319788      0.000526018     0.000362541        -0.712851       -0.593062     -0.000463999     0.000783334
                     0.000185844     0.000267091        -0.243988      -0.0222464     -0.000829242    -0.000100982        -0.196407       -0.944151
                       -0.712873        -0.59302     -0.000922119    -0.000132913        -0.292656        0.198298      0.000229382    -7.98512e-05
                    -0.000463374     0.000732117        -0.196302       -0.944018      0.000253877      -8.124e-05        -0.215359        0.117144
281702.4               -0.152492        0.319787      0.000526018     0.000362528        -0.712872       -0.593042     -0.000463985     0.000783344
                     0.000185883     0.000267081        -0.243987      -0.0222383     -0.000829307    -0.000100951        -0.196436       -0.944146
                       -0.712894       -0.592999     -0.000922116    -0.000132878        -0.292644        0.198304      0.000229373    -7.98514e-05
                    -0.000463371     0.000732124        -0.196331       -0.944013      0.000253829    -8.12613e-05        -0.215354        0.117149
281702.5                -0.15248        0.319785      0.000526018     0.000362515        -0.712893       -0.593021     -0.000463972     0.000783354
                     0.000185921     0.000267071        -0.243985      -0.0222301     -0.000829371     -0.00010092        -0.196465       -0.944141
                       -0.712915       -0.592978     -0.000922114    -0.000132843        -0.292631         0.19831      0.000229365    -7.98517e-05
                    -0.000463368      0.00073213         -0.19636       -0.944007       0.00025378    -8.12826e-05        -0.215348        0.117153
281702.6               -0.152467        0.319783      0.000526018     0.000362501        -0.712915          -0.593     -0.000463958     0.000783365
                     0.000185959     0.000267061        -0.243983       -0.022222     -0.000829435    -0.000100889        -0.196493       -0.944135
                       -0.712935       -0.592958     -0.000922112    -0.000132808        -0.292619        0.198316      0.000229356     -7.9852e-05
                    -0.000463365     0.000732137        -0.196388       -0.944002      0.000253732    -8.13038e-05        -0.215343        0.117158
281702.7               -0.152455        0.319781      0.000526017     0.000362488        -0.712936       -0.592979     -0.000463945     0.000783375
                     0.000185998     0.000267051        -0.243981      -0.0222138     -0.000829499    -0.000100858        -0.196522        -0.94413
                       -0.712956       -0.592937      -0.00092211    -0.000132773        -0.292606        0.198322      0.000229348    -7.98523e-05
                    -0.000463362     0.000732143        -0.196417       -0.943997      0.000253684     -8.1325e-05        -0.215337        0.117163
281702.8               -0.152443        0.319779      0.000526017     0.000362475        -0.712957       -0.592959     -0.000463931     0.000783386
                     0.000186036     0.000267041        -0.243979      -0.0222057     -0.000829563    -0.000100827        -0.196551       -0.944125
                       -0.712977       -0.592916     -0.000922108    -0.000132738        -0.292594        0.198328      0.000229339    -7.98525e-05
                    -0.000463358      0.00073215        -0.196446       -0.943991      0.000253636    -8.13462e-05        -0.215332        0.117168
281702.9               -0.152431        0.319777      0.000526017     0.000362462        -0.712978       -0.592938     -0.000463917     0.000783396
                     0.000186074     0.000267031        -0.243978      -0.0221975     -0.000829626    -0.000100797        -0.196579        -0.94412
                       -0.712998       -0.592895     -0.000922105    -0.000132704        -0.292581        0.198334       0.00022933    -7.98528e-05
                    -0.000463355     0.000732157        -0.196474       -0.943986      0.000253589    -8.13673e-05        -0.215326        0.117173
281703                 -0.152419        0.319775      0.000526016     0.000362448        -0.712999       -0.592917     -0.000463904     0.000783407
                     0.000186113     0.000267021        -0.243976      -0.0221894      -0.00082969    -0.000100766        -0.196608       -0.944114
                       -0.713019       -0.592874     -0.000922103    -0.000132669        -0.292569        0.198341      0.000229322    -7.98531e-05
                    -0.000463352     0.000732163        -0.196503       -0.943981      0.000253541    -8.13883e-05        -0.215321        0.117177
281703.1               -0.152406        0.319773      0.000526016     0.000362435        -0.713021       -0.592897      -0.00046389     0.000783417
                     0.000186151     0.000267011        -0.243974      -0.0221813     -0.000829753    -0.000100735        -0.196637       -0.944109
                        -0.71304       -0.592854     -0.000922101    -0.000132634        -0.292556        0.198347      0.000229313    -7.98534e-05
