! TOUCHSTONE file generated by CST MICROWAVE STUDIO
! Date and time: Wed Oct  8 07:01:41 2025
! Project name: Teste_Macro_Metasurface_Nanopilar.cst
! Parameters = {H=600; L_x=160; L_y=155; Lambda=1064; Max_L=200; Min_L=70; PathPara=1; Phi=0; Step_L=10; Theta=0; p=520; phaseX=180; phaseY=0}
! Header version: 2018
! Port assignment regex: !\s*Touchstone port\s*([0-9]+)\s*=\s*(CST MWS port|CST DS port)\s*([0-9]+|Zmin|Zmax)\s*\(\"(.*)\"\)(\s*mode\s*([0-9]+))?.*
! Touchstone port assignment:
! Touchstone port 1 = CST MWS port Zmax ("") mode 1
! Touchstone port 2 = CST MWS port Zmax ("") mode 2
! Touchstone port 3 = CST MWS port Zmin ("") mode 1
! Touchstone port 4 = CST MWS port Zmin ("") mode 2
! S-Parameters are not renormalized. Each port impedance will be approximated by the real part at minimum frequency. The values are described via the [Reference] keyword.
! Default impedance is overridden by [Reference]
[Version] 2.0
# GHz S RI R 376.73
[Number of Ports] 4
[Reference]
376.73 376.73 376.73 376.73 
[Number of Frequencies] 1001
[Network Data]
281700                 -0.110264        0.207675     -0.000422533     0.000183269        -0.787235       -0.560114      0.000158223    -7.35385e-05
                    -0.000441779     0.000195197       -0.0793168        0.180338      0.000291529      -3.839e-06        -0.836596        -0.50105
                       -0.787064       -0.560265      0.000321315    -2.36261e-05        -0.164942        0.166251     -0.000253562     0.000323892
                    -8.50121e-06    -0.000122762         -0.83638       -0.501236       -0.0001006      0.00031172        -0.126287        0.150213
281700.1               -0.110255        0.207673     -0.000422521     0.000183288        -0.787254       -0.560091      0.000158235    -7.35361e-05
                    -0.000441761     0.000195209       -0.0793088        0.180335      0.000291536    -3.85157e-06        -0.836612       -0.501025
                       -0.787083       -0.560242       0.00032132    -2.36422e-05        -0.164933        0.166252     -0.000253568     0.000323876
                    -8.49971e-06    -0.000122774        -0.836396       -0.501211     -0.000100602     0.000311723        -0.126279        0.150212
281700.2               -0.110246        0.207671     -0.000422509     0.000183306        -0.787272       -0.560068      0.000158246    -7.35336e-05
                    -0.000441726     0.000195215       -0.0793009        0.180332       0.00029154    -3.86333e-06        -0.836628       -0.501001
                       -0.787101       -0.560219      0.000321325    -2.36582e-05        -0.164923        0.166253     -0.000253574      0.00032386
                    -8.49394e-06    -0.000122799        -0.836412       -0.501186     -0.000100606     0.000311727        -0.126271        0.150211
281700.3               -0.110237        0.207668     -0.000422497     0.000183325        -0.787291       -0.560044      0.000158258     -7.3531e-05
                    -0.000441644     0.000195228        -0.079293        0.180328      0.000291542    -3.87468e-06        -0.836644       -0.500976
                        -0.78712       -0.560196       0.00032133    -2.36741e-05        -0.164913        0.166253     -0.000253581     0.000323844
                    -8.46677e-06    -0.000122879        -0.836428       -0.501162     -0.000100611     0.000311731        -0.126262         0.15021
281700.4               -0.110228        0.207666     -0.000422485     0.000183343        -0.787309       -0.560021       0.00015827    -7.35283e-05
                    -0.000441507     0.000195383       -0.0792851        0.180325      0.000291544     -3.8858e-06        -0.836661       -0.500951
                       -0.787138       -0.560172      0.000321335      -2.369e-05        -0.164904        0.166254     -0.000253588     0.000323827
                    -8.62035e-06    -0.000122016        -0.836445       -0.501137     -0.000100617     0.000311735        -0.126254        0.150209
281700.5               -0.110218        0.207663     -0.000422473     0.000183362        -0.787327       -0.559998      0.000158282    -7.35255e-05
                    -0.000441656     0.000195581       -0.0792772        0.180322      0.000291545    -3.89678e-06        -0.836677       -0.500927
                       -0.787156       -0.560149       0.00032134    -2.37058e-05        -0.164894        0.166255     -0.000253595      0.00032381
                    -8.55253e-06     -0.00012263        -0.836461       -0.501112     -0.000100624     0.000311739        -0.126245        0.150208
281700.6               -0.110209        0.207661     -0.000422461     0.000183381        -0.787346       -0.559975      0.000158293    -7.35227e-05
                     -0.00044176     0.000195559       -0.0792693        0.180318      0.000291545    -3.90765e-06        -0.836693       -0.500902
                       -0.787175       -0.560126      0.000321345    -2.37216e-05        -0.164884        0.166256     -0.000253602     0.000323792
                    -8.54165e-06    -0.000122679        -0.836477       -0.501088     -0.000100631     0.000311743        -0.126237        0.150207
281700.7                 -0.1102        0.207659     -0.000422449     0.000183399        -0.787364       -0.559952      0.000158305    -7.35197e-05
                    -0.000441785     0.000195543       -0.0792614        0.180315      0.000291545    -3.91847e-06         -0.83671       -0.500877
                       -0.787194       -0.560103       0.00032135    -2.37373e-05        -0.164875        0.166256     -0.000253609     0.000323775
                    -8.53875e-06    -0.000122698        -0.836493       -0.501063     -0.000100639     0.000311747        -0.126228        0.150206
281700.8               -0.110191        0.207656     -0.000422437     0.000183418        -0.787383       -0.559928      0.000158317    -7.35167e-05
                     -0.00044179     0.000195543       -0.0792534        0.180312      0.000291545    -3.92923e-06        -0.836726       -0.500852
                       -0.787212        -0.56008      0.000321355    -2.37529e-05        -0.164865        0.166257     -0.000253616     0.000323756
                    -8.53825e-06    -0.000122708         -0.83651       -0.501038     -0.000100646     0.000311751         -0.12622        0.150205
281700.9               -0.110182        0.207654     -0.000422425     0.000183436        -0.787401       -0.559905      0.000158329    -7.35136e-05
                     -0.00044179     0.000195553       -0.0792455        0.180308      0.000291544    -3.93997e-06        -0.836742       -0.500828
                       -0.787231       -0.560057       0.00032136    -2.37685e-05        -0.164855        0.166258     -0.000253624     0.000323738
                    -8.53879e-06    -0.000122714        -0.836526       -0.501014     -0.000100654     0.000311755        -0.126211        0.150204
281701                 -0.110173        0.207651     -0.000422413     0.000183455         -0.78742       -0.559882      0.000158341    -7.35104e-05
                    -0.000441788     0.000195568       -0.0792376        0.180305      0.000291543    -3.95067e-06        -0.836758       -0.500803
                       -0.787249       -0.560033      0.000321365    -2.37839e-05        -0.164846        0.166258     -0.000253632     0.000323719
                    -8.53987e-06    -0.000122719        -0.836542       -0.500989     -0.000100662      0.00031176        -0.126203        0.150203
281701.1               -0.110164        0.207649     -0.000422401     0.000183473        -0.787438       -0.559859      0.000158352    -7.35071e-05
                    -0.000441785     0.000195586       -0.0792297        0.180302      0.000291543    -3.96136e-06        -0.836775       -0.500778
                       -0.787267        -0.56001       0.00032137    -2.37993e-05        -0.164836        0.166259     -0.000253639       0.0003237
                    -8.54127e-06    -0.000122723        -0.836559       -0.500965      -0.00010067     0.000311764        -0.126194        0.150202
281701.2               -0.110155        0.207647     -0.000422389     0.000183492        -0.787456       -0.559836      0.000158364    -7.35037e-05
                    -0.000441782     0.000195606       -0.0792218        0.180298      0.000291542    -3.97203e-06        -0.836791       -0.500754
                       -0.787286       -0.559987      0.000321375    -2.38145e-05        -0.164826         0.16626     -0.000253647      0.00032368
                    -8.54286e-06    -0.000122726        -0.836575        -0.50094     -0.000100678     0.000311768        -0.126186        0.150201
281701.3               -0.110146        0.207644     -0.000422377     0.000183511        -0.787475       -0.559812      0.000158376    -7.35003e-05
                    -0.000441778     0.000195628       -0.0792139        0.180295      0.000291541    -3.98268e-06        -0.836807       -0.500729
                       -0.787304       -0.559964       0.00032138    -2.38297e-05        -0.164817         0.16626     -0.000253655      0.00032366
                     -8.5446e-06    -0.000122728        -0.836591       -0.500915     -0.000100686     0.000311772        -0.126178          0.1502
281701.4               -0.110136        0.207642     -0.000422365     0.000183529        -0.787493       -0.559789      0.000158388    -7.34967e-05
                    -0.000441775      0.00019565        -0.079206        0.180291      0.000291539    -3.99333e-06        -0.836823       -0.500704
                       -0.787323       -0.559941      0.000321386    -2.38447e-05        -0.164807        0.166261     -0.000253664      0.00032364
                    -8.54643e-06     -0.00012273        -0.836607       -0.500891     -0.000100694     0.000311776        -0.126169        0.150199
281701.5               -0.110127        0.207639     -0.000422353     0.000183548        -0.787512       -0.559766        0.0001584    -7.34931e-05
                    -0.000441771     0.000195673       -0.0791981        0.180288      0.000291538    -4.00397e-06         -0.83684        -0.50068
                       -0.787341       -0.559917      0.000321391    -2.38596e-05        -0.164797        0.166262     -0.000253672     0.000323619
                    -8.54833e-06    -0.000122732        -0.836624       -0.500866     -0.000100702     0.000311781        -0.126161        0.150198
281701.6               -0.110118        0.207637     -0.000422341     0.000183566         -0.78753       -0.559743      0.000158412    -7.34894e-05
                    -0.000441768     0.000195696       -0.0791902        0.180285      0.000291537     -4.0146e-06        -0.836856       -0.500655
                        -0.78736       -0.559894      0.000321396    -2.38743e-05        -0.164788        0.166262     -0.000253681     0.000323598
                    -8.55029e-06    -0.000122734         -0.83664       -0.500841      -0.00010071     0.000311785        -0.126152        0.150197
281701.7               -0.110109        0.207634      -0.00042233     0.000183585        -0.787549        -0.55972      0.000158424    -7.34856e-05
                    -0.000441764      0.00019572       -0.0791822        0.180281      0.000291536    -4.02523e-06        -0.836872        -0.50063
                       -0.787378       -0.559871      0.000321401    -2.38889e-05        -0.164778        0.166263     -0.000253689     0.000323576
                    -8.55228e-06    -0.000122736        -0.836656       -0.500817     -0.000100718     0.000311789        -0.126144        0.150196
281701.8                 -0.1101        0.207632     -0.000422318     0.000183603        -0.787567       -0.559696      0.000158435    -7.34817e-05
                    -0.000441761     0.000195744       -0.0791743        0.180278      0.000291535    -4.03585e-06        -0.836888       -0.500606
                       -0.787397       -0.559848      0.000321406    -2.39034e-05        -0.164768        0.166264     -0.000253698     0.000323554
                    -8.55431e-06    -0.000122737        -0.836672       -0.500792     -0.000100727     0.000311793        -0.126135        0.150195
281701.9               -0.110091         0.20763     -0.000422306     0.000183622        -0.787585       -0.559673      0.000158447    -7.34777e-05
                    -0.000441757     0.000195768       -0.0791664        0.180275      0.000291533    -4.04647e-06        -0.836905       -0.500581
                       -0.787415       -0.559825      0.000321411    -2.39176e-05        -0.164759        0.166264     -0.000253707     0.000323532
                    -8.55637e-06    -0.000122738        -0.836689       -0.500767     -0.000100735     0.000311798        -0.126127        0.150194
281702                 -0.110082        0.207627     -0.000422294      0.00018364        -0.787604        -0.55965      0.000158459    -7.34737e-05
                    -0.000441754     0.000195792       -0.0791585        0.180271      0.000291532    -4.05709e-06        -0.836921       -0.500556
                       -0.787433       -0.559801      0.000321416    -2.39317e-05        -0.164749        0.166265     -0.000253716      0.00032351
                    -8.55845e-06     -0.00012274        -0.836705       -0.500743     -0.000100743     0.000311802        -0.126118        0.150193
281702.1               -0.110073        0.207625     -0.000422282     0.000183659        -0.787622       -0.559627      0.000158471    -7.34696e-05
                     -0.00044175     0.000195817       -0.0791506        0.180268      0.000291531     -4.0677e-06        -0.836937       -0.500532
                       -0.787452       -0.559778      0.000321421    -2.39456e-05        -0.164739        0.166266     -0.000253725     0.000323487
                    -8.56054e-06    -0.000122741        -0.836721       -0.500718     -0.000100752     0.000311806         -0.12611        0.150192
281702.2               -0.110064        0.207622      -0.00042227     0.000183678        -0.787641       -0.559604      0.000158483    -7.34654e-05
                    -0.000441747     0.000195842       -0.0791427        0.180265      0.000291529    -4.07831e-06        -0.836953       -0.500507
                        -0.78747       -0.559755      0.000321425    -2.39593e-05         -0.16473        0.166266     -0.000253735     0.000323463
                    -8.56265e-06    -0.000122742        -0.836737       -0.500693      -0.00010076      0.00031181        -0.126101        0.150191
281702.3               -0.110055         0.20762     -0.000422258     0.000183696        -0.787659        -0.55958      0.000158495    -7.34611e-05
                    -0.000441743     0.000195867       -0.0791348        0.180261      0.000291528    -4.08892e-06         -0.83697       -0.500482
                       -0.787489       -0.559732       0.00032143    -2.39727e-05         -0.16472        0.166267     -0.000253744      0.00032344
                    -8.56477e-06    -0.000122744        -0.836754       -0.500669     -0.000100768     0.000311815        -0.126093         0.15019
281702.4               -0.110046        0.207618     -0.000422246     0.000183715        -0.787678       -0.559557      0.000158507    -7.34567e-05
                     -0.00044174     0.000195891       -0.0791269        0.180258      0.000291526    -4.09953e-06        -0.836986       -0.500458
                       -0.787507       -0.559709      0.000321434    -2.39859e-05         -0.16471        0.166268     -0.000253754     0.000323416
                     -8.5669e-06    -0.000122745         -0.83677       -0.500644     -0.000100777     0.000311819        -0.126085        0.150189
281702.5               -0.110036        0.207615     -0.000422234     0.000183733        -0.787696       -0.559534      0.000158519    -7.34522e-05
                    -0.000441736     0.000195916        -0.079119        0.180255      0.000291525    -4.11014e-06        -0.837002       -0.500433
                       -0.787526       -0.559685      0.000321439    -2.39989e-05        -0.164701        0.166268     -0.000253764     0.000323391
                    -8.56904e-06    -0.000122746        -0.836786       -0.500619     -0.000100785     0.000311823        -0.126076        0.150188
281702.6               -0.110027        0.207613     -0.000422222     0.000183752        -0.787714       -0.559511      0.000158531    -7.34477e-05
                    -0.000441733     0.000195942       -0.0791111        0.180251      0.000291523    -4.12074e-06        -0.837018       -0.500408
                       -0.787544       -0.559662      0.000321443    -2.40117e-05        -0.164691        0.166269     -0.000253774     0.000323366
                    -8.57119e-06    -0.000122747        -0.836802       -0.500595     -0.000100793     0.000311828        -0.126068        0.150187
281702.7               -0.110018         0.20761      -0.00042221      0.00018377        -0.787733       -0.559488      0.000158543     -7.3443e-05
                     -0.00044173     0.000195967       -0.0791031        0.180248      0.000291522    -4.13135e-06        -0.837035       -0.500383
                       -0.787562       -0.559639      0.000321446    -2.40242e-05        -0.164681         0.16627     -0.000253784     0.000323341
                    -8.57335e-06    -0.000122748        -0.836819        -0.50057     -0.000100802     0.000311832        -0.126059        0.150186
281702.8               -0.110009        0.207608     -0.000422198     0.000183789        -0.787751       -0.559464      0.000158555    -7.34383e-05
                    -0.000441726     0.000195992       -0.0790952        0.180245       0.00029152    -4.14195e-06        -0.837051       -0.500359
                       -0.787581       -0.559616       0.00032145    -2.40365e-05        -0.164672         0.16627     -0.000253794     0.000323316
                    -8.57551e-06    -0.000122749        -0.836835       -0.500545      -0.00010081     0.000311836        -0.126051        0.150185
281702.9                   -0.11        0.207606     -0.000422186     0.000183807         -0.78777       -0.559441      0.000158567    -7.34335e-05
                    -0.000441723     0.000196017       -0.0790873        0.180241      0.000291519    -4.15256e-06        -0.837067       -0.500334
                       -0.787599       -0.559593      0.000321453    -2.40486e-05        -0.164662        0.166271     -0.000253804      0.00032329
                    -8.57767e-06     -0.00012275        -0.836851       -0.500521     -0.000100819      0.00031184        -0.126042        0.150184
281703                 -0.109991        0.207603     -0.000422174     0.000183826        -0.787788       -0.559418      0.000158579    -7.34287e-05
                    -0.000441719     0.000196042       -0.0790794        0.180238      0.000291517    -4.16316e-06        -0.837083       -0.500309
                       -0.787618       -0.559569      0.000321455    -2.40605e-05        -0.164652        0.166272     -0.000253815     0.000323264
                    -8.57984e-06    -0.000122751        -0.836867       -0.500496     -0.000100827     0.000311845        -0.126034        0.150183
281703.1               -0.109982        0.207601     -0.000422162     0.000183845        -0.787806       -0.559395      0.000158591    -7.34237e-05
                    -0.000441716     0.000196068       -0.0790715        0.180235      0.000291516    -4.17376e-06          -0.8371       -0.500285
                       -0.787636       -0.559546      0.000321457    -2.40722e-05        -0.164643        0.166272     -0.000253826     0.000323237
