! TOUCHSTONE file generated by CST MICROWAVE STUDIO
! Date and time: Wed Oct  8 06:57:48 2025
! Project name: Teste_Macro_Metasurface_Nanopilar.cst
! Parameters = {H=600; L_x=130; L_y=90; Lambda=1064; Max_L=200; Min_L=70; PathPara=1; Phi=0; Step_L=10; Theta=0; p=520; phaseX=180; phaseY=0}
! Header version: 2018
! Port assignment regex: !\s*Touchstone port\s*([0-9]+)\s*=\s*(CST MWS port|CST DS port)\s*([0-9]+|Zmin|Zmax)\s*\(\"(.*)\"\)(\s*mode\s*([0-9]+))?.*
! Touchstone port assignment:
! Touchstone port 1 = CST MWS port Zmax ("") mode 1
! Touchstone port 2 = CST MWS port Zmax ("") mode 2
! Touchstone port 3 = CST MWS port Zmin ("") mode 1
! Touchstone port 4 = CST MWS port Zmin ("") mode 2
! S-Parameters are not renormalized. Each port impedance will be approximated by the real part at minimum frequency. The values are described via the [Reference] keyword.
! Default impedance is overridden by [Reference]
[Version] 2.0
# GHz S RI R 376.73
[Number of Ports] 4
[Reference]
376.73 376.73 376.73 376.73 
[Number of Frequencies] 1001
[Network Data]
281700               -0.00235233       -0.161516     -0.000509717    -0.000186421        -0.652142        0.738287      0.000649957     6.74232e-05
                    -0.000597816    -0.000130902        0.0225671        0.198539      0.000295003     -0.00055249         0.929046        0.278624
                       -0.652323        0.738046      0.000135339    -0.000566247        -0.160951       0.0180806     -0.000182913     0.000495356
                      0.00063118    -1.31949e-05         0.929246        0.278095     -0.000241743     0.000699144        -0.132783        0.153559
281700.1             -0.00235931       -0.161516     -0.000509717    -0.000186393        -0.652121        0.738305      0.000649945     6.74062e-05
                    -0.000597825    -0.000130896        0.0225753        0.198533       0.00029499    -0.000552495         0.929057        0.278592
                       -0.652303        0.738064      0.000135326    -0.000566264        -0.160951       0.0180825      -0.00018287     0.000495371
                     0.000631181    -1.32114e-05         0.929256        0.278063     -0.000241725     0.000699153        -0.132776        0.153558
281700.2             -0.00236628       -0.161516     -0.000509717    -0.000186366        -0.652101        0.738323      0.000649933     6.73893e-05
                    -0.000597834    -0.000130889        0.0225836        0.198527      0.000294976      -0.0005525         0.929067         0.27856
                       -0.652282        0.738082      0.000135313     -0.00056628         -0.16095       0.0180845     -0.000182827     0.000495386
                     0.000631182    -1.32278e-05         0.929267        0.278031     -0.000241708     0.000699162        -0.132769        0.153557
281700.3             -0.00237325       -0.161516     -0.000509716    -0.000186339        -0.652081        0.738341       0.00064992     6.73723e-05
                    -0.000597844    -0.000130883        0.0225919        0.198521      0.000294963    -0.000552506         0.929078        0.278528
                       -0.652262          0.7381        0.0001353    -0.000566297         -0.16095       0.0180864     -0.000182783     0.000495401
                     0.000631184    -1.32443e-05         0.929278        0.277999      -0.00024169     0.000699171        -0.132762        0.153557
281700.4             -0.00238023       -0.161515     -0.000509716    -0.000186311         -0.65206        0.738359      0.000649908     6.73553e-05
                    -0.000597853    -0.000130877        0.0226001        0.198514       0.00029495    -0.000552511         0.929088        0.278496
                       -0.652242        0.738118      0.000135287    -0.000566314         -0.16095       0.0180883      -0.00018274     0.000495416
                     0.000631185    -1.32608e-05         0.929288        0.277967     -0.000241673      0.00069918        -0.132755        0.153556
281700.5              -0.0023872       -0.161515     -0.000509716    -0.000186284         -0.65204        0.738377      0.000649896     6.73383e-05
                    -0.000597862    -0.000130871        0.0226084        0.198508      0.000294937    -0.000552516         0.929099        0.278464
                       -0.652221        0.738136      0.000135274    -0.000566331         -0.16095       0.0180903     -0.000182697      0.00049543
                     0.000631186    -1.32773e-05         0.929299        0.277935     -0.000241655      0.00069919        -0.132748        0.153556
281700.6             -0.00239417       -0.161515     -0.000509716    -0.000186256        -0.652019        0.738395      0.000649884     6.73213e-05
                    -0.000597872    -0.000130865        0.0226167        0.198502      0.000294924    -0.000552521          0.92911        0.278432
                       -0.652201        0.738154      0.000135261    -0.000566348        -0.160949       0.0180922     -0.000182654     0.000495445
                     0.000631188    -1.32937e-05          0.92931        0.277903     -0.000241638     0.000699199        -0.132741        0.153555
281700.7             -0.00240115       -0.161515     -0.000509715    -0.000186229        -0.651999        0.738413      0.000649872     6.73043e-05
                    -0.000597881    -0.000130859        0.0226249        0.198496       0.00029491    -0.000552526          0.92912          0.2784
                        -0.65218        0.738172      0.000135248    -0.000566365        -0.160949       0.0180941     -0.000182611      0.00049546
                     0.000631189    -1.33102e-05          0.92932        0.277871      -0.00024162     0.000699208        -0.132734        0.153555
281700.8             -0.00240812       -0.161515     -0.000509715    -0.000186202        -0.651979        0.738431      0.000649859     6.72874e-05
                     -0.00059789    -0.000130852        0.0226332         0.19849      0.000294897    -0.000552531         0.929131        0.278368
                        -0.65216         0.73819      0.000135235    -0.000566382        -0.160949        0.018096     -0.000182568     0.000495475
                      0.00063119    -1.33266e-05         0.929331        0.277839     -0.000241603     0.000699217        -0.132727        0.153554
281700.9              -0.0024151       -0.161515     -0.000509715    -0.000186174        -0.651958        0.738449      0.000649847     6.72704e-05
                    -0.000597899    -0.000130846        0.0226415        0.198484      0.000294884    -0.000552536         0.929141        0.278336
                        -0.65214        0.738208      0.000135222    -0.000566399        -0.160949        0.018098     -0.000182525      0.00049549
                     0.000631192    -1.33431e-05         0.929341        0.277807     -0.000241585     0.000699226         -0.13272        0.153553
281701               -0.00242207       -0.161515     -0.000509715    -0.000186147        -0.651938        0.738467      0.000649835     6.72534e-05
                    -0.000597909     -0.00013084        0.0226497        0.198478      0.000294871    -0.000552541         0.929152        0.278304
                       -0.652119        0.738226      0.000135209    -0.000566416        -0.160949       0.0180999     -0.000182482     0.000495505
                     0.000631193    -1.33596e-05         0.929352        0.277775     -0.000241568     0.000699235        -0.132713        0.153553
281701.1             -0.00242904       -0.161515     -0.000509715    -0.000186119        -0.651918        0.738485      0.000649823     6.72364e-05
                    -0.000597918    -0.000130834         0.022658        0.198472      0.000294857    -0.000552546         0.929163        0.278272
                       -0.652099        0.738244      0.000135196    -0.000566433        -0.160948       0.0181018     -0.000182439      0.00049552
                     0.000631194     -1.3376e-05         0.929363        0.277743      -0.00024155     0.000699244        -0.132706        0.153552
281701.2             -0.00243602       -0.161515     -0.000509714    -0.000186092        -0.651897        0.738503      0.000649811     6.72194e-05
                    -0.000597927    -0.000130828        0.0226662        0.198466      0.000294844    -0.000552552         0.929173         0.27824
                       -0.652079        0.738262      0.000135183     -0.00056645        -0.160948       0.0181038     -0.000182396     0.000495535
                     0.000631196    -1.33925e-05         0.929373        0.277711     -0.000241533     0.000699253        -0.132699        0.153552
281701.3             -0.00244299       -0.161515     -0.000509714    -0.000186065        -0.651877        0.738521      0.000649798     6.72024e-05
                    -0.000597936    -0.000130821        0.0226745         0.19846      0.000294831    -0.000552557         0.929184        0.278208
                       -0.652058         0.73828       0.00013517    -0.000566467        -0.160948       0.0181057     -0.000182353      0.00049555
                     0.000631197    -1.34089e-05         0.929384        0.277679     -0.000241515     0.000699263        -0.132692        0.153551
281701.4             -0.00244997       -0.161514     -0.000509714    -0.000186037        -0.651856        0.738539      0.000649786     6.71854e-05
                    -0.000597946    -0.000130815        0.0226828        0.198454      0.000294818    -0.000552562         0.929195        0.278176
                       -0.652038        0.738298      0.000135158    -0.000566484        -0.160948       0.0181076      -0.00018231     0.000495565
                     0.000631198    -1.34254e-05         0.929395        0.277647     -0.000241498     0.000699272        -0.132685        0.153551
281701.5             -0.00245694       -0.161514     -0.000509714     -0.00018601        -0.651836        0.738557      0.000649774     6.71685e-05
                    -0.000597955    -0.000130809         0.022691        0.198448      0.000294805    -0.000552567         0.929205        0.278144
                       -0.652017        0.738316      0.000135145      -0.0005665        -0.160947       0.0181096     -0.000182267      0.00049558
                       0.0006312    -1.34419e-05         0.929405        0.277615      -0.00024148     0.000699281        -0.132678         0.15355
281701.6             -0.00246391       -0.161514     -0.000509714    -0.000185982        -0.651816        0.738575      0.000649762     6.71515e-05
                    -0.000597964    -0.000130803        0.0226993        0.198442      0.000294791    -0.000552572         0.929216        0.278112
                       -0.651997        0.738334      0.000135132    -0.000566517        -0.160947       0.0181115     -0.000182224     0.000495594
                     0.000631201    -1.34583e-05         0.929416        0.277583     -0.000241463      0.00069929        -0.132671        0.153549
281701.7             -0.00247089       -0.161514     -0.000509713    -0.000185955        -0.651795        0.738593       0.00064975     6.71345e-05
                    -0.000597973    -0.000130797        0.0227075        0.198436      0.000294778    -0.000552577         0.929226         0.27808
                       -0.651977        0.738352      0.000135119    -0.000566534        -0.160947       0.0181134     -0.000182181     0.000495609
                     0.000631202    -1.34748e-05         0.929426        0.277551     -0.000241445     0.000699299        -0.132664        0.153549
281701.8             -0.00247786       -0.161514     -0.000509713    -0.000185928        -0.651775        0.738611      0.000649737     6.71175e-05
                    -0.000597982    -0.000130791        0.0227158         0.19843      0.000294765    -0.000552582         0.929237        0.278048
                       -0.651956         0.73837      0.000135106    -0.000566551        -0.160947       0.0181153     -0.000182137     0.000495624
                     0.000631204    -1.34912e-05         0.929437        0.277519     -0.000241428     0.000699308        -0.132657        0.153548
281701.9             -0.00248483       -0.161514     -0.000509713      -0.0001859        -0.651754        0.738629      0.000649725     6.71005e-05
                    -0.000597992    -0.000130784        0.0227241        0.198424      0.000294752    -0.000552587         0.929248        0.278016
                       -0.651936        0.738388      0.000135093    -0.000566568        -0.160947       0.0181173     -0.000182094     0.000495639
                     0.000631205    -1.35077e-05         0.929448        0.277487      -0.00024141     0.000699317         -0.13265        0.153548
281702               -0.00249181       -0.161514     -0.000509713    -0.000185873        -0.651734        0.738647      0.000649713     6.70835e-05
                    -0.000598001    -0.000130778        0.0227323        0.198418      0.000294739    -0.000552592         0.929258        0.277984
                       -0.651916        0.738406       0.00013508    -0.000566585        -0.160946       0.0181192     -0.000182051     0.000495654
                     0.000631206    -1.35241e-05         0.929458        0.277455     -0.000241393     0.000699327        -0.132643        0.153547
281702.1             -0.00249878       -0.161514     -0.000509713    -0.000185845        -0.651714        0.738665      0.000649701     6.70665e-05
                     -0.00059801    -0.000130772        0.0227406        0.198412      0.000294725    -0.000552597         0.929269        0.277952
                       -0.651895        0.738424      0.000135067    -0.000566602        -0.160946       0.0181211     -0.000182008     0.000495669
                     0.000631208    -1.35406e-05         0.929469        0.277423     -0.000241375     0.000699336        -0.132635        0.153546
281702.2             -0.00250576       -0.161514     -0.000509712    -0.000185818        -0.651693        0.738683      0.000649689     6.70495e-05
                    -0.000598019    -0.000130766        0.0227488        0.198406      0.000294712    -0.000552603         0.929279        0.277921
                       -0.651875        0.738442      0.000135054    -0.000566619        -0.160946       0.0181231     -0.000181965     0.000495684
                     0.000631209     -1.3557e-05         0.929479        0.277391     -0.000241358     0.000699345        -0.132628        0.153546
281702.3             -0.00251273       -0.161514     -0.000509712    -0.000185791        -0.651673        0.738701      0.000649676     6.70326e-05
                    -0.000598029     -0.00013076        0.0227571        0.198399      0.000294699    -0.000552608          0.92929        0.277889
                       -0.651854         0.73846      0.000135041    -0.000566635        -0.160946        0.018125     -0.000181922     0.000495699
                      0.00063121    -1.35734e-05          0.92949        0.277359      -0.00024134     0.000699354        -0.132621        0.153545
281702.4              -0.0025197       -0.161513     -0.000509712    -0.000185763        -0.651652        0.738719      0.000649664     6.70156e-05
                    -0.000598038    -0.000130753        0.0227653        0.198393      0.000294686    -0.000552613         0.929301        0.277857
                       -0.651834        0.738478      0.000135028    -0.000566652        -0.160945       0.0181269     -0.000181879     0.000495713
                     0.000631212    -1.35899e-05         0.929501        0.277327     -0.000241323     0.000699363        -0.132614        0.153545
281702.5             -0.00252668       -0.161513     -0.000509712    -0.000185736        -0.651632        0.738737      0.000649652     6.69986e-05
                    -0.000598047    -0.000130747        0.0227736        0.198387      0.000294672    -0.000552618         0.929311        0.277825
                       -0.651814        0.738496      0.000135015    -0.000566669        -0.160945       0.0181289     -0.000181836     0.000495728
                     0.000631213    -1.36063e-05         0.929511        0.277295     -0.000241305     0.000699372        -0.132607        0.153544
281702.6             -0.00253365       -0.161513     -0.000509712    -0.000185709        -0.651612        0.738755       0.00064964     6.69816e-05
                    -0.000598056    -0.000130741        0.0227819        0.198381      0.000294659    -0.000552623         0.929322        0.277793
                       -0.651793        0.738514      0.000135002    -0.000566686        -0.160945       0.0181308     -0.000181793     0.000495743
                     0.000631214    -1.36228e-05         0.929522        0.277263     -0.000241288     0.000699381          -0.1326        0.153544
281702.7             -0.00254062       -0.161513     -0.000509712    -0.000185681        -0.651591        0.738773      0.000649628     6.69646e-05
                    -0.000598065    -0.000130735        0.0227901        0.198375      0.000294646    -0.000552628         0.929332        0.277761
                       -0.651773        0.738532      0.000134989    -0.000566703        -0.160945       0.0181327      -0.00018175     0.000495758
                     0.000631216    -1.36392e-05         0.929533        0.277231      -0.00024127      0.00069939        -0.132593        0.153543
281702.8              -0.0025476       -0.161513     -0.000509712    -0.000185654        -0.651571        0.738791      0.000649615     6.69476e-05
                    -0.000598075    -0.000130729        0.0227984        0.198369      0.000294633    -0.000552633         0.929343        0.277729
                       -0.651753         0.73855      0.000134977     -0.00056672        -0.160944       0.0181346     -0.000181707     0.000495773
                     0.000631217    -1.36556e-05         0.929543        0.277199     -0.000241253     0.000699399        -0.132586        0.153542
281702.9             -0.00255457       -0.161513     -0.000509711    -0.000185626        -0.651551        0.738809      0.000649603     6.69306e-05
                    -0.000598084    -0.000130723        0.0228066        0.198363       0.00029462    -0.000552638         0.929353        0.277697
                       -0.651732        0.738568      0.000134964    -0.000566737        -0.160944       0.0181366     -0.000181664     0.000495788
                     0.000631218    -1.36721e-05         0.929554        0.277167     -0.000241235     0.000699409        -0.132579        0.153542
281703               -0.00256154       -0.161513     -0.000509711    -0.000185599         -0.65153        0.738827      0.000649591     6.69136e-05
                    -0.000598093    -0.000130716        0.0228149        0.198357      0.000294606    -0.000552643         0.929364        0.277665
                       -0.651712        0.738586      0.000134951    -0.000566753        -0.160944       0.0181385     -0.000181621     0.000495803
                     0.000631219    -1.36885e-05         0.929564        0.277135     -0.000241218     0.000699418        -0.132572        0.153541
281703.1             -0.00256852       -0.161513     -0.000509711    -0.000185572         -0.65151        0.738845      0.000649579     6.68966e-05
                    -0.000598102     -0.00013071        0.0228231        0.198351      0.000294593    -0.000552648         0.929375        0.277633
                       -0.651691        0.738604      0.000134938     -0.00056677        -0.160944       0.0181404     -0.000181578     0.000495817
