! TOUCHSTONE file generated by CST MICROWAVE STUDIO
! Date and time: Wed Oct  8 06:58:19 2025
! Project name: Teste_Macro_Metasurface_Nanopilar.cst
! Parameters = {H=600; L_x=135; L_y=70; Lambda=1064; Max_L=200; Min_L=70; PathPara=1; Phi=0; Step_L=10; Theta=0; p=520; phaseX=180; phaseY=0}
! Header version: 2018
! Port assignment regex: !\s*Touchstone port\s*([0-9]+)\s*=\s*(CST MWS port|CST DS port)\s*([0-9]+|Zmin|Zmax)\s*\(\"(.*)\"\)(\s*mode\s*([0-9]+))?.*
! Touchstone port assignment:
! Touchstone port 1 = CST MWS port Zmax ("") mode 1
! Touchstone port 2 = CST MWS port Zmax ("") mode 2
! Touchstone port 3 = CST MWS port Zmin ("") mode 1
! Touchstone port 4 = CST MWS port Zmin ("") mode 2
! S-Parameters are not renormalized. Each port impedance will be approximated by the real part at minimum frequency. The values are described via the [Reference] keyword.
! Default impedance is overridden by [Reference]
[Version] 2.0
# GHz S RI R 376.73
[Number of Ports] 4
[Reference]
376.73 376.73 376.73 376.73 
[Number of Frequencies] 1001
[Network Data]
281700                  0.118459       0.0127641      0.000182779     0.000231773         -0.95237        0.278646      0.000112955     8.75368e-05
                     0.000118289     0.000323848         -0.31189       0.0981148      0.000238542     0.000193485         0.281681        0.895766
                       -0.953024        0.278931      0.000185934     0.000162555       -0.0930508       0.0746465      0.000302752     0.000126906
                     0.000176202     0.000175416         0.281666        0.895883      0.000205941    -4.18539e-06        -0.312918       0.0984054
281700.1                0.118457       0.0127584       0.00018279     0.000231768        -0.952363        0.278672      0.000112967      8.7536e-05
                     0.000118316     0.000323847        -0.311886       0.0981245      0.000238545      0.00019347         0.281708        0.895758
                       -0.953017        0.278957      0.000185939      0.00016255       -0.0930482       0.0746456       0.00030275     0.000126904
                     0.000176209     0.000175411         0.281694        0.895875      0.000205939    -4.18215e-06        -0.312914       0.0984139
281700.2                0.118455       0.0127528      0.000182801     0.000231762        -0.952356        0.278697      0.000112979     8.75352e-05
                     0.000118343     0.000323846        -0.311881       0.0981341      0.000238548     0.000193455         0.281736         0.89575
                        -0.95301        0.278982      0.000185945     0.000162545       -0.0930456       0.0746448      0.000302748     0.000126901
                     0.000176216     0.000175407         0.281721        0.895867      0.000205937    -4.17891e-06         -0.31291       0.0984224
281700.3                0.118453       0.0127472      0.000182812     0.000231757        -0.952349        0.278723      0.000112991     8.75343e-05
                      0.00011837     0.000323845        -0.311877       0.0981437      0.000238551     0.000193439         0.281763        0.895742
                       -0.953003        0.279008      0.000185951      0.00016254        -0.093043       0.0746439      0.000302747     0.000126898
                     0.000176223     0.000175403         0.281748        0.895859      0.000205934    -4.17568e-06        -0.312906       0.0984308
281700.4                0.118451       0.0127416      0.000182822     0.000231752        -0.952342        0.278748      0.000113003     8.75335e-05
                     0.000118398     0.000323843        -0.311872       0.0981534      0.000238555     0.000193424          0.28179        0.895733
                       -0.952996        0.279033      0.000185956     0.000162535       -0.0930404       0.0746431      0.000302745     0.000126895
                      0.00017623     0.000175398         0.281775        0.895851      0.000205932    -4.17244e-06        -0.312902       0.0984393
281700.5                0.118449        0.012736      0.000182833     0.000231747        -0.952335        0.278773      0.000113015     8.75327e-05
                     0.000118425     0.000323842        -0.311868        0.098163      0.000238558     0.000193408         0.281818        0.895725
                       -0.952989        0.279058      0.000185962      0.00016253       -0.0930378       0.0746422      0.000302743     0.000126892
                     0.000176236     0.000175394         0.281803        0.895842       0.00020593    -4.16921e-06        -0.312898       0.0984478
281700.6                0.118447       0.0127304      0.000182844     0.000231742        -0.952328        0.278799      0.000113027     8.75319e-05
                     0.000118452     0.000323841        -0.311864       0.0981727      0.000238561     0.000193393         0.281845        0.895717
                       -0.952982        0.279084      0.000185968     0.000162525       -0.0930352       0.0746414      0.000302741     0.000126889
                     0.000176243     0.000175389          0.28183        0.895834      0.000205928    -4.16597e-06        -0.312894       0.0984563
281700.7                0.118445       0.0127248      0.000182855     0.000231737        -0.952321        0.278824       0.00011304     8.75311e-05
                     0.000118479     0.000323839        -0.311859       0.0981823      0.000238564     0.000193377         0.281872        0.895709
                       -0.952975        0.279109      0.000185973      0.00016252       -0.0930327       0.0746406      0.000302739     0.000126887
                      0.00017625     0.000175385         0.281857        0.895826      0.000205926    -4.16274e-06         -0.31289       0.0984647
281700.8                0.118443       0.0127192      0.000182865     0.000231732        -0.952314         0.27885      0.000113052     8.75303e-05
                     0.000118506     0.000323838        -0.311855        0.098192      0.000238567     0.000193362         0.281899        0.895701
                       -0.952968        0.279135      0.000185979     0.000162515       -0.0930301       0.0746397      0.000302737     0.000126884
                     0.000176257     0.000175381         0.281885        0.895818      0.000205923    -4.15951e-06        -0.312886       0.0984732
281700.9                0.118441       0.0127136      0.000182876     0.000231727        -0.952306        0.278875      0.000113064     8.75294e-05
                     0.000118533     0.000323837        -0.311851       0.0982016      0.000238571     0.000193346         0.281927        0.895693
                        -0.95296         0.27916      0.000185985      0.00016251       -0.0930275       0.0746389      0.000302736     0.000126881
                     0.000176264     0.000175376         0.281912         0.89581      0.000205921    -4.15628e-06        -0.312882       0.0984817
281701                  0.118439       0.0127079      0.000182887     0.000231722        -0.952299          0.2789      0.000113076     8.75286e-05
                      0.00011856     0.000323836        -0.311846       0.0982113      0.000238574     0.000193331         0.281954        0.895685
                       -0.952953        0.279185       0.00018599     0.000162505       -0.0930249        0.074638      0.000302734     0.000126878
                     0.000176271     0.000175372         0.281939        0.895802      0.000205919    -4.15305e-06        -0.312878       0.0984901
281701.1                0.118437       0.0127023      0.000182898     0.000231716        -0.952292        0.278926      0.000113088     8.75278e-05
                     0.000118587     0.000323834        -0.311842       0.0982209      0.000238577     0.000193315         0.281981        0.895676
                       -0.952946        0.279211      0.000185996       0.0001625       -0.0930223       0.0746372      0.000302732     0.000126875
                     0.000176278     0.000175367         0.281966        0.895794      0.000205917    -4.14982e-06        -0.312874       0.0984986
281701.2                0.118435       0.0126967      0.000182908     0.000231711        -0.952285        0.278951        0.0001131      8.7527e-05
                     0.000118614     0.000323833        -0.311837       0.0982305       0.00023858       0.0001933         0.282008        0.895668
                       -0.952939        0.279236      0.000186001     0.000162495       -0.0930197       0.0746363       0.00030273     0.000126873
                     0.000176284     0.000175363         0.281994        0.895785      0.000205915    -4.14659e-06         -0.31287       0.0985071
281701.3                0.118433       0.0126911      0.000182919     0.000231706        -0.952278        0.278976      0.000113112     8.75262e-05
                     0.000118641     0.000323832        -0.311833       0.0982402      0.000238584     0.000193285         0.282036         0.89566
                       -0.952932        0.279262      0.000186007      0.00016249       -0.0930171       0.0746355      0.000302728      0.00012687
                     0.000176291     0.000175359         0.282021        0.895777      0.000205913    -4.14337e-06        -0.312866       0.0985155
281701.4                0.118431       0.0126855       0.00018293     0.000231701        -0.952271        0.279002      0.000113125     8.75254e-05
                     0.000118668     0.000323831        -0.311829       0.0982498      0.000238587     0.000193269         0.282063        0.895652
                       -0.952925        0.279287      0.000186013     0.000162485       -0.0930145       0.0746346      0.000302726     0.000126867
                     0.000176298     0.000175354         0.282048        0.895769       0.00020591    -4.14014e-06        -0.312862        0.098524
281701.5                0.118429       0.0126799       0.00018294     0.000231696        -0.952264        0.279027      0.000113137     8.75246e-05
                     0.000118695     0.000323829        -0.311824       0.0982595       0.00023859     0.000193254          0.28209        0.895644
                       -0.952918        0.279312      0.000186018      0.00016248       -0.0930119       0.0746338      0.000302725     0.000126864
                     0.000176305      0.00017535         0.282075        0.895761      0.000205908    -4.13692e-06        -0.312858       0.0985325
281701.6                0.118427       0.0126743      0.000182951     0.000231691        -0.952257        0.279053      0.000113149     8.75238e-05
                     0.000118722     0.000323828         -0.31182       0.0982691      0.000238593     0.000193238         0.282118        0.895636
                       -0.952911        0.279338      0.000186024     0.000162475       -0.0930093       0.0746329      0.000302723     0.000126861
                     0.000176312     0.000175345         0.282103        0.895753      0.000205906    -4.13369e-06        -0.312854       0.0985409
281701.7                0.118426       0.0126687      0.000182962     0.000231685         -0.95225        0.279078      0.000113161      8.7523e-05
                     0.000118749     0.000323827        -0.311815       0.0982788      0.000238596     0.000193223         0.282145        0.895627
                       -0.952904        0.279363       0.00018603      0.00016247       -0.0930068       0.0746321      0.000302721     0.000126858
                     0.000176319     0.000175341          0.28213        0.895745      0.000205904    -4.13047e-06         -0.31285       0.0985494
281701.8                0.118424       0.0126631      0.000182972      0.00023168        -0.952242        0.279103      0.000113173     8.75221e-05
                     0.000118776     0.000323826        -0.311811       0.0982884        0.0002386     0.000193207         0.282172        0.895619
                       -0.952896        0.279389      0.000186035     0.000162465       -0.0930042       0.0746313      0.000302719     0.000126856
                     0.000176326     0.000175337         0.282157        0.895737      0.000205902    -4.12725e-06        -0.312846       0.0985579
281701.9                0.118422       0.0126574      0.000182983     0.000231675        -0.952235        0.279129      0.000113185     8.75213e-05
                     0.000118803     0.000323825        -0.311807        0.098298      0.000238603     0.000193192         0.282199        0.895611
                       -0.952889        0.279414      0.000186041      0.00016246       -0.0930016       0.0746304      0.000302717     0.000126853
                     0.000176332     0.000175332         0.282185        0.895728      0.000205899    -4.12403e-06        -0.312842       0.0985663
281702                   0.11842       0.0126518      0.000182994      0.00023167        -0.952228        0.279154      0.000113197     8.75205e-05
                      0.00011883     0.000323823        -0.311802       0.0983077      0.000238606     0.000193176         0.282227        0.895603
                       -0.952882        0.279439      0.000186046     0.000162455        -0.092999       0.0746296      0.000302716      0.00012685
                     0.000176339     0.000175328         0.282212         0.89572      0.000205897    -4.12081e-06        -0.312838       0.0985748
281702.1                0.118418       0.0126462      0.000183004     0.000231665        -0.952221         0.27918       0.00011321     8.75197e-05
                     0.000118857     0.000323822        -0.311798       0.0983173      0.000238609     0.000193161         0.282254        0.895595
                       -0.952875        0.279465      0.000186052      0.00016245       -0.0929964       0.0746287      0.000302714     0.000126847
                     0.000176346     0.000175324         0.282239        0.895712      0.000205895    -4.11759e-06        -0.312834       0.0985833
281702.2                0.118416       0.0126406      0.000183015     0.000231659        -0.952214        0.279205      0.000113222     8.75189e-05
                     0.000118884     0.000323821        -0.311794        0.098327      0.000238612     0.000193146         0.282281        0.895587
                       -0.952868         0.27949      0.000186058     0.000162445       -0.0929938       0.0746279      0.000302712     0.000126844
                     0.000176353     0.000175319         0.282266        0.895704      0.000205893    -4.11437e-06         -0.31283       0.0985917
281702.3                0.118414        0.012635      0.000183025     0.000231654        -0.952207         0.27923      0.000113234     8.75181e-05
                     0.000118911      0.00032382        -0.311789       0.0983366      0.000238616      0.00019313         0.282308        0.895578
                       -0.952861        0.279516      0.000186063      0.00016244       -0.0929912        0.074627       0.00030271     0.000126841
                      0.00017636     0.000175315         0.282294        0.895696      0.000205891    -4.11116e-06        -0.312826       0.0986002
281702.4                0.118412       0.0126294      0.000183036     0.000231649          -0.9522        0.279256      0.000113246     8.75173e-05
                     0.000118938     0.000323818        -0.311785       0.0983463      0.000238619     0.000193115         0.282336         0.89557
                       -0.952854        0.279541      0.000186069     0.000162435       -0.0929886       0.0746262      0.000302708     0.000126838
                     0.000176367      0.00017531         0.282321        0.895688      0.000205889    -4.10794e-06        -0.312822       0.0986087
281702.5                 0.11841       0.0126238      0.000183047     0.000231644        -0.952193        0.279281      0.000113258     8.75165e-05
                     0.000118965     0.000323817         -0.31178       0.0983559      0.000238622     0.000193099         0.282363        0.895562
                       -0.952847        0.279566      0.000186075      0.00016243        -0.092986       0.0746253      0.000302706     0.000126836
                     0.000176374     0.000175306         0.282348        0.895679      0.000205886    -4.10473e-06        -0.312818       0.0986171
281702.6                0.118408       0.0126182      0.000183057     0.000231639        -0.952186        0.279307       0.00011327     8.75157e-05
                     0.000118992     0.000323816        -0.311776       0.0983655      0.000238625     0.000193084          0.28239        0.895554
                        -0.95284        0.279592       0.00018608     0.000162425       -0.0929835       0.0746245      0.000302705     0.000126833
                      0.00017638     0.000175302         0.282376        0.895671      0.000205884    -4.10151e-06        -0.312814       0.0986256
281702.7                0.118406       0.0126126      0.000183068     0.000231633        -0.952178        0.279332      0.000113282     8.75149e-05
                     0.000119019     0.000323815        -0.311772       0.0983752      0.000238628     0.000193068         0.282417        0.895546
                       -0.952832        0.279617      0.000186086      0.00016242       -0.0929809       0.0746236      0.000302703      0.00012683
                     0.000176387     0.000175297         0.282403        0.895663      0.000205882     -4.0983e-06        -0.312809       0.0986341
281702.8                0.118404        0.012607      0.000183078     0.000231628        -0.952171        0.279357      0.000113295     8.75141e-05
                     0.000119046     0.000323813        -0.311767       0.0983848      0.000238632     0.000193053         0.282445        0.895538
                       -0.952825        0.279642      0.000186092     0.000162415       -0.0929783       0.0746228      0.000302701     0.000126827
                     0.000176394     0.000175293          0.28243        0.895655       0.00020588    -4.09509e-06        -0.312805       0.0986425
281702.9                0.118402       0.0126014      0.000183089     0.000231623        -0.952164        0.279383      0.000113307     8.75133e-05
                     0.000119073     0.000323812        -0.311763       0.0983945      0.000238635     0.000193038         0.282472        0.895529
                       -0.952818        0.279668      0.000186097      0.00016241       -0.0929757       0.0746219      0.000302699     0.000126824
                     0.000176401     0.000175289         0.282457        0.895647      0.000205878    -4.09188e-06        -0.312801        0.098651
281703                    0.1184       0.0125957        0.0001831     0.000231618        -0.952157        0.279408      0.000113319     8.75125e-05
                       0.0001191     0.000323811        -0.311758       0.0984041      0.000238638     0.000193022         0.282499        0.895521
                       -0.952811        0.279693      0.000186103     0.000162406       -0.0929731       0.0746211      0.000302697     0.000126821
                     0.000176408     0.000175284         0.282485        0.895639      0.000205875    -4.08867e-06        -0.312797       0.0986595
281703.1                0.118398       0.0125901       0.00018311     0.000231612         -0.95215        0.279433      0.000113331     8.75117e-05
                     0.000119127      0.00032381        -0.311754       0.0984137      0.000238641     0.000193007         0.282527        0.895513
                       -0.952804        0.279719      0.000186108     0.000162401       -0.0929705       0.0746203      0.000302695     0.000126818
