! TOUCHSTONE file generated by CST MICROWAVE STUDIO
! Date and time: Wed Oct  8 06:55:57 2025
! Project name: Teste_Macro_Metasurface_Nanopilar.cst
! Parameters = {H=600; L_x=115; L_y=75; Lambda=1064; Max_L=200; Min_L=70; PathPara=1; Phi=0; Step_L=10; Theta=0; p=520; phaseX=180; phaseY=0}
! Header version: 2018
! Port assignment regex: !\s*Touchstone port\s*([0-9]+)\s*=\s*(CST MWS port|CST DS port)\s*([0-9]+|Zmin|Zmax)\s*\(\"(.*)\"\)(\s*mode\s*([0-9]+))?.*
! Touchstone port assignment:
! Touchstone port 1 = CST MWS port Zmax ("") mode 1
! Touchstone port 2 = CST MWS port Zmax ("") mode 2
! Touchstone port 3 = CST MWS port Zmin ("") mode 1
! Touchstone port 4 = CST MWS port Zmin ("") mode 2
! S-Parameters are not renormalized. Each port impedance will be approximated by the real part at minimum frequency. The values are described via the [Reference] keyword.
! Default impedance is overridden by [Reference]
[Version] 2.0
# GHz S RI R 376.73
[Number of Ports] 4
[Reference]
376.73 376.73 376.73 376.73 
[Number of Frequencies] 1001
[Network Data]
281700                  0.120938      0.00917173     -3.44222e-05      0.00029526        -0.950408        0.288766      8.62897e-06    -0.000230652
                     4.48391e-05     0.000206079          -0.1108       -0.176013     -9.44258e-05     3.17465e-05        -0.501805        0.836343
                       -0.949397         0.28769     -9.39475e-05    -6.13246e-05       -0.0956368       0.0749057      4.49673e-05     0.000227568
                    -1.28648e-05    -0.000118781        -0.501645        0.836718     -5.94217e-05     2.62961e-05        -0.208069       -0.013989
281700.1                0.120936      0.00916607     -3.44122e-05      0.00029524          -0.9504        0.288791      8.61742e-06    -0.000230658
                     4.48541e-05     0.000206081        -0.110807       -0.176009     -9.44317e-05     3.17718e-05        -0.501782        0.836357
                        -0.94939        0.287715     -9.39714e-05    -6.13066e-05       -0.0956342       0.0749049      4.49728e-05     0.000227576
                    -1.28855e-05     -0.00011877        -0.501622        0.836732     -5.94021e-05     2.62943e-05         -0.20807      -0.0139852
281700.2                0.120934      0.00916041     -3.44021e-05      0.00029522        -0.950393        0.288816      8.60586e-06    -0.000230665
                     4.48692e-05     0.000206083        -0.110814       -0.176006     -9.44376e-05     3.17971e-05        -0.501758        0.836371
                       -0.949383         0.28774     -9.39953e-05    -6.12886e-05       -0.0956316       0.0749042      4.49783e-05     0.000227584
                    -1.29062e-05    -0.000118758        -0.501598        0.836745     -5.93824e-05     2.62924e-05        -0.208071      -0.0139815
281700.3                0.120932      0.00915475      -3.4392e-05       0.0002952        -0.950385        0.288841       8.5943e-06    -0.000230671
                     4.48842e-05     0.000206085        -0.110821       -0.176002     -9.44435e-05     3.18223e-05        -0.501735        0.836385
                       -0.949375        0.287766     -9.40193e-05    -6.12707e-05       -0.0956291       0.0749034      4.49838e-05     0.000227591
                    -1.29268e-05    -0.000118746        -0.501575        0.836759     -5.93628e-05     2.62906e-05        -0.208072      -0.0139778
281700.4                 0.12093      0.00914908     -3.43819e-05     0.000295181        -0.950378        0.288867      8.58274e-06    -0.000230677
                     4.48992e-05     0.000206087        -0.110828       -0.175999     -9.44493e-05     3.18476e-05        -0.501711        0.836399
                       -0.949368        0.287791     -9.40432e-05    -6.12527e-05       -0.0956265       0.0749026      4.49893e-05     0.000227599
                    -1.29475e-05    -0.000118735        -0.501551        0.836773     -5.93432e-05     2.62887e-05        -0.208073       -0.013974
281700.5                0.120927      0.00914342     -3.43718e-05     0.000295161         -0.95037        0.288892      8.57118e-06    -0.000230683
                     4.49143e-05      0.00020609        -0.110835       -0.175995     -9.44551e-05     3.18729e-05        -0.501688        0.836413
                       -0.949361        0.287816     -9.40671e-05    -6.12348e-05        -0.095624       0.0749019      4.49948e-05     0.000227607
                    -1.29682e-05    -0.000118723        -0.501528        0.836787     -5.93236e-05     2.62869e-05        -0.208074      -0.0139703
281700.6                0.120925      0.00913776     -3.43617e-05     0.000295141        -0.950363        0.288917      8.55961e-06    -0.000230689
                     4.49293e-05     0.000206092        -0.110842       -0.175992      -9.4461e-05     3.18982e-05        -0.501664        0.836427
                       -0.949353        0.287842      -9.4091e-05    -6.12168e-05       -0.0956214       0.0749011      4.50003e-05     0.000227615
                    -1.29888e-05    -0.000118711        -0.501504        0.836801      -5.9304e-05      2.6285e-05        -0.208075      -0.0139665
281700.7                0.120923      0.00913209     -3.43516e-05     0.000295121        -0.950355        0.288942      8.54804e-06    -0.000230695
                     4.49444e-05     0.000206094        -0.110849       -0.175988     -9.44668e-05     3.19235e-05        -0.501641        0.836441
                       -0.949346        0.287867      -9.4115e-05    -6.11989e-05       -0.0956188       0.0749003      4.50058e-05     0.000227623
                    -1.30095e-05      -0.0001187        -0.501481        0.836815     -5.92844e-05     2.62831e-05        -0.208076      -0.0139628
281700.8                0.120921      0.00912643     -3.43415e-05     0.000295101        -0.950348        0.288968      8.53647e-06    -0.000230701
                     4.49594e-05     0.000206096        -0.110856       -0.175985     -9.44726e-05     3.19488e-05        -0.501617        0.836454
                       -0.949339        0.287892     -9.41389e-05    -6.11809e-05       -0.0956163       0.0748995      4.50113e-05     0.000227631
                    -1.30302e-05    -0.000118688        -0.501457        0.836829     -5.92648e-05     2.62813e-05        -0.208077       -0.013959
281700.9                0.120919      0.00912077     -3.43313e-05     0.000295082        -0.950341        0.288993       8.5249e-06    -0.000230707
                     4.49745e-05     0.000206098        -0.110863       -0.175981     -9.44783e-05     3.19741e-05        -0.501594        0.836468
                       -0.949331        0.287918     -9.41628e-05     -6.1163e-05       -0.0956137       0.0748988      4.50168e-05     0.000227639
                    -1.30509e-05    -0.000118676        -0.501434        0.836843     -5.92452e-05     2.62794e-05        -0.208078      -0.0139553
281701                  0.120917      0.00911511     -3.43212e-05     0.000295062        -0.950333        0.289018      8.51332e-06    -0.000230713
                     4.49895e-05       0.0002061         -0.11087       -0.175978     -9.44841e-05     3.19994e-05         -0.50157        0.836482
                       -0.949324        0.287943     -9.41867e-05     -6.1145e-05       -0.0956112        0.074898      4.50223e-05     0.000227646
                    -1.30715e-05    -0.000118665         -0.50141        0.836856     -5.92256e-05     2.62775e-05        -0.208079      -0.0139516
281701.1                0.120915      0.00910945     -3.43111e-05     0.000295042        -0.950326        0.289044      8.50175e-06    -0.000230719
                     4.50045e-05     0.000206103        -0.110877       -0.175974     -9.44899e-05     3.20247e-05        -0.501547        0.836496
                       -0.949316        0.287968     -9.42106e-05    -6.11271e-05       -0.0956086       0.0748972      4.50278e-05     0.000227654
                    -1.30922e-05    -0.000118653        -0.501386         0.83687      -5.9206e-05     2.62755e-05        -0.208081      -0.0139478
281701.2                0.120913      0.00910378      -3.4301e-05     0.000295022        -0.950318        0.289069      8.49017e-06    -0.000230725
                     4.50196e-05     0.000206105        -0.110884       -0.175971     -9.44956e-05       3.205e-05        -0.501523         0.83651
                       -0.949309        0.287994     -9.42345e-05    -6.11091e-05        -0.095606       0.0748964      4.50334e-05     0.000227662
                    -1.31129e-05    -0.000118642        -0.501363        0.836884     -5.91864e-05     2.62736e-05        -0.208082      -0.0139441
281701.3                0.120911      0.00909812     -3.42908e-05     0.000295002        -0.950311        0.289094      8.47858e-06    -0.000230732
                     4.50347e-05     0.000206107        -0.110892       -0.175967     -9.45013e-05     3.20753e-05          -0.5015        0.836524
                       -0.949302        0.288019     -9.42585e-05    -6.10912e-05       -0.0956035       0.0748957      4.50389e-05      0.00022767
                    -1.31336e-05     -0.00011863        -0.501339        0.836898     -5.91668e-05     2.62717e-05        -0.208083      -0.0139403
281701.4                0.120909      0.00909246     -3.42807e-05     0.000294983        -0.950303        0.289119        8.467e-06    -0.000230738
                     4.50497e-05     0.000206109        -0.110899       -0.175964      -9.4507e-05     3.21006e-05        -0.501476        0.836538
                       -0.949294        0.288044     -9.42824e-05    -6.10732e-05       -0.0956009       0.0748949      4.50444e-05     0.000227678
                    -1.31542e-05    -0.000118618        -0.501316        0.836912     -5.91472e-05     2.62698e-05        -0.208084      -0.0139366
281701.5                0.120907       0.0090868     -3.42705e-05     0.000294963        -0.950296        0.289145      8.45541e-06    -0.000230744
                     4.50648e-05     0.000206111        -0.110906        -0.17596     -9.45127e-05     3.21259e-05        -0.501453        0.836552
                       -0.949287         0.28807     -9.43063e-05    -6.10553e-05       -0.0955984       0.0748941      4.50499e-05     0.000227686
                    -1.31749e-05    -0.000118607        -0.501292        0.836926     -5.91276e-05     2.62678e-05        -0.208085      -0.0139329
281701.6                0.120905      0.00908114     -3.42604e-05     0.000294943        -0.950288         0.28917      8.44382e-06     -0.00023075
                     4.50798e-05     0.000206113        -0.110913       -0.175957     -9.45183e-05     3.21512e-05        -0.501429        0.836566
                        -0.94928        0.288095     -9.43302e-05    -6.10373e-05       -0.0955958       0.0748934      4.50554e-05     0.000227694
                    -1.31956e-05    -0.000118595        -0.501269         0.83694      -5.9108e-05     2.62658e-05        -0.208086      -0.0139291
281701.7                0.120903      0.00907548     -3.42502e-05     0.000294923        -0.950281        0.289195      8.43223e-06    -0.000230756
                     4.50949e-05     0.000206116         -0.11092       -0.175953      -9.4524e-05     3.21765e-05        -0.501406         0.83658
                       -0.949272         0.28812     -9.43541e-05    -6.10194e-05       -0.0955932       0.0748926      4.50609e-05     0.000227701
                    -1.32163e-05    -0.000118583        -0.501245        0.836954     -5.90885e-05     2.62639e-05        -0.208087      -0.0139254
281701.8                0.120901      0.00906982     -3.42401e-05     0.000294903        -0.950273         0.28922      8.42063e-06    -0.000230762
                     4.51099e-05     0.000206118        -0.110927        -0.17595     -9.45296e-05     3.22018e-05        -0.501382        0.836593
                       -0.949265        0.288146      -9.4378e-05    -6.10014e-05       -0.0955907       0.0748918      4.50665e-05     0.000227709
                     -1.3237e-05    -0.000118572        -0.501222        0.836967     -5.90689e-05     2.62619e-05        -0.208088      -0.0139216
281701.9                0.120898      0.00906416     -3.42299e-05     0.000294884        -0.950266        0.289246      8.40903e-06    -0.000230768
                      4.5125e-05      0.00020612        -0.110934       -0.175946     -9.45352e-05     3.22272e-05        -0.501359        0.836607
                       -0.949258        0.288171     -9.44019e-05    -6.09835e-05       -0.0955881        0.074891       4.5072e-05     0.000227717
                    -1.32577e-05     -0.00011856        -0.501198        0.836981     -5.90493e-05     2.62599e-05        -0.208089      -0.0139179
281702                  0.120896      0.00905849     -3.42198e-05     0.000294864        -0.950258        0.289271      8.39743e-06    -0.000230774
                     4.51401e-05     0.000206122        -0.110941       -0.175943     -9.45408e-05     3.22525e-05        -0.501335        0.836621
                        -0.94925        0.288196     -9.44258e-05    -6.09656e-05       -0.0955856       0.0748903      4.50775e-05     0.000227725
                    -1.32784e-05    -0.000118549        -0.501175        0.836995     -5.90297e-05     2.62579e-05         -0.20809      -0.0139142
281702.1                0.120894      0.00905283     -3.42096e-05     0.000294844        -0.950251        0.289296      8.38583e-06     -0.00023078
                     4.51551e-05     0.000206124        -0.110948       -0.175939     -9.45464e-05     3.22778e-05        -0.501312        0.836635
                       -0.949243        0.288222     -9.44497e-05    -6.09476e-05        -0.095583       0.0748895       4.5083e-05     0.000227733
                     -1.3299e-05    -0.000118537        -0.501151        0.837009     -5.90102e-05     2.62559e-05        -0.208091      -0.0139104
281702.2                0.120892      0.00904717     -3.41994e-05     0.000294824        -0.950243        0.289321      8.37423e-06    -0.000230786
                     4.51702e-05     0.000206126        -0.110955       -0.175936      -9.4552e-05     3.23032e-05        -0.501288        0.836649
                       -0.949236        0.288247     -9.44737e-05    -6.09297e-05       -0.0955804       0.0748887      4.50886e-05     0.000227741
                    -1.33197e-05    -0.000118525        -0.501128        0.837023     -5.89906e-05     2.62539e-05        -0.208092      -0.0139067
281702.3                 0.12089      0.00904151     -3.41892e-05     0.000294804        -0.950236        0.289347      8.36262e-06    -0.000230792
                     4.51853e-05     0.000206129        -0.110962       -0.175932     -9.45575e-05     3.23285e-05        -0.501265        0.836663
                       -0.949228        0.288272     -9.44976e-05    -6.09117e-05       -0.0955779       0.0748879      4.50941e-05     0.000227749
                    -1.33404e-05    -0.000118514        -0.501104        0.837037      -5.8971e-05     2.62519e-05        -0.208093      -0.0139029
281702.4                0.120888      0.00903585      -3.4179e-05     0.000294785        -0.950229        0.289372      8.35101e-06    -0.000230798
                     4.52003e-05     0.000206131        -0.110969       -0.175929     -9.45631e-05     3.23538e-05        -0.501241        0.836677
                       -0.949221        0.288298     -9.45215e-05    -6.08938e-05       -0.0955753       0.0748872      4.50996e-05     0.000227757
                    -1.33611e-05    -0.000118502        -0.501081        0.837051     -5.89515e-05     2.62499e-05        -0.208094      -0.0138992
281702.5                0.120886      0.00903019     -3.41689e-05     0.000294765        -0.950221        0.289397       8.3394e-06    -0.000230805
                     4.52154e-05     0.000206133        -0.110976       -0.175925     -9.45686e-05     3.23792e-05        -0.501218        0.836691
                       -0.949214        0.288323     -9.45454e-05    -6.08758e-05       -0.0955728       0.0748864      4.51052e-05     0.000227764
                    -1.33818e-05     -0.00011849        -0.501057        0.837064     -5.89319e-05     2.62478e-05        -0.208095      -0.0138954
281702.6                0.120884      0.00902453     -3.41587e-05     0.000294745        -0.950214        0.289423      8.32778e-06    -0.000230811
                     4.52305e-05     0.000206135        -0.110983       -0.175922     -9.45741e-05     3.24045e-05        -0.501194        0.836705
                       -0.949206        0.288348     -9.45693e-05    -6.08579e-05       -0.0955702       0.0748856      4.51107e-05     0.000227772
                    -1.34025e-05    -0.000118479        -0.501034        0.837078     -5.89124e-05     2.62458e-05        -0.208096      -0.0138917
281702.7                0.120882      0.00901887     -3.41485e-05     0.000294725        -0.950206        0.289448      8.31617e-06    -0.000230817
                     4.52456e-05     0.000206137         -0.11099       -0.175919     -9.45796e-05     3.24298e-05        -0.501171        0.836718
                       -0.949199        0.288374     -9.45932e-05      -6.084e-05       -0.0955676       0.0748848      4.51162e-05      0.00022778
                    -1.34232e-05    -0.000118467         -0.50101        0.837092     -5.88928e-05     2.62437e-05        -0.208098       -0.013888
281702.8                 0.12088      0.00901321     -3.41383e-05     0.000294705        -0.950199        0.289473      8.30455e-06    -0.000230823
                     4.52606e-05     0.000206139        -0.110997       -0.175915     -9.45851e-05     3.24552e-05        -0.501147        0.836732
                       -0.949191        0.288399     -9.46171e-05     -6.0822e-05       -0.0955651       0.0748841      4.51218e-05     0.000227788
                    -1.34439e-05    -0.000118456        -0.500987        0.837106     -5.88733e-05     2.62416e-05        -0.208099      -0.0138842
281702.9                0.120878      0.00900755      -3.4128e-05     0.000294686        -0.950191        0.289498      8.29293e-06    -0.000230829
                     4.52757e-05     0.000206142        -0.111004       -0.175912     -9.45905e-05     3.24805e-05        -0.501124        0.836746
                       -0.949184        0.288424      -9.4641e-05    -6.08041e-05       -0.0955625       0.0748833      4.51273e-05     0.000227796
                    -1.34646e-05    -0.000118444        -0.500963         0.83712     -5.88537e-05     2.62396e-05          -0.2081      -0.0138805
281703                  0.120876      0.00900189     -3.41178e-05     0.000294666        -0.950184        0.289524       8.2813e-06    -0.000230835
                     4.52908e-05     0.000206144        -0.111012       -0.175908      -9.4596e-05     3.25059e-05          -0.5011         0.83676
                       -0.949177         0.28845     -9.46649e-05    -6.07861e-05         -0.09556       0.0748825      4.51329e-05     0.000227804
                    -1.34853e-05    -0.000118432         -0.50094        0.837134     -5.88342e-05     2.62375e-05        -0.208101      -0.0138767
281703.1                0.120874      0.00899623     -3.41076e-05     0.000294646        -0.950176        0.289549      8.26968e-06    -0.000230841
                     4.53059e-05     0.000206146        -0.111019       -0.175905     -9.46014e-05     3.25312e-05        -0.501076        0.836774
                       -0.949169        0.288475     -9.46888e-05    -6.07682e-05       -0.0955574       0.0748817      4.51384e-05     0.000227812
