! TOUCHSTONE file generated by CST MICROWAVE STUDIO
! Date and time: Wed Oct  8 06:53:01 2025
! Project name: Teste_Macro_Metasurface_Nanopilar.cst
! Parameters = {H=600; L_x=90; L_y=85; Lambda=1064; Max_L=200; Min_L=70; PathPara=1; Phi=0; Step_L=10; Theta=0; p=520; phaseX=180; phaseY=0}
! Header version: 2018
! Port assignment regex: !\s*Touchstone port\s*([0-9]+)\s*=\s*(CST MWS port|CST DS port)\s*([0-9]+|Zmin|Zmax)\s*\(\"(.*)\"\)(\s*mode\s*([0-9]+))?.*
! Touchstone port assignment:
! Touchstone port 1 = CST MWS port Zmax ("") mode 1
! Touchstone port 2 = CST MWS port Zmax ("") mode 2
! Touchstone port 3 = CST MWS port Zmin ("") mode 1
! Touchstone port 4 = CST MWS port Zmin ("") mode 2
! S-Parameters are not renormalized. Each port impedance will be approximated by the real part at minimum frequency. The values are described via the [Reference] keyword.
! Default impedance is overridden by [Reference]
[Version] 2.0
# GHz S RI R 376.73
[Number of Ports] 4
[Reference]
376.73 376.73 376.73 376.73 
[Number of Frequencies] 1001
[Network Data]
281700                  0.111202      -0.0186675      0.000682655     0.000791012        -0.932065        0.342654     -0.000296241    -0.000796801
                     0.000640322     0.000686646         0.101037      -0.0454914     -0.000252719     -0.00089295        -0.907863        0.402531
                       -0.932061        0.342651     -0.000241791    -0.000814948       -0.0970663       0.0579055     -2.81119e-06     0.000975734
                    -0.000121337    -0.000762982        -0.907847        0.402554     -9.88356e-05      0.00102942        -0.101816       0.0445092
281700.1                0.111199      -0.0186728      0.000682661     0.000791009        -0.932056        0.342679     -0.000296269      -0.0007968
                      0.00064033      0.00068664         0.101033      -0.0454962     -0.000252741    -0.000892958        -0.907852        0.402555
                       -0.932052        0.342676     -0.000241799    -0.000814959       -0.0970644       0.0579047     -2.77556e-06     0.000975746
                    -0.000121348    -0.000762993        -0.907837        0.402579     -9.88075e-05      0.00102944        -0.101815       0.0445086
281700.2                0.111196      -0.0186782      0.000682666     0.000791005        -0.932047        0.342704     -0.000296297    -0.000796798
                     0.000640339     0.000686634          0.10103      -0.0455011     -0.000252763    -0.000892967        -0.907842         0.40258
                       -0.932043        0.342701     -0.000241806    -0.000814971       -0.0970626       0.0579039     -2.73992e-06     0.000975758
                    -0.000121359    -0.000763005        -0.907826        0.402603     -9.87794e-05      0.00102946        -0.101814       0.0445079
281700.3                0.111193      -0.0186835      0.000682672     0.000791002        -0.932038        0.342729     -0.000296324    -0.000796797
                     0.000640347     0.000686627         0.101026      -0.0455059     -0.000252784    -0.000892975        -0.907831        0.402604
                       -0.932034        0.342726     -0.000241813    -0.000814983       -0.0970607       0.0579031     -2.70429e-06      0.00097577
                     -0.00012137    -0.000763016        -0.907815        0.402627     -9.87512e-05      0.00102948        -0.101812       0.0445073
281700.4                 0.11119      -0.0186889      0.000682677     0.000790999        -0.932029        0.342754     -0.000296352    -0.000796796
                     0.000640356     0.000686621         0.101022      -0.0455108     -0.000252806    -0.000892983         -0.90782        0.402629
                       -0.932025        0.342751     -0.000241821    -0.000814995       -0.0970588       0.0579023     -2.66865e-06     0.000975782
                    -0.000121382    -0.000763027        -0.907805        0.402652     -9.87231e-05      0.00102951        -0.101811       0.0445067
281700.5                0.111187      -0.0186942      0.000682682     0.000790996         -0.93202        0.342779      -0.00029638    -0.000796795
                     0.000640364     0.000686615         0.101018      -0.0455156     -0.000252828    -0.000892991         -0.90781        0.402653
                       -0.932016        0.342776     -0.000241828    -0.000815006       -0.0970569       0.0579015     -2.63301e-06     0.000975794
                    -0.000121393    -0.000763038        -0.907794        0.402676      -9.8695e-05      0.00102953         -0.10181       0.0445061
281700.6                0.111184      -0.0186995      0.000682688     0.000790993        -0.932012        0.342804     -0.000296407    -0.000796793
                     0.000640372     0.000686609         0.101014      -0.0455205      -0.00025285    -0.000892999        -0.907799        0.402677
                       -0.932007        0.342801     -0.000241835    -0.000815018       -0.0970551       0.0579007     -2.59738e-06     0.000975806
                    -0.000121404    -0.000763049        -0.907783        0.402701     -9.86668e-05      0.00102955        -0.101808       0.0445055
281700.7                0.111181      -0.0187049      0.000682693     0.000790989        -0.932003        0.342829     -0.000296435    -0.000796792
                     0.000640381     0.000686602         0.101011      -0.0455253     -0.000252872    -0.000893007        -0.907788        0.402702
                       -0.931998        0.342826     -0.000241843     -0.00081503       -0.0970532          0.0579     -2.56174e-06     0.000975818
                    -0.000121415     -0.00076306        -0.907773        0.402725     -9.86387e-05      0.00102957        -0.101807       0.0445049
281700.8                0.111179      -0.0187102      0.000682698     0.000790986        -0.931994        0.342854     -0.000296463    -0.000796791
                     0.000640389     0.000686596         0.101007      -0.0455302     -0.000252894    -0.000893015        -0.907778        0.402726
                       -0.931989        0.342851      -0.00024185    -0.000815042       -0.0970513       0.0578992      -2.5261e-06      0.00097583
                    -0.000121426    -0.000763072        -0.907762         0.40275     -9.86105e-05       0.0010296        -0.101806       0.0445043
281700.9                0.111176      -0.0187156      0.000682704     0.000790983        -0.931985        0.342879      -0.00029649    -0.000796789
                     0.000640397      0.00068659         0.101003       -0.045535     -0.000252916    -0.000893023        -0.907767        0.402751
                        -0.93198        0.342876     -0.000241857    -0.000815053       -0.0970495       0.0578984     -2.49046e-06     0.000975842
                    -0.000121437    -0.000763083        -0.907751        0.402774     -9.85824e-05      0.00102962        -0.101804       0.0445037
281701                  0.111173      -0.0187209      0.000682709      0.00079098        -0.931976        0.342904     -0.000296518    -0.000796788
                     0.000640406     0.000686583         0.100999      -0.0455399     -0.000252937    -0.000893032        -0.907756        0.402775
                       -0.931971        0.342901     -0.000241864    -0.000815065       -0.0970476       0.0578976     -2.45482e-06     0.000975853
                    -0.000121448    -0.000763094        -0.907741        0.402798     -9.85542e-05      0.00102964        -0.101803       0.0445031
281701.1                 0.11117      -0.0187262      0.000682714     0.000790977        -0.931967        0.342929     -0.000296545    -0.000796787
                     0.000640414     0.000686577         0.100995      -0.0455447     -0.000252959     -0.00089304        -0.907746          0.4028
                       -0.931962        0.342926     -0.000241872    -0.000815077       -0.0970457       0.0578968     -2.41917e-06     0.000975865
                    -0.000121459    -0.000763105         -0.90773        0.402823     -9.85261e-05      0.00102967        -0.101802       0.0445024
281701.2                0.111167      -0.0187316       0.00068272     0.000790973        -0.931958        0.342954     -0.000296573    -0.000796786
                     0.000640423     0.000686571         0.100992      -0.0455496     -0.000252981    -0.000893048        -0.907735        0.402824
                       -0.931953        0.342951     -0.000241879    -0.000815089       -0.0970438        0.057896     -2.38353e-06     0.000975877
                     -0.00012147    -0.000763116        -0.907719        0.402847     -9.84979e-05      0.00102969          -0.1018       0.0445018
281701.3                0.111164      -0.0187369      0.000682725      0.00079097        -0.931949        0.342979     -0.000296601    -0.000796784
                     0.000640431     0.000686565         0.100988      -0.0455544     -0.000253003    -0.000893056        -0.907724        0.402848
                       -0.931945        0.342976     -0.000241886    -0.000815101        -0.097042       0.0578952     -2.34789e-06     0.000975889
                    -0.000121481    -0.000763128        -0.907709        0.402872     -9.84698e-05      0.00102971        -0.101799       0.0445012
281701.4                0.111161      -0.0187422       0.00068273     0.000790967         -0.93194        0.343004     -0.000296628    -0.000796783
                     0.000640439     0.000686558         0.100984      -0.0455593     -0.000253025    -0.000893064        -0.907714        0.402873
                       -0.931936        0.343001     -0.000241894    -0.000815112       -0.0970401       0.0578944     -2.31224e-06     0.000975901
                    -0.000121492    -0.000763139        -0.907698        0.402896     -9.84416e-05      0.00102973        -0.101798       0.0445006
281701.5                0.111158      -0.0187476      0.000682736     0.000790964        -0.931931        0.343029     -0.000296656    -0.000796782
                     0.000640448     0.000686552          0.10098      -0.0455641     -0.000253047    -0.000893072        -0.907703        0.402897
                       -0.931927        0.343026     -0.000241901    -0.000815124       -0.0970382       0.0578936     -2.27659e-06     0.000975913
                    -0.000121503     -0.00076315        -0.907687        0.402921     -9.84135e-05      0.00102976        -0.101796          0.0445
281701.6                0.111155      -0.0187529      0.000682741     0.000790961        -0.931922        0.343054     -0.000296684     -0.00079678
                     0.000640456     0.000686546         0.100977       -0.045569     -0.000253069     -0.00089308        -0.907692        0.402922
                       -0.931918        0.343051     -0.000241908    -0.000815136       -0.0970363       0.0578928     -2.24095e-06     0.000975925
                    -0.000121514    -0.000763161        -0.907677        0.402945     -9.83853e-05      0.00102978        -0.101795       0.0444994
281701.7                0.111152      -0.0187583      0.000682746     0.000790958        -0.931913        0.343079     -0.000296711    -0.000796779
                     0.000640465      0.00068654         0.100973      -0.0455738      -0.00025309    -0.000893088        -0.907682        0.402946
                       -0.931909        0.343076     -0.000241916    -0.000815148       -0.0970345        0.057892      -2.2053e-06     0.000975937
                    -0.000121525    -0.000763172        -0.907666        0.402969     -9.83572e-05       0.0010298        -0.101794       0.0444988
281701.8                0.111149      -0.0187636      0.000682752     0.000790954        -0.931904        0.343104     -0.000296739    -0.000796778
                     0.000640473     0.000686533         0.100969      -0.0455787     -0.000253112    -0.000893097        -0.907671         0.40297
                         -0.9319        0.343101     -0.000241923    -0.000815159       -0.0970326       0.0578913     -2.16965e-06     0.000975949
                    -0.000121537    -0.000763183        -0.907655        0.402994      -9.8329e-05      0.00102982        -0.101792       0.0444982
281701.9                0.111146      -0.0187689      0.000682757     0.000790951        -0.931895        0.343129     -0.000296767    -0.000796777
                     0.000640481     0.000686527         0.100965      -0.0455835     -0.000253134    -0.000893105         -0.90766        0.402995
                       -0.931891        0.343126      -0.00024193    -0.000815171       -0.0970307       0.0578905       -2.134e-06     0.000975961
                    -0.000121548    -0.000763195        -0.907645        0.403018     -9.83008e-05      0.00102985        -0.101791       0.0444976
281702                  0.111143      -0.0187743      0.000682762     0.000790948        -0.931886        0.343154     -0.000296794    -0.000796775
                      0.00064049     0.000686521         0.100961      -0.0455884     -0.000253156    -0.000893113         -0.90765        0.403019
                       -0.931882        0.343151     -0.000241937    -0.000815183       -0.0970289       0.0578897     -2.09835e-06     0.000975972
                    -0.000121559    -0.000763206        -0.907634        0.403043     -9.82727e-05      0.00102987         -0.10179       0.0444969
281702.1                 0.11114      -0.0187796      0.000682768     0.000790945        -0.931877        0.343179     -0.000296822    -0.000796774
                     0.000640498     0.000686514         0.100958      -0.0455932     -0.000253178    -0.000893121        -0.907639        0.403044
                       -0.931873        0.343176     -0.000241945    -0.000815195        -0.097027       0.0578889      -2.0627e-06     0.000975984
                     -0.00012157    -0.000763217        -0.907623        0.403067     -9.82445e-05      0.00102989        -0.101788       0.0444963
281702.2                0.111137      -0.0187849      0.000682773     0.000790942        -0.931868        0.343204      -0.00029685    -0.000796773
                     0.000640507     0.000686508         0.100954       -0.045598       -0.0002532    -0.000893129        -0.907628        0.403068
                       -0.931864        0.343201     -0.000241952    -0.000815207       -0.0970251       0.0578881     -2.02704e-06     0.000975996
                    -0.000121581    -0.000763228        -0.907612        0.403091     -9.82163e-05      0.00102991        -0.101787       0.0444957
281702.3                0.111134      -0.0187903      0.000682778     0.000790938        -0.931859        0.343229     -0.000296877    -0.000796771
                     0.000640515     0.000686502          0.10095      -0.0456029     -0.000253222    -0.000893137        -0.907618        0.403093
                       -0.931855        0.343226     -0.000241959    -0.000815218       -0.0970232       0.0578873     -1.99139e-06     0.000976008
                    -0.000121592    -0.000763239        -0.907602        0.403116     -9.81882e-05      0.00102994        -0.101786       0.0444951
281702.4                0.111132      -0.0187956      0.000682783     0.000790935         -0.93185        0.343254     -0.000296905     -0.00079677
                     0.000640523     0.000686496         0.100946      -0.0456077     -0.000253244    -0.000893145        -0.907607        0.403117
                       -0.931846        0.343251     -0.000241967     -0.00081523       -0.0970214       0.0578865     -1.95573e-06      0.00097602
                    -0.000121603    -0.000763251        -0.907591         0.40314       -9.816e-05      0.00102996        -0.101784       0.0444945
281702.5                0.111129       -0.018801      0.000682789     0.000790932        -0.931841        0.343279     -0.000296933    -0.000796769
                     0.000640532     0.000686489         0.100942      -0.0456126     -0.000253265    -0.000893153        -0.907596        0.403141
                       -0.931837        0.343276     -0.000241974    -0.000815242       -0.0970195       0.0578857     -1.92008e-06     0.000976032
                    -0.000121614    -0.000763262         -0.90758        0.403165     -9.81318e-05      0.00102998        -0.101783       0.0444939
281702.6                0.111126      -0.0188063      0.000682794     0.000790929        -0.931832        0.343304      -0.00029696    -0.000796767
                      0.00064054     0.000686483         0.100939      -0.0456174     -0.000253287    -0.000893162        -0.907586        0.403166
                       -0.931828        0.343301     -0.000241981    -0.000815254       -0.0970176       0.0578849     -1.88442e-06     0.000976044
                    -0.000121625    -0.000763273         -0.90757        0.403189     -9.81037e-05      0.00103001        -0.101782       0.0444933
281702.7                0.111123      -0.0188116      0.000682799     0.000790926        -0.931823        0.343329     -0.000296988    -0.000796766
                     0.000640549     0.000686477         0.100935      -0.0456223     -0.000253309     -0.00089317        -0.907575         0.40319
                       -0.931819        0.343326     -0.000241988    -0.000815266       -0.0970158       0.0578841     -1.84876e-06     0.000976056
                    -0.000121637    -0.000763284        -0.907559        0.403214     -9.80755e-05      0.00103003         -0.10178       0.0444927
281702.8                 0.11112       -0.018817      0.000682805     0.000790923        -0.931814        0.343354     -0.000297015    -0.000796765
                     0.000640557     0.000686471         0.100931      -0.0456271     -0.000253331    -0.000893178        -0.907564        0.403215
                        -0.93181        0.343351     -0.000241996    -0.000815277       -0.0970139       0.0578833     -1.81311e-06     0.000976068
                    -0.000121648    -0.000763295        -0.907548        0.403238     -9.80473e-05      0.00103005        -0.101779        0.044492
281702.9                0.111117      -0.0188223       0.00068281     0.000790919        -0.931806        0.343379     -0.000297043    -0.000796764
                     0.000640565     0.000686464         0.100927       -0.045632     -0.000253353    -0.000893186        -0.907554        0.403239
                       -0.931801        0.343376     -0.000242003    -0.000815289        -0.097012       0.0578825     -1.77745e-06     0.000976079
                    -0.000121659    -0.000763306        -0.907538        0.403262     -9.80191e-05      0.00103007        -0.101778       0.0444914
281703                  0.111114      -0.0188276      0.000682815     0.000790916        -0.931797        0.343404     -0.000297071    -0.000796762
                     0.000640574     0.000686458         0.100923      -0.0456368     -0.000253375    -0.000893194        -0.907543        0.403264
                       -0.931792        0.343401      -0.00024201    -0.000815301       -0.0970102       0.0578818     -1.74179e-06     0.000976091
                     -0.00012167    -0.000763318        -0.907527        0.403287     -9.79909e-05       0.0010301        -0.101776       0.0444908
281703.1                0.111111       -0.018833      0.000682821     0.000790913        -0.931788        0.343429     -0.000297098    -0.000796761
                     0.000640582     0.000686452          0.10092      -0.0456416     -0.000253397    -0.000893202        -0.907532        0.403288
                       -0.931783        0.343426     -0.000242017    -0.000815313       -0.0970083        0.057881     -1.70613e-06     0.000976103
