! TOUCHSTONE file generated by CST MICROWAVE STUDIO
! Date and time: Wed Oct  8 07:02:26 2025
! Project name: Teste_Macro_Metasurface_Nanopilar.cst
! Parameters = {H=600; L_x=165; L_y=190; Lambda=1064; Max_L=200; Min_L=70; PathPara=1; Phi=0; Step_L=10; Theta=0; p=520; phaseX=180; phaseY=0}
! Header version: 2018
! Port assignment regex: !\s*Touchstone port\s*([0-9]+)\s*=\s*(CST MWS port|CST DS port)\s*([0-9]+|Zmin|Zmax)\s*\(\"(.*)\"\)(\s*mode\s*([0-9]+))?.*
! Touchstone port assignment:
! Touchstone port 1 = CST MWS port Zmax ("") mode 1
! Touchstone port 2 = CST MWS port Zmax ("") mode 2
! Touchstone port 3 = CST MWS port Zmin ("") mode 1
! Touchstone port 4 = CST MWS port Zmin ("") mode 2
! S-Parameters are not renormalized. Each port impedance will be approximated by the real part at minimum frequency. The values are described via the [Reference] keyword.
! Default impedance is overridden by [Reference]
[Version] 2.0
# GHz S RI R 376.73
[Number of Ports] 4
[Reference]
376.73 376.73 376.73 376.73 
[Number of Frequencies] 1001
[Network Data]
281700                 -0.075028       -0.163623     -0.000100249    -0.000247332        -0.959728        0.196563     -0.000131121     0.000540103
                    -3.36018e-05    -0.000228034        -0.215393       -0.327309      0.000139781     0.000466349        -0.784374       -0.384192
                       -0.959964          0.1967      0.000151014     0.000431565      0.000881106       -0.179428      4.57392e-05    -0.000414173
                    -0.000130522     0.000592559        -0.784224       -0.384309      2.14577e-05    -0.000447304         0.378621       0.0588525
281700.1              -0.0750331       -0.163627     -0.000101108     -0.00025172        -0.959721        0.196592     -0.000131106     0.000540146
                    -3.35943e-05    -0.000228065        -0.215392       -0.327268      0.000139778     0.000466301        -0.784424        -0.38415
                       -0.959957        0.196728      0.000141025     0.000426857      0.000873364       -0.179434      4.56662e-05    -0.000414198
                    -0.000130488     0.000592565        -0.784276       -0.384263      2.13769e-05    -0.000447334         0.378593       0.0588002
281700.2              -0.0750381       -0.163632     -9.88689e-05    -0.000258741        -0.959714         0.19662     -0.000131091     0.000540188
                    -3.35868e-05    -0.000228096        -0.215391       -0.327227      0.000139773     0.000466253        -0.784474       -0.384108
                        -0.95995        0.196757      0.000136008     0.000416809      0.000865622        -0.17944      4.55932e-05    -0.000414224
                    -0.000130453     0.000592571        -0.784329       -0.384216       2.1296e-05    -0.000447363         0.378566       0.0587479
281700.3              -0.0750432       -0.163636     -8.92974e-05    -0.000263732        -0.959707        0.196649     -0.000131077      0.00054023
                    -3.35793e-05    -0.000228127         -0.21539       -0.327187      0.000139768     0.000466206        -0.784524       -0.384066
                       -0.959943        0.196785      0.000137451     0.000407572      0.000857879       -0.179447      4.55201e-05    -0.000414249
                    -0.000130419     0.000592577        -0.784384       -0.384169       2.1215e-05    -0.000447393         0.378539       0.0586956
281700.4              -0.0750482       -0.163641     -7.93974e-05    -0.000258716        -0.959701        0.196677     -0.000131062     0.000540272
                    -3.35718e-05    -0.000228159        -0.215389       -0.327146      0.000139763     0.000466159        -0.784574       -0.384023
                       -0.959936        0.196813      0.000141577     0.000402056      0.000850135       -0.179453      4.54471e-05    -0.000414275
                    -0.000130384     0.000592583         -0.78444       -0.384122       2.1134e-05    -0.000447422         0.378511       0.0586433
281700.5              -0.0750533       -0.163645     -7.71766e-05    -0.000251194        -0.959694        0.196705     -0.000131047     0.000540314
                    -3.35643e-05     -0.00022819        -0.215388       -0.327105      0.000139758     0.000466113        -0.784624       -0.383981
                       -0.959929        0.196842      0.000145688     0.000399398       0.00084239       -0.179459      4.53741e-05      -0.0004143
                    -0.000130349      0.00059259        -0.784498       -0.384076      2.10529e-05    -0.000447451         0.378484        0.058591
281700.6              -0.0750584       -0.163649     -7.83428e-05    -0.000246556        -0.959687        0.196734     -0.000131033     0.000540356
                    -3.35569e-05    -0.000228221        -0.215387       -0.327064      0.000139752     0.000466067        -0.784674       -0.383939
                       -0.959922         0.19687      0.000149028     0.000398297      0.000834644       -0.179465      4.53011e-05    -0.000414326
                    -0.000130314     0.000592596        -0.784559        -0.38403      2.09717e-05     -0.00044748         0.378456       0.0585387
281700.7              -0.0750634       -0.163654     -7.99465e-05    -0.000244054         -0.95968        0.196762     -0.000131018     0.000540398
                    -3.35494e-05    -0.000228252        -0.215386       -0.327023      0.000139745     0.000466023        -0.784723       -0.383896
                       -0.959915        0.196899        0.0001516     0.000397958      0.000826897       -0.179471      4.52281e-05    -0.000414351
                     -0.00013028     0.000592602        -0.784623       -0.383988      2.08905e-05    -0.000447509         0.378429       0.0584864
281700.8              -0.0750685       -0.163658      -8.1316e-05    -0.000242653        -0.959673        0.196791     -0.000131003     0.000540441
                     -3.3542e-05    -0.000228283        -0.215385       -0.326983      0.000139739     0.000465979        -0.784773       -0.383854
                       -0.959908        0.196927      0.000153571     0.000397982       0.00081915       -0.179478      4.51551e-05    -0.000414377
                    -0.000130244     0.000592609        -0.784689       -0.383951      2.08091e-05    -0.000447538         0.378401       0.0584342
281700.9              -0.0750736       -0.163663     -8.23943e-05    -0.000241816        -0.959666        0.196819     -0.000130989     0.000540483
                    -3.35346e-05    -0.000228314        -0.215384       -0.326942      0.000139732     0.000465935        -0.784823       -0.383812
                       -0.959901        0.196955      0.000155098     0.000398174      0.000811402       -0.179484      4.50821e-05    -0.000414402
                    -0.000130209     0.000592615        -0.784753        -0.38392      2.07277e-05    -0.000447567         0.378374       0.0583819
281701                -0.0750786       -0.163667     -8.32351e-05    -0.000241284        -0.959659        0.196847     -0.000130974     0.000540525
                    -3.35272e-05    -0.000228345        -0.215383       -0.326901      0.000139724     0.000465892        -0.784873       -0.383769
                       -0.959894        0.196984      0.000156299     0.000398438      0.000803653        -0.17949      4.50091e-05    -0.000414428
                    -0.000130174     0.000592621        -0.784813       -0.383896      2.06462e-05    -0.000447596         0.378347       0.0583297
281701.1              -0.0750837       -0.163672     -8.38967e-05    -0.000240926        -0.959652        0.196876     -0.000130959     0.000540567
                    -3.35199e-05    -0.000228376        -0.215382        -0.32686      0.000139716      0.00046585        -0.784923       -0.383727
                       -0.959887        0.197012       0.00015726     0.000398728      0.000795903       -0.179496      4.49361e-05    -0.000414453
                    -0.000130139     0.000592628        -0.784864       -0.383873      2.05646e-05    -0.000447624         0.378319       0.0582775
281701.2              -0.0750887       -0.163676     -8.44243e-05    -0.000240676        -0.959645        0.196904     -0.000130944     0.000540609
                    -3.35125e-05    -0.000228407        -0.215381       -0.326819      0.000139708     0.000465809        -0.784972       -0.383685
                        -0.95988        0.197041      0.000158041     0.000399021      0.000788152       -0.179502      4.48631e-05    -0.000414478
                    -0.000130103     0.000592634        -0.784909       -0.383847       2.0483e-05    -0.000447653         0.378292       0.0582253
281701.3              -0.0750938       -0.163681     -8.48509e-05    -0.000240493        -0.959638        0.196933      -0.00013093     0.000540651
                    -3.35052e-05    -0.000228438         -0.21538       -0.326779      0.000139699     0.000465769        -0.785022       -0.383642
                       -0.959873        0.197069      0.000158684     0.000399306        0.0007804       -0.179509      4.47902e-05    -0.000414504
                    -0.000130067     0.000592641         -0.78495       -0.383817      2.04013e-05    -0.000447681         0.378264       0.0581731
281701.4              -0.0750989       -0.163685     -8.52002e-05    -0.000240356        -0.959631        0.196961     -0.000130915     0.000540693
                    -3.34979e-05    -0.000228469        -0.215378       -0.326738      0.000139691     0.000465729        -0.785072         -0.3836
                       -0.959866        0.197097       0.00015922     0.000399578      0.000772648       -0.179515      4.47172e-05    -0.000414529
                    -0.000130032     0.000592647         -0.78499       -0.383783      2.03195e-05    -0.000447709         0.378237       0.0581209
281701.5              -0.0751039       -0.163689     -8.54893e-05     -0.00024025        -0.959624        0.196989       -0.0001309     0.000540735
                    -3.34906e-05      -0.0002285        -0.215377       -0.326697      0.000139681      0.00046569        -0.785121       -0.383558
                       -0.959859        0.197126      0.000159672     0.000399835      0.000764894       -0.179521      4.46443e-05    -0.000414554
                    -0.000129996     0.000592654         -0.78503       -0.383745      2.02376e-05    -0.000447737          0.37821       0.0580688
281701.6               -0.075109       -0.163694     -8.57308e-05    -0.000240166        -0.959618        0.197018     -0.000130885     0.000540777
                    -3.34833e-05    -0.000228531        -0.215376       -0.326657      0.000139672     0.000465652        -0.785171       -0.383515
                       -0.959852        0.197154      0.000160056     0.000400076       0.00075714       -0.179527      4.45713e-05     -0.00041458
                     -0.00012996      0.00059266        -0.785072       -0.383704      2.01557e-05    -0.000447765         0.378182       0.0580166
281701.7              -0.0751141       -0.163698     -8.59341e-05    -0.000240097        -0.959611        0.197046     -0.000130871     0.000540819
                     -3.3476e-05    -0.000228562        -0.215375       -0.326616      0.000139662     0.000465614        -0.785221       -0.383473
                       -0.959845        0.197183      0.000160387     0.000400303      0.000749385       -0.179533      4.44984e-05    -0.000414605
                    -0.000129924     0.000592667        -0.785115       -0.383663      2.00736e-05    -0.000447793         0.378155       0.0579645
281701.8              -0.0751191       -0.163703     -8.61063e-05    -0.000240041        -0.959604        0.197075     -0.000130856     0.000540861
                    -3.34688e-05    -0.000228593        -0.215374       -0.326575      0.000139651     0.000465577         -0.78527       -0.383431
                       -0.959838        0.197211      0.000160672     0.000400516      0.000741629        -0.17954      4.44255e-05     -0.00041463
                    -0.000129888     0.000592673        -0.785159        -0.38362      1.99915e-05     -0.00044782         0.378127       0.0579124
281701.9              -0.0751242       -0.163707     -8.62531e-05    -0.000239993        -0.959597        0.197103     -0.000130841     0.000540903
                    -3.34615e-05    -0.000228624        -0.215373       -0.326534      0.000139641     0.000465542         -0.78532       -0.383388
                       -0.959831        0.197239      0.000160921     0.000400716      0.000733872       -0.179546      4.43526e-05    -0.000414656
                    -0.000129851      0.00059268        -0.785204       -0.383577      1.99093e-05    -0.000447848           0.3781       0.0578603
281702                -0.0751293       -0.163712     -8.63785e-05    -0.000239952         -0.95959        0.197131     -0.000130826     0.000540945
                    -3.34543e-05    -0.000228655        -0.215372       -0.326494       0.00013963     0.000465507         -0.78537       -0.383346
                       -0.959824        0.197268      0.000161139     0.000400905      0.000726114       -0.179552      4.42796e-05    -0.000414681
                    -0.000129815     0.000592686         -0.78525       -0.383534      1.98271e-05    -0.000447875         0.378072       0.0578082
281702.1              -0.0751343       -0.163716     -8.64861e-05    -0.000239917        -0.959583         0.19716     -0.000130811     0.000540987
                    -3.34471e-05    -0.000228686        -0.215371       -0.326453      0.000139619     0.000465472        -0.785419       -0.383304
                       -0.959817        0.197296       0.00016133     0.000401083      0.000718355       -0.179558      4.42067e-05    -0.000414706
                    -0.000129779     0.000592693        -0.785296        -0.38349      1.97447e-05    -0.000447902         0.378045       0.0577561
281702.2              -0.0751394       -0.163721     -8.65786e-05    -0.000239886        -0.959576        0.197188     -0.000130797     0.000541029
                    -3.34399e-05    -0.000228717         -0.21537       -0.326412      0.000139607     0.000465439        -0.785469       -0.383261
                        -0.95981        0.197324        0.0001615     0.000401251      0.000710595       -0.179564      4.41338e-05    -0.000414731
                    -0.000129742     0.000592699        -0.785343       -0.383447      1.96623e-05    -0.000447929         0.378018        0.057704
281702.3              -0.0751445       -0.163725     -8.66581e-05    -0.000239858        -0.959569        0.197217     -0.000130782     0.000541071
                    -3.34327e-05    -0.000228747        -0.215368       -0.326372      0.000139595     0.000465407        -0.785519       -0.383219
                       -0.959803        0.197353       0.00016165     0.000401411      0.000702835       -0.179571      4.40609e-05    -0.000414756
                    -0.000129705     0.000592706         -0.78539       -0.383403      1.95798e-05    -0.000447956          0.37799        0.057652
281702.4              -0.0751495       -0.163729     -8.67264e-05    -0.000239833        -0.959562        0.197245     -0.000130767     0.000541113
                    -3.34256e-05    -0.000228778        -0.215367       -0.326331      0.000139583     0.000465375        -0.785568       -0.383176
                       -0.959796        0.197381      0.000161784     0.000401563      0.000695073       -0.179577      4.39881e-05    -0.000414782
                    -0.000129669     0.000592712        -0.785438        -0.38336      1.94972e-05    -0.000447983         0.377963       0.0575999
281702.5              -0.0751546       -0.163734     -8.67851e-05     -0.00023981        -0.959555        0.197273     -0.000130752     0.000541155
                    -3.34184e-05    -0.000228809        -0.215366        -0.32629      0.000139571     0.000465344        -0.785618       -0.383134
                       -0.959789         0.19741      0.000161904     0.000401708      0.000687311       -0.179583      4.39152e-05    -0.000414807
                    -0.000129632     0.000592719        -0.785486       -0.383316      1.94146e-05     -0.00044801         0.377935       0.0575479
281702.6              -0.0751597       -0.163738     -8.68354e-05    -0.000239789        -0.959548        0.197302     -0.000130737     0.000541197
                    -3.34113e-05     -0.00022884        -0.215365        -0.32625      0.000139558     0.000465315        -0.785667       -0.383092
                       -0.959782        0.197438      0.000162011     0.000401846      0.000679547       -0.179589      4.38423e-05    -0.000414832
                    -0.000129595     0.000592725        -0.785534       -0.383273      1.93319e-05    -0.000448036         0.377908       0.0574959
281702.7              -0.0751647       -0.163743     -8.68783e-05    -0.000239769        -0.959541         0.19733     -0.000130722     0.000541239
                    -3.34042e-05    -0.000228871        -0.215364       -0.326209      0.000139545     0.000465286        -0.785717       -0.383049
                       -0.959775        0.197466      0.000162107     0.000401978      0.000671783       -0.179595      4.37694e-05    -0.000414857
                    -0.000129558     0.000592732        -0.785582        -0.38323      1.92491e-05    -0.000448063          0.37788       0.0574439
281702.8              -0.0751698       -0.163747     -8.69146e-05    -0.000239751        -0.959534        0.197359     -0.000130708     0.000541281
                    -3.33971e-05    -0.000228902        -0.215363       -0.326169      0.000139532     0.000465258        -0.785766       -0.383007
                       -0.959768        0.197495      0.000162193     0.000402105      0.000664018       -0.179602      4.36966e-05    -0.000414882
                     -0.00012952     0.000592738        -0.785631       -0.383187      1.91662e-05    -0.000448089         0.377853       0.0573919
281702.9              -0.0751749       -0.163752     -8.69452e-05    -0.000239734        -0.959527        0.197387     -0.000130693     0.000541323
                      -3.339e-05    -0.000228932        -0.215361       -0.326128      0.000139519     0.000465231        -0.785816       -0.382965
                       -0.959761        0.197523      0.000162271     0.000402227      0.000656252       -0.179608      4.36237e-05    -0.000414907
                    -0.000129483     0.000592745        -0.785679       -0.383143      1.90832e-05    -0.000448115         0.377826       0.0573399
281703                -0.0751799       -0.163756     -8.69706e-05    -0.000239717         -0.95952        0.197415     -0.000130678     0.000541365
                    -3.33829e-05    -0.000228963         -0.21536       -0.326087      0.000139505     0.000465205        -0.785865       -0.382922
                       -0.959754        0.197551      0.000162341     0.000402345      0.000648485       -0.179614      4.35509e-05    -0.000414933
                    -0.000129446     0.000592751        -0.785728         -0.3831      1.90001e-05     -0.00044814         0.377798       0.0572879
281703.1               -0.075185        -0.16376     -8.69914e-05    -0.000239702        -0.959514        0.197444     -0.000130663     0.000541407
                    -3.33759e-05    -0.000228994        -0.215359       -0.326047      0.000139491      0.00046518        -0.785915        -0.38288
                       -0.959747         0.19758      0.000162404     0.000402458      0.000640717        -0.17962      4.34781e-05    -0.000414958
