! TOUCHSTONE file generated by CST MICROWAVE STUDIO
! Date and time: Wed Oct  8 06:58:32 2025
! Project name: Teste_Macro_Metasurface_Nanopilar.cst
! Parameters = {H=600; L_x=135; L_y=120; Lambda=1064; Max_L=200; Min_L=70; PathPara=1; Phi=0; Step_L=10; Theta=0; p=520; phaseX=180; phaseY=0}
! Header version: 2018
! Port assignment regex: !\s*Touchstone port\s*([0-9]+)\s*=\s*(CST MWS port|CST DS port)\s*([0-9]+|Zmin|Zmax)\s*\(\"(.*)\"\)(\s*mode\s*([0-9]+))?.*
! Touchstone port assignment:
! Touchstone port 1 = CST MWS port Zmax ("") mode 1
! Touchstone port 2 = CST MWS port Zmax ("") mode 2
! Touchstone port 3 = CST MWS port Zmin ("") mode 1
! Touchstone port 4 = CST MWS port Zmin ("") mode 2
! S-Parameters are not renormalized. Each port impedance will be approximated by the real part at minimum frequency. The values are described via the [Reference] keyword.
! Default impedance is overridden by [Reference]
[Version] 2.0
# GHz S RI R 376.73
[Number of Ports] 4
[Reference]
376.73 376.73 376.73 376.73 
[Number of Frequencies] 1001
[Network Data]
281700                -0.0838118       -0.172081      0.000231356     0.000195189         0.590473       -0.772932      0.000292126     0.000328711
                     0.000319231     0.000423607        -0.220328      -0.0797493      0.000491983    -0.000130444       -0.0625084       -0.964068
                        0.590604       -0.772996      0.000368775    -0.000161849        -0.190059      -0.0329775      0.000421646    -0.000304622
                     0.000313772     0.000279321        -0.062503       -0.963962      0.000435477    -0.000325994        -0.208806        0.107832
281700.1              -0.0838206       -0.172079      0.000231248       0.0001951         0.590448       -0.772951      0.000292058     0.000328735
                     0.000313377     0.000420184        -0.220329      -0.0797408      0.000492004     -0.00013051       -0.0625384       -0.964066
                        0.590578       -0.773015      0.000340724    -0.000157034        -0.190062       -0.032974      0.000421594    -0.000304603
                      0.00031391     0.000279285       -0.0625328       -0.963962      0.000435467    -0.000325988        -0.208801        0.107836
281700.2              -0.0838294       -0.172077      0.000231141     0.000195012         0.590422        -0.77297      0.000291991     0.000328758
                     0.000307705     0.000416678         -0.22033      -0.0797324      0.000492025    -0.000130576       -0.0625684       -0.964065
                        0.590552       -0.773033       0.00032298    -0.000171784        -0.190064      -0.0329705      0.000421542    -0.000304584
                      0.00031405     0.000279248       -0.0625626       -0.963961      0.000435457    -0.000325982        -0.208796        0.107841
281700.3              -0.0838382       -0.172075      0.000231033     0.000194925         0.590396        -0.77299      0.000291923     0.000328782
                     0.000302214     0.000413098        -0.220331       -0.079724      0.000492046    -0.000130641       -0.0625984       -0.964063
                        0.590526       -0.773052      0.000319296    -0.000186225        -0.190067       -0.032967      0.000421489    -0.000304565
                     0.000314191     0.000279211       -0.0625924        -0.96396      0.000435447    -0.000325976        -0.208791        0.107846
281700.4               -0.083847       -0.172074      0.000230926     0.000194839          0.59037       -0.773009      0.000291855     0.000328805
                       0.0002969     0.000409451        -0.220332      -0.0797156      0.000492067    -0.000130707       -0.0626284       -0.964062
                        0.590501        -0.77307       0.00032065    -0.000195459         -0.19007      -0.0329635      0.000421436    -0.000304546
                     0.000314334     0.000279173       -0.0626222       -0.963959      0.000435437     -0.00032597        -0.208787         0.10785
281700.5              -0.0838558       -0.172072      0.000230819     0.000194755         0.590344       -0.773029      0.000291787     0.000328828
                     0.000291763     0.000405747        -0.220333      -0.0797071      0.000492088    -0.000130772       -0.0626584        -0.96406
                        0.590475       -0.773089      0.000323013    -0.000201105        -0.190073      -0.0329601      0.000421383    -0.000304527
                     0.000314479     0.000279134        -0.062652       -0.963958      0.000435427    -0.000325964        -0.208782        0.107855
281700.6              -0.0838646        -0.17207      0.000230712     0.000194671         0.590318       -0.773048       0.00029172     0.000328852
                     0.000286799     0.000401992        -0.220334      -0.0796987      0.000492109    -0.000130838       -0.0626884       -0.964058
                        0.590449       -0.773108      0.000325279     -0.00020469        -0.190076      -0.0329566      0.000421329    -0.000304509
                     0.000314626     0.000279095       -0.0626818       -0.963957      0.000435417    -0.000325959        -0.208777         0.10786
281700.7              -0.0838735       -0.172068      0.000230605     0.000194589         0.590292       -0.773067      0.000291652     0.000328875
                     0.000282006     0.000398194        -0.220335      -0.0796903      0.000492131    -0.000130904       -0.0627184       -0.964057
                        0.590423       -0.773126      0.000327223    -0.000207087        -0.190078      -0.0329531      0.000421275     -0.00030449
                     0.000314775     0.000279054       -0.0627116       -0.963956      0.000435406    -0.000325953        -0.208773        0.107864
281700.8              -0.0838823       -0.172067      0.000230498     0.000194507         0.590266       -0.773087      0.000291585     0.000328899
                     0.000277381     0.000394359        -0.220336      -0.0796819      0.000492152     -0.00013097       -0.0627484       -0.964055
                        0.590398       -0.773145      0.000328845    -0.000208766        -0.190081      -0.0329496       0.00042122    -0.000304471
                     0.000314925     0.000279012       -0.0627414       -0.963955      0.000435396    -0.000325947        -0.208768        0.107869
281700.9              -0.0838911       -0.172065      0.000230392     0.000194426          0.59024       -0.773106      0.000291517     0.000328922
                      0.00027292     0.000390494        -0.220336      -0.0796734      0.000492173    -0.000131035       -0.0627784       -0.964053
                        0.590372       -0.773164      0.000330195     -0.00020999        -0.190084      -0.0329461      0.000421164    -0.000304453
                     0.000315077      0.00027897       -0.0627712       -0.963954      0.000435386    -0.000325941        -0.208763        0.107873
281701                -0.0838999       -0.172063      0.000230285     0.000194347         0.590214       -0.773125       0.00029145     0.000328945
                     0.000268621     0.000386604        -0.220337       -0.079665      0.000492194    -0.000131101       -0.0628084       -0.964052
                        0.590346       -0.773182      0.000331326    -0.000210913        -0.190087      -0.0329426      0.000421109    -0.000304434
                     0.000315232     0.000278927        -0.062801       -0.963953      0.000435376    -0.000325935        -0.208758        0.107878
281701.1              -0.0839087       -0.172061      0.000230179     0.000194269         0.590188       -0.773145      0.000291383     0.000328969
                     0.000264479     0.000382696        -0.220338      -0.0796566      0.000492215    -0.000131167       -0.0628384        -0.96405
                         0.59032       -0.773201      0.000332282     -0.00021163        -0.190089      -0.0329392      0.000421052    -0.000304416
                     0.000315388     0.000278882       -0.0628308       -0.963952      0.000435366    -0.000325929        -0.208754        0.107883
281701.2              -0.0839175       -0.172059      0.000230073     0.000194191         0.590163       -0.773164      0.000291315     0.000328992
                     0.000260491     0.000378775        -0.220339      -0.0796481      0.000492236    -0.000131233       -0.0628684       -0.964049
                        0.590295       -0.773219      0.000333097      -0.0002122        -0.190092      -0.0329357      0.000420995    -0.000304397
                     0.000315546     0.000278837       -0.0628606       -0.963951      0.000435356    -0.000325923        -0.208749        0.107887
281701.3              -0.0839264       -0.172058      0.000229968     0.000194115         0.590137       -0.773183      0.000291248     0.000329016
                     0.000256654     0.000374845         -0.22034      -0.0796397      0.000492256    -0.000131299       -0.0628984       -0.964047
                        0.590269       -0.773238      0.000333799    -0.000212661        -0.190095      -0.0329322      0.000420938    -0.000304379
                     0.000315706      0.00027879       -0.0628903        -0.96395      0.000435346    -0.000325917        -0.208744        0.107892
281701.4              -0.0839352       -0.172056      0.000229862     0.000194039         0.590111       -0.773203      0.000291181     0.000329039
                     0.000252963     0.000370912        -0.220341      -0.0796313      0.000492277    -0.000131365       -0.0629284       -0.964045
                        0.590243       -0.773257      0.000334409    -0.000213043        -0.190098      -0.0329287       0.00042088     -0.00030436
                     0.000315868     0.000278743       -0.0629201       -0.963949      0.000435336    -0.000325911        -0.208739        0.107896
281701.5               -0.083944       -0.172054      0.000229757     0.000193965         0.590085       -0.773222      0.000291114     0.000329062
                     0.000249415      0.00036698        -0.220342      -0.0796229      0.000492298     -0.00013143       -0.0629584       -0.964044
                        0.590217       -0.773275      0.000334943    -0.000213362        -0.190101      -0.0329252      0.000420822    -0.000304342
                     0.000316032     0.000278694       -0.0629499       -0.963948      0.000435326    -0.000325905        -0.208735        0.107901
281701.6              -0.0839528       -0.172052      0.000229652     0.000193891         0.590059       -0.773242      0.000291047     0.000329086
                     0.000246007     0.000363052        -0.220343      -0.0796144      0.000492319    -0.000131496       -0.0629884       -0.964042
                        0.590191       -0.773294      0.000335414    -0.000213634        -0.190103      -0.0329217      0.000420763    -0.000304324
                     0.000316198     0.000278644       -0.0629797       -0.963948      0.000435316    -0.000325899         -0.20873        0.107906
281701.7              -0.0839616       -0.172051      0.000229547     0.000193819         0.590033       -0.773261       0.00029098     0.000329109
                     0.000242733     0.000359133        -0.220344       -0.079606       0.00049234    -0.000131562       -0.0630184       -0.964041
                        0.590166       -0.773313      0.000335832    -0.000213867        -0.190106      -0.0329183      0.000420704    -0.000304306
                     0.000316367     0.000278593       -0.0630095       -0.963947      0.000435306    -0.000325893        -0.208725         0.10791
281701.8              -0.0839704       -0.172049      0.000229443     0.000193747         0.590007        -0.77328      0.000290913     0.000329132
                     0.000239591     0.000355226        -0.220345      -0.0795976      0.000492361    -0.000131628       -0.0630484       -0.964039
                         0.59014       -0.773331      0.000336205     -0.00021407        -0.190109      -0.0329148      0.000420644    -0.000304288
                     0.000316537     0.000278541       -0.0630393       -0.963946      0.000435296    -0.000325887         -0.20872        0.107915
281701.9              -0.0839792       -0.172047      0.000229339     0.000193676         0.589981         -0.7733      0.000290846     0.000329155
                     0.000236576     0.000351335        -0.220346      -0.0795892      0.000492382    -0.000131695       -0.0630783       -0.964037
                        0.590114        -0.77335       0.00033654    -0.000214247        -0.190112      -0.0329113      0.000420584    -0.000304271
                     0.000316709     0.000278487       -0.0630691       -0.963945      0.000435286    -0.000325881        -0.208716         0.10792
281702                -0.0839881       -0.172045      0.000229235     0.000193606         0.589955       -0.773319       0.00029078     0.000329179
                     0.000233685     0.000347462        -0.220347      -0.0795807      0.000492403    -0.000131761       -0.0631083       -0.964036
                        0.590088       -0.773369      0.000336843    -0.000214404        -0.190114      -0.0329078      0.000420523    -0.000304253
                     0.000316884     0.000278432       -0.0630989       -0.963944      0.000435276    -0.000325875        -0.208711        0.107924
281702.1              -0.0839969       -0.172044      0.000229131     0.000193537         0.589929       -0.773338      0.000290713     0.000329202
                     0.000230914      0.00034361        -0.220348      -0.0795723      0.000492424    -0.000131827       -0.0631383       -0.964034
                        0.590062       -0.773387      0.000337117    -0.000214544        -0.190117      -0.0329043      0.000420461    -0.000304235
                      0.00031706     0.000278376       -0.0631287       -0.963943      0.000435267    -0.000325869        -0.208706        0.107929
281702.2              -0.0840057       -0.172042      0.000229028     0.000193469         0.589903       -0.773358      0.000290646     0.000329225
                     0.000228259     0.000339782        -0.220349      -0.0795639      0.000492444    -0.000131893       -0.0631683       -0.964032
                        0.590037       -0.773406      0.000337367    -0.000214669         -0.19012      -0.0329008      0.000420399    -0.000304218
                     0.000317239     0.000278318       -0.0631585       -0.963942      0.000435257    -0.000325863        -0.208702        0.107933
281702.3              -0.0840145        -0.17204      0.000228925     0.000193402         0.589877       -0.773377       0.00029058     0.000329249
                     0.000225717     0.000335979         -0.22035      -0.0795554      0.000492465    -0.000131959       -0.0631983       -0.964031
                        0.590011       -0.773425      0.000337595    -0.000214782        -0.190123      -0.0328973      0.000420337    -0.000304201
                      0.00031742     0.000278259       -0.0631883       -0.963941      0.000435247    -0.000325857        -0.208697        0.107938
281702.4              -0.0840233       -0.172038      0.000228822     0.000193336         0.589851       -0.773396      0.000290513     0.000329272
                     0.000223283     0.000332205        -0.220351       -0.079547      0.000492486    -0.000132025       -0.0632283       -0.964029
                        0.589985       -0.773443      0.000337804    -0.000214884        -0.190126      -0.0328939      0.000420274    -0.000304184
                     0.000317603     0.000278198       -0.0632181        -0.96394      0.000435237    -0.000325851        -0.208692        0.107943
281702.5              -0.0840321       -0.172036      0.000228719      0.00019327         0.589826       -0.773416      0.000290447     0.000329295
                     0.000220954     0.000328461        -0.220352      -0.0795386      0.000492507    -0.000132091       -0.0632583       -0.964028
                        0.589959       -0.773462      0.000337996    -0.000214978        -0.190128      -0.0328904       0.00042021    -0.000304167
                     0.000317789     0.000278136       -0.0632478       -0.963939      0.000435227    -0.000325844        -0.208687        0.107947
281702.6              -0.0840409       -0.172035      0.000228617     0.000193206           0.5898       -0.773435      0.000290381     0.000329318
                     0.000218728     0.000324748        -0.220353      -0.0795302      0.000492528    -0.000132158       -0.0632883       -0.964026
                        0.589933        -0.77348      0.000338173    -0.000215063        -0.190131      -0.0328869      0.000420146     -0.00030415
                     0.000317976     0.000278072       -0.0632776       -0.963938      0.000435217    -0.000325838        -0.208683        0.107952
281702.7              -0.0840498       -0.172033      0.000228515     0.000193142         0.589774       -0.773454      0.000290314     0.000329342
                     0.000216599     0.000321068        -0.220354      -0.0795217      0.000492548    -0.000132224       -0.0633182       -0.964024
                        0.589908       -0.773499      0.000338337    -0.000215142        -0.190134      -0.0328834      0.000420081    -0.000304133
                     0.000318166     0.000278007       -0.0633074       -0.963937      0.000435207    -0.000325832        -0.208678        0.107956
281702.8              -0.0840586       -0.172031      0.000228413     0.000193079         0.589748       -0.773474      0.000290248     0.000329365
                     0.000214565     0.000317424        -0.220355      -0.0795133      0.000492569     -0.00013229       -0.0633482       -0.964023
                        0.589882       -0.773518       0.00033849    -0.000215215        -0.190137      -0.0328799      0.000420016    -0.000304117
                     0.000318358      0.00027794       -0.0633372       -0.963936      0.000435198    -0.000325826        -0.208673        0.107961
281702.9              -0.0840674       -0.172029      0.000228312     0.000193017         0.589722       -0.773493      0.000290182     0.000329388
                     0.000212623     0.000313814        -0.220355      -0.0795049       0.00049259    -0.000132357       -0.0633782       -0.964021
                        0.589856       -0.773536      0.000338631    -0.000215283        -0.190139      -0.0328764       0.00041995      -0.0003041
                     0.000318553     0.000277871        -0.063367       -0.963935      0.000435188     -0.00032582        -0.208668        0.107966
281703                -0.0840762       -0.172027      0.000228211     0.000192956         0.589696       -0.773512      0.000290116     0.000329411
                     0.000210769     0.000310242        -0.220356      -0.0794965      0.000492611    -0.000132423       -0.0634082       -0.964019
                         0.58983       -0.773555      0.000338763    -0.000215346        -0.190142      -0.0328729      0.000419884    -0.000304084
                      0.00031875       0.0002778       -0.0633968       -0.963934      0.000435178    -0.000325814        -0.208664         0.10797
281703.1               -0.084085       -0.172026       0.00022811     0.000192895          0.58967       -0.773532       0.00029005     0.000329434
                     0.000209001     0.000306708        -0.220357       -0.079488      0.000492631     -0.00013249       -0.0634382       -0.964018
                        0.589804       -0.773574      0.000338886    -0.000215405        -0.190145      -0.0328694      0.000419817    -0.000304068
