! TOUCHSTONE file generated by CST MICROWAVE STUDIO
! Date and time: Wed Oct  8 06:55:16 2025
! Project name: Teste_Macro_Metasurface_Nanopilar.cst
! Parameters = {H=600; L_x=105; L_y=190; Lambda=1064; Max_L=200; Min_L=70; PathPara=1; Phi=0; Step_L=10; Theta=0; p=520; phaseX=180; phaseY=0}
! Header version: 2018
! Port assignment regex: !\s*Touchstone port\s*([0-9]+)\s*=\s*(CST MWS port|CST DS port)\s*([0-9]+|Zmin|Zmax)\s*\(\"(.*)\"\)(\s*mode\s*([0-9]+))?.*
! Touchstone port assignment:
! Touchstone port 1 = CST MWS port Zmax ("") mode 1
! Touchstone port 2 = CST MWS port Zmax ("") mode 2
! Touchstone port 3 = CST MWS port Zmin ("") mode 1
! Touchstone port 4 = CST MWS port Zmin ("") mode 2
! S-Parameters are not renormalized. Each port impedance will be approximated by the real part at minimum frequency. The values are described via the [Reference] keyword.
! Default impedance is overridden by [Reference]
[Version] 2.0
# GHz S RI R 376.73
[Number of Ports] 4
[Reference]
376.73 376.73 376.73 376.73 
[Number of Frequencies] 1001
[Network Data]
281700                 -0.348449        0.448211     -0.000149687     -0.00108929        -0.453949       -0.671325      0.000554439    -0.000542528
                    -0.000167522     -0.00105982       -0.0457275       -0.139153     -0.000610595     0.000972281         0.868359       -0.454215
                       -0.453849       -0.671616     -0.000357966     0.000921007        -0.550049        0.135999     -0.000968559     0.000481786
                     0.000579318    -0.000467624         0.868613       -0.454139      -0.00106999     0.000451477       -0.0914916       -0.114279
281700.1               -0.348432        0.448215     -0.000149729     -0.00108927        -0.453975       -0.671314      0.000554409    -0.000542538
                    -0.000167562     -0.00105978       -0.0457346       -0.139156     -0.000610547      0.00097232         0.868343       -0.454245
                       -0.453875       -0.671605     -0.000357923     0.000921014        -0.550036        0.136019     -0.000968535     0.000481808
                       0.0005793    -0.000467655         0.868597       -0.454168      -0.00106996      0.00045151       -0.0914982        -0.11428
281700.2               -0.348414        0.448219      -0.00014977     -0.00108925        -0.454001       -0.671304      0.000554379    -0.000542548
                    -0.000167603     -0.00105974       -0.0457416        -0.13916     -0.000610499     0.000972359         0.868326       -0.454274
                       -0.453901       -0.671594     -0.000357879     0.000921021        -0.550023        0.136039     -0.000968512     0.000481831
                     0.000579282    -0.000467686         0.868581       -0.454198      -0.00106992     0.000451542       -0.0915047       -0.114282
281700.3               -0.348396        0.448223     -0.000149812     -0.00108923        -0.454027       -0.671293       0.00055435    -0.000542557
                    -0.000167644      -0.0010597       -0.0457487       -0.139163     -0.000610451     0.000972398          0.86831       -0.454303
                       -0.453927       -0.671583     -0.000357835     0.000921028         -0.55001        0.136059     -0.000968489     0.000481853
                     0.000579263    -0.000467717         0.868564       -0.454227      -0.00106988     0.000451574       -0.0915113       -0.114283
281700.4               -0.348379        0.448226     -0.000149853     -0.00108921        -0.454053       -0.671282       0.00055432    -0.000542567
                    -0.000167685     -0.00105967       -0.0457558       -0.139166     -0.000610402     0.000972437         0.868294       -0.454333
                       -0.453953       -0.671572     -0.000357791     0.000921035        -0.549997        0.136079     -0.000968465     0.000481876
                     0.000579245    -0.000467747         0.868548       -0.454257      -0.00106985     0.000451606       -0.0915179       -0.114285
281700.5               -0.348361         0.44823     -0.000149895     -0.00108919        -0.454079       -0.671271      0.000554291    -0.000542577
                    -0.000167726     -0.00105963       -0.0457628        -0.13917     -0.000610354     0.000972476         0.868277       -0.454362
                       -0.453979       -0.671561     -0.000357747     0.000921042        -0.549984        0.136099     -0.000968442     0.000481898
                     0.000579226    -0.000467778         0.868532       -0.454286      -0.00106981     0.000451638       -0.0915245       -0.114287
281700.6               -0.348343        0.448234     -0.000149937     -0.00108917        -0.454105        -0.67126      0.000554261    -0.000542586
                    -0.000167767     -0.00105959       -0.0457699       -0.139173     -0.000610305     0.000972515         0.868261       -0.454392
                       -0.454005       -0.671551     -0.000357703     0.000921049        -0.549971        0.136119     -0.000968419      0.00048192
                     0.000579208    -0.000467809         0.868515       -0.454316      -0.00106978     0.000451671       -0.0915311       -0.114288
281700.7               -0.348326        0.448238     -0.000149978     -0.00108915        -0.454131       -0.671249      0.000554232    -0.000542596
                    -0.000167808     -0.00105956        -0.045777       -0.139176     -0.000610257     0.000972554         0.868245       -0.454421
                       -0.454031        -0.67154     -0.000357659     0.000921056        -0.549958        0.136139     -0.000968395     0.000481943
                      0.00057919     -0.00046784         0.868499       -0.454345      -0.00106974     0.000451703       -0.0915376        -0.11429
281700.8               -0.348308        0.448242      -0.00015002     -0.00108913        -0.454157       -0.671238      0.000554202    -0.000542605
                    -0.000167849     -0.00105952        -0.045784        -0.13918     -0.000610208     0.000972593         0.868229       -0.454451
                       -0.454057       -0.671529     -0.000357616     0.000921063        -0.549945        0.136159     -0.000968372     0.000481965
                     0.000579171    -0.000467871         0.868483       -0.454374      -0.00106971     0.000451735       -0.0915442       -0.114291
281700.9                -0.34829        0.448245     -0.000150061     -0.00108911        -0.454183       -0.671228      0.000554173    -0.000542615
                    -0.000167889     -0.00105948       -0.0457911       -0.139183      -0.00061016     0.000972632         0.868212        -0.45448
                       -0.454083       -0.671518     -0.000357572      0.00092107        -0.549933        0.136179     -0.000968349     0.000481988
                     0.000579153    -0.000467902         0.868467       -0.454404      -0.00106967     0.000451767       -0.0915508       -0.114293
281701                 -0.348273        0.448249     -0.000150103     -0.00108909        -0.454209       -0.671217      0.000554143    -0.000542624
                     -0.00016793     -0.00105945       -0.0457982       -0.139186     -0.000610111     0.000972671         0.868196       -0.454509
                       -0.454109       -0.671507     -0.000357528     0.000921078         -0.54992        0.136199     -0.000968325      0.00048201
                     0.000579135    -0.000467933          0.86845       -0.454433      -0.00106963     0.000451799       -0.0915574       -0.114295
281701.1               -0.348255        0.448253     -0.000150145     -0.00108907        -0.454235       -0.671206      0.000554114    -0.000542634
                    -0.000167971     -0.00105941       -0.0458052        -0.13919     -0.000610062      0.00097271          0.86818       -0.454539
                       -0.454135       -0.671496     -0.000357484     0.000921085        -0.549907        0.136219     -0.000968302     0.000482032
                     0.000579116    -0.000467963         0.868434       -0.454463       -0.0010696     0.000451831        -0.091564       -0.114296
281701.2               -0.348237        0.448257     -0.000150186     -0.00108905        -0.454261       -0.671195      0.000554084    -0.000542643
                    -0.000168012     -0.00105937       -0.0458123       -0.139193     -0.000610013     0.000972749         0.868164       -0.454568
                       -0.454161       -0.671485      -0.00035744     0.000921092        -0.549894        0.136239     -0.000968279     0.000482055
                     0.000579098    -0.000467994         0.868418       -0.454492      -0.00106956     0.000451863       -0.0915706       -0.114298
281701.3                -0.34822        0.448261     -0.000150228     -0.00108903        -0.454287       -0.671184      0.000554055    -0.000542653
                    -0.000168053     -0.00105934       -0.0458194       -0.139196     -0.000609964     0.000972788         0.868147       -0.454597
                       -0.454187       -0.671474     -0.000357396     0.000921099        -0.549881        0.136259     -0.000968255     0.000482077
                     0.000579079    -0.000468025         0.868401       -0.454522      -0.00106953     0.000451894       -0.0915771       -0.114299
281701.4               -0.348202        0.448264     -0.000150269     -0.00108901        -0.454313       -0.671173      0.000554026    -0.000542662
                    -0.000168094      -0.0010593       -0.0458264       -0.139199     -0.000609915     0.000972827         0.868131       -0.454627
                       -0.454213       -0.671464     -0.000357352     0.000921106        -0.549868        0.136278     -0.000968232     0.000482099
                     0.000579061    -0.000468056         0.868385       -0.454551      -0.00106949     0.000451926       -0.0915837       -0.114301
281701.5               -0.348184        0.448268     -0.000150311     -0.00108899        -0.454339       -0.671162      0.000553996    -0.000542671
                    -0.000168135     -0.00105926       -0.0458335       -0.139203     -0.000609865     0.000972866         0.868115       -0.454656
                       -0.454239       -0.671453     -0.000357309     0.000921113        -0.549855        0.136298     -0.000968209     0.000482122
                     0.000579043    -0.000468087         0.868369        -0.45458      -0.00106945     0.000451958       -0.0915903       -0.114302
281701.6               -0.348167        0.448272     -0.000150353     -0.00108897        -0.454365       -0.671152      0.000553967    -0.000542681
                    -0.000168175     -0.00105923       -0.0458406       -0.139206     -0.000609816     0.000972905         0.868099       -0.454686
                       -0.454265       -0.671442     -0.000357265      0.00092112        -0.549842        0.136318     -0.000968185     0.000482144
                     0.000579024    -0.000468117         0.868353        -0.45461      -0.00106942      0.00045199       -0.0915969       -0.114304
281701.7               -0.348149        0.448276     -0.000150394     -0.00108895        -0.454391       -0.671141      0.000553938     -0.00054269
                    -0.000168216     -0.00105919       -0.0458476       -0.139209     -0.000609767     0.000972944         0.868083       -0.454715
                       -0.454291       -0.671431     -0.000357221     0.000921127        -0.549829        0.136338     -0.000968162     0.000482167
                     0.000579006    -0.000468148         0.868336       -0.454639      -0.00106938     0.000452021       -0.0916035       -0.114306
281701.8               -0.348131         0.44828     -0.000150436     -0.00108893        -0.454417        -0.67113      0.000553908    -0.000542699
                    -0.000168257     -0.00105915       -0.0458547       -0.139213     -0.000609717     0.000972983         0.868067       -0.454744
                       -0.454317        -0.67142     -0.000357177     0.000921134        -0.549816        0.136358     -0.000968139     0.000482189
                     0.000578987    -0.000468179          0.86832       -0.454669      -0.00106935     0.000452053       -0.0916101       -0.114307
281701.9               -0.348114        0.448283     -0.000150477     -0.00108891        -0.454443       -0.671119      0.000553879    -0.000542709
                    -0.000168298     -0.00105912       -0.0458618       -0.139216     -0.000609668     0.000973022         0.868051       -0.454774
                       -0.454343       -0.671409     -0.000357133     0.000921141        -0.549804        0.136378     -0.000968115     0.000482211
                     0.000578969     -0.00046821         0.868304       -0.454698      -0.00106931     0.000452085       -0.0916167       -0.114309
281702                 -0.348096        0.448287     -0.000150519     -0.00108889        -0.454469       -0.671108       0.00055385    -0.000542718
                    -0.000168339     -0.00105908       -0.0458688       -0.139219     -0.000609618     0.000973061         0.868035       -0.454804
                       -0.454369       -0.671398     -0.000357089     0.000921148        -0.549791        0.136398     -0.000968092     0.000482234
                     0.000578951    -0.000468241         0.868287       -0.454728      -0.00106928     0.000452116       -0.0916232        -0.11431
281702.1               -0.348078        0.448291     -0.000150561     -0.00108887        -0.454495       -0.671097      0.000553821    -0.000542727
                     -0.00016838     -0.00105904       -0.0458759       -0.139223     -0.000609569       0.0009731         0.868018       -0.454833
                       -0.454395       -0.671387     -0.000357045     0.000921155        -0.549778        0.136418     -0.000968069     0.000482256
                     0.000578932    -0.000468271         0.868271       -0.454757      -0.00106924     0.000452148       -0.0916298       -0.114312
281702.2                -0.34806        0.448295     -0.000150602     -0.00108885        -0.454521       -0.671086      0.000553792    -0.000542736
                     -0.00016842       -0.001059        -0.045883       -0.139226     -0.000609519     0.000973139         0.868002       -0.454863
                       -0.454421       -0.671376     -0.000357002     0.000921162        -0.549765        0.136438     -0.000968045     0.000482278
                     0.000578914    -0.000468302         0.868255       -0.454787       -0.0010692      0.00045218       -0.0916364       -0.114314
281702.3               -0.348043        0.448299     -0.000150644     -0.00108883        -0.454547       -0.671075      0.000553763    -0.000542745
                    -0.000168461     -0.00105897       -0.0458901       -0.139229     -0.000609469     0.000973178         0.867986       -0.454893
                       -0.454447       -0.671366     -0.000356958     0.000921169        -0.549752        0.136458     -0.000968022     0.000482301
                     0.000578895    -0.000468333         0.868238       -0.454816      -0.00106917     0.000452211        -0.091643       -0.114315
281702.4               -0.348025        0.448302     -0.000150685     -0.00108881        -0.454573       -0.671065      0.000553734    -0.000542755
                    -0.000168502     -0.00105893       -0.0458971       -0.139233     -0.000609419     0.000973216         0.867969       -0.454922
                       -0.454473       -0.671355     -0.000356914     0.000921176        -0.549739        0.136478     -0.000967999     0.000482323
                     0.000578877    -0.000468364         0.868222       -0.454845      -0.00106913     0.000452242       -0.0916496       -0.114317
281702.5               -0.348007        0.448306     -0.000150727     -0.00108879        -0.454599       -0.671054      0.000553705    -0.000542764
                    -0.000168543     -0.00105889       -0.0459042       -0.139236     -0.000609369     0.000973255         0.867953       -0.454952
                       -0.454499       -0.671344      -0.00035687     0.000921183        -0.549726        0.136498     -0.000967975     0.000482345
                     0.000578859    -0.000468394         0.868206       -0.454875       -0.0010691     0.000452274       -0.0916562       -0.114318
281702.6                -0.34799         0.44831     -0.000150768     -0.00108877        -0.454625       -0.671043      0.000553676    -0.000542773
                    -0.000168584     -0.00105886       -0.0459113       -0.139239     -0.000609319     0.000973294         0.867937       -0.454982
                       -0.454525       -0.671333     -0.000356826      0.00092119        -0.549713        0.136518     -0.000967952     0.000482368
                      0.00057884    -0.000468425          0.86819       -0.454904      -0.00106906     0.000452305       -0.0916627        -0.11432
281702.7               -0.347972        0.448314      -0.00015081     -0.00108875        -0.454651       -0.671032      0.000553647    -0.000542782
                    -0.000168624     -0.00105882       -0.0459183       -0.139243     -0.000609269     0.000973333          0.86792       -0.455011
                       -0.454551       -0.671322     -0.000356782     0.000921197          -0.5497        0.136537     -0.000967929      0.00048239
                     0.000578822    -0.000468456         0.868173       -0.454934      -0.00106902     0.000452337       -0.0916693       -0.114321
281702.8               -0.347954        0.448317     -0.000150852     -0.00108873        -0.454677       -0.671021      0.000553619    -0.000542791
                    -0.000168665     -0.00105878       -0.0459254       -0.139246     -0.000609219     0.000973372         0.867904       -0.455041
                       -0.454577       -0.671311     -0.000356738     0.000921204        -0.549687        0.136557     -0.000967905     0.000482412
                     0.000578803    -0.000468487         0.868157       -0.454963      -0.00106899     0.000452368       -0.0916759       -0.114323
281702.9               -0.347937        0.448321     -0.000150893     -0.00108871        -0.454703        -0.67101       0.00055359      -0.0005428
                    -0.000168706     -0.00105875       -0.0459325       -0.139249     -0.000609169     0.000973411         0.867887        -0.45507
                       -0.454603         -0.6713     -0.000356695     0.000921211        -0.549674        0.136577     -0.000967882     0.000482435
                     0.000578785    -0.000468517         0.868141       -0.454993      -0.00106895     0.000452399       -0.0916825       -0.114325
281703                 -0.347919        0.448325     -0.000150935     -0.00108869        -0.454729       -0.670999      0.000553562    -0.000542809
                    -0.000168747     -0.00105871       -0.0459396       -0.139253     -0.000609118     0.000973449         0.867871       -0.455099
                       -0.454629       -0.671289     -0.000356651     0.000921219        -0.549661        0.136597     -0.000967859     0.000482457
                     0.000578766    -0.000468548         0.868124       -0.455022      -0.00106891     0.000452431       -0.0916891       -0.114326
281703.1               -0.347901        0.448329     -0.000150976     -0.00108867        -0.454755       -0.670988      0.000553533    -0.000542818
                    -0.000168787     -0.00105867       -0.0459466       -0.139256     -0.000609068     0.000973488         0.867854       -0.455129
                       -0.454655       -0.671278     -0.000356607     0.000921226        -0.549649        0.136617     -0.000967835     0.000482479
