! TOUCHSTONE file generated by CST MICROWAVE STUDIO
! Date and time: Wed Oct  8 06:50:47 2025
! Project name: Teste_Macro_Metasurface_Nanopilar.cst
! Parameters = {H=600; L_x=70; L_y=120; Lambda=1064; Max_L=200; Min_L=70; PathPara=1; Phi=0; Step_L=10; Theta=0; p=520; phaseX=180; phaseY=0}
! Header version: 2018
! Port assignment regex: !\s*Touchstone port\s*([0-9]+)\s*=\s*(CST MWS port|CST DS port)\s*([0-9]+|Zmin|Zmax)\s*\(\"(.*)\"\)(\s*mode\s*([0-9]+))?.*
! Touchstone port assignment:
! Touchstone port 1 = CST MWS port Zmax ("") mode 1
! Touchstone port 2 = CST MWS port Zmax ("") mode 2
! Touchstone port 3 = CST MWS port Zmin ("") mode 1
! Touchstone port 4 = CST MWS port Zmin ("") mode 2
! S-Parameters are not renormalized. Each port impedance will be approximated by the real part at minimum frequency. The values are described via the [Reference] keyword.
! Default impedance is overridden by [Reference]
[Version] 2.0
# GHz S RI R 376.73
[Number of Ports] 4
[Reference]
376.73 376.73 376.73 376.73 
[Number of Frequencies] 1001
[Network Data]
281700                 -0.145822       -0.170477       7.7261e-06    -0.000317372        -0.448415        0.862236      0.000151459      4.7219e-05
                     3.40237e-05    -0.000454721         0.119237       0.0366403      0.000101019     7.28976e-05        -0.966373        0.222911
                       -0.448177         0.86215      0.000145864     7.35164e-05        -0.223975      -0.0206479     -0.000360718    -1.11486e-05
                     0.000211783     0.000101751        -0.966629        0.222578     -0.000256788     0.000123857       -0.0912571       0.0852222
281700.1               -0.145829       -0.170472      7.71879e-06    -0.000317381         -0.44839        0.862248      0.000151462     4.72165e-05
                     3.40106e-05    -0.000454723         0.119236       0.0366344      0.000101017     7.28815e-05        -0.966368        0.222937
                       -0.448153        0.862162       0.00014587     7.35165e-05        -0.223976      -0.0206435     -0.000360724    -1.11411e-05
                     0.000211787     0.000101748        -0.966623        0.222603     -0.000256779      0.00012386       -0.0912541       0.0852212
281700.2               -0.145836       -0.170468      7.71147e-06    -0.000317391        -0.448366        0.862261      0.000151464      4.7214e-05
                     3.39975e-05    -0.000454725         0.119235       0.0366285      0.000101014     7.28654e-05        -0.966362        0.222963
                       -0.448129        0.862174      0.000145876     7.35167e-05        -0.223978      -0.0206391     -0.000360731    -1.11336e-05
                      0.00021179     0.000101745        -0.966618        0.222629      -0.00025677     0.000123862       -0.0912511       0.0852203
281700.3               -0.145843       -0.170463      7.70416e-06      -0.0003174        -0.448342        0.862273      0.000151466     4.72115e-05
                     3.39845e-05    -0.000454727         0.119234       0.0366226      0.000101012     7.28493e-05        -0.966357        0.222988
                       -0.448104        0.862187      0.000145882     7.35168e-05        -0.223979      -0.0206347     -0.000360737    -1.11261e-05
                     0.000211793     0.000101742        -0.966612        0.222655     -0.000256761     0.000123865       -0.0912481       0.0852193
281700.4               -0.145849       -0.170459      7.69684e-06    -0.000317409        -0.448318        0.862285      0.000151469      4.7209e-05
                     3.39714e-05    -0.000454728         0.119233       0.0366168       0.00010101     7.28332e-05        -0.966351        0.223014
                        -0.44808        0.862199      0.000145889     7.35169e-05         -0.22398      -0.0206303     -0.000360743    -1.11186e-05
                     0.000211797     0.000101739        -0.966606         0.22268     -0.000256752     0.000123868       -0.0912451       0.0852184
281700.5               -0.145856       -0.170454      7.68952e-06    -0.000317419        -0.448293        0.862298      0.000151471     4.72065e-05
                     3.39583e-05     -0.00045473         0.119232       0.0366109      0.000101008     7.28171e-05        -0.966346         0.22304
                       -0.448056        0.862211      0.000145895      7.3517e-05        -0.223982      -0.0206259      -0.00036075    -1.11111e-05
                       0.0002118     0.000101736        -0.966601        0.222706     -0.000256743      0.00012387       -0.0912421       0.0852174
281700.6               -0.145863        -0.17045      7.68221e-06    -0.000317428        -0.448269         0.86231      0.000151473      4.7204e-05
                     3.39452e-05    -0.000454732          0.11923        0.036605      0.000101005     7.28009e-05         -0.96634        0.223065
                       -0.448032        0.862224      0.000145901     7.35172e-05        -0.223983      -0.0206215     -0.000360756    -1.11036e-05
                     0.000211804     0.000101732        -0.966595        0.222732     -0.000256734     0.000123873       -0.0912391       0.0852164
281700.7                -0.14587       -0.170445      7.67489e-06    -0.000317438        -0.448245        0.862322      0.000151476     4.72015e-05
                     3.39322e-05    -0.000454734         0.119229       0.0365991      0.000101003     7.27848e-05        -0.966334        0.223091
                       -0.448007        0.862236      0.000145907     7.35173e-05        -0.223984      -0.0206171     -0.000360762    -1.10961e-05
                     0.000211808     0.000101729         -0.96659        0.222757     -0.000256725     0.000123876       -0.0912361       0.0852155
281700.8               -0.145876       -0.170441      7.66758e-06    -0.000317447         -0.44822        0.862335      0.000151478      4.7199e-05
                     3.39191e-05    -0.000454736         0.119228       0.0365933      0.000101001     7.27687e-05        -0.966329        0.223117
                       -0.447983        0.862249      0.000145914     7.35174e-05        -0.223985      -0.0206127     -0.000360768    -1.10886e-05
                     0.000211811     0.000101726        -0.966584        0.222783     -0.000256716     0.000123878       -0.0912331       0.0852145
281700.9               -0.145883       -0.170436      7.66026e-06    -0.000317456        -0.448196        0.862347      0.000151481     4.71965e-05
                      3.3906e-05    -0.000454738         0.119227       0.0365874      0.000100998     7.27526e-05        -0.966323        0.223142
                       -0.447959        0.862261       0.00014592     7.35175e-05        -0.223987      -0.0206083     -0.000360775    -1.10811e-05
                     0.000211815     0.000101723        -0.966579        0.222809     -0.000256707     0.000123881       -0.0912301       0.0852135
281701                  -0.14589       -0.170431      7.65294e-06    -0.000317466        -0.448172         0.86236      0.000151483     4.71939e-05
                     3.38929e-05     -0.00045474         0.119226       0.0365815      0.000100996     7.27365e-05        -0.966318        0.223168
                       -0.447934        0.862273      0.000145926     7.35176e-05        -0.223988      -0.0206039     -0.000360781    -1.10736e-05
                     0.000211819     0.000101719        -0.966573        0.222834     -0.000256698     0.000123883       -0.0912271       0.0852126
281701.1               -0.145897       -0.170427      7.64563e-06    -0.000317475        -0.448148        0.862372      0.000151485     4.71914e-05
                     3.38799e-05    -0.000454742         0.119225       0.0365756      0.000100994     7.27204e-05        -0.966312        0.223194
                        -0.44791        0.862286      0.000145932     7.35178e-05        -0.223989      -0.0205995     -0.000360787    -1.10661e-05
                     0.000211823     0.000101716        -0.966567         0.22286     -0.000256689     0.000123886       -0.0912242       0.0852116
281701.2               -0.145903       -0.170422      7.63831e-06    -0.000317484        -0.448123        0.862384      0.000151488     4.71889e-05
                     3.38668e-05    -0.000454744         0.119223       0.0365697      0.000100991     7.27043e-05        -0.966307        0.223219
                       -0.447886        0.862298      0.000145939     7.35179e-05        -0.223991      -0.0205951     -0.000360794    -1.10586e-05
                     0.000211827     0.000101713        -0.966562        0.222886      -0.00025668     0.000123889       -0.0912212       0.0852107
281701.3                -0.14591       -0.170418      7.63099e-06    -0.000317494        -0.448099        0.862397       0.00015149     4.71864e-05
                     3.38537e-05    -0.000454746         0.119222       0.0365639      0.000100989     7.26881e-05        -0.966301        0.223245
                       -0.447861         0.86231      0.000145945      7.3518e-05        -0.223992      -0.0205907       -0.0003608    -1.10511e-05
                     0.000211831      0.00010171        -0.966556        0.222911     -0.000256671     0.000123891       -0.0912182       0.0852097
281701.4               -0.145917       -0.170413      7.62368e-06    -0.000317503        -0.448075        0.862409      0.000151493     4.71838e-05
                     3.38406e-05    -0.000454748         0.119221        0.036558      0.000100986      7.2672e-05        -0.966295        0.223271
                       -0.447837        0.862323      0.000145951     7.35181e-05        -0.223993      -0.0205863     -0.000360806    -1.10436e-05
                     0.000211835     0.000101706        -0.966551        0.222937     -0.000256662     0.000123894       -0.0912152       0.0852087
281701.5               -0.145924       -0.170409      7.61636e-06    -0.000317512         -0.44805        0.862422      0.000151495     4.71813e-05
                     3.38275e-05     -0.00045475          0.11922       0.0365521      0.000100984     7.26559e-05         -0.96629        0.223297
                       -0.447813        0.862335      0.000145957     7.35183e-05        -0.223995      -0.0205819     -0.000360812    -1.10361e-05
                     0.000211839     0.000101703        -0.966545        0.222963     -0.000256653     0.000123896       -0.0912122       0.0852078
281701.6                -0.14593       -0.170404      7.60905e-06    -0.000317522        -0.448026        0.862434      0.000151497     4.71788e-05
                     3.38144e-05    -0.000454752         0.119219       0.0365462      0.000100982     7.26398e-05        -0.966284        0.223322
                       -0.447789        0.862348      0.000145963     7.35184e-05        -0.223996      -0.0205775     -0.000360819    -1.10286e-05
                     0.000211843     0.000101699         -0.96654        0.222989     -0.000256644     0.000123899       -0.0912092       0.0852068
281701.7               -0.145937         -0.1704      7.60173e-06    -0.000317531        -0.448002        0.862446        0.0001515     4.71762e-05
                     3.38014e-05    -0.000454753         0.119218       0.0365404      0.000100979     7.26237e-05        -0.966279        0.223348
                       -0.447764         0.86236       0.00014597     7.35185e-05        -0.223997      -0.0205731     -0.000360825    -1.10211e-05
                     0.000211847     0.000101696        -0.966534        0.223014     -0.000256635     0.000123902       -0.0912062       0.0852059
281701.8               -0.145944       -0.170395      7.59441e-06     -0.00031754        -0.447978        0.862459      0.000151502     4.71737e-05
                     3.37883e-05    -0.000454755         0.119216       0.0365345      0.000100977     7.26076e-05        -0.966273        0.223374
                        -0.44774        0.862372      0.000145976     7.35186e-05        -0.223999      -0.0205687     -0.000360831    -1.10136e-05
                     0.000211852     0.000101693        -0.966529         0.22304     -0.000256626     0.000123904       -0.0912032       0.0852049
281701.9               -0.145951        -0.17039       7.5871e-06     -0.00031755        -0.447953        0.862471      0.000151504     4.71711e-05
                     3.37752e-05    -0.000454757         0.119215       0.0365286      0.000100974     7.25915e-05        -0.966268        0.223399
                       -0.447716        0.862385      0.000145982     7.35188e-05           -0.224      -0.0205643     -0.000360838    -1.10061e-05
                     0.000211856     0.000101689        -0.966523        0.223066     -0.000256616     0.000123907       -0.0912002       0.0852039
281702                 -0.145957       -0.170386      7.57978e-06    -0.000317559        -0.447929        0.862483      0.000151507     4.71686e-05
                     3.37621e-05    -0.000454759         0.119214       0.0365227      0.000100972     7.25753e-05        -0.966262        0.223425
                       -0.447691        0.862397      0.000145988     7.35189e-05        -0.224001      -0.0205599     -0.000360844    -1.09986e-05
                      0.00021186     0.000101686        -0.966517        0.223091     -0.000256607     0.000123909       -0.0911972        0.085203
281702.1               -0.145964       -0.170381      7.57246e-06    -0.000317569        -0.447905        0.862496      0.000151509      4.7166e-05
                      3.3749e-05    -0.000454761         0.119213       0.0365169       0.00010097     7.25592e-05        -0.966256        0.223451
                       -0.447667        0.862409      0.000145995      7.3519e-05        -0.224003      -0.0205555      -0.00036085    -1.09911e-05
                     0.000211865     0.000101682        -0.966512        0.223117     -0.000256598     0.000123912       -0.0911943        0.085202
281702.2               -0.145971       -0.170377      7.56515e-06    -0.000317578         -0.44788        0.862508      0.000151512     4.71635e-05
                     3.37359e-05    -0.000454763         0.119212        0.036511      0.000100967     7.25431e-05        -0.966251        0.223476
                       -0.447643        0.862422      0.000146001     7.35191e-05        -0.224004      -0.0205511     -0.000360856    -1.09836e-05
                     0.000211869     0.000101679        -0.966506        0.223143     -0.000256589     0.000123914       -0.0911913        0.085201
281702.3               -0.145978       -0.170372      7.55783e-06    -0.000317587        -0.447856        0.862521      0.000151514     4.71609e-05
                     3.37228e-05    -0.000454765          0.11921       0.0365051      0.000100965      7.2527e-05        -0.966245        0.223502
                       -0.447618        0.862434      0.000146007     7.35192e-05        -0.224005      -0.0205467     -0.000360863    -1.09761e-05
                     0.000211874     0.000101675        -0.966501        0.223168      -0.00025658     0.000123917       -0.0911883       0.0852001
281702.4               -0.145984       -0.170368      7.55052e-06    -0.000317597        -0.447832        0.862533      0.000151516     4.71584e-05
                     3.37098e-05    -0.000454767         0.119209       0.0364992      0.000100962     7.25109e-05         -0.96624        0.223528
                       -0.447594        0.862446      0.000146013     7.35194e-05        -0.224007      -0.0205423     -0.000360869    -1.09686e-05
                     0.000211878     0.000101671        -0.966495        0.223194     -0.000256571      0.00012392       -0.0911853       0.0851991
281702.5               -0.145991       -0.170363       7.5432e-06    -0.000317606        -0.447808        0.862545      0.000151519     4.71558e-05
                     3.36967e-05    -0.000454769         0.119208       0.0364934       0.00010096     7.24948e-05        -0.966234        0.223553
                        -0.44757        0.862459      0.000146019     7.35195e-05        -0.224008      -0.0205379     -0.000360875    -1.09611e-05
                     0.000211883     0.000101668         -0.96649         0.22322     -0.000256562     0.000123922       -0.0911823       0.0851981
281702.6               -0.145998       -0.170359      7.53588e-06    -0.000317615        -0.447783        0.862558      0.000151521     4.71533e-05
                     3.36836e-05    -0.000454771         0.119207       0.0364875      0.000100957     7.24787e-05        -0.966229        0.223579
                       -0.447546        0.862471      0.000146026     7.35196e-05        -0.224009      -0.0205335     -0.000360882    -1.09536e-05
                     0.000211887     0.000101664        -0.966484        0.223245     -0.000256553     0.000123925       -0.0911793       0.0851972
281702.7               -0.146004       -0.170354      7.52857e-06    -0.000317625        -0.447759         0.86257      0.000151523     4.71507e-05
                     3.36705e-05    -0.000454773         0.119206       0.0364816      0.000100955     7.24625e-05        -0.966223        0.223605
                       -0.447521        0.862484      0.000146032     7.35197e-05        -0.224011      -0.0205291     -0.000360888    -1.09461e-05
                     0.000211892      0.00010166        -0.966478        0.223271     -0.000256544     0.000123927       -0.0911763       0.0851962
281702.8               -0.146011       -0.170349      7.52125e-06    -0.000317634        -0.447735        0.862582      0.000151526     4.71481e-05
                     3.36574e-05    -0.000454774         0.119205       0.0364757      0.000100952     7.24464e-05        -0.966217         0.22363
                       -0.447497        0.862496      0.000146038     7.35199e-05        -0.224012      -0.0205247     -0.000360894    -1.09387e-05
                     0.000211896     0.000101657        -0.966473        0.223297     -0.000256534      0.00012393       -0.0911733       0.0851953
281702.9               -0.146018       -0.170345      7.51393e-06    -0.000317643         -0.44771        0.862595      0.000151528     4.71456e-05
                     3.36443e-05    -0.000454776         0.119203       0.0364699       0.00010095     7.24303e-05        -0.966212        0.223656
                       -0.447473        0.862508      0.000146044       7.352e-05        -0.224013      -0.0205203       -0.0003609    -1.09312e-05
                     0.000211901     0.000101653        -0.966467        0.223322     -0.000256525     0.000123932       -0.0911703       0.0851943
281703                 -0.146025        -0.17034      7.50662e-06    -0.000317653        -0.447686        0.862607       0.00015153      4.7143e-05
                     3.36312e-05    -0.000454778         0.119202        0.036464      0.000100947     7.24142e-05        -0.966206        0.223682
                       -0.447448        0.862521       0.00014605     7.35201e-05        -0.224015      -0.0205159     -0.000360907    -1.09237e-05
                     0.000211906     0.000101649        -0.966462        0.223348     -0.000256516     0.000123935       -0.0911673       0.0851933
281703.1               -0.146031       -0.170336       7.4993e-06    -0.000317662        -0.447662         0.86262      0.000151533     4.71404e-05
                     3.36181e-05     -0.00045478         0.119201       0.0364581      0.000100945     7.23981e-05        -0.966201        0.223708
                       -0.447424        0.862533      0.000146057     7.35202e-05        -0.224016      -0.0205115     -0.000360913    -1.09162e-05
