! TOUCHSTONE file generated by CST MICROWAVE STUDIO
! Date and time: Wed Oct  8 07:04:57 2025
! Project name: Teste_Macro_Metasurface_Nanopilar.cst
! Parameters = {H=600; L_x=190; L_y=85; Lambda=1064; Max_L=200; Min_L=70; PathPara=1; Phi=0; Step_L=10; Theta=0; p=520; phaseX=180; phaseY=0}
! Header version: 2018
! Port assignment regex: !\s*Touchstone port\s*([0-9]+)\s*=\s*(CST MWS port|CST DS port)\s*([0-9]+|Zmin|Zmax)\s*\(\"(.*)\"\)(\s*mode\s*([0-9]+))?.*
! Touchstone port assignment:
! Touchstone port 1 = CST MWS port Zmax ("") mode 1
! Touchstone port 2 = CST MWS port Zmax ("") mode 2
! Touchstone port 3 = CST MWS port Zmin ("") mode 1
! Touchstone port 4 = CST MWS port Zmin ("") mode 2
! S-Parameters are not renormalized. Each port impedance will be approximated by the real part at minimum frequency. The values are described via the [Reference] keyword.
! Default impedance is overridden by [Reference]
[Version] 2.0
# GHz S RI R 376.73
[Number of Ports] 4
[Reference]
376.73 376.73 376.73 376.73 
[Number of Frequencies] 1001
[Network Data]
281700                -0.0880623       -0.179763      0.000828223     0.000627837        -0.394659        0.894341     -0.000586418    -0.000821927
                     0.000818624     0.000675893        -0.153728       -0.351548     -0.000680409    -0.000389381        -0.865306       -0.294692
                        -0.39498        0.894156      -0.00059151    -0.000394718        -0.192265       0.0564392      0.000429546      0.00104661
                    -0.000378823    -0.000826433        -0.865291       -0.294631      0.000428303     0.000915002         0.325435       -0.192856
281700.1              -0.0880686       -0.179759      0.000828251     0.000627809        -0.394634        0.894352     -0.000586442    -0.000821892
                     0.000818644      0.00067587        -0.153735       -0.351556     -0.000680431    -0.000389347        -0.865314       -0.294656
                       -0.394954        0.894168     -0.000591536    -0.000394696        -0.192263       0.0564427      0.000429587      0.00104658
                    -0.000378859    -0.000826422        -0.865299       -0.294595      0.000428342     0.000914975          0.32543       -0.192884
281700.2              -0.0880749       -0.179755      0.000828278      0.00062778        -0.394609        0.894363     -0.000586465    -0.000821857
                     0.000818665     0.000675847        -0.153742       -0.351563     -0.000680452    -0.000389313        -0.865322        -0.29462
                       -0.394929        0.894179     -0.000591562    -0.000394674        -0.192261       0.0564461      0.000429628      0.00104656
                    -0.000378896    -0.000826411        -0.865307       -0.294559      0.000428381     0.000914948         0.325425       -0.192913
281700.3              -0.0880813       -0.179751      0.000828306     0.000627752        -0.394584        0.894375     -0.000586488    -0.000821822
                     0.000818685     0.000675824        -0.153749       -0.351571     -0.000680474    -0.000389279        -0.865329       -0.294584
                       -0.394904         0.89419     -0.000591588    -0.000394652         -0.19226       0.0564495      0.000429669      0.00104653
                    -0.000378932      -0.0008264        -0.865314       -0.294523       0.00042842     0.000914921         0.325419       -0.192941
281700.4              -0.0880876       -0.179747      0.000828334     0.000627724        -0.394559        0.894386     -0.000586512    -0.000821787
                     0.000818706       0.0006758        -0.153756       -0.351579     -0.000680495    -0.000389245        -0.865337       -0.294548
                       -0.394879        0.894201     -0.000591614    -0.000394631        -0.192258       0.0564529       0.00042971       0.0010465
                    -0.000378968    -0.000826389        -0.865322       -0.294487      0.000428459     0.000914893         0.325414        -0.19297
281700.5              -0.0880939       -0.179743      0.000828362     0.000627695        -0.394534        0.894397     -0.000586535    -0.000821752
                     0.000818726     0.000675777        -0.153764       -0.351587     -0.000680516     -0.00038921        -0.865345       -0.294512
                       -0.394854        0.894213      -0.00059164    -0.000394609        -0.192256       0.0564563      0.000429751      0.00104648
                    -0.000379004    -0.000826378         -0.86533       -0.294451      0.000428499     0.000914866         0.325409       -0.192998
281700.6              -0.0881002       -0.179739      0.000828389     0.000627667        -0.394509        0.894408     -0.000586558    -0.000821718
                     0.000818746     0.000675754        -0.153771       -0.351594     -0.000680538    -0.000389176        -0.865352       -0.294476
                       -0.394829        0.894224     -0.000591666    -0.000394587        -0.192254       0.0564598      0.000429792      0.00104645
                    -0.000379041    -0.000826367        -0.865337       -0.294415      0.000428538     0.000914839         0.325404       -0.193026
281700.7              -0.0881065       -0.179735      0.000828417     0.000627639        -0.394483         0.89442     -0.000586581    -0.000821683
                     0.000818767     0.000675731        -0.153778       -0.351602     -0.000680559    -0.000389142         -0.86536        -0.29444
                       -0.394804        0.894235     -0.000591692    -0.000394565        -0.192252       0.0564632      0.000429832      0.00104643
                    -0.000379077    -0.000826356        -0.865345       -0.294379      0.000428577     0.000914812         0.325399       -0.193055
281700.8              -0.0881128       -0.179731      0.000828445      0.00062761        -0.394458        0.894431     -0.000586605    -0.000821648
                     0.000818787     0.000675708        -0.153785        -0.35161     -0.000680581    -0.000389108        -0.865367       -0.294404
                       -0.394779        0.894246     -0.000591718    -0.000394543         -0.19225       0.0564666      0.000429873       0.0010464
                    -0.000379113    -0.000826345        -0.865352       -0.294343      0.000428616     0.000914784         0.325394       -0.193083
281700.9              -0.0881191       -0.179727      0.000828473     0.000627582        -0.394433        0.894442     -0.000586628    -0.000821613
                     0.000818808     0.000675685        -0.153792       -0.351618     -0.000680602    -0.000389074        -0.865375       -0.294368
                       -0.394754        0.894258     -0.000591744    -0.000394521        -0.192248         0.05647      0.000429914      0.00104637
                    -0.000379149    -0.000826334         -0.86536       -0.294307      0.000428655     0.000914757         0.325389       -0.193112
281701                -0.0881255       -0.179723      0.000828501     0.000627553        -0.394408        0.894454     -0.000586651    -0.000821578
                     0.000818828     0.000675661          -0.1538       -0.351626     -0.000680624     -0.00038904        -0.865383       -0.294332
                       -0.394729        0.894269      -0.00059177    -0.000394499        -0.192246       0.0564734      0.000429955      0.00104635
                    -0.000379185    -0.000826322        -0.865368       -0.294271      0.000428694      0.00091473         0.325384        -0.19314
281701.1              -0.0881318       -0.179719      0.000828528     0.000627525        -0.394383        0.894465     -0.000586675    -0.000821543
                     0.000818848     0.000675638        -0.153807       -0.351633     -0.000680645    -0.000389006         -0.86539       -0.294296
                       -0.394703         0.89428     -0.000591796    -0.000394477        -0.192244       0.0564768      0.000429996      0.00104632
                    -0.000379222    -0.000826311        -0.865375       -0.294235      0.000428733     0.000914703         0.325379       -0.193169
281701.2              -0.0881381       -0.179715      0.000828556     0.000627497        -0.394358        0.894476     -0.000586698    -0.000821509
                     0.000818869     0.000675615        -0.153814       -0.351641     -0.000680666    -0.000388972        -0.865398        -0.29426
                       -0.394678        0.894292     -0.000591822    -0.000394455        -0.192242       0.0564803      0.000430037       0.0010463
                    -0.000379258      -0.0008263        -0.865383       -0.294199      0.000428772     0.000914675         0.325374       -0.193197
281701.3              -0.0881444       -0.179711      0.000828584     0.000627468        -0.394333        0.894487     -0.000586721    -0.000821474
                     0.000818889     0.000675592        -0.153821       -0.351649     -0.000680688    -0.000388938        -0.865406       -0.294224
                       -0.394653        0.894303     -0.000591848    -0.000394433        -0.192241       0.0564837      0.000430078      0.00104627
                    -0.000379294    -0.000826289        -0.865391       -0.294163      0.000428811     0.000914648         0.325369       -0.193225
281701.4              -0.0881507       -0.179707      0.000828612      0.00062744        -0.394308        0.894499     -0.000586745    -0.000821439
                      0.00081891     0.000675569        -0.153828       -0.351657     -0.000680709    -0.000388904        -0.865413       -0.294188
                       -0.394628        0.894314     -0.000591874    -0.000394411        -0.192239       0.0564871      0.000430119      0.00104624
                     -0.00037933    -0.000826278        -0.865398       -0.294127       0.00042885     0.000914621         0.325364       -0.193254
281701.5               -0.088157       -0.179703      0.000828639     0.000627412        -0.394283         0.89451     -0.000586768    -0.000821404
                      0.00081893     0.000675545        -0.153836       -0.351665     -0.000680731     -0.00038887        -0.865421       -0.294153
                       -0.394603        0.894325       -0.0005919    -0.000394389        -0.192237       0.0564905       0.00043016      0.00104622
                    -0.000379367    -0.000826267        -0.865406       -0.294091      0.000428889     0.000914594         0.325359       -0.193282
281701.6              -0.0881633       -0.179699      0.000828667     0.000627383        -0.394257        0.894521     -0.000586791    -0.000821369
                      0.00081895     0.000675522        -0.153843       -0.351672     -0.000680752    -0.000388836        -0.865428       -0.294117
                       -0.394578        0.894337     -0.000591926    -0.000394367        -0.192235       0.0564939        0.0004302      0.00104619
                    -0.000379403    -0.000826256        -0.865413       -0.294055      0.000428928     0.000914567         0.325354       -0.193311
281701.7              -0.0881697       -0.179695      0.000828695     0.000627355        -0.394232        0.894532     -0.000586815    -0.000821334
                     0.000818971     0.000675499         -0.15385        -0.35168     -0.000680774    -0.000388802        -0.865436       -0.294081
                       -0.394553        0.894348     -0.000591952    -0.000394345        -0.192233       0.0564973      0.000430241      0.00104616
                    -0.000379439    -0.000826245        -0.865421       -0.294019      0.000428967     0.000914539         0.325349       -0.193339
281701.8               -0.088176       -0.179691      0.000828723     0.000627326        -0.394207        0.894544     -0.000586838      -0.0008213
                     0.000818991     0.000675476        -0.153857       -0.351688     -0.000680795    -0.000388768        -0.865444       -0.294045
                       -0.394528        0.894359     -0.000591978    -0.000394323        -0.192231       0.0565008      0.000430282      0.00104614
                    -0.000379475    -0.000826234        -0.865429       -0.293983      0.000429006     0.000914512         0.325344       -0.193368
281701.9              -0.0881823       -0.179687       0.00082875     0.000627298        -0.394182        0.894555     -0.000586861    -0.000821265
                     0.000819012     0.000675453        -0.153864       -0.351696     -0.000680816    -0.000388734        -0.865451       -0.294009
                       -0.394503         0.89437     -0.000592004    -0.000394301        -0.192229       0.0565042      0.000430323      0.00104611
                    -0.000379511    -0.000826223        -0.865436       -0.293947      0.000429045     0.000914485         0.325339       -0.193396
281702                -0.0881886       -0.179683      0.000828778      0.00062727        -0.394157        0.894566     -0.000586884     -0.00082123
                     0.000819032     0.000675429        -0.153872       -0.351703     -0.000680838    -0.000388699        -0.865459       -0.293973
                       -0.394477        0.894382      -0.00059203    -0.000394279        -0.192227       0.0565076      0.000430364      0.00104608
                    -0.000379547    -0.000826212        -0.865444       -0.293911      0.000429084     0.000914458         0.325334       -0.193425
281702.1              -0.0881949       -0.179679      0.000828806     0.000627241        -0.394132        0.894577     -0.000586908    -0.000821195
                     0.000819052     0.000675406        -0.153879       -0.351711     -0.000680859    -0.000388665        -0.865467       -0.293937
                       -0.394452        0.894393     -0.000592056    -0.000394257        -0.192225        0.056511      0.000430405      0.00104606
                    -0.000379584    -0.000826201        -0.865452       -0.293875      0.000429123      0.00091443         0.325329       -0.193453
281702.2              -0.0882012       -0.179675      0.000828833     0.000627213        -0.394107        0.894589     -0.000586931     -0.00082116
                     0.000819073     0.000675383        -0.153886       -0.351719     -0.000680881    -0.000388631        -0.865474       -0.293901
                       -0.394427        0.894404     -0.000592082    -0.000394234        -0.192223       0.0565144      0.000430446      0.00104603
                     -0.00037962     -0.00082619        -0.865459       -0.293839      0.000429162     0.000914403         0.325324       -0.193481
281702.3              -0.0882075       -0.179671      0.000828861     0.000627185        -0.394082          0.8946     -0.000586954    -0.000821125
                     0.000819093      0.00067536        -0.153893       -0.351727     -0.000680902    -0.000388597        -0.865482       -0.293865
                       -0.394402        0.894415     -0.000592108    -0.000394212        -0.192222       0.0565178      0.000430487      0.00104601
                    -0.000379656    -0.000826179        -0.865467       -0.293803      0.000429201     0.000914376         0.325318        -0.19351
281702.4              -0.0882138       -0.179667      0.000828889     0.000627156        -0.394056        0.894611     -0.000586978     -0.00082109
                     0.000819113     0.000675337          -0.1539       -0.351735     -0.000680923    -0.000388563        -0.865489       -0.293829
                       -0.394377        0.894427     -0.000592133     -0.00039419         -0.19222       0.0565212      0.000430528      0.00104598
                    -0.000379692    -0.000826168        -0.865474       -0.293767       0.00042924     0.000914349         0.325313       -0.193538
281702.5              -0.0882202       -0.179663      0.000828917     0.000627128        -0.394031        0.894623     -0.000587001    -0.000821056
                     0.000819134     0.000675313        -0.153908       -0.351742     -0.000680945    -0.000388529        -0.865497       -0.293793
                       -0.394352        0.894438     -0.000592159    -0.000394168        -0.192218       0.0565247      0.000430569      0.00104595
                    -0.000379728    -0.000826157        -0.865482       -0.293731      0.000429279     0.000914321         0.325308       -0.193567
281702.6              -0.0882265       -0.179659      0.000828944     0.000627099        -0.394006        0.894634     -0.000587024    -0.000821021
                     0.000819154      0.00067529        -0.153915        -0.35175     -0.000680966    -0.000388495        -0.865505       -0.293757
                       -0.394327        0.894449     -0.000592185    -0.000394146        -0.192216       0.0565281       0.00043061      0.00104593
                    -0.000379765    -0.000826145         -0.86549       -0.293695      0.000429318     0.000914294         0.325303       -0.193595
281702.7              -0.0882328       -0.179655      0.000828972     0.000627071        -0.393981        0.894645     -0.000587047    -0.000820986
                     0.000819175     0.000675267        -0.153922       -0.351758     -0.000680987    -0.000388461        -0.865512       -0.293721
                       -0.394302         0.89446     -0.000592211    -0.000394124        -0.192214       0.0565315       0.00043065       0.0010459
                    -0.000379801    -0.000826134        -0.865497       -0.293659      0.000429357     0.000914267         0.325298       -0.193624
281702.8              -0.0882391       -0.179651         0.000829     0.000627043        -0.393956        0.894656     -0.000587071    -0.000820951
                     0.000819195     0.000675244        -0.153929       -0.351766     -0.000681009    -0.000388427         -0.86552       -0.293685
                       -0.394277        0.894472     -0.000592237    -0.000394102        -0.192212       0.0565349      0.000430691      0.00104587
                    -0.000379837    -0.000826123        -0.865505       -0.293623      0.000429396      0.00091424         0.325293       -0.193652
281702.9              -0.0882454       -0.179647      0.000829028     0.000627014        -0.393931        0.894668     -0.000587094    -0.000820916
                     0.000819215     0.000675221        -0.153936       -0.351774      -0.00068103    -0.000388393        -0.865527       -0.293649
                       -0.394251        0.894483     -0.000592263     -0.00039408         -0.19221       0.0565383      0.000430732      0.00104585
                    -0.000379873    -0.000826112        -0.865512       -0.293587      0.000429435     0.000914212         0.325288        -0.19368
281703                -0.0882517       -0.179642      0.000829055     0.000626986        -0.393906        0.894679     -0.000587117    -0.000820881
                     0.000819236     0.000675197        -0.153944       -0.351781     -0.000681052    -0.000388359        -0.865535       -0.293613
                       -0.394226        0.894494     -0.000592289    -0.000394058        -0.192208       0.0565417      0.000430773      0.00104582
                    -0.000379909    -0.000826101         -0.86552       -0.293551      0.000429474     0.000914185         0.325283       -0.193709
281703.1               -0.088258       -0.179638      0.000829083     0.000626957        -0.393881         0.89469     -0.000587141    -0.000820846
                     0.000819256     0.000675174        -0.153951       -0.351789     -0.000681073    -0.000388325        -0.865543       -0.293577
                       -0.394201        0.894505     -0.000592315    -0.000394036        -0.192206       0.0565452      0.000430814       0.0010458
