! TOUCHSTONE file generated by CST MICROWAVE STUDIO
! Date and time: Wed Oct  8 06:54:36 2025
! Project name: Teste_Macro_Metasurface_Nanopilar.cst
! Parameters = {H=600; L_x=100; L_y=175; Lambda=1064; Max_L=200; Min_L=70; PathPara=1; Phi=0; Step_L=10; Theta=0; p=520; phaseX=180; phaseY=0}
! Header version: 2018
! Port assignment regex: !\s*Touchstone port\s*([0-9]+)\s*=\s*(CST MWS port|CST DS port)\s*([0-9]+|Zmin|Zmax)\s*\(\"(.*)\"\)(\s*mode\s*([0-9]+))?.*
! Touchstone port assignment:
! Touchstone port 1 = CST MWS port Zmax ("") mode 1
! Touchstone port 2 = CST MWS port Zmax ("") mode 2
! Touchstone port 3 = CST MWS port Zmin ("") mode 1
! Touchstone port 4 = CST MWS port Zmin ("") mode 2
! S-Parameters are not renormalized. Each port impedance will be approximated by the real part at minimum frequency. The values are described via the [Reference] keyword.
! Default impedance is overridden by [Reference]
[Version] 2.0
# GHz S RI R 376.73
[Number of Ports] 4
[Reference]
376.73 376.73 376.73 376.73 
[Number of Frequencies] 1001
[Network Data]
281700                 -0.188171       -0.384567      -0.00151574     0.000481362        -0.875651       -0.164937      0.000414956     0.000551863
                     -0.00143144     0.000529332        -0.107754        0.065377       0.00119912    -0.000922674         0.798759        0.574916
                       -0.875724       -0.164627       0.00117511    -0.000742339          0.29632       -0.300944      -0.00127976     -0.00139702
                     0.000186593     0.000390448         0.798582        0.574842       -0.0010563     -0.00163182       -0.0310945        0.121866
281700.1               -0.188183       -0.384576       -0.0015157     0.000481213        -0.875651       -0.164897      0.000414936     0.000551807
                     -0.00143142      0.00052939        -0.107748       0.0653768       0.00119925    -0.000923197         0.798779        0.574889
                       -0.875724       -0.164587       0.00117499    -0.000742366         0.296309       -0.300976      -0.00127976     -0.00139688
                     0.000186628     0.000390456         0.798602        0.574815        -0.001057     -0.00163208       -0.0310882        0.121862
281700.2               -0.188196       -0.384586      -0.00151566     0.000481063        -0.875651       -0.164858      0.000414917     0.000551752
                      -0.0014314     0.000529448        -0.107741       0.0653767       0.00119905    -0.000922787         0.798799        0.574862
                       -0.875724       -0.164548       0.00117487    -0.000742392         0.296297       -0.301007      -0.00127975     -0.00139673
                     0.000186664     0.000390463         0.798622        0.574788      -0.00105653     -0.00163173        -0.031082        0.121857
281700.3               -0.188209       -0.384596      -0.00151563     0.000480914        -0.875652       -0.164818      0.000414898     0.000551696
                     -0.00143137     0.000529506        -0.107734       0.0653766        0.0011985    -0.000921416         0.798819        0.574835
                       -0.875724       -0.164508       0.00117475    -0.000742419         0.296286       -0.301039      -0.00127975     -0.00139659
                     0.000186699      0.00039047         0.798642        0.574761      -0.00105487     -0.00163075       -0.0310758        0.121852
281700.4               -0.188221       -0.384606      -0.00151559     0.000480764        -0.875651       -0.164779      0.000414879      0.00055164
                     -0.00143135     0.000529564        -0.107727       0.0653765       0.00119761    -0.000919059         0.798839        0.574809
                       -0.875724       -0.164469       0.00117463    -0.000742445         0.296275        -0.30107      -0.00127974     -0.00139644
                     0.000186735     0.000390478         0.798662        0.574734      -0.00105196     -0.00162912       -0.0310695        0.121848
281700.5               -0.188234       -0.384616      -0.00151556     0.000480613        -0.875651       -0.164739      0.000414861     0.000551584
                     -0.00143133     0.000529622         -0.10772       0.0653763       0.00119638    -0.000915698         0.798859        0.574782
                       -0.875724       -0.164429       0.00117451    -0.000742471         0.296263       -0.301102      -0.00127974      -0.0013963
                     0.000186771     0.000390485         0.798682        0.574707      -0.00104779     -0.00162686       -0.0310633        0.121843
281700.6               -0.188247       -0.384626      -0.00151553     0.000480463        -0.875651         -0.1647      0.000414842     0.000551528
                     -0.00143131      0.00052968        -0.107713       0.0653762       0.00119482    -0.000911324         0.798879        0.574755
                       -0.875724       -0.164389       0.00117439    -0.000742497         0.296252       -0.301134      -0.00127973     -0.00139615
                     0.000186808     0.000390492         0.798703         0.57468      -0.00104234     -0.00162397        -0.031057        0.121839
281700.7               -0.188259       -0.384635       -0.0015155     0.000480312        -0.875651       -0.164661      0.000414824     0.000551473
                     -0.00143129     0.000529737        -0.107706       0.0653761       0.00119294    -0.000905934         0.798899        0.574728
                       -0.875724        -0.16435       0.00117427    -0.000742522         0.296241       -0.301165      -0.00127973       -0.001396
                     0.000186844     0.000390499         0.798723        0.574653      -0.00103559      -0.0016205       -0.0310508        0.121834
281700.8               -0.188272       -0.384645      -0.00151546     0.000480161        -0.875651       -0.164622      0.000414806     0.000551417
                     -0.00143126     0.000529795          -0.1077       0.0653759       0.00119076    -0.000899534         0.798919        0.574701
                       -0.875724        -0.16431       0.00117415    -0.000742548         0.296229       -0.301197      -0.00127973     -0.00139586
                     0.000186881     0.000390507         0.798743        0.574627      -0.00102753     -0.00161648       -0.0310446        0.121829
281700.9               -0.188285       -0.384655      -0.00151543      0.00048001        -0.875651       -0.164582      0.000414788     0.000551361
                     -0.00143124     0.000529852        -0.107693       0.0653758       0.00118833    -0.000892139         0.798939        0.574674
                       -0.875724       -0.164271       0.00117403    -0.000742573         0.296218       -0.301229      -0.00127972     -0.00139571
                     0.000186917     0.000390514         0.798763          0.5746      -0.00101817     -0.00161197       -0.0310383        0.121825
281701                 -0.188297       -0.384665       -0.0015154     0.000479858        -0.875651       -0.164543       0.00041477     0.000551305
                     -0.00143122      0.00052991        -0.107686       0.0653757       0.00118567    -0.000883773         0.798959        0.574647
                       -0.875724       -0.164231       0.00117391    -0.000742598         0.296207        -0.30126      -0.00127972     -0.00139557
                     0.000186954     0.000390521         0.798783        0.574573      -0.00100753     -0.00160702       -0.0310321         0.12182
281701.1                -0.18831       -0.384675      -0.00151537     0.000479706        -0.875651       -0.164504      0.000414752      0.00055125
                      -0.0014312     0.000529967        -0.107679       0.0653756       0.00118282    -0.000874467         0.798979         0.57462
                       -0.875724       -0.164192       0.00117379    -0.000742623         0.296195       -0.301292      -0.00127972     -0.00139542
                      0.00018699     0.000390529         0.798803        0.574546     -0.000995622     -0.00160173       -0.0310259        0.121816
281701.2               -0.188323       -0.384684      -0.00151534     0.000479554         -0.87565       -0.164465      0.000414734     0.000551194
                     -0.00143118     0.000530025        -0.107672       0.0653754       0.00117983    -0.000864263         0.798999        0.574593
                       -0.875724       -0.164152       0.00117367    -0.000742647         0.296184       -0.301324      -0.00127971     -0.00139527
                     0.000187027     0.000390536         0.798823        0.574519     -0.000982494     -0.00159616       -0.0310196        0.121811
281701.3               -0.188335       -0.384694      -0.00151531     0.000479402         -0.87565       -0.164427      0.000414717     0.000551138
                     -0.00143116     0.000530082        -0.107665       0.0653753       0.00117674     -0.00085321         0.799019        0.574566
                       -0.875724       -0.164112       0.00117355    -0.000742672         0.296172       -0.301355      -0.00127971     -0.00139513
                     0.000187064     0.000390543         0.798844        0.574492     -0.000968192     -0.00159041       -0.0310134        0.121806
281701.4               -0.188348       -0.384704      -0.00151528     0.000479249         -0.87565       -0.164388        0.0004147     0.000551083
                     -0.00143113     0.000530139        -0.107658       0.0653752       0.00117361    -0.000841365         0.799039        0.574539
                       -0.875724       -0.164073       0.00117344    -0.000742696         0.296161       -0.301387       -0.0012797     -0.00139498
                     0.000187101      0.00039055         0.798864        0.574465     -0.000952776     -0.00158458       -0.0310072        0.121802
281701.5               -0.188361       -0.384714      -0.00151526     0.000479096        -0.875649       -0.164349      0.000414683     0.000551027
                     -0.00143111     0.000530196        -0.107652       0.0653751       0.00117048    -0.000828791         0.799059        0.574513
                       -0.875724       -0.164033       0.00117332     -0.00074272          0.29615       -0.301418       -0.0012797     -0.00139484
                     0.000187138     0.000390558         0.798884        0.574438      -0.00093632     -0.00157875       -0.0310009        0.121797
281701.6               -0.188373       -0.384724      -0.00151523     0.000478942        -0.875649       -0.164311      0.000414666     0.000550971
                     -0.00143109     0.000530253        -0.107645       0.0653749       0.00116739    -0.000815559         0.799079        0.574486
                       -0.875724       -0.163994        0.0011732    -0.000742744         0.296138        -0.30145       -0.0012797     -0.00139469
                     0.000187175     0.000390565         0.798904        0.574411     -0.000918907     -0.00157302       -0.0309947        0.121793
281701.7               -0.188386       -0.384734       -0.0015152     0.000478789        -0.875648       -0.164272      0.000414649     0.000550916
                     -0.00143107     0.000530311        -0.107638       0.0653748        0.0011644    -0.000801743         0.799099        0.574459
                       -0.875724       -0.163954       0.00117308    -0.000742768         0.296127       -0.301482      -0.00127969     -0.00139454
                     0.000187213     0.000390572         0.798924        0.574385     -0.000900632     -0.00156748       -0.0309885        0.121788
281701.8               -0.188399       -0.384743      -0.00151518     0.000478635        -0.875648       -0.164234      0.000414632      0.00055086
                     -0.00143105     0.000530368        -0.107631       0.0653747       0.00116155    -0.000787421         0.799119        0.574432
                       -0.875724       -0.163914       0.00117296    -0.000742792         0.296115       -0.301513      -0.00127969      -0.0013944
                      0.00018725     0.000390579         0.798944        0.574358     -0.000881595     -0.00156222       -0.0309822        0.121784
281701.9               -0.188411       -0.384753      -0.00151515     0.000478481        -0.875647       -0.164196      0.000414616     0.000550805
                     -0.00143103     0.000530425        -0.107624       0.0653746       0.00115887    -0.000772674         0.799139        0.574405
                       -0.875724       -0.163875       0.00117284    -0.000742815         0.296104       -0.301545      -0.00127969     -0.00139425
                     0.000187287     0.000390587         0.798964        0.574331     -0.000861908      -0.0015573        -0.030976        0.121779
281702                 -0.188424       -0.384763      -0.00151512     0.000478326        -0.875646       -0.164157        0.0004146     0.000550749
                       -0.001431     0.000530482        -0.107617       0.0653744       0.00115639    -0.000757583         0.799159        0.574378
                       -0.875724       -0.163835       0.00117273    -0.000742839         0.296093       -0.301577      -0.00127968     -0.00139411
                     0.000187324     0.000390594         0.798985        0.574304     -0.000841684     -0.00155281       -0.0309698        0.121774
281702.1               -0.188437       -0.384773       -0.0015151     0.000478171        -0.875646       -0.164119      0.000414583     0.000550693
                     -0.00143098     0.000530538         -0.10761       0.0653743       0.00115415    -0.000742232         0.799179        0.574351
                       -0.875724       -0.163796       0.00117261    -0.000742862         0.296081       -0.301608      -0.00127968     -0.00139396
                     0.000187362     0.000390601         0.799005        0.574277      -0.00082104     -0.00154878       -0.0309635         0.12177
281702.2               -0.188449       -0.384783      -0.00151507     0.000478016        -0.875645       -0.164081      0.000414567     0.000550638
                     -0.00143096     0.000530595        -0.107604       0.0653742       0.00115216    -0.000726699         0.799199        0.574324
                       -0.875724       -0.163756       0.00117249    -0.000742885          0.29607        -0.30164      -0.00127968     -0.00139381
                     0.000187399     0.000390609         0.799025         0.57425     -0.000800093     -0.00154527       -0.0309573        0.121765
281702.3               -0.188462       -0.384792      -0.00151505      0.00047786        -0.875644       -0.164043      0.000414551     0.000550582
                     -0.00143094     0.000530652        -0.107597        0.065374       0.00115044    -0.000711063         0.799219        0.574297
                       -0.875724       -0.163717       0.00117237    -0.000742908         0.296058       -0.301671      -0.00127967     -0.00139367
                     0.000187437     0.000390616         0.799045        0.574223     -0.000778961     -0.00154231       -0.0309511        0.121761
281702.4               -0.188475       -0.384802      -0.00151502     0.000477705        -0.875643       -0.164006      0.000414536     0.000550527
                     -0.00143092     0.000530709         -0.10759       0.0653739         0.001149    -0.000695398         0.799239         0.57427
                       -0.875724       -0.163677       0.00117225    -0.000742931         0.296047       -0.301703      -0.00127967     -0.00139352
                     0.000187474     0.000390623         0.799065        0.574196     -0.000757755     -0.00153992       -0.0309448        0.121756
281702.5               -0.188488       -0.384812        -0.001515     0.000477549        -0.875642       -0.163968       0.00041452     0.000550471
                     -0.00143089     0.000530766        -0.107583       0.0653738       0.00114785    -0.000679774         0.799259        0.574244
                       -0.875724       -0.163637       0.00117214    -0.000742954         0.296035       -0.301735      -0.00127967     -0.00139338
                     0.000187512      0.00039063         0.799085        0.574169     -0.000736583      -0.0015381       -0.0309386        0.121751
281702.6                 -0.1885       -0.384822      -0.00151498     0.000477392        -0.875641       -0.163931      0.000414505     0.000550416
                     -0.00143087     0.000530822        -0.107576       0.0653737       0.00114698    -0.000664254         0.799279        0.574217
                       -0.875724       -0.163598       0.00117202    -0.000742976         0.296024       -0.301766      -0.00127967     -0.00139323
                     0.000187549     0.000390638         0.799105        0.574142     -0.000715546     -0.00153687       -0.0309324        0.121747
281702.7               -0.188513       -0.384832      -0.00151495     0.000477236         -0.87564       -0.163893       0.00041449      0.00055036
                     -0.00143085     0.000530879        -0.107569       0.0653735        0.0011464    -0.000648899         0.799299         0.57419
                       -0.875724       -0.163558        0.0011719    -0.000742999         0.296013       -0.301798      -0.00127966     -0.00139308
                     0.000187587     0.000390645         0.799126        0.574116     -0.000694736     -0.00153619       -0.0309261        0.121742
281702.8               -0.188526       -0.384842      -0.00151493     0.000477079        -0.875639       -0.163856      0.000414474     0.000550305
                     -0.00143083     0.000530935        -0.107562       0.0653734       0.00114609    -0.000633762         0.799319        0.574163
                       -0.875724       -0.163519       0.00117178    -0.000743021         0.296001       -0.301829      -0.00127966     -0.00139294
                     0.000187625     0.000390652         0.799146        0.574089     -0.000674238     -0.00153607       -0.0309199        0.121738
281702.9               -0.188538       -0.384851      -0.00151491     0.000476921        -0.875637       -0.163819       0.00041446     0.000550249
                     -0.00143081     0.000530992        -0.107556       0.0653733       0.00114604    -0.000618889         0.799339        0.574136
                       -0.875724       -0.163479       0.00117167    -0.000743043          0.29599       -0.301861      -0.00127966     -0.00139279
                     0.000187662     0.000390659         0.799166        0.574062     -0.000654125     -0.00153646       -0.0309137        0.121733
281703                 -0.188551       -0.384861      -0.00151488     0.000476764        -0.875636       -0.163782      0.000414445     0.000550194
                     -0.00143079     0.000531049        -0.107549       0.0653732       0.00114624    -0.000604321         0.799359        0.574109
                       -0.875724        -0.16344       0.00117155    -0.000743065         0.295978       -0.301893      -0.00127965     -0.00139265
                       0.0001877     0.000390667         0.799186        0.574035     -0.000634462     -0.00153734       -0.0309075        0.121728
281703.1               -0.188564       -0.384871      -0.00151486     0.000476606        -0.875634       -0.163746       0.00041443     0.000550138
                     -0.00143076     0.000531105        -0.107542        0.065373       0.00114667    -0.000590094         0.799379        0.574082
                       -0.875724         -0.1634       0.00117143    -0.000743087         0.295967       -0.301924      -0.00127965      -0.0013925
