! TOUCHSTONE file generated by CST MICROWAVE STUDIO
! Date and time: Wed Oct  8 07:04:37 2025
! Project name: Teste_Macro_Metasurface_Nanopilar.cst
! Parameters = {H=600; L_x=185; L_y=145; Lambda=1064; Max_L=200; Min_L=70; PathPara=1; Phi=0; Step_L=10; Theta=0; p=520; phaseX=180; phaseY=0}
! Header version: 2018
! Port assignment regex: !\s*Touchstone port\s*([0-9]+)\s*=\s*(CST MWS port|CST DS port)\s*([0-9]+|Zmin|Zmax)\s*\(\"(.*)\"\)(\s*mode\s*([0-9]+))?.*
! Touchstone port assignment:
! Touchstone port 1 = CST MWS port Zmax ("") mode 1
! Touchstone port 2 = CST MWS port Zmax ("") mode 2
! Touchstone port 3 = CST MWS port Zmin ("") mode 1
! Touchstone port 4 = CST MWS port Zmin ("") mode 2
! S-Parameters are not renormalized. Each port impedance will be approximated by the real part at minimum frequency. The values are described via the [Reference] keyword.
! Default impedance is overridden by [Reference]
[Version] 2.0
# GHz S RI R 376.73
[Number of Ports] 4
[Reference]
376.73 376.73 376.73 376.73 
[Number of Frequencies] 1001
[Network Data]
281700                 -0.118069        0.184459      0.000601222      0.00117031        -0.782531       -0.573093      0.000353337    -0.000404105
                       0.0005315      0.00115136       -0.0113193      -0.0122474      0.000308908    -0.000666026        -0.988582       -0.117844
                       -0.782413        -0.57303      0.000332875    -0.000685914        -0.144874        0.162735      -0.00142625     0.000437688
                     0.000383924    -0.000430453         -0.98854       -0.117986      -0.00138867     0.000365957       0.00918448       -0.010873
281700.1                -0.11806        0.184458      0.000601259       0.0011703         -0.78255        -0.57307      0.000353332    -0.000404118
                     0.000531539      0.00115135       -0.0113188      -0.0122538      0.000308881    -0.000666036        -0.988586       -0.117815
                       -0.782432       -0.573007      0.000332843    -0.000685932        -0.144864        0.162735      -0.00142622      0.00043774
                     0.000383908    -0.000430467        -0.988544       -0.117957      -0.00138866     0.000366017       0.00918481        -0.01088
281700.2               -0.118051        0.184456      0.000601295      0.00117029        -0.782568       -0.573047      0.000353327     -0.00040413
                     0.000531579      0.00115134       -0.0113182      -0.0122602      0.000308854    -0.000666045        -0.988589       -0.117785
                       -0.782451       -0.572984      0.000332811     -0.00068595        -0.144855        0.162735       -0.0014262     0.000437791
                     0.000383892    -0.000430482        -0.988547       -0.117927      -0.00138864     0.000366076       0.00918515       -0.010887
281700.3               -0.118043        0.184454      0.000601332      0.00117028        -0.782587       -0.573024      0.000353321    -0.000404143
                     0.000531618      0.00115133       -0.0113176      -0.0122665      0.000308827    -0.000666054        -0.988593       -0.117755
                        -0.78247       -0.572961      0.000332779    -0.000685967        -0.144846        0.162735      -0.00142618     0.000437843
                     0.000383876    -0.000430496        -0.988551       -0.117897      -0.00138862     0.000366136       0.00918548       -0.010894
281700.4               -0.118034        0.184452      0.000601369      0.00117027        -0.782606       -0.573001      0.000353316    -0.000404155
                     0.000531658      0.00115132       -0.0113171      -0.0122729        0.0003088    -0.000666064        -0.988596       -0.117725
                       -0.782488       -0.572938      0.000332746    -0.000685985        -0.144837        0.162735      -0.00142616     0.000437895
                     0.000383861     -0.00043051        -0.988554       -0.117868      -0.00138861     0.000366196       0.00918581      -0.0109011
281700.5               -0.118025         0.18445      0.000601405      0.00117026        -0.782624       -0.572978       0.00035331    -0.000404168
                     0.000531697      0.00115131       -0.0113165      -0.0122793      0.000308773    -0.000666073          -0.9886       -0.117696
                       -0.782507       -0.572915      0.000332714    -0.000686003        -0.144827        0.162735      -0.00142614     0.000437946
                     0.000383845    -0.000430525        -0.988557       -0.117838      -0.00138859     0.000366255       0.00918615      -0.0109081
281700.6               -0.118017        0.184448      0.000601442      0.00117025        -0.782643       -0.572955      0.000353305    -0.000404181
                     0.000531736       0.0011513       -0.0113159      -0.0122857      0.000308746    -0.000666082        -0.988603       -0.117666
                       -0.782526       -0.572892      0.000332682     -0.00068602        -0.144818        0.162735      -0.00142612     0.000437998
                     0.000383829    -0.000430539        -0.988561       -0.117808      -0.00138858     0.000366315       0.00918648      -0.0109151
281700.7               -0.118008        0.184446      0.000601479      0.00117024        -0.782662       -0.572932      0.000353299    -0.000404193
                     0.000531776      0.00115129       -0.0113153      -0.0122921      0.000308719    -0.000666092        -0.988607       -0.117636
                       -0.782544       -0.572869       0.00033265    -0.000686038        -0.144809        0.162735      -0.00142609      0.00043805
                     0.000383813    -0.000430553        -0.988564       -0.117778      -0.00138856     0.000366374       0.00918681      -0.0109221
281700.8               -0.117999        0.184444      0.000601515      0.00117023         -0.78268       -0.572909      0.000353294    -0.000404206
                     0.000531815      0.00115128       -0.0113148      -0.0122985      0.000308692    -0.000666101         -0.98861       -0.117607
                       -0.782563       -0.572846      0.000332618    -0.000686056          -0.1448        0.162735      -0.00142607     0.000438101
                     0.000383797    -0.000430568        -0.988568       -0.117749      -0.00138854     0.000366434       0.00918714      -0.0109291
281700.9                -0.11799        0.184443      0.000601552      0.00117022        -0.782699       -0.572886      0.000353289    -0.000404218
                     0.000531855      0.00115127       -0.0113142      -0.0123049      0.000308665     -0.00066611        -0.988614       -0.117577
                       -0.782582       -0.572823      0.000332585    -0.000686073         -0.14479        0.162734      -0.00142605     0.000438153
                     0.000383781    -0.000430582        -0.988571       -0.117719      -0.00138853     0.000366494       0.00918747      -0.0109361
281701                 -0.117982        0.184441      0.000601589      0.00117021        -0.782718       -0.572863      0.000353283    -0.000404231
                     0.000531894      0.00115126       -0.0113136      -0.0123113      0.000308638     -0.00066612        -0.988617       -0.117547
                       -0.782601         -0.5728      0.000332553    -0.000686091        -0.144781        0.162734      -0.00142603     0.000438205
                     0.000383765    -0.000430596        -0.988575       -0.117689      -0.00138851     0.000366553        0.0091878      -0.0109431
281701.1               -0.117973        0.184439      0.000601625       0.0011702        -0.782736        -0.57284      0.000353278    -0.000404244
                     0.000531934      0.00115125        -0.011313      -0.0123177      0.000308611    -0.000666129        -0.988621       -0.117518
                       -0.782619       -0.572777      0.000332521    -0.000686108        -0.144772        0.162734      -0.00142601     0.000438256
                     0.000383749    -0.000430611        -0.988578        -0.11766       -0.0013885     0.000366613       0.00918813      -0.0109501
281701.2               -0.117964        0.184437      0.000601662      0.00117019        -0.782755       -0.572817      0.000353272    -0.000404256
                     0.000531973      0.00115124       -0.0113125      -0.0123241      0.000308584    -0.000666138        -0.988624       -0.117488
                       -0.782638       -0.572754      0.000332489    -0.000686126        -0.144762        0.162734      -0.00142598     0.000438308
                     0.000383733    -0.000430625        -0.988582        -0.11763      -0.00138848     0.000366672       0.00918846      -0.0109571
281701.3               -0.117955        0.184435      0.000601699      0.00117018        -0.782774       -0.572794      0.000353267    -0.000404269
                     0.000532012      0.00115123       -0.0113119      -0.0123304      0.000308557    -0.000666147        -0.988628       -0.117458
                       -0.782657       -0.572731      0.000332457    -0.000686144        -0.144753        0.162734      -0.00142596     0.000438359
                     0.000383717    -0.000430639        -0.988585         -0.1176      -0.00138846     0.000366732       0.00918879      -0.0109641
281701.4               -0.117947        0.184433      0.000601735      0.00117017        -0.782792       -0.572771      0.000353261    -0.000404281
                     0.000532052      0.00115122       -0.0113113      -0.0123368       0.00030853    -0.000666157        -0.988631       -0.117429
                       -0.782675       -0.572708      0.000332424    -0.000686161        -0.144744        0.162734      -0.00142594     0.000438411
                     0.000383701    -0.000430654        -0.988589       -0.117571      -0.00138845     0.000366791       0.00918912      -0.0109711
281701.5               -0.117938        0.184431      0.000601772      0.00117015        -0.782811       -0.572748      0.000353256    -0.000404294
                     0.000532091      0.00115121       -0.0113108      -0.0123432      0.000308503    -0.000666166        -0.988635       -0.117399
                       -0.782694       -0.572684      0.000332392    -0.000686179        -0.144735        0.162734      -0.00142592     0.000438463
                     0.000383685    -0.000430668        -0.988592       -0.117541      -0.00138843     0.000366851       0.00918945      -0.0109781
281701.6               -0.117929         0.18443      0.000601809      0.00117014         -0.78283       -0.572725      0.000353251    -0.000404307
                     0.000532131       0.0011512       -0.0113102      -0.0123496      0.000308477    -0.000666175        -0.988638       -0.117369
                       -0.782713       -0.572661       0.00033236    -0.000686197        -0.144725        0.162734       -0.0014259     0.000438514
                     0.000383669    -0.000430683        -0.988596       -0.117511      -0.00138842     0.000366911       0.00918978      -0.0109851
281701.7               -0.117921        0.184428      0.000601845      0.00117013        -0.782848       -0.572702      0.000353245    -0.000404319
                      0.00053217      0.00115119       -0.0113096       -0.012356       0.00030845    -0.000666185        -0.988642        -0.11734
                       -0.782732       -0.572638      0.000332328    -0.000686214        -0.144716        0.162734      -0.00142588     0.000438566
                     0.000383653    -0.000430697        -0.988599       -0.117482       -0.0013884      0.00036697       0.00919011      -0.0109921
281701.8               -0.117912        0.184426      0.000601882      0.00117012        -0.782867       -0.572678       0.00035324    -0.000404332
                      0.00053221      0.00115118       -0.0113091      -0.0123624      0.000308423    -0.000666194        -0.988645        -0.11731
                        -0.78275       -0.572615      0.000332296    -0.000686232        -0.144707        0.162734      -0.00142585     0.000438618
                     0.000383637    -0.000430711        -0.988602       -0.117452      -0.00138838      0.00036703       0.00919043      -0.0109991
281701.9               -0.117903        0.184424      0.000601918      0.00117011        -0.782886       -0.572655      0.000353234    -0.000404344
                     0.000532249      0.00115117       -0.0113085      -0.0123688      0.000308396    -0.000666203        -0.988648        -0.11728
                       -0.782769       -0.572592      0.000332264    -0.000686249        -0.144698        0.162734      -0.00142583     0.000438669
                     0.000383621    -0.000430726        -0.988606       -0.117422      -0.00138837     0.000367089       0.00919076      -0.0110061
281702                 -0.117894        0.184422      0.000601955       0.0011701        -0.782904       -0.572632      0.000353229    -0.000404357
                     0.000532288      0.00115116       -0.0113079      -0.0123752      0.000308369    -0.000666213        -0.988652       -0.117251
                       -0.782788       -0.572569      0.000332231    -0.000686267        -0.144688        0.162734      -0.00142581     0.000438721
                     0.000383605     -0.00043074        -0.988609       -0.117392      -0.00138835     0.000367149       0.00919109      -0.0110131
281702.1               -0.117886         0.18442      0.000601992      0.00117009        -0.782923       -0.572609      0.000353223     -0.00040437
                     0.000532328      0.00115115       -0.0113074      -0.0123816      0.000308342    -0.000666222        -0.988655       -0.117221
                       -0.782807       -0.572546      0.000332199    -0.000686285        -0.144679        0.162734      -0.00142579     0.000438773
                     0.000383589    -0.000430754        -0.988613       -0.117363      -0.00138834     0.000367209       0.00919141      -0.0110201
281702.2               -0.117877        0.184418      0.000602028      0.00117008        -0.782942       -0.572586      0.000353218    -0.000404382
                     0.000532367      0.00115114       -0.0113068      -0.0123879      0.000308315    -0.000666231        -0.988659       -0.117191
                       -0.782825       -0.572523      0.000332167    -0.000686302         -0.14467        0.162734      -0.00142577     0.000438824
                     0.000383573    -0.000430769        -0.988616       -0.117333      -0.00138832     0.000367268       0.00919174      -0.0110271
281702.3               -0.117868        0.184416      0.000602065      0.00117007         -0.78296       -0.572563      0.000353212    -0.000404395
                     0.000532407      0.00115113       -0.0113062      -0.0123943      0.000308288    -0.000666241        -0.988662       -0.117162
                       -0.782844         -0.5725      0.000332135     -0.00068632         -0.14466        0.162734      -0.00142574     0.000438876
                     0.000383557    -0.000430783         -0.98862       -0.117303       -0.0013883     0.000367328       0.00919206      -0.0110341
281702.4                -0.11786        0.184415      0.000602102      0.00117006        -0.782979        -0.57254      0.000353207    -0.000404408
                     0.000532446      0.00115112       -0.0113057      -0.0124007      0.000308261     -0.00066625        -0.988666       -0.117132
                       -0.782863       -0.572477      0.000332103    -0.000686338        -0.144651        0.162734      -0.00142572     0.000438927
                     0.000383541    -0.000430797        -0.988623       -0.117274      -0.00138829     0.000367387       0.00919239      -0.0110411
281702.5               -0.117851        0.184413      0.000602138      0.00117005        -0.782998       -0.572517      0.000353201     -0.00040442
                     0.000532486      0.00115111       -0.0113051      -0.0124071      0.000308234    -0.000666259        -0.988669       -0.117102
                       -0.782881       -0.572454       0.00033207    -0.000686355        -0.144642        0.162734       -0.0014257     0.000438979
                     0.000383525    -0.000430812        -0.988627       -0.117244      -0.00138827     0.000367447       0.00919271      -0.0110481
281702.6               -0.117842        0.184411      0.000602175      0.00117004        -0.783016       -0.572494      0.000353196    -0.000404433
                     0.000532525       0.0011511       -0.0113045      -0.0124135      0.000308207    -0.000666269        -0.988673       -0.117073
                         -0.7829       -0.572431      0.000332038    -0.000686373        -0.144633        0.162734      -0.00142568     0.000439031
                     0.000383509    -0.000430826         -0.98863       -0.117214      -0.00138826     0.000367506       0.00919304      -0.0110551
281702.7               -0.117833        0.184409      0.000602211      0.00117003        -0.783035       -0.572471      0.000353191    -0.000404445
                     0.000532564      0.00115109        -0.011304      -0.0124199       0.00030818    -0.000666278        -0.988676       -0.117043
                       -0.782919       -0.572408      0.000332006     -0.00068639        -0.144623        0.162734      -0.00142566     0.000439082
                     0.000383493     -0.00043084        -0.988634       -0.117185      -0.00138824     0.000367566       0.00919336      -0.0110622
281702.8               -0.117825        0.184407      0.000602248      0.00117002        -0.783054       -0.572448      0.000353185    -0.000404458
                     0.000532604      0.00115108       -0.0113034      -0.0124263      0.000308153    -0.000666287         -0.98868       -0.117013
                       -0.782937       -0.572385      0.000331974    -0.000686408        -0.144614        0.162734      -0.00142563     0.000439134
                     0.000383477    -0.000430855        -0.988637       -0.117155      -0.00138822     0.000367626       0.00919368      -0.0110692
281702.9               -0.117816        0.184405      0.000602285      0.00117001        -0.783072       -0.572425       0.00035318    -0.000404471
                     0.000532643      0.00115107       -0.0113028      -0.0124327      0.000308126    -0.000666297        -0.988683       -0.116984
                       -0.782956       -0.572362      0.000331942    -0.000686426        -0.144605        0.162733      -0.00142561     0.000439186
                     0.000383461    -0.000430869         -0.98864       -0.117125      -0.00138821     0.000367685         0.009194      -0.0110762
281703                 -0.117807        0.184403      0.000602321         0.00117        -0.783091       -0.572402      0.000353174    -0.000404483
                     0.000532683      0.00115106       -0.0113023      -0.0124391      0.000308099    -0.000666306        -0.988687       -0.116954
                       -0.782975       -0.572339       0.00033191    -0.000686443        -0.144596        0.162733      -0.00142559     0.000439237
                     0.000383445    -0.000430883        -0.988644       -0.117096      -0.00138819     0.000367745       0.00919433      -0.0110832
281703.1               -0.117799        0.184401      0.000602358      0.00116999         -0.78311       -0.572379      0.000353169    -0.000404496
                     0.000532722      0.00115105       -0.0113017      -0.0124455      0.000308072    -0.000666315         -0.98869       -0.116924
                       -0.782994       -0.572316      0.000331877    -0.000686461        -0.144586        0.162733      -0.00142557     0.000439289
