! TOUCHSTONE file generated by CST MICROWAVE STUDIO
! Date and time: Wed Oct  8 07:06:27 2025
! Project name: Teste_Macro_Metasurface_Nanopilar.cst
! Parameters = {H=600; L_x=200; L_y=155; Lambda=1064; Max_L=200; Min_L=70; PathPara=1; Phi=0; Step_L=10; Theta=0; p=520; phaseX=180; phaseY=0}
! Header version: 2018
! Port assignment regex: !\s*Touchstone port\s*([0-9]+)\s*=\s*(CST MWS port|CST DS port)\s*([0-9]+|Zmin|Zmax)\s*\(\"(.*)\"\)(\s*mode\s*([0-9]+))?.*
! Touchstone port assignment:
! Touchstone port 1 = CST MWS port Zmax ("") mode 1
! Touchstone port 2 = CST MWS port Zmax ("") mode 2
! Touchstone port 3 = CST MWS port Zmin ("") mode 1
! Touchstone port 4 = CST MWS port Zmin ("") mode 2
! S-Parameters are not renormalized. Each port impedance will be approximated by the real part at minimum frequency. The values are described via the [Reference] keyword.
! Default impedance is overridden by [Reference]
[Version] 2.0
# GHz S RI R 376.73
[Number of Ports] 4
[Reference]
376.73 376.73 376.73 376.73 
[Number of Frequencies] 1001
[Network Data]
281700                -0.0677503      -0.0219139       0.00029939     4.80873e-05        -0.951512        -0.28493      0.000247839    -0.000250359
                     0.000294986     3.70212e-05        -0.123851       -0.195996      -7.9364e-06    -0.000152968         -0.92965        0.271414
                        -0.95145       -0.285098     -0.000140113     -0.00018174        0.0657621       0.0189146     -0.000391621      4.0812e-05
                     8.87108e-05    -0.000184576        -0.929713        0.271335     -0.000335668     9.16914e-06      -0.00545363       -0.231476
281700.1              -0.0677475      -0.0219175      0.000299392     4.80854e-05        -0.951521       -0.284901      0.000247853    -0.000250344
                     0.000294971     3.70331e-05        -0.123857       -0.195999     -7.95855e-06    -0.000152962        -0.929641        0.271441
                       -0.951459       -0.285069     -0.000140125    -0.000181735         0.065763        0.018906     -0.000391647     4.07988e-05
                     8.87247e-05     -0.00018461        -0.929703        0.271363     -0.000335656     9.15657e-06      -0.00546347       -0.231482
281700.2              -0.0677448      -0.0219211      0.000299394     4.80835e-05         -0.95153       -0.284872      0.000247868    -0.000250329
                     0.000294956      3.7045e-05        -0.123864       -0.196002      -7.9807e-06    -0.000152955        -0.929631        0.271468
                       -0.951468       -0.285041     -0.000140138    -0.000181729        0.0657639       0.0188974     -0.000391673     4.07855e-05
                     8.87385e-05    -0.000184645        -0.929694         0.27139     -0.000335645     9.14401e-06       -0.0054733       -0.231488
281700.3              -0.0677421      -0.0219247      0.000299396     4.80816e-05        -0.951539       -0.284843      0.000247882    -0.000250314
                     0.000294941      3.7057e-05        -0.123871       -0.196005     -8.00285e-06    -0.000152949        -0.929622        0.271496
                       -0.951476       -0.285012      -0.00014015    -0.000181724        0.0657647       0.0188887     -0.000391699     4.07722e-05
                     8.87524e-05     -0.00018468        -0.929684        0.271417     -0.000335633     9.13144e-06      -0.00548314       -0.231494
281700.4              -0.0677394      -0.0219283      0.000299397     4.80796e-05        -0.951547       -0.284814      0.000247896    -0.000250299
                     0.000294926      3.7069e-05        -0.123877       -0.196008     -8.02498e-06    -0.000152942        -0.929612        0.271523
                       -0.951485       -0.284983     -0.000140162    -0.000181718        0.0657656       0.0188801     -0.000391725     4.07588e-05
                     8.87662e-05    -0.000184715        -0.929675        0.271445     -0.000335622     9.11888e-06      -0.00549298         -0.2315
281700.5              -0.0677367      -0.0219319      0.000299399     4.80777e-05        -0.951556       -0.284786       0.00024791    -0.000250284
                     0.000294911     3.70809e-05        -0.123884       -0.196011     -8.04711e-06    -0.000152936        -0.929603         0.27155
                       -0.951494       -0.284954     -0.000140175    -0.000181712        0.0657665       0.0188715     -0.000391751     4.07455e-05
                     8.87801e-05     -0.00018475        -0.929665        0.271472      -0.00033561     9.10632e-06      -0.00550281       -0.231506
281700.6               -0.067734      -0.0219355      0.000299401     4.80758e-05        -0.951565       -0.284757      0.000247924    -0.000250269
                     0.000294896     3.70929e-05         -0.12389       -0.196014     -8.06923e-06    -0.000152929        -0.929593        0.271578
                       -0.951503       -0.284926     -0.000140187    -0.000181707        0.0657674       0.0188629     -0.000391777     4.07321e-05
                      8.8794e-05    -0.000184784        -0.929656        0.271499     -0.000335599     9.09375e-06      -0.00551265       -0.231512
281700.7              -0.0677313      -0.0219391      0.000299403     4.80738e-05        -0.951574       -0.284728      0.000247938    -0.000250254
                     0.000294882     3.71049e-05        -0.123897       -0.196018     -8.09135e-06    -0.000152923        -0.929584        0.271605
                       -0.951511       -0.284897       -0.0001402    -0.000181701        0.0657682       0.0188542     -0.000391803     4.07188e-05
                     8.88078e-05    -0.000184819        -0.929646        0.271526     -0.000335587     9.08119e-06      -0.00552249       -0.231518
281700.8              -0.0677286      -0.0219427      0.000299405     4.80719e-05        -0.951583       -0.284699      0.000247952    -0.000250239
                     0.000294867     3.71169e-05        -0.123904       -0.196021     -8.11346e-06    -0.000152916        -0.929574        0.271632
                        -0.95152       -0.284868     -0.000140212    -0.000181696        0.0657691       0.0188456     -0.000391829     4.07054e-05
                     8.88217e-05    -0.000184854        -0.929637        0.271554     -0.000335576     9.06862e-06      -0.00553232       -0.231523
281700.9              -0.0677259      -0.0219463      0.000299407     4.80699e-05        -0.951591       -0.284671      0.000247967    -0.000250224
                     0.000294852     3.71289e-05         -0.12391       -0.196024     -8.13556e-06     -0.00015291        -0.929565         0.27166
                       -0.951529       -0.284839     -0.000140225     -0.00018169          0.06577        0.018837     -0.000391855      4.0692e-05
                     8.88356e-05    -0.000184889        -0.929627        0.271581     -0.000335564     9.05606e-06      -0.00554216       -0.231529
281701                -0.0677231      -0.0219499      0.000299409      4.8068e-05          -0.9516       -0.284642      0.000247981     -0.00025021
                     0.000294837     3.71409e-05        -0.123917       -0.196027     -8.15765e-06    -0.000152903        -0.929555        0.271687
                       -0.951538        -0.28481     -0.000140237    -0.000181684        0.0657708       0.0188284     -0.000391881     4.06786e-05
                     8.88495e-05    -0.000184924        -0.929618        0.271608     -0.000335553     9.04349e-06        -0.005552       -0.231535
281701.1              -0.0677204      -0.0219535      0.000299411      4.8066e-05        -0.951609       -0.284613      0.000247995    -0.000250195
                     0.000294822     3.71529e-05        -0.123924        -0.19603     -8.17974e-06    -0.000152896        -0.929546        0.271714
                       -0.951546       -0.284782      -0.00014025    -0.000181679        0.0657717       0.0188197     -0.000391907     4.06652e-05
                     8.88633e-05    -0.000184959        -0.929608        0.271636     -0.000335541     9.03093e-06      -0.00556184       -0.231541
281701.2              -0.0677177      -0.0219571      0.000299412     4.80641e-05        -0.951618       -0.284584      0.000248009     -0.00025018
                     0.000294807      3.7165e-05         -0.12393       -0.196033     -8.20182e-06     -0.00015289        -0.929536        0.271741
                       -0.951555       -0.284753     -0.000140262    -0.000181673        0.0657726       0.0188111     -0.000391933     4.06518e-05
                     8.88772e-05    -0.000184994        -0.929599        0.271663      -0.00033553     9.01837e-06      -0.00557168       -0.231547
281701.3               -0.067715      -0.0219607      0.000299414     4.80621e-05        -0.951626       -0.284555      0.000248023    -0.000250165
                     0.000294792      3.7177e-05        -0.123937       -0.196036      -8.2239e-06    -0.000152883        -0.929527        0.271769
                       -0.951564       -0.284724     -0.000140274    -0.000181667        0.0657734       0.0188025     -0.000391959     4.06383e-05
                     8.88911e-05    -0.000185029        -0.929589         0.27169     -0.000335518      9.0058e-06      -0.00558152       -0.231553
281701.4              -0.0677123      -0.0219643      0.000299416     4.80602e-05        -0.951635       -0.284527      0.000248037     -0.00025015
                     0.000294777     3.71891e-05        -0.123944       -0.196039     -8.24596e-06    -0.000152877        -0.929517        0.271796
                       -0.951573       -0.284695     -0.000140287    -0.000181662        0.0657743       0.0187939     -0.000391985     4.06248e-05
                      8.8905e-05    -0.000185064         -0.92958        0.271718     -0.000335507     8.99324e-06      -0.00559136       -0.231559
281701.5              -0.0677096      -0.0219679      0.000299418     4.80582e-05        -0.951644       -0.284498      0.000248051    -0.000250135
                     0.000294762     3.72011e-05         -0.12395       -0.196042     -8.26802e-06     -0.00015287        -0.929508        0.271823
                       -0.951581       -0.284667     -0.000140299    -0.000181656        0.0657752       0.0187852      -0.00039201     4.06114e-05
                     8.89189e-05    -0.000185099         -0.92957        0.271745     -0.000335496     8.98068e-06       -0.0056012       -0.231565
281701.6              -0.0677069      -0.0219715       0.00029942     4.80562e-05        -0.951653       -0.284469      0.000248065    -0.000250119
                     0.000294747     3.72132e-05        -0.123957       -0.196045     -8.29008e-06    -0.000152864        -0.929498        0.271851
                        -0.95159       -0.284638     -0.000140312    -0.000181651         0.065776       0.0187766     -0.000392036     4.05979e-05
                     8.89328e-05    -0.000185134        -0.929561        0.271772     -0.000335484     8.96811e-06      -0.00561104       -0.231571
281701.7              -0.0677042      -0.0219751      0.000299422     4.80542e-05        -0.951661        -0.28444      0.000248079    -0.000250104
                     0.000294732     3.72253e-05        -0.123964       -0.196048     -8.31212e-06    -0.000152857        -0.929489        0.271878
                       -0.951599       -0.284609     -0.000140324    -0.000181645        0.0657769        0.018768     -0.000392062     4.05844e-05
                     8.89468e-05    -0.000185169        -0.929551        0.271799     -0.000335473     8.95555e-06      -0.00562088       -0.231577
281701.8              -0.0677015      -0.0219787      0.000299424     4.80523e-05         -0.95167       -0.284412      0.000248093    -0.000250089
                     0.000294717     3.72373e-05         -0.12397       -0.196051     -8.33416e-06     -0.00015285        -0.929479        0.271905
                       -0.951608        -0.28458     -0.000140337    -0.000181639        0.0657778       0.0187594     -0.000392088     4.05709e-05
                     8.89607e-05    -0.000185204        -0.929541        0.271827     -0.000335462     8.94299e-06      -0.00563072       -0.231583
281701.9              -0.0676988      -0.0219823      0.000299426     4.80503e-05        -0.951679       -0.284383      0.000248107    -0.000250074
                     0.000294702     3.72494e-05        -0.123977       -0.196054     -8.35619e-06    -0.000152844         -0.92947        0.271933
                       -0.951616       -0.284551     -0.000140349    -0.000181634        0.0657786       0.0187507     -0.000392114     4.05573e-05
                     8.89746e-05    -0.000185239        -0.929532        0.271854      -0.00033545     8.93043e-06      -0.00564056       -0.231589
281702                -0.0676961      -0.0219859      0.000299427     4.80483e-05        -0.951688       -0.284354      0.000248121    -0.000250059
                     0.000294687     3.72615e-05        -0.123984       -0.196058     -8.37822e-06    -0.000152837         -0.92946         0.27196
                       -0.951625       -0.284523     -0.000140362    -0.000181628        0.0657795       0.0187421      -0.00039214     4.05438e-05
                     8.89885e-05    -0.000185274        -0.929522        0.271881     -0.000335439     8.91786e-06       -0.0056504       -0.231595
281702.1              -0.0676934      -0.0219895      0.000299429     4.80463e-05        -0.951696       -0.284325      0.000248135    -0.000250044
                     0.000294673     3.72736e-05         -0.12399       -0.196061     -8.40024e-06    -0.000152831        -0.929451        0.271987
                       -0.951634       -0.284494     -0.000140374    -0.000181622        0.0657804       0.0187335     -0.000392165     4.05302e-05
                     8.90025e-05    -0.000185309        -0.929513        0.271909     -0.000335427      8.9053e-06      -0.00566024       -0.231601
281702.2              -0.0676907       -0.021993      0.000299431     4.80443e-05        -0.951705       -0.284296      0.000248149    -0.000250029
                     0.000294658     3.72858e-05        -0.123997       -0.196064     -8.42225e-06    -0.000152824        -0.929441        0.272014
                       -0.951643       -0.284465     -0.000140387    -0.000181617        0.0657812       0.0187249     -0.000392191     4.05167e-05
                     8.90164e-05    -0.000185344        -0.929503        0.271936     -0.000335416     8.89274e-06      -0.00567009       -0.231607
281702.3               -0.067688      -0.0219966      0.000299433     4.80423e-05        -0.951714       -0.284268      0.000248163    -0.000250014
                     0.000294643     3.72979e-05        -0.124004       -0.196067     -8.44425e-06    -0.000152818        -0.929432        0.272042
                       -0.951651       -0.284436     -0.000140399    -0.000181611        0.0657821       0.0187162     -0.000392217     4.05031e-05
                     8.90303e-05    -0.000185379        -0.929494        0.271963     -0.000335405     8.88018e-06      -0.00567993       -0.231613
281702.4              -0.0676852      -0.0220002      0.000299435     4.80403e-05        -0.951723       -0.284239      0.000248177    -0.000249999
                     0.000294628       3.731e-05         -0.12401        -0.19607     -8.46625e-06    -0.000152811        -0.929422        0.272069
                        -0.95166       -0.284407     -0.000140412    -0.000181605         0.065783       0.0187076     -0.000392243     4.04895e-05
                     8.90443e-05    -0.000185414        -0.929484        0.271991     -0.000335393     8.86762e-06      -0.00568977       -0.231619
281702.5              -0.0676825      -0.0220038      0.000299437     4.80383e-05        -0.951731        -0.28421      0.000248191    -0.000249983
                     0.000294613     3.73222e-05        -0.124017       -0.196073     -8.48824e-06    -0.000152804        -0.929413        0.272096
                       -0.951669       -0.284379     -0.000140424      -0.0001816        0.0657838        0.018699     -0.000392269     4.04759e-05
                     8.90582e-05    -0.000185449        -0.929475        0.272018     -0.000335382     8.85505e-06      -0.00569962       -0.231625
281702.6              -0.0676798      -0.0220075      0.000299439     4.80362e-05         -0.95174       -0.284181      0.000248205    -0.000249968
                     0.000294598     3.73343e-05        -0.124024       -0.196076     -8.51023e-06    -0.000152798        -0.929403        0.272124
                       -0.951678        -0.28435     -0.000140437    -0.000181594        0.0657847       0.0186904     -0.000392294     4.04623e-05
                     8.90722e-05    -0.000185484        -0.929465        0.272045     -0.000335371     8.84249e-06      -0.00570946       -0.231631
281702.7              -0.0676771      -0.0220111      0.000299441     4.80342e-05        -0.951749       -0.284153      0.000248219    -0.000249953
                     0.000294583     3.73465e-05         -0.12403       -0.196079      -8.5322e-06    -0.000152791        -0.929394        0.272151
                       -0.951686       -0.284321     -0.000140449    -0.000181588        0.0657855       0.0186817      -0.00039232     4.04486e-05
                     8.90862e-05    -0.000185519        -0.929456        0.272072      -0.00033536     8.82993e-06       -0.0057193       -0.231637
281702.8              -0.0676744      -0.0220147      0.000299443     4.80322e-05        -0.951757       -0.284124      0.000248233    -0.000249938
                     0.000294568     3.73586e-05        -0.124037       -0.196082     -8.55417e-06    -0.000152785        -0.929384        0.272178
                       -0.951695       -0.284292     -0.000140462    -0.000181583        0.0657864       0.0186731     -0.000392346      4.0435e-05
                     8.91001e-05    -0.000185554        -0.929446          0.2721     -0.000335348     8.81737e-06      -0.00572915       -0.231643
281702.9              -0.0676717      -0.0220183      0.000299445     4.80302e-05        -0.951766       -0.284095      0.000248247    -0.000249923
                     0.000294553     3.73708e-05        -0.124043       -0.196085     -8.57613e-06    -0.000152778        -0.929375        0.272205
                       -0.951704       -0.284264     -0.000140474    -0.000181577        0.0657873       0.0186645     -0.000392371     4.04213e-05
                     8.91141e-05    -0.000185589        -0.929437        0.272127     -0.000335337     8.80481e-06      -0.00573899       -0.231649
281703                 -0.067669      -0.0220219      0.000299446     4.80282e-05        -0.951775       -0.284066      0.000248261    -0.000249907
                     0.000294538      3.7383e-05         -0.12405       -0.196088     -8.59809e-06    -0.000152771        -0.929365        0.272233
                       -0.951712       -0.284235     -0.000140487    -0.000181571        0.0657881       0.0186559     -0.000392397     4.04076e-05
                     8.91281e-05    -0.000185624        -0.929427        0.272154     -0.000335326     8.79225e-06      -0.00574884       -0.231655
281703.1              -0.0676663      -0.0220255      0.000299448     4.80261e-05        -0.951784       -0.284037      0.000248275    -0.000249892
                     0.000294523     3.73952e-05        -0.124057       -0.196091     -8.62004e-06    -0.000152765        -0.929356         0.27226
                       -0.951721       -0.284206     -0.000140499    -0.000181566         0.065789       0.0186472     -0.000392423     4.03939e-05
