! TOUCHSTONE file generated by CST MICROWAVE STUDIO
! Date and time: Wed Oct  8 06:51:45 2025
! Project name: Teste_Macro_Metasurface_Nanopilar.cst
! Parameters = {H=600; L_x=80; L_y=70; Lambda=1064; Max_L=200; Min_L=70; PathPara=1; Phi=0; Step_L=10; Theta=0; p=520; phaseX=180; phaseY=0}
! Header version: 2018
! Port assignment regex: !\s*Touchstone port\s*([0-9]+)\s*=\s*(CST MWS port|CST DS port)\s*([0-9]+|Zmin|Zmax)\s*\(\"(.*)\"\)(\s*mode\s*([0-9]+))?.*
! Touchstone port assignment:
! Touchstone port 1 = CST MWS port Zmax ("") mode 1
! Touchstone port 2 = CST MWS port Zmax ("") mode 2
! Touchstone port 3 = CST MWS port Zmin ("") mode 1
! Touchstone port 4 = CST MWS port Zmin ("") mode 2
! S-Parameters are not renormalized. Each port impedance will be approximated by the real part at minimum frequency. The values are described via the [Reference] keyword.
! Default impedance is overridden by [Reference]
[Version] 2.0
# GHz S RI R 376.73
[Number of Ports] 4
[Reference]
376.73 376.73 376.73 376.73 
[Number of Frequencies] 1001
[Network Data]
281700                  0.111557       0.0982822     -0.000364819     1.43388e-05        -0.985918       0.0807654     -4.36967e-05    -0.000238267
                    -0.000196167     2.38686e-05         0.117222       0.0675216      2.32431e-05    -0.000185258        -0.979354        0.149071
                       -0.985258       0.0801614      0.000185706    -0.000249649       -0.0943099        0.115071      0.000138638     -9.1273e-05
                    -0.000121628    -0.000150777        -0.979583        0.148652      9.21671e-05    -0.000162794       -0.0920493       0.0993397
281700.1                0.111558       0.0982762     -0.000364825     1.43487e-05        -0.985917       0.0807914     -4.36967e-05    -0.000238269
                    -0.000196162     2.38822e-05         0.117222       0.0675156      2.32331e-05    -0.000185255         -0.97935        0.149097
                       -0.985256       0.0801873      0.000185709    -0.000249658       -0.0943058         0.11507      0.000138631    -9.12768e-05
                     -0.00012165    -0.000150776         -0.97958        0.148678      9.21658e-05      -0.0001628       -0.0920458       0.0993388
281700.2                0.111559       0.0982702      -0.00036483     1.43587e-05        -0.985915       0.0808174     -4.36967e-05     -0.00023827
                    -0.000196158     2.38959e-05         0.117222       0.0675096      2.32232e-05    -0.000185252        -0.979347        0.149123
                       -0.985255       0.0802133      0.000185712    -0.000249666       -0.0943017        0.115069      0.000138624    -9.12806e-05
                    -0.000121672    -0.000150775        -0.979576        0.148704      9.21645e-05    -0.000162806       -0.0920422       0.0993379
281700.3                 0.11156       0.0982641     -0.000364835     1.43686e-05        -0.985913       0.0808433     -4.36967e-05    -0.000238272
                    -0.000196153     2.39095e-05         0.117222       0.0675035      2.32133e-05     -0.00018525        -0.979343        0.149149
                       -0.985253       0.0802393      0.000185715    -0.000249674       -0.0942976        0.115068      0.000138617    -9.12843e-05
                    -0.000121694    -0.000150775        -0.979573         0.14873      9.21632e-05    -0.000162812       -0.0920387        0.099337
281700.4                0.111561       0.0982581     -0.000364841     1.43786e-05        -0.985912       0.0808693     -4.36967e-05    -0.000238273
                    -0.000196148     2.39232e-05         0.117222       0.0674975      2.32034e-05    -0.000185247         -0.97934        0.149174
                       -0.985251       0.0802653      0.000185718    -0.000249683       -0.0942934        0.115067       0.00013861    -9.12881e-05
                    -0.000121716    -0.000150774        -0.979569        0.148756      9.21619e-05    -0.000162818       -0.0920352        0.099336
281700.5                0.111562       0.0982521     -0.000364846     1.43885e-05         -0.98591       0.0808953     -4.36967e-05    -0.000238274
                    -0.000196144     2.39368e-05         0.117221       0.0674915      2.31935e-05    -0.000185245        -0.979336          0.1492
                        -0.98525       0.0802912      0.000185721    -0.000249691       -0.0942893        0.115067      0.000138603    -9.12919e-05
                    -0.000121739    -0.000150773        -0.979566        0.148781      9.21606e-05    -0.000162824       -0.0920317       0.0993351
281700.6                0.111563       0.0982461     -0.000364851     1.43985e-05        -0.985909       0.0809213     -4.36968e-05    -0.000238276
                    -0.000196139     2.39505e-05         0.117221       0.0674854      2.31835e-05    -0.000185242        -0.979333        0.149226
                       -0.985248       0.0803172      0.000185724      -0.0002497       -0.0942852        0.115066      0.000138596    -9.12957e-05
                    -0.000121761    -0.000150772        -0.979562        0.148807      9.21594e-05     -0.00016283       -0.0920281       0.0993342
281700.7                0.111564       0.0982401     -0.000364857     1.44085e-05        -0.985907       0.0809472     -4.36968e-05    -0.000238277
                    -0.000196135     2.39642e-05         0.117221       0.0674794      2.31736e-05     -0.00018524        -0.979329        0.149252
                       -0.985246       0.0803432      0.000185727    -0.000249708       -0.0942811        0.115065      0.000138589    -9.12995e-05
                    -0.000121783    -0.000150771        -0.979559        0.148833      9.21581e-05    -0.000162836       -0.0920246       0.0993333
281700.8                0.111565        0.098234     -0.000364862     1.44184e-05        -0.985905       0.0809732     -4.36968e-05    -0.000238279
                     -0.00019613     2.39778e-05         0.117221       0.0674734      2.31637e-05    -0.000185237        -0.979326        0.149278
                       -0.985245       0.0803691       0.00018573    -0.000249716        -0.094277        0.115064      0.000138582    -9.13033e-05
                    -0.000121805    -0.000150771        -0.979555        0.148859      9.21568e-05    -0.000162842       -0.0920211       0.0993323
281700.9                0.111566        0.098228     -0.000364867     1.44284e-05        -0.985904       0.0809992     -4.36968e-05     -0.00023828
                    -0.000196125     2.39915e-05         0.117221       0.0674673      2.31538e-05    -0.000185235        -0.979322        0.149304
                       -0.985243       0.0803951      0.000185733    -0.000249725       -0.0942728        0.115063      0.000138575    -9.13071e-05
                    -0.000121827     -0.00015077        -0.979552        0.148885      9.21555e-05    -0.000162847       -0.0920176       0.0993314
281701                  0.111567        0.098222     -0.000364873     1.44384e-05        -0.985902       0.0810252     -4.36968e-05    -0.000238281
                    -0.000196121     2.40052e-05         0.117221       0.0674613      2.31438e-05    -0.000185232        -0.979319         0.14933
                       -0.985242       0.0804211      0.000185736    -0.000249733       -0.0942687        0.115062      0.000138568    -9.13109e-05
                     -0.00012185    -0.000150769        -0.979548        0.148911      9.21543e-05    -0.000162853        -0.092014       0.0993305
281701.1                0.111568        0.098216     -0.000364878     1.44483e-05        -0.985901       0.0810511     -4.36968e-05    -0.000238283
                    -0.000196116     2.40189e-05         0.117221       0.0674553      2.31339e-05    -0.000185229        -0.979315        0.149356
                        -0.98524        0.080447       0.00018574    -0.000249742       -0.0942646        0.115062      0.000138561    -9.13148e-05
                    -0.000121872    -0.000150768        -0.979545        0.148937       9.2153e-05    -0.000162859       -0.0920105       0.0993295
281701.2                0.111569         0.09821     -0.000364883     1.44583e-05        -0.985899       0.0810771     -4.36968e-05    -0.000238284
                    -0.000196111     2.40326e-05         0.117221       0.0674492       2.3124e-05    -0.000185227        -0.979311        0.149382
                       -0.985238        0.080473      0.000185743     -0.00024975       -0.0942605        0.115061      0.000138554    -9.13186e-05
                    -0.000121894    -0.000150768        -0.979541        0.148963      9.21517e-05    -0.000162865        -0.092007       0.0993286
281701.3                 0.11157        0.098204     -0.000364889     1.44683e-05        -0.985897       0.0811031     -4.36969e-05    -0.000238286
                    -0.000196107     2.40462e-05         0.117221       0.0674432      2.31141e-05    -0.000185224        -0.979308        0.149408
                       -0.985237        0.080499      0.000185746    -0.000249758       -0.0942564         0.11506      0.000138547    -9.13224e-05
                    -0.000121916    -0.000150767        -0.979538        0.148989      9.21504e-05    -0.000162871       -0.0920035       0.0993277
281701.4                0.111571       0.0981979     -0.000364894     1.44783e-05        -0.985896       0.0811291     -4.36969e-05    -0.000238287
                    -0.000196102     2.40599e-05         0.117221       0.0674372      2.31041e-05    -0.000185222        -0.979304        0.149434
                       -0.985235       0.0805249      0.000185749    -0.000249767       -0.0942523        0.115059       0.00013854    -9.13262e-05
                    -0.000121939    -0.000150766        -0.979534        0.149015      9.21492e-05    -0.000162877       -0.0919999       0.0993268
281701.5                0.111572       0.0981919     -0.000364899     1.44882e-05        -0.985894        0.081155     -4.36969e-05    -0.000238288
                    -0.000196098     2.40736e-05         0.117221       0.0674311      2.30942e-05    -0.000185219        -0.979301         0.14946
                       -0.985233       0.0805509      0.000185752    -0.000249775       -0.0942481        0.115058      0.000138533      -9.133e-05
                    -0.000121961    -0.000150765        -0.979531        0.149041      9.21479e-05    -0.000162883       -0.0919964       0.0993258
281701.6                0.111573       0.0981859     -0.000364905     1.44982e-05        -0.985892        0.081181     -4.36969e-05     -0.00023829
                    -0.000196093     2.40873e-05         0.117221       0.0674251      2.30843e-05    -0.000185217        -0.979297        0.149485
                       -0.985232       0.0805769      0.000185755    -0.000249784        -0.094244        0.115058      0.000138526    -9.13339e-05
                    -0.000121983    -0.000150765        -0.979527        0.149066      9.21466e-05    -0.000162889       -0.0919929       0.0993249
281701.7                0.111574       0.0981799      -0.00036491     1.45082e-05        -0.985891        0.081207     -4.36969e-05    -0.000238291
                    -0.000196088     2.41011e-05          0.11722       0.0674191      2.30744e-05    -0.000185214        -0.979294        0.149511
                        -0.98523       0.0806029      0.000185758    -0.000249792       -0.0942399        0.115057      0.000138519    -9.13377e-05
                    -0.000122006    -0.000150764        -0.979524        0.149092      9.21454e-05    -0.000162895       -0.0919894        0.099324
281701.8                0.111575       0.0981739     -0.000364915     1.45182e-05        -0.985889       0.0812329     -4.36969e-05    -0.000238293
                    -0.000196084     2.41148e-05          0.11722        0.067413      2.30644e-05    -0.000185212         -0.97929        0.149537
                       -0.985228       0.0806288      0.000185761    -0.000249801       -0.0942358        0.115056      0.000138512    -9.13415e-05
                    -0.000122028    -0.000150763         -0.97952        0.149118      9.21441e-05    -0.000162901       -0.0919858        0.099323
281701.9                0.111576       0.0981678     -0.000364921     1.45282e-05        -0.985888       0.0812589     -4.36969e-05    -0.000238294
                    -0.000196079     2.41285e-05          0.11722        0.067407      2.30545e-05    -0.000185209        -0.979287        0.149563
                       -0.985227       0.0806548      0.000185764    -0.000249809       -0.0942317        0.115055      0.000138505    -9.13454e-05
                     -0.00012205    -0.000150763        -0.979516        0.149144      9.21429e-05    -0.000162907       -0.0919823       0.0993221
281702                  0.111577       0.0981618     -0.000364926     1.45382e-05        -0.985886       0.0812849      -4.3697e-05    -0.000238296
                    -0.000196075     2.41422e-05          0.11722       0.0674009      2.30446e-05    -0.000185207        -0.979283        0.149589
                       -0.985225       0.0806808      0.000185767    -0.000249817       -0.0942276        0.115054      0.000138498    -9.13492e-05
                    -0.000122072    -0.000150762        -0.979513         0.14917      9.21416e-05    -0.000162913       -0.0919788       0.0993212
281702.1                0.111578       0.0981558     -0.000364931     1.45482e-05        -0.985884       0.0813109      -4.3697e-05    -0.000238297
                     -0.00019607     2.41559e-05          0.11722       0.0673949      2.30346e-05    -0.000185204         -0.97928        0.149615
                       -0.985224       0.0807067       0.00018577    -0.000249826       -0.0942234        0.115053      0.000138491    -9.13531e-05
                    -0.000122095    -0.000150761        -0.979509        0.149196      9.21403e-05    -0.000162919       -0.0919753       0.0993203
281702.2                0.111579       0.0981498     -0.000364937     1.45582e-05        -0.985883       0.0813368      -4.3697e-05    -0.000238298
                    -0.000196066     2.41697e-05          0.11722       0.0673889      2.30247e-05    -0.000185202        -0.979276        0.149641
                       -0.985222       0.0807327      0.000185773    -0.000249834       -0.0942193        0.115053      0.000138484    -9.13569e-05
                    -0.000122117    -0.000150761        -0.979506        0.149222      9.21391e-05    -0.000162925       -0.0919718       0.0993193
281702.3                 0.11158       0.0981438     -0.000364942     1.45681e-05        -0.985881       0.0813628      -4.3697e-05      -0.0002383
                    -0.000196061     2.41834e-05          0.11722       0.0673828      2.30148e-05    -0.000185199        -0.979273        0.149667
                        -0.98522       0.0807587      0.000185776    -0.000249843       -0.0942152        0.115052      0.000138477    -9.13608e-05
                    -0.000122139     -0.00015076        -0.979502        0.149248      9.21378e-05    -0.000162931       -0.0919682       0.0993184
281702.4                0.111581       0.0981377     -0.000364947     1.45781e-05         -0.98588       0.0813888      -4.3697e-05    -0.000238301
                    -0.000196056     2.41971e-05          0.11722       0.0673768      2.30048e-05    -0.000185197        -0.979269        0.149693
                       -0.985219       0.0807846      0.000185779    -0.000249851       -0.0942111        0.115051       0.00013847    -9.13647e-05
                    -0.000122162    -0.000150759        -0.979499        0.149274      9.21366e-05    -0.000162936       -0.0919647       0.0993175
281702.5                0.111582       0.0981317     -0.000364953     1.45881e-05        -0.985878       0.0814148      -4.3697e-05    -0.000238303
                    -0.000196052     2.42109e-05          0.11722       0.0673708      2.29949e-05    -0.000185194        -0.979265        0.149719
                       -0.985217       0.0808106      0.000185782     -0.00024986        -0.094207         0.11505      0.000138463    -9.13685e-05
                    -0.000122184    -0.000150759        -0.979495          0.1493      9.21353e-05    -0.000162942       -0.0919612       0.0993165
281702.6                0.111583       0.0981257     -0.000364958     1.45981e-05        -0.985876       0.0814407      -4.3697e-05    -0.000238304
                    -0.000196047     2.42246e-05          0.11722       0.0673647       2.2985e-05    -0.000185192        -0.979262        0.149745
                       -0.985215       0.0808366      0.000185785    -0.000249868       -0.0942029        0.115049      0.000138455    -9.13724e-05
                    -0.000122206    -0.000150758        -0.979492        0.149326      9.21341e-05    -0.000162948       -0.0919577       0.0993156
281702.7                0.111584       0.0981197     -0.000364963     1.46081e-05        -0.985875       0.0814667     -4.36971e-05    -0.000238306
                    -0.000196043     2.42384e-05          0.11722       0.0673587      2.29751e-05    -0.000185189        -0.979258        0.149771
                       -0.985214       0.0808626      0.000185788    -0.000249876       -0.0941988        0.115048      0.000138448    -9.13763e-05
                    -0.000122229    -0.000150757        -0.979488        0.149351      9.21328e-05    -0.000162954       -0.0919541       0.0993147
281702.8                0.111585       0.0981137     -0.000364968     1.46181e-05        -0.985873       0.0814927     -4.36971e-05    -0.000238307
                    -0.000196038     2.42521e-05          0.11722       0.0673527      2.29651e-05    -0.000185187        -0.979255        0.149796
                       -0.985212       0.0808885      0.000185791    -0.000249885       -0.0941946        0.115048      0.000138441    -9.13801e-05
                    -0.000122251    -0.000150757        -0.979485        0.149377      9.21316e-05     -0.00016296       -0.0919506       0.0993137
281702.9                0.111586       0.0981077     -0.000364974     1.46282e-05        -0.985871       0.0815187     -4.36971e-05    -0.000238309
                    -0.000196034     2.42659e-05          0.11722       0.0673466      2.29552e-05    -0.000185184        -0.979251        0.149822
                        -0.98521       0.0809145      0.000185794    -0.000249893       -0.0941905        0.115047      0.000138434     -9.1384e-05
                    -0.000122274    -0.000150756        -0.979481        0.149403      9.21303e-05    -0.000162966       -0.0919471       0.0993128
281703                  0.111587       0.0981016     -0.000364979     1.46382e-05         -0.98587       0.0815446     -4.36971e-05     -0.00023831
                    -0.000196029     2.42797e-05         0.117219       0.0673406      2.29453e-05    -0.000185182        -0.979248        0.149848
                       -0.985209       0.0809405      0.000185797    -0.000249902       -0.0941864        0.115046      0.000138427    -9.13879e-05
                    -0.000122296    -0.000150756        -0.979478        0.149429      9.21291e-05    -0.000162972       -0.0919436       0.0993119
281703.1                0.111588       0.0980956     -0.000364984     1.46482e-05        -0.985868       0.0815706     -4.36971e-05    -0.000238311
                    -0.000196025     2.42934e-05         0.117219       0.0673346      2.29353e-05    -0.000185179        -0.979244        0.149874
                       -0.985207       0.0809664        0.0001858     -0.00024991       -0.0941823        0.115045       0.00013842    -9.13918e-05
