! TOUCHSTONE file generated by CST MICROWAVE STUDIO
! Date and time: Wed Oct  8 07:06:35 2025
! Project name: Teste_Macro_Metasurface_Nanopilar.cst
! Parameters = {H=600; L_x=200; L_y=185; Lambda=1064; Max_L=200; Min_L=70; PathPara=1; Phi=0; Step_L=10; Theta=0; p=520; phaseX=180; phaseY=0}
! Header version: 2018
! Port assignment regex: !\s*Touchstone port\s*([0-9]+)\s*=\s*(CST MWS port|CST DS port)\s*([0-9]+|Zmin|Zmax)\s*\(\"(.*)\"\)(\s*mode\s*([0-9]+))?.*
! Touchstone port assignment:
! Touchstone port 1 = CST MWS port Zmax ("") mode 1
! Touchstone port 2 = CST MWS port Zmax ("") mode 2
! Touchstone port 3 = CST MWS port Zmin ("") mode 1
! Touchstone port 4 = CST MWS port Zmin ("") mode 2
! S-Parameters are not renormalized. Each port impedance will be approximated by the real part at minimum frequency. The values are described via the [Reference] keyword.
! Default impedance is overridden by [Reference]
[Version] 2.0
# GHz S RI R 376.73
[Number of Ports] 4
[Reference]
376.73 376.73 376.73 376.73 
[Number of Frequencies] 1001
[Network Data]
281700                  -0.20543       -0.237671      0.000553565     0.000238162        -0.901423         0.28633     -0.000487525     -0.00067452
                     0.000604702     0.000118509        -0.346276       -0.276147     -0.000311356    -0.000712856        -0.808458        0.376858
                       -0.901665        0.286601     -0.000399118    -0.000657676         0.027315       -0.311944      0.000340855     0.000624759
                    -0.000630972    -0.000467036        -0.808533        0.377215      0.000141705     0.000612482       0.00782591       -0.441081
281700.1               -0.205437       -0.237672       0.00055366     0.000238083        -0.901414        0.286357     -0.000487667    -0.000674575
                     0.000604625     0.000118388        -0.346284       -0.276144     -0.000311384    -0.000712835        -0.808445        0.376882
                       -0.901665        0.286625     -0.000399131    -0.000657745        0.0273014        -0.31195      0.000340406     0.000624521
                    -0.000631157    -0.000466997         -0.80852        0.377238      0.000141693     0.000612224        0.0078067       -0.441086
281700.2               -0.205444       -0.237673      0.000553755     0.000238003        -0.901404        0.286383     -0.000487809     -0.00067463
                     0.000604549     0.000118266        -0.346292       -0.276141     -0.000311412    -0.000712814        -0.808433        0.376906
                       -0.901665        0.286649     -0.000399144    -0.000657814        0.0272879       -0.311957      0.000339959     0.000624283
                    -0.000631342    -0.000466957        -0.808507        0.377261       0.00014168     0.000611966       0.00778748       -0.441091
281700.3               -0.205451       -0.237674       0.00055385     0.000237924        -0.901394        0.286409     -0.000487951    -0.000674686
                     0.000604473     0.000118145          -0.3463       -0.276138      -0.00031144    -0.000712793         -0.80842         0.37693
                       -0.901666        0.286672     -0.000399158    -0.000657882        0.0272743       -0.311964      0.000339512     0.000624044
                     -0.00063153    -0.000466917        -0.808494        0.377285      0.000141668     0.000611708       0.00776826       -0.441096
281700.4               -0.205458       -0.237675      0.000553945     0.000237845        -0.901384        0.286435     -0.000488093    -0.000674741
                     0.000604397     0.000118023        -0.346308       -0.276136     -0.000311468    -0.000712772        -0.808407        0.376954
                       -0.901666        0.286695     -0.000399171    -0.000657951        0.0272607       -0.311971      0.000339067     0.000623805
                    -0.000631719    -0.000466876        -0.808481        0.377308      0.000141656     0.000611452       0.00774904       -0.441101
281700.5               -0.205465       -0.237676      0.000554039     0.000237766        -0.901374        0.286461     -0.000488235    -0.000674796
                      0.00060432     0.000117902        -0.346316       -0.276133     -0.000311496     -0.00071275        -0.808395        0.376978
                       -0.901666        0.286718     -0.000399184     -0.00065802        0.0272472       -0.311978      0.000338623     0.000623565
                     -0.00063191    -0.000466834        -0.808468        0.377331      0.000141644     0.000611195       0.00772983       -0.441106
281700.6               -0.205472       -0.237677      0.000554134     0.000237687        -0.901364        0.286487     -0.000488377    -0.000674852
                     0.000604245      0.00011778        -0.346324        -0.27613     -0.000311524    -0.000712729        -0.808382        0.377001
                       -0.901667         0.28674     -0.000399198    -0.000658088        0.0272336       -0.311985       0.00033818     0.000623325
                    -0.000632102    -0.000466792        -0.808455        0.377355      0.000141633     0.000610939       0.00771061       -0.441112
281700.7               -0.205479       -0.237678      0.000554229     0.000237607        -0.901354        0.286513     -0.000488518    -0.000674907
                     0.000604169     0.000117659        -0.346332       -0.276128     -0.000311552    -0.000712708        -0.808369        0.377025
                       -0.901668        0.286762     -0.000399211    -0.000658157        0.0272201       -0.311991      0.000337739     0.000623084
                    -0.000632297    -0.000466749        -0.808442        0.377378      0.000141621     0.000610684       0.00769139       -0.441117
281700.8               -0.205486       -0.237679      0.000554324     0.000237528        -0.901345        0.286539      -0.00048866    -0.000674962
                     0.000604093     0.000117537         -0.34634       -0.276125      -0.00031158    -0.000712687        -0.808356        0.377049
                       -0.901669        0.286784     -0.000399224    -0.000658226        0.0272065       -0.311998      0.000337298     0.000622843
                    -0.000632493    -0.000466705        -0.808429        0.377401       0.00014161     0.000610429       0.00767217       -0.441122
281700.9               -0.205493        -0.23768      0.000554418     0.000237448        -0.901335        0.286565     -0.000488802    -0.000675017
                     0.000604018     0.000117416        -0.346348       -0.276122     -0.000311608    -0.000712666        -0.808344        0.377073
                       -0.901669        0.286805     -0.000399238    -0.000658294        0.0271929       -0.312005      0.000336859     0.000622602
                    -0.000632691     -0.00046666        -0.808416        0.377425      0.000141599     0.000610175       0.00765295       -0.441127
281701                   -0.2055       -0.237681      0.000554513     0.000237369        -0.901325        0.286591     -0.000488944    -0.000675072
                     0.000603942     0.000117295        -0.346356        -0.27612     -0.000311636    -0.000712644        -0.808331        0.377097
                        -0.90167        0.286826     -0.000399251    -0.000658363        0.0271794       -0.312012      0.000336421      0.00062236
                    -0.000632891    -0.000466615        -0.808403        0.377448      0.000141588     0.000609921       0.00763373       -0.441132
281701.1               -0.205507       -0.237682      0.000554608     0.000237289        -0.901315        0.286617     -0.000489086    -0.000675127
                     0.000603867     0.000117174        -0.346364       -0.276117     -0.000311663    -0.000712623        -0.808318         0.37712
                       -0.901671        0.286846     -0.000399264    -0.000658432        0.0271658       -0.312019      0.000335984     0.000622117
                    -0.000633092    -0.000466569         -0.80839        0.377471      0.000141578     0.000609668       0.00761451       -0.441137
281701.2               -0.205514       -0.237683      0.000554703      0.00023721        -0.901305        0.286643     -0.000489228    -0.000675181
                     0.000603792     0.000117052        -0.346371       -0.276114     -0.000311691    -0.000712602        -0.808305        0.377144
                       -0.901672        0.286866     -0.000399278    -0.000658501        0.0271523       -0.312026      0.000335549     0.000621874
                    -0.000633296    -0.000466522        -0.808377        0.377495      0.000141567     0.000609415       0.00759529       -0.441142
281701.3               -0.205521       -0.237684      0.000554797      0.00023713        -0.901295        0.286669      -0.00048937    -0.000675236
                     0.000603717     0.000116931        -0.346379       -0.276112     -0.000311719     -0.00071258        -0.808293        0.377168
                       -0.901673        0.286886     -0.000399291    -0.000658569        0.0271387       -0.312032      0.000335115     0.000621631
                    -0.000633501    -0.000466475        -0.808364        0.377518      0.000141557     0.000609163       0.00757607       -0.441148
281701.4               -0.205528       -0.237685      0.000554892     0.000237051        -0.901285        0.286696     -0.000489512    -0.000675291
                     0.000603642      0.00011681        -0.346387       -0.276109     -0.000311747    -0.000712559         -0.80828        0.377192
                       -0.901674        0.286905     -0.000399304    -0.000658638        0.0271252       -0.312039      0.000334681     0.000621387
                    -0.000633709    -0.000466426        -0.808351        0.377542      0.000141547     0.000608911       0.00755685       -0.441153
281701.5               -0.205535       -0.237686      0.000554987     0.000236971        -0.901276        0.286722     -0.000489654    -0.000675346
                     0.000603567     0.000116689        -0.346395       -0.276106     -0.000311775    -0.000712538        -0.808267        0.377216
                       -0.901675        0.286923     -0.000399318    -0.000658707        0.0271116       -0.312046      0.000334249     0.000621143
                    -0.000633918    -0.000466377        -0.808338        0.377565      0.000141537      0.00060866       0.00753763       -0.441158
281701.6               -0.205542       -0.237687      0.000555081     0.000236891        -0.901266        0.286748     -0.000489796      -0.0006754
                     0.000603492     0.000116568        -0.346403       -0.276103     -0.000311803    -0.000712516        -0.808254        0.377239
                       -0.901676        0.286941     -0.000399331    -0.000658776        0.0270981       -0.312053      0.000333819     0.000620898
                    -0.000634129    -0.000466327        -0.808325        0.377588      0.000141528     0.000608409       0.00751841       -0.441163
281701.7               -0.205549       -0.237688      0.000555176     0.000236811        -0.901256        0.286774     -0.000489938    -0.000675455
                     0.000603418     0.000116447        -0.346411       -0.276101      -0.00031183    -0.000712495        -0.808241        0.377263
                       -0.901677        0.286959     -0.000399344    -0.000658844        0.0270845        -0.31206      0.000333389     0.000620653
                    -0.000634342    -0.000466277        -0.808312        0.377612      0.000141518     0.000608159       0.00749918       -0.441168
281701.8               -0.205556       -0.237689       0.00055527     0.000236732        -0.901246          0.2868      -0.00049008    -0.000675509
                     0.000603343     0.000116326        -0.346419       -0.276098     -0.000311858    -0.000712473        -0.808229        0.377287
                       -0.901677        0.286976     -0.000399358    -0.000658913         0.027071       -0.312066      0.000332961     0.000620407
                    -0.000634558    -0.000466225        -0.808299        0.377635      0.000141509     0.000607909       0.00747996       -0.441173
281701.9               -0.205563        -0.23769      0.000555365     0.000236652        -0.901236        0.286826     -0.000490222    -0.000675564
                     0.000603269     0.000116205        -0.346427       -0.276095     -0.000311886    -0.000712452        -0.808216        0.377311
                       -0.901678        0.286993     -0.000399371    -0.000658982        0.0270575       -0.312073      0.000332534     0.000620161
                    -0.000634775    -0.000466173        -0.808286        0.377658        0.0001415      0.00060766       0.00746074       -0.441178
281702                  -0.20557       -0.237691       0.00055546     0.000236572        -0.901226        0.286852     -0.000490364    -0.000675618
                     0.000603195     0.000116084        -0.346435       -0.276093     -0.000311914     -0.00071243        -0.808203        0.377335
                       -0.901678        0.287009     -0.000399384    -0.000659051        0.0270439        -0.31208      0.000332108     0.000619915
                    -0.000634994     -0.00046612        -0.808273        0.377682      0.000141491     0.000607411       0.00744152       -0.441183
281702.1               -0.205576       -0.237692      0.000555554     0.000236492        -0.901216        0.286878     -0.000490506    -0.000675673
                      0.00060312     0.000115963        -0.346443        -0.27609     -0.000311942    -0.000712409         -0.80819        0.377358
                       -0.901678        0.287024     -0.000399398     -0.00065912        0.0270304       -0.312087      0.000331683     0.000619668
                    -0.000635216    -0.000466066         -0.80826        0.377705      0.000141482     0.000607163       0.00742229       -0.441188
281702.2               -0.205583       -0.237693      0.000555649     0.000236412        -0.901207        0.286904     -0.000490649    -0.000675727
                     0.000603046     0.000115842        -0.346451       -0.276087     -0.000311969    -0.000712387        -0.808178        0.377382
                       -0.901678         0.28704     -0.000399411    -0.000659188        0.0270168       -0.312094       0.00033126      0.00061942
                     -0.00063544    -0.000466011        -0.808248        0.377728      0.000141474     0.000606915       0.00740307       -0.441194
281702.3                -0.20559       -0.237694      0.000555743     0.000236332        -0.901197         0.28693     -0.000490791    -0.000675781
                     0.000602973     0.000115722        -0.346459       -0.276085     -0.000311997    -0.000712366        -0.808165        0.377406
                       -0.901677        0.287054     -0.000399425    -0.000659257        0.0270033         -0.3121      0.000330837     0.000619173
                    -0.000635665    -0.000465956        -0.808235        0.377752      0.000141466     0.000606668       0.00738384       -0.441199
281702.4               -0.205597       -0.237695      0.000555838     0.000236252        -0.901187        0.286956     -0.000490933    -0.000675835
                     0.000602899     0.000115601        -0.346467       -0.276082     -0.000312025    -0.000712344        -0.808152         0.37743
                       -0.901676        0.287068     -0.000399438    -0.000659326        0.0269898       -0.312107      0.000330416     0.000618925
                    -0.000635893    -0.000465899        -0.808222        0.377775      0.000141457     0.000606421       0.00736462       -0.441204
281702.5               -0.205604       -0.237696      0.000555932     0.000236172        -0.901177        0.286982     -0.000491075    -0.000675889
                     0.000602825      0.00011548        -0.346475       -0.276079     -0.000312052    -0.000712322        -0.808139        0.377454
                       -0.901675        0.287082     -0.000399451    -0.000659395        0.0269762       -0.312114      0.000329996     0.000618676
                    -0.000636124    -0.000465842        -0.808209        0.377798      0.000141449     0.000606175       0.00734539       -0.441209
281702.6               -0.205611       -0.237697      0.000556027     0.000236091        -0.901167        0.287008     -0.000491217    -0.000675943
                     0.000602752     0.000115359        -0.346483       -0.276077      -0.00031208    -0.000712301        -0.808127        0.377477
                       -0.901673        0.287095     -0.000399465    -0.000659463        0.0269627       -0.312121      0.000329578     0.000618427
                    -0.000636356    -0.000465784        -0.808196        0.377822      0.000141442     0.000605929       0.00732617       -0.441214
281702.7               -0.205618       -0.237698      0.000556121     0.000236011        -0.901157        0.287034     -0.000491359    -0.000675998
                     0.000602678     0.000115239        -0.346491       -0.276074     -0.000312108    -0.000712279        -0.808114        0.377501
                       -0.901671        0.287107     -0.000399478    -0.000659532        0.0269492       -0.312127       0.00032916     0.000618178
                    -0.000636591    -0.000465725        -0.808183        0.377845      0.000141434     0.000605684       0.00730694       -0.441219
281702.8               -0.205625       -0.237699      0.000556216     0.000235931        -0.901147         0.28706     -0.000491501    -0.000676051
                     0.000602605     0.000115118        -0.346498       -0.276071     -0.000312135    -0.000712257        -0.808101        0.377525
                       -0.901669         0.28712     -0.000399491    -0.000659601        0.0269356       -0.312134      0.000328744     0.000617928
                    -0.000636828    -0.000465665         -0.80817        0.377868      0.000141427     0.000605439       0.00728772       -0.441224
281702.9               -0.205632         -0.2377       0.00055631     0.000235851        -0.901137        0.287087     -0.000491643    -0.000676105
                     0.000602532     0.000114998        -0.346506       -0.276068     -0.000312163    -0.000712236        -0.808088        0.377549
                       -0.901666        0.287131     -0.000399505     -0.00065967        0.0269221       -0.312141      0.000328329     0.000617678
                    -0.000637068    -0.000465604        -0.808157        0.377892      0.000141419     0.000605195       0.00726849       -0.441229
281703                 -0.205639       -0.237701      0.000556404      0.00023577        -0.901127        0.287113     -0.000491785    -0.000676159
                     0.000602459     0.000114877        -0.346514       -0.276066     -0.000312191    -0.000712214        -0.808075        0.377572
                       -0.901662        0.287143     -0.000399518    -0.000659739        0.0269086       -0.312148      0.000327915     0.000617428
                     -0.00063731    -0.000465542        -0.808144        0.377915      0.000141412     0.000604951       0.00724926       -0.441234
281703.1               -0.205646       -0.237703      0.000556499      0.00023569        -0.901118        0.287139     -0.000491928    -0.000676213
                     0.000602386     0.000114757        -0.346522       -0.276063     -0.000312218    -0.000712192        -0.808063        0.377596
                       -0.901658        0.287154     -0.000399532    -0.000659808         0.026895       -0.312155      0.000327502     0.000617177
