! TOUCHSTONE file generated by CST MICROWAVE STUDIO
! Date and time: Wed Oct  8 06:59:12 2025
! Project name: Teste_Macro_Metasurface_Nanopilar.cst
! Parameters = {H=600; L_x=140; L_y=135; Lambda=1064; Max_L=200; Min_L=70; PathPara=1; Phi=0; Step_L=10; Theta=0; p=520; phaseX=180; phaseY=0}
! Header version: 2018
! Port assignment regex: !\s*Touchstone port\s*([0-9]+)\s*=\s*(CST MWS port|CST DS port)\s*([0-9]+|Zmin|Zmax)\s*\(\"(.*)\"\)(\s*mode\s*([0-9]+))?.*
! Touchstone port assignment:
! Touchstone port 1 = CST MWS port Zmax ("") mode 1
! Touchstone port 2 = CST MWS port Zmax ("") mode 2
! Touchstone port 3 = CST MWS port Zmin ("") mode 1
! Touchstone port 4 = CST MWS port Zmin ("") mode 2
! S-Parameters are not renormalized. Each port impedance will be approximated by the real part at minimum frequency. The values are described via the [Reference] keyword.
! Default impedance is overridden by [Reference]
[Version] 2.0
# GHz S RI R 376.73
[Number of Ports] 4
[Reference]
376.73 376.73 376.73 376.73 
[Number of Frequencies] 1001
[Network Data]
281700                 -0.194808      0.00774405      4.24057e-05    -0.000714768        -0.441008       -0.870383       -0.0010424     0.000402125
                    -4.78989e-05    -0.000862114        -0.159909      0.00194935     -0.000800358     0.000353139        -0.568575       -0.800629
                       -0.440644       -0.870398     -0.000774059     0.000412235        -0.122745        0.151134      0.000523981     0.000601467
                    -0.000858077     0.000375837        -0.568005        -0.80123       0.00081094      0.00025456       -0.0563844        0.148418
281700.1               -0.194804      0.00774942      4.23908e-05     -0.00071477        -0.441035       -0.870371      -0.00104237     0.000402172
                    -4.79071e-05    -0.000862103        -0.159904      0.00195235     -0.000800361      0.00035317          -0.5686       -0.800612
                       -0.440671       -0.870386     -0.000774065     0.000412263        -0.122737        0.151135      0.000524043     0.000601467
                    -0.000858071     0.000375876         -0.56803       -0.801213      0.000810934     0.000254506       -0.0563763        0.148415
281700.2               -0.194799       0.0077548      4.23759e-05    -0.000714773        -0.441062       -0.870358      -0.00104233     0.000402218
                    -4.79152e-05    -0.000862092        -0.159898      0.00195534     -0.000800364       0.0003532        -0.568625       -0.800596
                       -0.440698       -0.870373     -0.000774072      0.00041229         -0.12273        0.151135      0.000524106     0.000601467
                    -0.000858065     0.000375916        -0.568056       -0.801196      0.000810928     0.000254451       -0.0563681        0.148412
281700.3               -0.194795      0.00776017       4.2361e-05    -0.000714776        -0.441089       -0.870345      -0.00104229     0.000402264
                    -4.79233e-05     -0.00086208        -0.159893      0.00195833     -0.000800367     0.000353231        -0.568651       -0.800579
                       -0.440725        -0.87036     -0.000774079     0.000412318        -0.122722        0.151136      0.000524169     0.000601467
                    -0.000858059     0.000375956        -0.568081        -0.80118      0.000810922     0.000254396       -0.0563599         0.14841
281700.4                -0.19479      0.00776555      4.23462e-05    -0.000714779        -0.441116       -0.870333      -0.00104225     0.000402311
                    -4.79314e-05    -0.000862069        -0.159888      0.00196132     -0.000800369     0.000353262        -0.568676       -0.800562
                       -0.440752       -0.870348     -0.000774086     0.000412346        -0.122715        0.151136      0.000524232     0.000601467
                    -0.000858052     0.000375996        -0.568106       -0.801163      0.000810916     0.000254342       -0.0563518        0.148407
281700.5               -0.194786      0.00777092      4.23313e-05    -0.000714782        -0.441143        -0.87032      -0.00104222     0.000402357
                    -4.79395e-05    -0.000862058        -0.159882      0.00196432     -0.000800372     0.000353292        -0.568701       -0.800545
                       -0.440779       -0.870335     -0.000774092     0.000412373        -0.122707        0.151137      0.000524294     0.000601466
                    -0.000858046     0.000376036        -0.568132       -0.801146       0.00081091     0.000254287       -0.0563436        0.148405
281700.6               -0.194781       0.0077763      4.23164e-05    -0.000714785         -0.44117       -0.870307      -0.00104218     0.000402403
                    -4.79476e-05    -0.000862047        -0.159877      0.00196731     -0.000800375     0.000353323        -0.568727       -0.800528
                       -0.440806       -0.870322     -0.000774099     0.000412401        -0.122699        0.151137      0.000524357     0.000601466
                     -0.00085804     0.000376076        -0.568157       -0.801129      0.000810904     0.000254232       -0.0563355        0.148402
281700.7               -0.194776      0.00778167      4.23015e-05    -0.000714788        -0.441197       -0.870295      -0.00104214      0.00040245
                    -4.79557e-05    -0.000862035        -0.159872       0.0019703     -0.000800378     0.000353354        -0.568752       -0.800511
                       -0.440833        -0.87031     -0.000774106     0.000412428        -0.122692        0.151138       0.00052442     0.000601466
                    -0.000858034     0.000376115        -0.568182       -0.801112      0.000810898     0.000254178       -0.0563273        0.148399
281700.8               -0.194772      0.00778705      4.22866e-05    -0.000714791        -0.441224       -0.870282      -0.00104211     0.000402496
                    -4.79638e-05    -0.000862024        -0.159866      0.00197329      -0.00080038     0.000353385        -0.568777       -0.800494
                        -0.44086       -0.870297     -0.000774113     0.000412456        -0.122684        0.151139      0.000524483     0.000601466
                    -0.000858028     0.000376155        -0.568208       -0.801095      0.000810892     0.000254123       -0.0563191        0.148397
281700.9               -0.194767      0.00779242      4.22717e-05    -0.000714793         -0.44125       -0.870269      -0.00104207     0.000402542
                    -4.79719e-05    -0.000862013        -0.159861      0.00197628     -0.000800383     0.000353415        -0.568802       -0.800477
                       -0.440886       -0.870284     -0.000774119     0.000412484        -0.122677        0.151139      0.000524545     0.000601466
                    -0.000858022     0.000376195        -0.568233       -0.801078      0.000810887     0.000254068        -0.056311        0.148394
281701                 -0.194763      0.00779779      4.22569e-05    -0.000714796        -0.441277       -0.870257      -0.00104203     0.000402588
                      -4.798e-05    -0.000862001        -0.159856      0.00197927     -0.000800386     0.000353446        -0.568828        -0.80046
                       -0.440913       -0.870272     -0.000774126     0.000412511        -0.122669         0.15114      0.000524608     0.000601466
                    -0.000858016     0.000376235        -0.568258       -0.801061      0.000810881     0.000254014       -0.0563028        0.148391
281701.1               -0.194758      0.00780317       4.2242e-05    -0.000714799        -0.441304       -0.870244        -0.001042     0.000402635
                    -4.79882e-05     -0.00086199         -0.15985      0.00198226     -0.000800389     0.000353477        -0.568853       -0.800443
                        -0.44094       -0.870259     -0.000774133     0.000412539        -0.122661         0.15114      0.000524671     0.000601466
                    -0.000858009     0.000376275        -0.568284       -0.801044      0.000810875     0.000253959       -0.0562946        0.148389
281701.2               -0.194754      0.00780854      4.22271e-05    -0.000714802        -0.441331       -0.870231      -0.00104196     0.000402681
                    -4.79963e-05    -0.000861979        -0.159845      0.00198525     -0.000800391     0.000353508        -0.568878       -0.800426
                       -0.440967       -0.870246      -0.00077414     0.000412566        -0.122654        0.151141      0.000524734     0.000601466
                    -0.000858003     0.000376315        -0.568309       -0.801027      0.000810869     0.000253904       -0.0562865        0.148386
281701.3               -0.194749      0.00781391      4.22123e-05    -0.000714805        -0.441358       -0.870219      -0.00104192     0.000402727
                    -4.80044e-05    -0.000861968         -0.15984      0.00198824     -0.000800394     0.000353539        -0.568904       -0.800409
                       -0.440994       -0.870234     -0.000774146     0.000412594        -0.122646        0.151141      0.000524796     0.000601465
                    -0.000857997     0.000376354        -0.568334        -0.80101      0.000810863      0.00025385       -0.0562783        0.148384
281701.4               -0.194745      0.00781928      4.21974e-05    -0.000714808        -0.441385       -0.870206      -0.00104189     0.000402774
                    -4.80125e-05    -0.000861956        -0.159834      0.00199123     -0.000800397     0.000353569        -0.568929       -0.800392
                       -0.441021       -0.870221     -0.000774153     0.000412622        -0.122639        0.151142      0.000524859     0.000601465
                    -0.000857991     0.000376394         -0.56836       -0.800993      0.000810857     0.000253795       -0.0562702        0.148381
281701.5                -0.19474      0.00782466      4.21826e-05     -0.00071481        -0.441412       -0.870193      -0.00104185      0.00040282
                    -4.80206e-05    -0.000861945        -0.159829      0.00199421       -0.0008004       0.0003536        -0.568954       -0.800375
                       -0.441048       -0.870208      -0.00077416     0.000412649        -0.122631        0.151142      0.000524922     0.000601465
                    -0.000857985     0.000376434        -0.568385       -0.800976      0.000810851      0.00025374        -0.056262        0.148378
281701.6               -0.194735      0.00783003      4.21677e-05    -0.000714813        -0.441439       -0.870181      -0.00104181     0.000402866
                    -4.80287e-05    -0.000861934        -0.159824       0.0019972     -0.000800402     0.000353631        -0.568979       -0.800358
                       -0.441075       -0.870196     -0.000774167     0.000412677        -0.122623        0.151143      0.000524985     0.000601465
                    -0.000857979     0.000376474         -0.56841       -0.800959      0.000810845     0.000253686       -0.0562538        0.148376
281701.7               -0.194731       0.0078354      4.21528e-05    -0.000714816        -0.441466       -0.870168      -0.00104178     0.000402912
                    -4.80369e-05    -0.000861922        -0.159818      0.00200019     -0.000800405     0.000353662        -0.569005       -0.800341
                       -0.441102       -0.870183     -0.000774173     0.000412705        -0.122616        0.151143      0.000525048     0.000601465
                    -0.000857973     0.000376514        -0.568436       -0.800942      0.000810839     0.000253631       -0.0562457        0.148373
281701.8               -0.194726      0.00784077       4.2138e-05    -0.000714819        -0.441493       -0.870155      -0.00104174     0.000402959
                     -4.8045e-05    -0.000861911        -0.159813      0.00200318     -0.000800408     0.000353693         -0.56903       -0.800324
                       -0.441129        -0.87017      -0.00077418     0.000412732        -0.122608        0.151144       0.00052511     0.000601465
                    -0.000857966     0.000376554        -0.568461       -0.800925      0.000810834     0.000253577       -0.0562375         0.14837
281701.9               -0.194722      0.00784614      4.21231e-05    -0.000714822         -0.44152       -0.870143       -0.0010417     0.000403005
                    -4.80531e-05      -0.0008619        -0.159808      0.00200616     -0.000800411     0.000353724        -0.569055       -0.800307
                       -0.441155       -0.870158     -0.000774187      0.00041276        -0.122601        0.151144      0.000525173     0.000601465
                     -0.00085796     0.000376593        -0.568486       -0.800908      0.000810828     0.000253522       -0.0562294        0.148368
281702                 -0.194717      0.00785151      4.21083e-05    -0.000714824        -0.441547        -0.87013      -0.00104166     0.000403051
                    -4.80612e-05    -0.000861888        -0.159802      0.00200915     -0.000800413     0.000353754        -0.569081        -0.80029
                       -0.441182       -0.870145     -0.000774194     0.000412788        -0.122593        0.151145      0.000525236     0.000601464
                    -0.000857954     0.000376633        -0.568512       -0.800891      0.000810822     0.000253467       -0.0562212        0.148365
281702.1               -0.194713      0.00785688      4.20934e-05    -0.000714827        -0.441573       -0.870117      -0.00104163     0.000403097
                    -4.80693e-05    -0.000861877        -0.159797      0.00201214     -0.000800416     0.000353785        -0.569106       -0.800273
                       -0.441209       -0.870132       -0.0007742     0.000412815        -0.122585        0.151146      0.000525299     0.000601464
                    -0.000857948     0.000376673        -0.568537       -0.800874      0.000810816     0.000253413        -0.056213        0.148362
281702.2               -0.194708      0.00786225      4.20786e-05     -0.00071483          -0.4416       -0.870104      -0.00104159     0.000403144
                    -4.80775e-05    -0.000861866        -0.159792      0.00201512     -0.000800419     0.000353816        -0.569131       -0.800256
                       -0.441236        -0.87012     -0.000774207     0.000412843        -0.122578        0.151146      0.000525362     0.000601464
                    -0.000857942     0.000376713        -0.568562       -0.800857       0.00081081     0.000253358       -0.0562049         0.14836
281702.3               -0.194704      0.00786762      4.20638e-05    -0.000714833        -0.441627       -0.870092      -0.00104155      0.00040319
                    -4.80856e-05    -0.000861854        -0.159787      0.00201811     -0.000800421     0.000353847        -0.569156       -0.800239
                       -0.441263       -0.870107     -0.000774214     0.000412871         -0.12257        0.151147      0.000525424     0.000601464
                    -0.000857936     0.000376753        -0.568587       -0.800841      0.000810804     0.000253303       -0.0561967        0.148357
281702.4               -0.194699      0.00787299      4.20489e-05    -0.000714836        -0.441654       -0.870079      -0.00104152     0.000403236
                    -4.80937e-05    -0.000861843        -0.159781      0.00202109     -0.000800424     0.000353878        -0.569182       -0.800222
                        -0.44129       -0.870094      -0.00077422     0.000412898        -0.122563        0.151147      0.000525487     0.000601464
                     -0.00085793     0.000376793        -0.568613       -0.800824      0.000810798     0.000253249       -0.0561886        0.148354
281702.5               -0.194694      0.00787836      4.20341e-05    -0.000714838        -0.441681       -0.870066      -0.00104148     0.000403282
                    -4.81018e-05    -0.000861832        -0.159776      0.00202408     -0.000800427     0.000353909        -0.569207       -0.800205
                       -0.441317       -0.870081     -0.000774227     0.000412926        -0.122555        0.151148       0.00052555     0.000601464
                    -0.000857923     0.000376833        -0.568638       -0.800807      0.000810792     0.000253194       -0.0561804        0.148352
281702.6                -0.19469      0.00788373      4.20193e-05    -0.000714841        -0.441708       -0.870054      -0.00104144     0.000403329
                    -4.81099e-05    -0.000861821        -0.159771      0.00202706     -0.000800429      0.00035394        -0.569232       -0.800188
                       -0.441344       -0.870069     -0.000774234     0.000412954        -0.122547        0.151148      0.000525613     0.000601463
                    -0.000857917     0.000376873        -0.568663        -0.80079      0.000810787     0.000253139       -0.0561722        0.148349
281702.7               -0.194685       0.0078891      4.20044e-05    -0.000714844        -0.441735       -0.870041      -0.00104141     0.000403375
                    -4.81181e-05    -0.000861809        -0.159765      0.00203005     -0.000800432      0.00035397        -0.569258       -0.800171
                       -0.441371       -0.870056     -0.000774241     0.000412981         -0.12254        0.151149      0.000525676     0.000601463
                    -0.000857911     0.000376912        -0.568689       -0.800773      0.000810781     0.000253085       -0.0561641        0.148347
281702.8               -0.194681      0.00789447      4.19896e-05    -0.000714847        -0.441762       -0.870028      -0.00104137     0.000403421
                    -4.81262e-05    -0.000861798         -0.15976      0.00203303     -0.000800435     0.000354001        -0.569283       -0.800154
                       -0.441398       -0.870043     -0.000774247     0.000413009        -0.122532        0.151149      0.000525738     0.000601463
                    -0.000857905     0.000376952        -0.568714       -0.800756      0.000810775      0.00025303       -0.0561559        0.148344
281702.9               -0.194676      0.00789983      4.19748e-05    -0.000714849        -0.441789       -0.870016      -0.00104133     0.000403467
                    -4.81343e-05    -0.000861787        -0.159755      0.00203601     -0.000800438     0.000354032        -0.569308       -0.800137
                       -0.441424       -0.870031     -0.000774254     0.000413037        -0.122525         0.15115      0.000525801     0.000601463
                    -0.000857899     0.000376992        -0.568739       -0.800739      0.000810769     0.000252976       -0.0561478        0.148341
281703                 -0.194672       0.0079052        4.196e-05    -0.000714852        -0.441816       -0.870003       -0.0010413     0.000403514
                    -4.81424e-05    -0.000861775        -0.159749      0.00203899      -0.00080044     0.000354063        -0.569333        -0.80012
                       -0.441451       -0.870018     -0.000774261     0.000413065        -0.122517         0.15115      0.000525864     0.000601463
                    -0.000857893     0.000377032        -0.568765       -0.800722      0.000810763     0.000252921       -0.0561396        0.148339
281703.1               -0.194667      0.00791057      4.19452e-05    -0.000714855        -0.441843        -0.86999      -0.00104126      0.00040356
                    -4.81506e-05    -0.000861764        -0.159744      0.00204198     -0.000800443     0.000354094        -0.569359       -0.800103
                       -0.441478       -0.870005     -0.000774268     0.000413092        -0.122509        0.151151      0.000525927     0.000601463
