! TOUCHSTONE file generated by CST MICROWAVE STUDIO
! Date and time: Wed Oct  8 06:53:05 2025
! Project name: Teste_Macro_Metasurface_Nanopilar.cst
! Parameters = {H=600; L_x=90; L_y=100; Lambda=1064; Max_L=200; Min_L=70; PathPara=1; Phi=0; Step_L=10; Theta=0; p=520; phaseX=180; phaseY=0}
! Header version: 2018
! Port assignment regex: !\s*Touchstone port\s*([0-9]+)\s*=\s*(CST MWS port|CST DS port)\s*([0-9]+|Zmin|Zmax)\s*\(\"(.*)\"\)(\s*mode\s*([0-9]+))?.*
! Touchstone port assignment:
! Touchstone port 1 = CST MWS port Zmax ("") mode 1
! Touchstone port 2 = CST MWS port Zmax ("") mode 2
! Touchstone port 3 = CST MWS port Zmin ("") mode 1
! Touchstone port 4 = CST MWS port Zmin ("") mode 2
! S-Parameters are not renormalized. Each port impedance will be approximated by the real part at minimum frequency. The values are described via the [Reference] keyword.
! Default impedance is overridden by [Reference]
[Version] 2.0
# GHz S RI R 376.73
[Number of Ports] 4
[Reference]
376.73 376.73 376.73 376.73 
[Number of Frequencies] 1001
[Network Data]
281700                 0.0156789       -0.147855     -4.71624e-05    -0.000224426        -0.719551         0.67557      0.000200935     0.000214682
                      -3.742e-05    -0.000133395        0.0806343      -0.0906261      0.000217596     0.000180604        -0.843183        0.519621
                       -0.720044        0.675797      0.000187913     0.000221887        -0.149016      0.00677981     -0.000166303    -8.43736e-05
                     9.37962e-05     0.000208592        -0.844473        0.519792     -0.000172034    -2.61677e-05        -0.117563        0.031419
281700.1               0.0156721       -0.147856     -4.71705e-05    -0.000224426        -0.719533         0.67559      0.000200949     0.000214672
                    -3.74273e-05    -0.000133395        0.0806291      -0.0906297      0.000217603       0.0001806        -0.843169        0.519643
                       -0.720026        0.675817      0.000187918     0.000221882        -0.149016      0.00678113     -0.000166318    -8.43661e-05
                     9.37971e-05     0.000208588        -0.844459        0.519815     -0.000172039    -2.61653e-05        -0.117563       0.0314191
281700.2               0.0156653       -0.147857     -4.71786e-05    -0.000224427        -0.719514        0.675609      0.000200962     0.000214661
                    -3.74346e-05    -0.000133394        0.0806239      -0.0906333       0.00021761     0.000180595        -0.843155        0.519666
                       -0.720007        0.675836      0.000187924     0.000221878        -0.149016      0.00678246     -0.000166333    -8.43586e-05
                     9.37981e-05     0.000208585        -0.844445        0.519837     -0.000172044    -2.61629e-05        -0.117562       0.0314191
281700.3               0.0156585       -0.147858     -4.71866e-05    -0.000224427        -0.719496        0.675629      0.000200975     0.000214651
                    -3.74419e-05    -0.000133393        0.0806187      -0.0906369      0.000217617     0.000180591        -0.843141        0.519689
                       -0.719989        0.675856       0.00018793     0.000221873        -0.149017      0.00678378     -0.000166349    -8.43511e-05
                     9.37991e-05     0.000208581        -0.844431         0.51986      -0.00017205    -2.61605e-05        -0.117561       0.0314192
281700.4               0.0156517       -0.147859     -4.71947e-05    -0.000224428        -0.719477        0.675649      0.000200988     0.000214641
                    -3.74493e-05    -0.000133392        0.0806134      -0.0906405      0.000217624     0.000180586        -0.843127        0.519712
                        -0.71997        0.675876      0.000187936     0.000221869        -0.149017       0.0067851     -0.000166364    -8.43436e-05
                     9.38001e-05     0.000208577        -0.844417        0.519883     -0.000172055    -2.61581e-05         -0.11756       0.0314192
281700.5               0.0156449        -0.14786     -4.72028e-05    -0.000224428        -0.719458        0.675669      0.000201001     0.000214631
                    -3.74566e-05    -0.000133392        0.0806082      -0.0906441      0.000217631     0.000180582        -0.843113        0.519734
                       -0.719951        0.675896      0.000187941     0.000221864        -0.149017      0.00678643     -0.000166379    -8.43361e-05
                      9.3801e-05     0.000208574        -0.844404        0.519906      -0.00017206    -2.61557e-05        -0.117559       0.0314193
281700.6               0.0156382       -0.147861     -4.72109e-05    -0.000224429         -0.71944        0.675688      0.000201014     0.000214621
                    -3.74639e-05    -0.000133391         0.080603      -0.0906477      0.000217638     0.000180578        -0.843099        0.519757
                       -0.719933        0.675915      0.000187947      0.00022186        -0.149017      0.00678775     -0.000166395    -8.43286e-05
                      9.3802e-05      0.00020857         -0.84439        0.519929     -0.000172065    -2.61533e-05        -0.117558       0.0314193
281700.7               0.0156314       -0.147862      -4.7219e-05    -0.000224429        -0.719421        0.675708      0.000201027      0.00021461
                    -3.74712e-05     -0.00013339        0.0805978      -0.0906514      0.000217645     0.000180573        -0.843085         0.51978
                       -0.719914        0.675935      0.000187953     0.000221855        -0.149017      0.00678908      -0.00016641    -8.43211e-05
                      9.3803e-05     0.000208566        -0.844376        0.519952      -0.00017207    -2.61509e-05        -0.117558       0.0314194
281700.8               0.0156246       -0.147863     -4.72271e-05     -0.00022443        -0.719403        0.675728       0.00020104       0.0002146
                    -3.74785e-05    -0.000133389        0.0805925       -0.090655      0.000217653     0.000180569        -0.843071        0.519803
                       -0.719896        0.675955      0.000187959     0.000221851        -0.149018       0.0067904     -0.000166425    -8.43136e-05
                      9.3804e-05     0.000208563        -0.844362        0.519975     -0.000172076    -2.61485e-05        -0.117557       0.0314195
281700.9               0.0156178       -0.147864     -4.72352e-05     -0.00022443        -0.719384        0.675748      0.000201053      0.00021459
                    -3.74858e-05    -0.000133389        0.0805873      -0.0906586       0.00021766     0.000180564        -0.843057        0.519826
                       -0.719877        0.675974      0.000187964     0.000221846        -0.149018      0.00679172      -0.00016644    -8.43061e-05
                     9.38049e-05     0.000208559        -0.844348        0.519998     -0.000172081    -2.61461e-05        -0.117556       0.0314195
281701                  0.015611       -0.147865     -4.72433e-05    -0.000224431        -0.719366        0.675767      0.000201066      0.00021458
                    -3.74931e-05    -0.000133388        0.0805821      -0.0906622      0.000217667      0.00018056        -0.843043        0.519848
                       -0.719858        0.675994       0.00018797     0.000221842        -0.149018      0.00679305     -0.000166456    -8.42986e-05
                     9.38059e-05     0.000208555        -0.844334        0.520021     -0.000172086    -2.61437e-05        -0.117555       0.0314196
281701.1               0.0156042       -0.147866     -4.72514e-05    -0.000224431        -0.719347        0.675787      0.000201079      0.00021457
                    -3.75004e-05    -0.000133387        0.0805768      -0.0906658      0.000217674     0.000180555        -0.843029        0.519871
                        -0.71984        0.676014      0.000187976     0.000221838        -0.149018      0.00679437     -0.000166471    -8.42911e-05
                     9.38069e-05     0.000208552         -0.84432        0.520043     -0.000172091    -2.61413e-05        -0.117554       0.0314196
281701.2               0.0155974       -0.147867     -4.72595e-05    -0.000224431        -0.719328        0.675807      0.000201092     0.000214559
                    -3.75078e-05    -0.000133386        0.0805716      -0.0906694      0.000217681     0.000180551        -0.843015        0.519894
                       -0.719821        0.676034      0.000187982     0.000221833        -0.149018       0.0067957     -0.000166486    -8.42835e-05
                     9.38078e-05     0.000208548        -0.844306        0.520066     -0.000172096    -2.61389e-05        -0.117554       0.0314197
281701.3               0.0155907       -0.147868     -4.72676e-05    -0.000224432         -0.71931        0.675827      0.000201105     0.000214549
                    -3.75151e-05    -0.000133386        0.0805664       -0.090673      0.000217688     0.000180546        -0.843001        0.519917
                       -0.719803        0.676053      0.000187987     0.000221829        -0.149019      0.00679702     -0.000166502     -8.4276e-05
                     9.38088e-05     0.000208544        -0.844292        0.520089     -0.000172102    -2.61364e-05        -0.117553       0.0314197
281701.4               0.0155839       -0.147869     -4.72757e-05    -0.000224432        -0.719291        0.675846      0.000201118     0.000214539
                    -3.75224e-05    -0.000133385        0.0805612      -0.0906766      0.000217695     0.000180542        -0.842987        0.519939
                       -0.719784        0.676073      0.000187993     0.000221824        -0.149019      0.00679834     -0.000166517    -8.42685e-05
                     9.38098e-05     0.000208541        -0.844278        0.520112     -0.000172107     -2.6134e-05        -0.117552       0.0314198
281701.5               0.0155771        -0.14787     -4.72837e-05    -0.000224433        -0.719273        0.675866      0.000201131     0.000214529
                    -3.75297e-05    -0.000133384        0.0805559      -0.0906802      0.000217702     0.000180537        -0.842973        0.519962
                       -0.719766        0.676093      0.000187999      0.00022182        -0.149019      0.00679967     -0.000166532     -8.4261e-05
                     9.38107e-05     0.000208537        -0.844264        0.520135     -0.000172112    -2.61316e-05        -0.117551       0.0314198
281701.6               0.0155703       -0.147871     -4.72918e-05    -0.000224433        -0.719254        0.675886      0.000201144     0.000214518
                     -3.7537e-05    -0.000133383        0.0805507      -0.0906838      0.000217709     0.000180533        -0.842959        0.519985
                       -0.719747        0.676113      0.000188005     0.000221815        -0.149019      0.00680099     -0.000166547    -8.42535e-05
                     9.38117e-05     0.000208533         -0.84425        0.520158     -0.000172117    -2.61292e-05         -0.11755       0.0314199
281701.7               0.0155635       -0.147872     -4.72999e-05    -0.000224434        -0.719236        0.675906      0.000201157     0.000214508
                    -3.75443e-05    -0.000133382        0.0805455      -0.0906874      0.000217716     0.000180528        -0.842945        0.520008
                       -0.719728        0.676132      0.000188011     0.000221811        -0.149019      0.00680232     -0.000166563     -8.4246e-05
                     9.38127e-05      0.00020853        -0.844236        0.520181     -0.000172122    -2.61268e-05        -0.117549         0.03142
281701.8               0.0155567       -0.147873      -4.7308e-05    -0.000224434        -0.719217        0.675925       0.00020117     0.000214498
                    -3.75516e-05    -0.000133382        0.0805402       -0.090691      0.000217723     0.000180524        -0.842931        0.520031
                        -0.71971        0.676152      0.000188016     0.000221806         -0.14902      0.00680364     -0.000166578    -8.42384e-05
                     9.38136e-05     0.000208526        -0.844222        0.520204     -0.000172128    -2.61244e-05        -0.117549         0.03142
281701.9               0.0155499       -0.147874     -4.73161e-05    -0.000224435        -0.719199        0.675945      0.000201183     0.000214488
                     -3.7559e-05    -0.000133381         0.080535      -0.0906947       0.00021773     0.000180519        -0.842917        0.520053
                       -0.719691        0.676172      0.000188022     0.000221802         -0.14902      0.00680497     -0.000166593    -8.42309e-05
                     9.38146e-05     0.000208522        -0.844208        0.520227     -0.000172133     -2.6122e-05        -0.117548       0.0314201
281702                 0.0155431       -0.147875     -4.73242e-05    -0.000224435         -0.71918        0.675965      0.000201196     0.000214478
                    -3.75663e-05     -0.00013338        0.0805298      -0.0906983      0.000217737     0.000180515        -0.842903        0.520076
                       -0.719673        0.676191      0.000188028     0.000221797         -0.14902      0.00680629     -0.000166608    -8.42234e-05
                     9.38156e-05     0.000208519        -0.844194        0.520249     -0.000172138    -2.61196e-05        -0.117547       0.0314201
281702.1               0.0155364       -0.147876     -4.73323e-05    -0.000224436        -0.719161        0.675985      0.000201209     0.000214467
                    -3.75736e-05    -0.000133379        0.0805246      -0.0907019      0.000217744      0.00018051         -0.84289        0.520099
                       -0.719654        0.676211      0.000188034     0.000221793         -0.14902      0.00680761     -0.000166623    -8.42159e-05
                     9.38165e-05     0.000208515         -0.84418        0.520272     -0.000172143    -2.61172e-05        -0.117546       0.0314202
281702.2               0.0155296       -0.147877     -4.73404e-05    -0.000224436        -0.719143        0.676004      0.000201222     0.000214457
                    -3.75809e-05    -0.000133379        0.0805193      -0.0907055      0.000217751     0.000180506        -0.842876        0.520122
                       -0.719635        0.676231      0.000188039     0.000221788         -0.14902      0.00680894     -0.000166639    -8.42083e-05
                     9.38175e-05     0.000208511        -0.844166        0.520295     -0.000172149    -2.61148e-05        -0.117545       0.0314202
281702.3               0.0155228       -0.147878     -4.73485e-05    -0.000224437        -0.719124        0.676024      0.000201235     0.000214447
                    -3.75882e-05    -0.000133378        0.0805141      -0.0907091      0.000217758     0.000180502        -0.842862        0.520144
                       -0.719617        0.676251      0.000188045     0.000221784        -0.149021      0.00681026     -0.000166654    -8.42008e-05
                     9.38185e-05     0.000208508        -0.844152        0.520318     -0.000172154    -2.61124e-05        -0.117544       0.0314203
281702.4                0.015516       -0.147879     -4.73566e-05    -0.000224437        -0.719106        0.676044      0.000201248     0.000214437
                    -3.75955e-05    -0.000133377        0.0805089      -0.0907127      0.000217765     0.000180497        -0.842848        0.520167
                       -0.719598         0.67627      0.000188051     0.000221779        -0.149021      0.00681159     -0.000166669    -8.41933e-05
                     9.38194e-05     0.000208504        -0.844138        0.520341     -0.000172159      -2.611e-05        -0.117544       0.0314204
281702.5               0.0155092        -0.14788     -4.73647e-05    -0.000224438        -0.719087        0.676064      0.000201261     0.000214426
                    -3.76028e-05    -0.000133376        0.0805036      -0.0907163      0.000217772     0.000180493        -0.842834         0.52019
                        -0.71958         0.67629      0.000188057     0.000221775        -0.149021      0.00681291     -0.000166684    -8.41857e-05
                     9.38204e-05       0.0002085        -0.844124        0.520364     -0.000172164    -2.61076e-05        -0.117543       0.0314204
281702.6               0.0155024       -0.147881     -4.73728e-05    -0.000224438        -0.719069        0.676083      0.000201274     0.000214416
                    -3.76102e-05    -0.000133376        0.0804984      -0.0907199      0.000217779     0.000180488         -0.84282        0.520213
                       -0.719561         0.67631      0.000188062      0.00022177        -0.149021      0.00681424       -0.0001667    -8.41782e-05
                     9.38213e-05     0.000208497         -0.84411        0.520387     -0.000172169    -2.61052e-05        -0.117542       0.0314205
281702.7               0.0154956       -0.147882     -4.73809e-05    -0.000224439         -0.71905        0.676103      0.000201287     0.000214406
                    -3.76175e-05    -0.000133375        0.0804932      -0.0907235      0.000217786     0.000180484        -0.842806        0.520236
                       -0.719542        0.676329      0.000188068     0.000221766        -0.149021      0.00681556     -0.000166715    -8.41707e-05
                     9.38223e-05     0.000208493        -0.844096         0.52041     -0.000172175    -2.61028e-05        -0.117541       0.0314205
281702.8               0.0154888       -0.147883      -4.7389e-05    -0.000224439        -0.719031        0.676123        0.0002013     0.000214396
                    -3.76248e-05    -0.000133374        0.0804879      -0.0907271      0.000217794     0.000180479        -0.842792        0.520258
                       -0.719524        0.676349      0.000188074     0.000221761        -0.149022      0.00681689      -0.00016673    -8.41631e-05
                     9.38232e-05     0.000208489        -0.844082        0.520432      -0.00017218    -2.61004e-05         -0.11754       0.0314206
281702.9               0.0154821       -0.147884     -4.73971e-05     -0.00022444        -0.719013        0.676143      0.000201313     0.000214385
                    -3.76321e-05    -0.000133373        0.0804827      -0.0907307      0.000217801     0.000180475        -0.842778        0.520281
                       -0.719505        0.676369       0.00018808     0.000221757        -0.149022      0.00681821     -0.000166745    -8.41556e-05
                     9.38242e-05     0.000208486        -0.844068        0.520455     -0.000172185     -2.6098e-05         -0.11754       0.0314206
281703                 0.0154753       -0.147885     -4.74052e-05     -0.00022444        -0.718994        0.676162      0.000201326     0.000214375
                    -3.76394e-05    -0.000133372        0.0804775      -0.0907343      0.000217808      0.00018047        -0.842764        0.520304
                       -0.719487        0.676389      0.000188085     0.000221753        -0.149022      0.00681954      -0.00016676    -8.41481e-05
                     9.38252e-05     0.000208482        -0.844054        0.520478      -0.00017219    -2.60956e-05        -0.117539       0.0314207
281703.1               0.0154685       -0.147886     -4.74133e-05    -0.000224441        -0.718976        0.676182      0.000201339     0.000214365
                    -3.76468e-05    -0.000133372        0.0804722      -0.0907379      0.000217815     0.000180466         -0.84275        0.520327
                       -0.719468        0.676408      0.000188091     0.000221748        -0.149022      0.00682086     -0.000166776    -8.41405e-05
