! TOUCHSTONE file generated by CST MICROWAVE STUDIO
! Date and time: Wed Oct  8 07:00:04 2025
! Project name: Teste_Macro_Metasurface_Nanopilar.cst
! Parameters = {H=600; L_x=145; L_y=195; Lambda=1064; Max_L=200; Min_L=70; PathPara=1; Phi=0; Step_L=10; Theta=0; p=520; phaseX=180; phaseY=0}
! Header version: 2018
! Port assignment regex: !\s*Touchstone port\s*([0-9]+)\s*=\s*(CST MWS port|CST DS port)\s*([0-9]+|Zmin|Zmax)\s*\(\"(.*)\"\)(\s*mode\s*([0-9]+))?.*
! Touchstone port assignment:
! Touchstone port 1 = CST MWS port Zmax ("") mode 1
! Touchstone port 2 = CST MWS port Zmax ("") mode 2
! Touchstone port 3 = CST MWS port Zmin ("") mode 1
! Touchstone port 4 = CST MWS port Zmin ("") mode 2
! S-Parameters are not renormalized. Each port impedance will be approximated by the real part at minimum frequency. The values are described via the [Reference] keyword.
! Default impedance is overridden by [Reference]
[Version] 2.0
# GHz S RI R 376.73
[Number of Ports] 4
[Reference]
376.73 376.73 376.73 376.73 
[Number of Frequencies] 1001
[Network Data]
281700                 -0.042354       -0.103936      0.000532163     2.86822e-05        -0.987202       0.0666048     -0.000169516    -0.000187782
                     0.000451457    -2.75799e-05       -0.0790048        0.145001      0.000206294     4.18663e-05        -0.847173        -0.49474
                       -0.986841       0.0667619      0.000181445     2.76258e-05        0.0230459       -0.109527     -0.000489048    -0.000291031
                    -0.000193276    -0.000126561         -0.84743       -0.494937     -0.000547473    -0.000258712       -0.0914624        0.137225
281700.1              -0.0423572       -0.103942      0.000532162     2.86684e-05        -0.987199       0.0666345     -0.000169522    -0.000187777
                      0.00045147    -2.75985e-05       -0.0789974        0.144998      0.000206304      4.1849e-05        -0.847189       -0.494715
                       -0.986838       0.0667915      0.000181446     2.76173e-05        0.0230416       -0.109535     -0.000489059    -0.000291014
                    -0.000193293    -0.000126571        -0.847445       -0.494912     -0.000547488    -0.000258684       -0.0914554        0.137223
281700.2              -0.0423603       -0.103948      0.000532161     2.86547e-05        -0.987196       0.0666642     -0.000169528    -0.000187771
                     0.000451484    -2.76171e-05       -0.0789901        0.144996      0.000206313     4.18317e-05        -0.847205        -0.49469
                       -0.986835       0.0668212      0.000181447     2.76087e-05        0.0230374       -0.109542     -0.000489069    -0.000290997
                     -0.00019331    -0.000126581        -0.847461       -0.494887     -0.000547503    -0.000258656       -0.0914484        0.137221
281700.3              -0.0423634       -0.103954       0.00053216     2.86409e-05        -0.987194       0.0666938     -0.000169535    -0.000187766
                     0.000451498    -2.76357e-05       -0.0789827        0.144993      0.000206323     4.18144e-05         -0.84722       -0.494665
                       -0.986833       0.0668508      0.000181448     2.76002e-05        0.0230332        -0.10955     -0.000489079     -0.00029098
                    -0.000193328    -0.000126591        -0.847477       -0.494862     -0.000547518    -0.000258629       -0.0914414        0.137219
281700.4              -0.0423665       -0.103959      0.000532159     2.86272e-05        -0.987191       0.0667235     -0.000169541    -0.000187761
                     0.000451512    -2.76543e-05       -0.0789754         0.14499      0.000206332     4.17971e-05        -0.847236        -0.49464
                        -0.98683       0.0668805      0.000181449     2.75916e-05        0.0230289       -0.109558      -0.00048909    -0.000290962
                    -0.000193345    -0.000126601        -0.847493       -0.494837     -0.000547532    -0.000258601       -0.0914343        0.137216
281700.5              -0.0423697       -0.103965      0.000532158     2.86134e-05        -0.987188       0.0667531     -0.000169547    -0.000187755
                     0.000451526    -2.76729e-05        -0.078968        0.144988      0.000206342     4.17797e-05        -0.847252       -0.494615
                       -0.986827       0.0669101       0.00018145      2.7583e-05        0.0230247       -0.109565       -0.0004891    -0.000290945
                    -0.000193362    -0.000126612        -0.847508       -0.494812     -0.000547547    -0.000258573       -0.0914273        0.137214
281700.6              -0.0423728       -0.103971      0.000532158     2.85997e-05        -0.987185       0.0667828     -0.000169554     -0.00018775
                     0.000451539    -2.76914e-05       -0.0789606        0.144985      0.000206351     4.17624e-05        -0.847268        -0.49459
                       -0.986824       0.0669397      0.000181451     2.75745e-05        0.0230204       -0.109573     -0.000489111    -0.000290928
                    -0.000193379    -0.000126622        -0.847524       -0.494787     -0.000547562    -0.000258545       -0.0914203        0.137212
281700.7              -0.0423759       -0.103977      0.000532157     2.85859e-05        -0.987183       0.0668125      -0.00016956    -0.000187745
                     0.000451553      -2.771e-05       -0.0789533        0.144983      0.000206361     4.17451e-05        -0.847283       -0.494565
                       -0.986822       0.0669694      0.000181452     2.75659e-05        0.0230162        -0.10958     -0.000489121     -0.00029091
                    -0.000193396    -0.000126632         -0.84754       -0.494762     -0.000547577    -0.000258518       -0.0914133         0.13721
281700.8              -0.0423791       -0.103982      0.000532156     2.85722e-05         -0.98718       0.0668421     -0.000169566    -0.000187739
                     0.000451567    -2.77286e-05       -0.0789459         0.14498       0.00020637     4.17278e-05        -0.847299        -0.49454
                       -0.986819        0.066999      0.000181453     2.75574e-05         0.023012       -0.109588     -0.000489131    -0.000290893
                    -0.000193413    -0.000126642        -0.847556       -0.494737     -0.000547591     -0.00025849       -0.0914063        0.137208
281700.9              -0.0423822       -0.103988      0.000532155     2.85584e-05        -0.987177       0.0668718     -0.000169573    -0.000187734
                     0.000451581    -2.77472e-05       -0.0789386        0.144977       0.00020638     4.17105e-05        -0.847315       -0.494515
                       -0.986816       0.0670286      0.000181454     2.75488e-05        0.0230077       -0.109596     -0.000489142    -0.000290876
                    -0.000193431    -0.000126652        -0.847572       -0.494712     -0.000547606    -0.000258462       -0.0913992        0.137205
281701                -0.0423853       -0.103994      0.000532154     2.85447e-05        -0.987175       0.0669014     -0.000169579    -0.000187728
                     0.000451595    -2.77658e-05       -0.0789312        0.144975      0.000206389     4.16932e-05        -0.847331        -0.49449
                       -0.986814       0.0670583      0.000181456     2.75402e-05        0.0230035       -0.109603     -0.000489152    -0.000290859
                    -0.000193448    -0.000126662        -0.847587       -0.494687     -0.000547621    -0.000258435       -0.0913922        0.137203
281701.1              -0.0423884       -0.103999      0.000532153     2.85309e-05        -0.987172       0.0669311     -0.000169585    -0.000187723
                     0.000451608    -2.77844e-05       -0.0789238        0.144972      0.000206399     4.16759e-05        -0.847346       -0.494464
                       -0.986811       0.0670879      0.000181457     2.75317e-05        0.0229992       -0.109611     -0.000489163    -0.000290841
                    -0.000193465    -0.000126672        -0.847603       -0.494662     -0.000547635    -0.000258407       -0.0913852        0.137201
281701.2              -0.0423916       -0.104005      0.000532153     2.85172e-05        -0.987169       0.0669608     -0.000169592    -0.000187718
                     0.000451622     -2.7803e-05       -0.0789165        0.144969      0.000206408     4.16586e-05        -0.847362       -0.494439
                       -0.986808       0.0671175      0.000181458     2.75231e-05         0.022995       -0.109619     -0.000489173    -0.000290824
                    -0.000193482    -0.000126682        -0.847619       -0.494637      -0.00054765    -0.000258379       -0.0913782        0.137199
281701.3              -0.0423947       -0.104011      0.000532152     2.85034e-05        -0.987166       0.0669904     -0.000169598    -0.000187712
                     0.000451636    -2.78216e-05       -0.0789091        0.144967      0.000206418     4.16413e-05        -0.847378       -0.494414
                       -0.986805       0.0671472      0.000181459     2.75145e-05        0.0229908       -0.109626     -0.000489183    -0.000290807
                    -0.000193499    -0.000126692        -0.847635       -0.494611     -0.000547665    -0.000258351       -0.0913712        0.137196
281701.4              -0.0423978       -0.104017      0.000532151     2.84897e-05        -0.987164       0.0670201     -0.000169604    -0.000187707
                      0.00045165    -2.78402e-05       -0.0789018        0.144964      0.000206427      4.1624e-05        -0.847394       -0.494389
                       -0.986803       0.0671768       0.00018146      2.7506e-05        0.0229865       -0.109634     -0.000489194    -0.000290789
                    -0.000193517    -0.000126702         -0.84765       -0.494586      -0.00054768    -0.000258324       -0.0913641        0.137194
281701.5               -0.042401       -0.104022       0.00053215     2.84759e-05        -0.987161       0.0670497      -0.00016961    -0.000187702
                     0.000451664    -2.78588e-05       -0.0788944        0.144962      0.000206437     4.16067e-05        -0.847409       -0.494364
                         -0.9868       0.0672064      0.000181461     2.74974e-05        0.0229823       -0.109641     -0.000489204    -0.000290772
                    -0.000193534    -0.000126712        -0.847666       -0.494561     -0.000547694    -0.000258296       -0.0913571        0.137192
281701.6              -0.0424041       -0.104028      0.000532149     2.84622e-05        -0.987158       0.0670794     -0.000169617    -0.000187696
                     0.000451677    -2.78774e-05       -0.0788871        0.144959      0.000206446     4.15894e-05        -0.847425       -0.494339
                       -0.986797       0.0672361      0.000181462     2.74889e-05         0.022978       -0.109649     -0.000489214    -0.000290755
                    -0.000193551    -0.000126722        -0.847682       -0.494536     -0.000547709    -0.000258268       -0.0913501         0.13719
281701.7              -0.0424072       -0.104034      0.000532148     2.84485e-05        -0.987155        0.067109     -0.000169623    -0.000187691
                     0.000451691     -2.7896e-05       -0.0788797        0.144956      0.000206456     4.15721e-05        -0.847441       -0.494314
                       -0.986795       0.0672657      0.000181463     2.74803e-05        0.0229738       -0.109657     -0.000489225    -0.000290738
                    -0.000193568    -0.000126732        -0.847698       -0.494511     -0.000547723     -0.00025824       -0.0913431        0.137188
281701.8              -0.0424104        -0.10404      0.000532148     2.84347e-05        -0.987153       0.0671387     -0.000169629    -0.000187685
                     0.000451705    -2.79146e-05       -0.0788723        0.144954      0.000206465     4.15548e-05        -0.847457       -0.494289
                       -0.986792       0.0672954      0.000181464     2.74717e-05        0.0229695       -0.109664     -0.000489235     -0.00029072
                    -0.000193585    -0.000126742        -0.847713       -0.494486     -0.000547738    -0.000258213       -0.0913361        0.137185
281701.9              -0.0424135       -0.104045      0.000532147      2.8421e-05         -0.98715       0.0671684     -0.000169636     -0.00018768
                     0.000451719    -2.79332e-05        -0.078865        0.144951      0.000206475     4.15375e-05        -0.847473       -0.494264
                       -0.986789        0.067325      0.000181465     2.74631e-05        0.0229653       -0.109672     -0.000489246    -0.000290703
                    -0.000193603    -0.000126753        -0.847729       -0.494461     -0.000547753    -0.000258185       -0.0913291        0.137183
281702                -0.0424166       -0.104051      0.000532146     2.84072e-05        -0.987147        0.067198     -0.000169642    -0.000187675
                     0.000451733    -2.79517e-05       -0.0788576        0.144949      0.000206484     4.15202e-05        -0.847488       -0.494239
                       -0.986786       0.0673546      0.000181466     2.74546e-05         0.022961        -0.10968     -0.000489256    -0.000290686
                     -0.00019362    -0.000126763        -0.847745       -0.494436     -0.000547767    -0.000258157        -0.091322        0.137181
281702.1              -0.0424198       -0.104057      0.000532145     2.83935e-05        -0.987144       0.0672277     -0.000169648    -0.000187669
                     0.000451747    -2.79703e-05       -0.0788503        0.144946      0.000206494     4.15029e-05        -0.847504       -0.494214
                       -0.986784       0.0673843      0.000181467      2.7446e-05        0.0229568       -0.109687     -0.000489266    -0.000290668
                    -0.000193637    -0.000126773        -0.847761       -0.494411     -0.000547782     -0.00025813        -0.091315        0.137179
281702.2              -0.0424229       -0.104063      0.000532144     2.83797e-05        -0.987142       0.0672573     -0.000169655    -0.000187664
                      0.00045176    -2.79889e-05       -0.0788429        0.144943      0.000206503     4.14856e-05         -0.84752       -0.494189
                       -0.986781       0.0674139      0.000181468     2.74374e-05        0.0229526       -0.109695     -0.000489277    -0.000290651
                    -0.000193654    -0.000126783        -0.847776       -0.494386     -0.000547797    -0.000258102        -0.091308        0.137176
281702.3               -0.042426       -0.104068      0.000532143      2.8366e-05        -0.987139        0.067287     -0.000169661    -0.000187659
                     0.000451774    -2.80075e-05       -0.0788356        0.144941      0.000206512     4.14682e-05        -0.847536       -0.494164
                       -0.986778       0.0674435      0.000181469     2.74289e-05        0.0229483       -0.109702     -0.000489287    -0.000290634
                    -0.000193671    -0.000126793        -0.847792       -0.494361     -0.000547811    -0.000258074        -0.091301        0.137174
281702.4              -0.0424292       -0.104074      0.000532142     2.83523e-05        -0.987136       0.0673167     -0.000169667    -0.000187653
                     0.000451788    -2.80261e-05       -0.0788282        0.144938      0.000206522     4.14509e-05        -0.847551       -0.494139
                       -0.986775       0.0674732       0.00018147     2.74203e-05        0.0229441        -0.10971     -0.000489298    -0.000290617
                    -0.000193688    -0.000126803        -0.847808       -0.494336     -0.000547826    -0.000258047        -0.091294        0.137172
281702.5              -0.0424323        -0.10408      0.000532142     2.83385e-05        -0.987133       0.0673463     -0.000169673    -0.000187648
                     0.000451802    -2.80447e-05       -0.0788209        0.144935      0.000206531     4.14336e-05        -0.847567       -0.494114
                       -0.986773       0.0675028      0.000181471     2.74117e-05        0.0229398       -0.109718     -0.000489308    -0.000290599
                    -0.000193706    -0.000126813        -0.847824       -0.494311      -0.00054784    -0.000258019        -0.091287         0.13717
281702.6              -0.0424354       -0.104086      0.000532141     2.83248e-05        -0.987131        0.067376      -0.00016968    -0.000187642
                     0.000451816    -2.80633e-05       -0.0788135        0.144933      0.000206541     4.14163e-05        -0.847583       -0.494089
                        -0.98677       0.0675324      0.000181472     2.74032e-05        0.0229356       -0.109725     -0.000489318    -0.000290582
                    -0.000193723    -0.000126823         -0.84784       -0.494286     -0.000547855    -0.000257991       -0.0912799        0.137168
281702.7              -0.0424386       -0.104091       0.00053214     2.83111e-05        -0.987128       0.0674056     -0.000169686    -0.000187637
                     0.000451829    -2.80819e-05       -0.0788061         0.14493       0.00020655      4.1399e-05        -0.847599       -0.494064
                       -0.986767       0.0675621      0.000181473     2.73946e-05        0.0229313       -0.109733     -0.000489329    -0.000290565
                     -0.00019374    -0.000126833        -0.847855        -0.49426      -0.00054787    -0.000257963       -0.0912729        0.137165
281702.8              -0.0424417       -0.104097      0.000532139     2.82973e-05        -0.987125       0.0674353     -0.000169692    -0.000187632
                     0.000451843    -2.81005e-05       -0.0787988        0.144928      0.000206559     4.13817e-05        -0.847614       -0.494039
                       -0.986765       0.0675917      0.000181475      2.7386e-05        0.0229271        -0.10974     -0.000489339    -0.000290547
                    -0.000193757    -0.000126843        -0.847871       -0.494235     -0.000547884    -0.000257936       -0.0912659        0.137163
281702.9              -0.0424448       -0.104103      0.000532138     2.82836e-05        -0.987122       0.0674649     -0.000169699    -0.000187626
                     0.000451857    -2.81191e-05       -0.0787914        0.144925      0.000206569     4.13644e-05         -0.84763       -0.494014
                       -0.986762       0.0676213      0.000181476     2.73774e-05        0.0229228       -0.109748      -0.00048935     -0.00029053
                    -0.000193774    -0.000126853        -0.847887        -0.49421     -0.000547899    -0.000257908       -0.0912589        0.137161
281703                 -0.042448       -0.104109      0.000532137     2.82698e-05         -0.98712       0.0674946     -0.000169705    -0.000187621
                     0.000451871    -2.81377e-05       -0.0787841        0.144922      0.000206578     4.13471e-05        -0.847646       -0.493988
                       -0.986759        0.067651      0.000181477     2.73689e-05        0.0229186       -0.109756      -0.00048936    -0.000290513
                    -0.000193792    -0.000126863        -0.847903       -0.494185     -0.000547913     -0.00025788       -0.0912519        0.137159
281703.1              -0.0424511       -0.104114      0.000532137     2.82561e-05        -0.987117       0.0675242     -0.000169711    -0.000187615
                     0.000451885    -2.81563e-05       -0.0787767         0.14492      0.000206588     4.13298e-05        -0.847662       -0.493963
                       -0.986756       0.0676806      0.000181478     2.73603e-05        0.0229143       -0.109763      -0.00048937    -0.000290496
