! TOUCHSTONE file generated by CST MICROWAVE STUDIO
! Date and time: Wed Oct  8 07:01:06 2025
! Project name: Teste_Macro_Metasurface_Nanopilar.cst
! Parameters = {H=600; L_x=155; L_y=160; Lambda=1064; Max_L=200; Min_L=70; PathPara=1; Phi=0; Step_L=10; Theta=0; p=520; phaseX=180; phaseY=0}
! Header version: 2018
! Port assignment regex: !\s*Touchstone port\s*([0-9]+)\s*=\s*(CST MWS port|CST DS port)\s*([0-9]+|Zmin|Zmax)\s*\(\"(.*)\"\)(\s*mode\s*([0-9]+))?.*
! Touchstone port assignment:
! Touchstone port 1 = CST MWS port Zmax ("") mode 1
! Touchstone port 2 = CST MWS port Zmax ("") mode 2
! Touchstone port 3 = CST MWS port Zmin ("") mode 1
! Touchstone port 4 = CST MWS port Zmin ("") mode 2
! S-Parameters are not renormalized. Each port impedance will be approximated by the real part at minimum frequency. The values are described via the [Reference] keyword.
! Default impedance is overridden by [Reference]
[Version] 2.0
# GHz S RI R 376.73
[Number of Ports] 4
[Reference]
376.73 376.73 376.73 376.73 
[Number of Frequencies] 1001
[Network Data]
281700                -0.0788907        0.179614     -0.000681735     0.000353851           -0.839       -0.498061       0.00077876    -0.000708894
                    -0.000736698     0.000179872        -0.108886        0.205681       0.00041369    -0.000995642        -0.790082       -0.557214
                       -0.838489        -0.49792      0.000349823     -0.00083671         -0.12465        0.150436     -0.000228538      0.00034812
                     0.000821172    -0.000692638        -0.789509       -0.556928     -0.000329812     0.000608923        -0.162125        0.165653
281700.1              -0.0788828        0.179611     -0.000681745     0.000353921        -0.839017       -0.498036      0.000778741    -0.000708912
                    -0.000736697     0.000179898        -0.108877        0.205678      0.000413644    -0.000995656        -0.790101       -0.557191
                       -0.838505       -0.497895      0.000349802    -0.000836724        -0.124641        0.150435     -0.000228515     0.000348138
                     0.000821144    -0.000692658        -0.789527       -0.556905     -0.000329797     0.000608943        -0.162116        0.165654
281700.2              -0.0788749        0.179607     -0.000681756     0.000353991        -0.839033       -0.498012      0.000778722     -0.00070893
                    -0.000736696     0.000179924        -0.108868        0.205676      0.000413598     -0.00099567        -0.790119       -0.557168
                       -0.838521        -0.49787      0.000349781    -0.000836738        -0.124633        0.150434     -0.000228491     0.000348156
                     0.000821116    -0.000692678        -0.789546       -0.556881     -0.000329782     0.000608964        -0.162106        0.165654
281700.3               -0.078867        0.179604     -0.000681766     0.000354061        -0.839049       -0.497987      0.000778702    -0.000708948
                    -0.000736695     0.000179949        -0.108859        0.205673      0.000413551    -0.000995683        -0.790137       -0.557145
                       -0.838537       -0.497846       0.00034976    -0.000836752        -0.124625        0.150433     -0.000228467     0.000348174
                     0.000821089    -0.000692698        -0.789564       -0.556858     -0.000329766     0.000608984        -0.162096        0.165655
281700.4              -0.0788592          0.1796     -0.000681776     0.000354131        -0.839065       -0.497962      0.000778683    -0.000708966
                    -0.000736694     0.000179975         -0.10885        0.205671      0.000413505    -0.000995697        -0.790156       -0.557121
                       -0.838554       -0.497821      0.000349739    -0.000836766        -0.124616        0.150432     -0.000228444     0.000348192
                     0.000821061    -0.000692717        -0.789582       -0.556835     -0.000329751     0.000609004        -0.162087        0.165655
281700.5              -0.0788513        0.179597     -0.000681787       0.0003542        -0.839082       -0.497938      0.000778664    -0.000708985
                    -0.000736693     0.000180001        -0.108841        0.205669      0.000413458     -0.00099571        -0.790174       -0.557098
                        -0.83857       -0.497796      0.000349718     -0.00083678        -0.124608        0.150431      -0.00022842      0.00034821
                     0.000821033    -0.000692737        -0.789601       -0.556812     -0.000329736     0.000609024        -0.162077        0.165656
281700.6              -0.0788434        0.179594     -0.000681797      0.00035427        -0.839098       -0.497913      0.000778645    -0.000709003
                    -0.000736692     0.000180026        -0.108832        0.205666      0.000413412    -0.000995723        -0.790192       -0.557075
                       -0.838586       -0.497771      0.000349697    -0.000836795        -0.124599         0.15043     -0.000228396     0.000348228
                     0.000821006    -0.000692757        -0.789619       -0.556788     -0.000329721     0.000609045        -0.162068        0.165657
281700.7              -0.0788355         0.17959     -0.000681808      0.00035434        -0.839114       -0.497888      0.000778626    -0.000709021
                    -0.000736691     0.000180052        -0.108823        0.205664      0.000413366    -0.000995737        -0.790211       -0.557051
                       -0.838602       -0.497747      0.000349676    -0.000836809        -0.124591        0.150429     -0.000228373     0.000348246
                     0.000820978    -0.000692777        -0.789637       -0.556765     -0.000329706     0.000609065        -0.162058        0.165657
281700.8              -0.0788276        0.179587     -0.000681818      0.00035441         -0.83913       -0.497863      0.000778606    -0.000709039
                     -0.00073669     0.000180078        -0.108814        0.205661      0.000413319     -0.00099575        -0.790229       -0.557028
                       -0.838618       -0.497722      0.000349655    -0.000836823        -0.124582        0.150428     -0.000228349     0.000348264
                      0.00082095    -0.000692796        -0.789656       -0.556742      -0.00032969     0.000609085        -0.162048        0.165658
281700.9              -0.0788198        0.179584     -0.000681828      0.00035448        -0.839146       -0.497839      0.000778587    -0.000709057
                    -0.000736689     0.000180103        -0.108805        0.205659      0.000413273    -0.000995763        -0.790248       -0.557005
                       -0.838634       -0.497697      0.000349634    -0.000836837        -0.124574        0.150427     -0.000228325     0.000348282
                     0.000820923    -0.000692816        -0.789674       -0.556718     -0.000329675     0.000609106        -0.162039        0.165658
281701                -0.0788119         0.17958     -0.000681839      0.00035455        -0.839163       -0.497814      0.000778568    -0.000709075
                    -0.000736688     0.000180129        -0.108796        0.205656      0.000413226    -0.000995777        -0.790266       -0.556981
                       -0.838651       -0.497672      0.000349613    -0.000836851        -0.124565        0.150426     -0.000228302       0.0003483
                     0.000820895    -0.000692836        -0.789692       -0.556695      -0.00032966     0.000609126        -0.162029        0.165659
281701.1               -0.078804        0.179577     -0.000681849      0.00035462        -0.839179       -0.497789      0.000778549    -0.000709093
                    -0.000736687     0.000180155        -0.108787        0.205654       0.00041318     -0.00099579        -0.790284       -0.556958
                       -0.838667       -0.497647      0.000349592    -0.000836865        -0.124557        0.150425     -0.000228278     0.000348318
                     0.000820867    -0.000692855        -0.789711       -0.556672     -0.000329645     0.000609146        -0.162019         0.16566
281701.2              -0.0787961        0.179573      -0.00068186      0.00035469        -0.839195       -0.497764       0.00077853    -0.000709111
                    -0.000736686      0.00018018        -0.108778        0.205651      0.000413134    -0.000995803        -0.790303       -0.556935
                       -0.838683       -0.497623      0.000349571    -0.000836879        -0.124549        0.150424     -0.000228255     0.000348336
                      0.00082084    -0.000692875        -0.789729       -0.556649     -0.000329629     0.000609167         -0.16201         0.16566
281701.3              -0.0787883         0.17957      -0.00068187      0.00035476        -0.839211        -0.49774       0.00077851    -0.000709129
                    -0.000736685     0.000180206        -0.108769        0.205649      0.000413087    -0.000995817        -0.790321       -0.556911
                       -0.838699       -0.497598       0.00034955    -0.000836894         -0.12454        0.150422     -0.000228231     0.000348354
                     0.000820812    -0.000692895        -0.789747       -0.556625     -0.000329614     0.000609187           -0.162        0.165661
281701.4              -0.0787804        0.179567     -0.000681881      0.00035483        -0.839228       -0.497715      0.000778491    -0.000709148
                    -0.000736683     0.000180232         -0.10876        0.205646      0.000413041     -0.00099583        -0.790339       -0.556888
                       -0.838715       -0.497573      0.000349529    -0.000836908        -0.124532        0.150421     -0.000228207     0.000348372
                     0.000820784    -0.000692915        -0.789766       -0.556602     -0.000329599     0.000609207         -0.16199        0.165661
281701.5              -0.0787725        0.179563     -0.000681891       0.0003549        -0.839244        -0.49769      0.000778472    -0.000709166
                    -0.000736682     0.000180257        -0.108751        0.205644      0.000412994    -0.000995843        -0.790358       -0.556865
                       -0.838731       -0.497548      0.000349508    -0.000836922        -0.124523         0.15042     -0.000228184      0.00034839
                     0.000820757    -0.000692934        -0.789784       -0.556579     -0.000329584     0.000609227        -0.161981        0.165662
281701.6              -0.0787646         0.17956     -0.000681902      0.00035497         -0.83926       -0.497665      0.000778453    -0.000709184
                    -0.000736681     0.000180283        -0.108742        0.205641      0.000412948    -0.000995856        -0.790376       -0.556842
                       -0.838748       -0.497524      0.000349487    -0.000836936        -0.124515        0.150419      -0.00022816     0.000348408
                     0.000820729    -0.000692954        -0.789802       -0.556555     -0.000329569     0.000609248        -0.161971        0.165662
281701.7              -0.0787567        0.179557     -0.000681912      0.00035504        -0.839276       -0.497641      0.000778433    -0.000709202
                     -0.00073668     0.000180308        -0.108733        0.205639      0.000412902    -0.000995869        -0.790394       -0.556818
                       -0.838764       -0.497499      0.000349466     -0.00083695        -0.124506        0.150418     -0.000228136     0.000348426
                     0.000820701    -0.000692974        -0.789821       -0.556532     -0.000329553     0.000609268        -0.161961        0.165663
281701.8              -0.0787489        0.179553     -0.000681923      0.00035511        -0.839292       -0.497616      0.000778414     -0.00070922
                    -0.000736679     0.000180334        -0.108724        0.205636      0.000412855    -0.000995882        -0.790413       -0.556795
                        -0.83878       -0.497474      0.000349445    -0.000836965        -0.124498        0.150417     -0.000228113     0.000348444
                     0.000820674    -0.000692993        -0.789839       -0.556509     -0.000329538     0.000609288        -0.161952        0.165664
281701.9               -0.078741         0.17955     -0.000681933      0.00035518        -0.839309       -0.497591      0.000778395    -0.000709238
                    -0.000736678      0.00018036        -0.108715        0.205634      0.000412809    -0.000995895        -0.790431       -0.556772
                       -0.838796       -0.497449      0.000349424    -0.000836979        -0.124489        0.150416     -0.000228089     0.000348462
                     0.000820646    -0.000693013        -0.789857       -0.556485     -0.000329523     0.000609309        -0.161942        0.165664
281702                -0.0787331        0.179546     -0.000681944      0.00035525        -0.839325       -0.497566      0.000778376    -0.000709256
                    -0.000736677     0.000180385        -0.108706        0.205631      0.000412762    -0.000995908         -0.79045       -0.556748
                       -0.838812       -0.497425      0.000349403    -0.000836993        -0.124481        0.150415     -0.000228065      0.00034848
                     0.000820618    -0.000693033        -0.789876       -0.556462     -0.000329508     0.000609329        -0.161932        0.165665
281702.1              -0.0787252        0.179543     -0.000681954      0.00035532        -0.839341       -0.497542      0.000778356    -0.000709274
                    -0.000736676     0.000180411        -0.108697        0.205629      0.000412716    -0.000995921        -0.790468       -0.556725
                       -0.838828         -0.4974      0.000349381    -0.000837007        -0.124473        0.150414     -0.000228042     0.000348498
                     0.000820591    -0.000693052        -0.789894       -0.556439     -0.000329492     0.000609349        -0.161923        0.165665
281702.2              -0.0787174         0.17954     -0.000681965      0.00035539        -0.839357       -0.497517      0.000778337    -0.000709292
                    -0.000736675     0.000180437        -0.108688        0.205626       0.00041267    -0.000995934        -0.790486       -0.556702
                       -0.838844       -0.497375       0.00034936    -0.000837021        -0.124464        0.150413     -0.000228018     0.000348516
                     0.000820563    -0.000693072        -0.789912       -0.556416     -0.000329477      0.00060937        -0.161913        0.165666
281702.3              -0.0787095        0.179536     -0.000681975      0.00035546        -0.839374       -0.497492      0.000778318    -0.000709311
                    -0.000736674     0.000180462        -0.108679        0.205624      0.000412623    -0.000995947        -0.790505       -0.556678
                       -0.838861        -0.49735      0.000349339    -0.000837036        -0.124456        0.150412     -0.000227994     0.000348534
                     0.000820535    -0.000693092        -0.789931       -0.556392     -0.000329462      0.00060939        -0.161904        0.165666
281702.4              -0.0787016        0.179533     -0.000681986     0.000355531         -0.83939       -0.497468      0.000778299    -0.000709329
                    -0.000736673     0.000180488         -0.10867        0.205621      0.000412577     -0.00099596        -0.790523       -0.556655
                       -0.838877       -0.497326      0.000349318     -0.00083705        -0.124447        0.150411     -0.000227971     0.000348552
                     0.000820508    -0.000693112        -0.789949       -0.556369     -0.000329446      0.00060941        -0.161894        0.165667
281702.5              -0.0786937         0.17953     -0.000681997     0.000355601        -0.839406       -0.497443       0.00077828    -0.000709347
                    -0.000736672     0.000180514        -0.108661        0.205619       0.00041253    -0.000995973        -0.790541       -0.556632
                       -0.838893       -0.497301      0.000349297    -0.000837064        -0.124439         0.15041     -0.000227947      0.00034857
                      0.00082048    -0.000693131        -0.789967       -0.556346     -0.000329431     0.000609431        -0.161884        0.165668
281702.6              -0.0786859        0.179526     -0.000682007     0.000355671        -0.839422       -0.497418       0.00077826    -0.000709365
                    -0.000736671     0.000180539        -0.108652        0.205616      0.000412484    -0.000995986         -0.79056       -0.556608
                       -0.838909       -0.497276      0.000349276    -0.000837078         -0.12443        0.150409     -0.000227924     0.000348588
                     0.000820452    -0.000693151        -0.789986       -0.556322     -0.000329416     0.000609451        -0.161875        0.165668
281702.7               -0.078678        0.179523     -0.000682018     0.000355741        -0.839438       -0.497393      0.000778241    -0.000709383
                     -0.00073667     0.000180565        -0.108643        0.205614      0.000412438    -0.000995999        -0.790578       -0.556585
                       -0.838925       -0.497251      0.000349255    -0.000837092        -0.124422        0.150408       -0.0002279     0.000348606
                     0.000820425    -0.000693171        -0.790004       -0.556299     -0.000329401     0.000609471        -0.161865        0.165669
281702.8              -0.0786701        0.179519     -0.000682028     0.000355811        -0.839455       -0.497369      0.000778222    -0.000709401
                    -0.000736669     0.000180591        -0.108634        0.205611      0.000412391    -0.000996012        -0.790596       -0.556562
                       -0.838941       -0.497227      0.000349234    -0.000837107        -0.124413        0.150407     -0.000227876     0.000348624
                     0.000820397     -0.00069319        -0.790022       -0.556276     -0.000329385     0.000609492        -0.161855        0.165669
281702.9              -0.0786622        0.179516     -0.000682039     0.000355881        -0.839471       -0.497344      0.000778203    -0.000709419
                    -0.000736668     0.000180616        -0.108625        0.205609      0.000412345    -0.000996024        -0.790615       -0.556538
                       -0.838958       -0.497202      0.000349213    -0.000837121        -0.124405        0.150406     -0.000227853     0.000348642
                     0.000820369     -0.00069321        -0.790041       -0.556252      -0.00032937     0.000609512        -0.161846         0.16567
281703                -0.0786544        0.179513      -0.00068205     0.000355951        -0.839487       -0.497319      0.000778183    -0.000709437
                    -0.000736666     0.000180642        -0.108616        0.205606      0.000412299    -0.000996037        -0.790633       -0.556515
                       -0.838974       -0.497177      0.000349191    -0.000837135        -0.124397        0.150404     -0.000227829      0.00034866
                     0.000820342     -0.00069323        -0.790059       -0.556229     -0.000329355     0.000609532        -0.161836         0.16567
281703.1              -0.0786465        0.179509      -0.00068206     0.000356021        -0.839503       -0.497294      0.000778164    -0.000709455
                    -0.000736665     0.000180668        -0.108607        0.205604      0.000412252     -0.00099605        -0.790651       -0.556492
                        -0.83899       -0.497152       0.00034917    -0.000837149        -0.124388        0.150403     -0.000227805     0.000348679
