! TOUCHSTONE file generated by CST MICROWAVE STUDIO
! Date and time: Wed Oct  8 06:58:13 2025
! Project name: Teste_Macro_Metasurface_Nanopilar.cst
! Parameters = {H=600; L_x=130; L_y=185; Lambda=1064; Max_L=200; Min_L=70; PathPara=1; Phi=0; Step_L=10; Theta=0; p=520; phaseX=180; phaseY=0}
! Header version: 2018
! Port assignment regex: !\s*Touchstone port\s*([0-9]+)\s*=\s*(CST MWS port|CST DS port)\s*([0-9]+|Zmin|Zmax)\s*\(\"(.*)\"\)(\s*mode\s*([0-9]+))?.*
! Touchstone port assignment:
! Touchstone port 1 = CST MWS port Zmax ("") mode 1
! Touchstone port 2 = CST MWS port Zmax ("") mode 2
! Touchstone port 3 = CST MWS port Zmin ("") mode 1
! Touchstone port 4 = CST MWS port Zmin ("") mode 2
! S-Parameters are not renormalized. Each port impedance will be approximated by the real part at minimum frequency. The values are described via the [Reference] keyword.
! Default impedance is overridden by [Reference]
[Version] 2.0
# GHz S RI R 376.73
[Number of Ports] 4
[Reference]
376.73 376.73 376.73 376.73 
[Number of Frequencies] 1001
[Network Data]
281700                -0.0172591        0.124536      0.000115675    -0.000756188        -0.930802       -0.327779     -0.000619421     0.000438967
                     0.000232596    -0.000684829        -0.105499      -0.0309918       2.5519e-05     0.000532015        -0.727106       -0.669785
                       -0.930856       -0.327887     -9.65102e-05      0.00048625       -0.0698934        0.104197      0.000502459    -0.000427544
                    -0.000594462     0.000364062        -0.726589       -0.670024      0.000688093    -0.000624316        0.0360021       0.0981092
281700.1              -0.0172539         0.12453      0.000115689    -0.000756342        -0.930813       -0.327751     -0.000619399        0.000439
                     0.000232576    -0.000684854        -0.105494      -0.0309941      2.54776e-05     0.000532052        -0.727128       -0.669761
                       -0.930867       -0.327859     -9.64894e-05     0.000486218        -0.069887        0.104193      0.000502443    -0.000427562
                    -0.000594456     0.000364089        -0.726612           -0.67      0.000688023    -0.000624371        0.0360103       0.0981009
281700.2              -0.0172487        0.124524      0.000115705    -0.000756497        -0.930824       -0.327723     -0.000619377     0.000439033
                     0.000232556    -0.000684879        -0.105488      -0.0309964      2.54363e-05      0.00053209        -0.727151       -0.669737
                       -0.930878       -0.327831     -9.64687e-05     0.000486186       -0.0698806        0.104189      0.000502426    -0.000427579
                     -0.00059445     0.000364117        -0.726634       -0.669977      0.000687954    -0.000624426        0.0360186       0.0980926
281700.3              -0.0172435        0.124518      0.000115722    -0.000756652        -0.930835       -0.327695     -0.000619355     0.000439067
                     0.000232535    -0.000684904        -0.105483      -0.0309987      2.53948e-05     0.000532128        -0.727174       -0.669713
                       -0.930888       -0.327803     -9.64479e-05     0.000486153       -0.0698741        0.104186       0.00050241    -0.000427596
                    -0.000594444     0.000364144        -0.726657       -0.669953      0.000687884    -0.000624481        0.0360269       0.0980844
281700.4              -0.0172383        0.124512       0.00011574    -0.000756807        -0.930846       -0.327668     -0.000619333       0.0004391
                     0.000232515    -0.000684929        -0.105478       -0.031001      2.53534e-05     0.000532166        -0.727196       -0.669689
                       -0.930899       -0.327775     -9.64272e-05     0.000486121       -0.0698677        0.104182      0.000502394    -0.000427613
                    -0.000594439     0.000364172         -0.72668       -0.669929      0.000687814    -0.000624536        0.0360352       0.0980761
281700.5              -0.0172331        0.124506      0.000115759    -0.000756964        -0.930857        -0.32764     -0.000619312     0.000439133
                     0.000232495    -0.000684954        -0.105472      -0.0310032      2.53119e-05     0.000532204        -0.727219       -0.669665
                        -0.93091       -0.327747     -9.64064e-05     0.000486089       -0.0698613        0.104178      0.000502377     -0.00042763
                    -0.000594433       0.0003642        -0.726702       -0.669905      0.000687744    -0.000624591        0.0360435       0.0980678
281700.6              -0.0172279          0.1245      0.000115779     -0.00075712        -0.930868       -0.327612      -0.00061929     0.000439166
                     0.000232475    -0.000684979        -0.105467      -0.0310055      2.52703e-05     0.000532241        -0.727241       -0.669641
                       -0.930921       -0.327719     -9.63856e-05     0.000486056       -0.0698549        0.104174      0.000502361    -0.000427647
                    -0.000594427     0.000364227        -0.726725       -0.669881      0.000687674    -0.000624646        0.0360517       0.0980596
281700.7              -0.0172227        0.124494      0.000115801    -0.000757277        -0.930879       -0.327585     -0.000619268     0.000439199
                     0.000232454    -0.000685004        -0.105462      -0.0310078      2.52287e-05     0.000532279        -0.727264       -0.669617
                       -0.930931       -0.327691     -9.63649e-05     0.000486024       -0.0698485        0.104171      0.000502345    -0.000427664
                    -0.000594421     0.000364255        -0.726747       -0.669858      0.000687604    -0.000624701          0.03606       0.0980513
281700.8              -0.0172176        0.124488      0.000115823    -0.000757435         -0.93089       -0.327557     -0.000619246     0.000439233
                     0.000232434    -0.000685029        -0.105456      -0.0310101      2.51871e-05     0.000532317        -0.727286       -0.669593
                       -0.930942       -0.327663     -9.63441e-05     0.000485991       -0.0698421        0.104167      0.000502328    -0.000427681
                    -0.000594415     0.000364282         -0.72677       -0.669834      0.000687534    -0.000624756        0.0360683        0.098043
281700.9              -0.0172124        0.124482      0.000115847    -0.000757593        -0.930901       -0.327529     -0.000619224     0.000439266
                     0.000232414    -0.000685054        -0.105451      -0.0310124      2.51454e-05     0.000532355        -0.727309       -0.669569
                       -0.930953       -0.327636     -9.63233e-05     0.000485959       -0.0698357        0.104163      0.000502312    -0.000427698
                    -0.000594409      0.00036431        -0.726792        -0.66981      0.000687464    -0.000624811        0.0360766       0.0980347
281701                -0.0172072        0.124476      0.000115872    -0.000757751        -0.930912       -0.327501     -0.000619202     0.000439299
                     0.000232394    -0.000685079        -0.105446      -0.0310147      2.51036e-05     0.000532392        -0.727332       -0.669545
                       -0.930964       -0.327608     -9.63026e-05     0.000485926       -0.0698293         0.10416      0.000502296    -0.000427715
                    -0.000594403     0.000364337        -0.726815       -0.669786      0.000687394    -0.000624867        0.0360849       0.0980265
281701.1               -0.017202         0.12447      0.000115898     -0.00075791        -0.930923       -0.327474     -0.000619181     0.000439332
                     0.000232373    -0.000685104         -0.10544       -0.031017      2.50618e-05      0.00053243        -0.727354       -0.669521
                       -0.930975        -0.32758     -9.62818e-05     0.000485894       -0.0698229        0.104156      0.000502279    -0.000427732
                    -0.000594398     0.000364365        -0.726837       -0.669763      0.000687323    -0.000624922        0.0360931       0.0980182
281701.2              -0.0171968        0.124464      0.000115925    -0.000758069        -0.930934       -0.327446     -0.000619159     0.000439366
                     0.000232353     -0.00068513        -0.105435      -0.0310193        2.502e-05     0.000532468        -0.727377       -0.669497
                       -0.930985       -0.327552      -9.6261e-05     0.000485861       -0.0698165        0.104152      0.000502263    -0.000427749
                    -0.000594392     0.000364393         -0.72686       -0.669739      0.000687253    -0.000624977        0.0361014       0.0980099
281701.3              -0.0171916        0.124458      0.000115954    -0.000758228        -0.930945       -0.327418     -0.000619137     0.000439399
                     0.000232333    -0.000685155         -0.10543      -0.0310216      2.49781e-05     0.000532505        -0.727399       -0.669473
                       -0.930996       -0.327524     -9.62402e-05     0.000485828       -0.0698101        0.104148      0.000502247    -0.000427766
                    -0.000594386      0.00036442        -0.726883       -0.669715      0.000687182    -0.000625032        0.0361097       0.0980016
281701.4              -0.0171864        0.124452      0.000115984    -0.000758388        -0.930956        -0.32739     -0.000619115     0.000439432
                     0.000232312     -0.00068518        -0.105424      -0.0310239      2.49361e-05     0.000532543        -0.727422       -0.669449
                       -0.931007       -0.327496     -9.62194e-05     0.000485796       -0.0698037        0.104145       0.00050223    -0.000427783
                     -0.00059438     0.000364448        -0.726905       -0.669691      0.000687112    -0.000625087         0.036118       0.0979933
281701.5              -0.0171812        0.124446      0.000116015    -0.000758548        -0.930967       -0.327363     -0.000619093     0.000439465
                     0.000232292    -0.000685205        -0.105419      -0.0310262      2.48941e-05     0.000532581        -0.727445       -0.669425
                       -0.931018       -0.327468     -9.61986e-05     0.000485763       -0.0697973        0.104141      0.000502214      -0.0004278
                    -0.000594374     0.000364475        -0.726928       -0.669668      0.000687041    -0.000625142        0.0361262       0.0979851
281701.6               -0.017176         0.12444      0.000116047    -0.000758709        -0.930978       -0.327335     -0.000619071     0.000439499
                     0.000232272     -0.00068523        -0.105414      -0.0310284      2.48521e-05     0.000532618        -0.727467       -0.669401
                       -0.931028        -0.32744     -9.61779e-05      0.00048573        -0.069791        0.104137      0.000502198    -0.000427817
                    -0.000594368     0.000364503         -0.72695       -0.669644       0.00068697    -0.000625198        0.0361345       0.0979768
281701.7              -0.0171708        0.124434      0.000116081     -0.00075887        -0.930989       -0.327307     -0.000619049     0.000439532
                     0.000232251    -0.000685255        -0.105408      -0.0310307        2.481e-05     0.000532656         -0.72749       -0.669377
                       -0.931039       -0.327412     -9.61571e-05     0.000485697       -0.0697846        0.104133      0.000502181    -0.000427835
                    -0.000594362      0.00036453        -0.726973        -0.66962        0.0006869    -0.000625253        0.0361428       0.0979685
281701.8              -0.0171656        0.124428      0.000116116    -0.000759031           -0.931       -0.327279     -0.000619027     0.000439565
                     0.000232231     -0.00068528        -0.105403       -0.031033      2.47679e-05     0.000532694        -0.727512       -0.669353
                        -0.93105       -0.327384     -9.61363e-05     0.000485664       -0.0697782         0.10413      0.000502165    -0.000427852
                    -0.000594357     0.000364558        -0.726995       -0.669596      0.000686829    -0.000625308        0.0361511       0.0979602
281701.9              -0.0171604        0.124422      0.000116152    -0.000759193        -0.931011       -0.327252     -0.000619005     0.000439599
                     0.000232211    -0.000685305        -0.105398      -0.0310353      2.47257e-05     0.000532731        -0.727535       -0.669329
                       -0.931061       -0.327356     -9.61155e-05     0.000485631       -0.0697718        0.104126      0.000502148    -0.000427869
                    -0.000594351     0.000364586        -0.727018       -0.669573      0.000686758    -0.000625363        0.0361593       0.0979519
281702                -0.0171552        0.124416      0.000116189    -0.000759354        -0.931022       -0.327224     -0.000618984     0.000439632
                      0.00023219     -0.00068533        -0.105392      -0.0310376      2.46834e-05     0.000532769        -0.727557       -0.669305
                       -0.931071       -0.327328     -9.60946e-05     0.000485598       -0.0697654        0.104122      0.000502132    -0.000427886
                    -0.000594345     0.000364613         -0.72704       -0.669549      0.000686687    -0.000625419        0.0361676       0.0979437
281702.1              -0.0171501         0.12441      0.000116228    -0.000759516        -0.931033       -0.327196     -0.000618962     0.000439665
                      0.00023217    -0.000685356        -0.105387      -0.0310399      2.46411e-05     0.000532806         -0.72758       -0.669281
                       -0.931082         -0.3273     -9.60738e-05     0.000485565        -0.069759        0.104118      0.000502116    -0.000427903
                    -0.000594339     0.000364641        -0.727063       -0.669525      0.000686615    -0.000625474        0.0361759       0.0979354
281702.2              -0.0171449        0.124404      0.000116269    -0.000759679        -0.931044       -0.327168      -0.00061894     0.000439698
                     0.000232149    -0.000685381        -0.105382      -0.0310422      2.45988e-05     0.000532844        -0.727603       -0.669257
                       -0.931093       -0.327273      -9.6053e-05     0.000485532       -0.0697527        0.104115      0.000502099     -0.00042792
                    -0.000594333     0.000364668        -0.727086       -0.669501      0.000686544    -0.000625529        0.0361841       0.0979271
281702.3              -0.0171397        0.124398       0.00011631    -0.000759841        -0.931055       -0.327141     -0.000618918     0.000439732
                     0.000232129    -0.000685406        -0.105376      -0.0310445      2.45564e-05     0.000532882        -0.727625       -0.669233
                       -0.931104       -0.327245     -9.60322e-05     0.000485499       -0.0697463        0.104111      0.000502083    -0.000427937
                    -0.000594327     0.000364696        -0.727108       -0.669477      0.000686473    -0.000625585        0.0361924       0.0979188
281702.4              -0.0171345        0.124392      0.000116353    -0.000760004        -0.931066       -0.327113     -0.000618896     0.000439765
                     0.000232109    -0.000685431        -0.105371      -0.0310468       2.4514e-05     0.000532919        -0.727648       -0.669209
                       -0.931115       -0.327217     -9.60114e-05     0.000485466       -0.0697399        0.104107      0.000502066    -0.000427954
                    -0.000594321     0.000364723        -0.727131       -0.669454      0.000686401     -0.00062564        0.0362007       0.0979105
281702.5              -0.0171293        0.124386      0.000116398    -0.000760167        -0.931077       -0.327085     -0.000618874     0.000439798
                     0.000232088    -0.000685456        -0.105365      -0.0310491      2.44715e-05     0.000532957         -0.72767       -0.669185
                       -0.931125       -0.327189     -9.59905e-05     0.000485432       -0.0697335        0.104104       0.00050205    -0.000427971
                    -0.000594315     0.000364751        -0.727153        -0.66943       0.00068633    -0.000625695         0.036209       0.0979022
281702.6              -0.0171241         0.12438      0.000116444     -0.00076033        -0.931088       -0.327057     -0.000618852     0.000439832
                     0.000232068    -0.000685481         -0.10536      -0.0310514      2.44289e-05     0.000532994        -0.727693       -0.669161
                       -0.931136       -0.327161     -9.59697e-05     0.000485399       -0.0697272          0.1041      0.000502034    -0.000427988
                     -0.00059431     0.000364778        -0.727176       -0.669406      0.000686258    -0.000625751        0.0362172        0.097894
281702.7              -0.0171189        0.124374      0.000116491    -0.000760494        -0.931099        -0.32703      -0.00061883     0.000439865
                     0.000232048    -0.000685506        -0.105355      -0.0310537      2.43864e-05     0.000533032        -0.727715       -0.669137
                       -0.931147       -0.327133     -9.59489e-05     0.000485366       -0.0697208        0.104096      0.000502017    -0.000428005
                    -0.000594304     0.000364806        -0.727198       -0.669382      0.000686187    -0.000625806        0.0362255       0.0978857
281702.8              -0.0171137        0.124368      0.000116539    -0.000760657         -0.93111       -0.327002     -0.000618808     0.000439898
                     0.000232027    -0.000685532        -0.105349       -0.031056      2.43437e-05     0.000533069        -0.727738       -0.669114
                       -0.931158       -0.327105      -9.5928e-05     0.000485332       -0.0697144        0.104092      0.000502001    -0.000428022
                    -0.000594298     0.000364833        -0.727221       -0.669359      0.000686115    -0.000625862        0.0362338       0.0978774
281702.9              -0.0171085        0.124362       0.00011659    -0.000760821        -0.931121       -0.326974     -0.000618786     0.000439932
                     0.000232007    -0.000685557        -0.105344      -0.0310583       2.4301e-05     0.000533107        -0.727761        -0.66909
                       -0.931168       -0.327077     -9.59072e-05     0.000485299       -0.0697081        0.104089      0.000501984    -0.000428039
                    -0.000594292     0.000364861        -0.727243       -0.669335      0.000686043    -0.000625917         0.036242       0.0978691
281703                -0.0171034        0.124356      0.000116641    -0.000760985        -0.931131       -0.326946     -0.000618764     0.000439965
                     0.000231986    -0.000685582        -0.105339      -0.0310605      2.42583e-05     0.000533144        -0.727783       -0.669066
                       -0.931179       -0.327049     -9.58863e-05     0.000485265       -0.0697017        0.104085      0.000501968    -0.000428056
                    -0.000594286     0.000364888        -0.727266       -0.669311      0.000685971    -0.000625973        0.0362503       0.0978608
281703.1              -0.0170982         0.12435      0.000116694    -0.000761149        -0.931142       -0.326919     -0.000618742     0.000439998
                     0.000231966    -0.000685607        -0.105333      -0.0310628      2.42155e-05     0.000533182        -0.727806       -0.669042
                        -0.93119       -0.327021     -9.58654e-05     0.000485232       -0.0696953        0.104081      0.000501951    -0.000428073
