! TOUCHSTONE file generated by CST MICROWAVE STUDIO
! Date and time: Wed Oct  8 07:03:33 2025
! Project name: Teste_Macro_Metasurface_Nanopilar.cst
! Parameters = {H=600; L_x=175; L_y=175; Lambda=1064; Max_L=200; Min_L=70; PathPara=1; Phi=0; Step_L=10; Theta=0; p=520; phaseX=180; phaseY=0}
! Header version: 2018
! Port assignment regex: !\s*Touchstone port\s*([0-9]+)\s*=\s*(CST MWS port|CST DS port)\s*([0-9]+|Zmin|Zmax)\s*\(\"(.*)\"\)(\s*mode\s*([0-9]+))?.*
! Touchstone port assignment:
! Touchstone port 1 = CST MWS port Zmax ("") mode 1
! Touchstone port 2 = CST MWS port Zmax ("") mode 2
! Touchstone port 3 = CST MWS port Zmin ("") mode 1
! Touchstone port 4 = CST MWS port Zmin ("") mode 2
! S-Parameters are not renormalized. Each port impedance will be approximated by the real part at minimum frequency. The values are described via the [Reference] keyword.
! Default impedance is overridden by [Reference]
[Version] 2.0
# GHz S RI R 376.73
[Number of Ports] 4
[Reference]
376.73 376.73 376.73 376.73 
[Number of Frequencies] 1001
[Network Data]
281700                -0.0116043      -0.0729262     -0.000399469     0.000285769         -0.99328      0.00813479     -3.09078e-05    -0.000259216
                    -0.000335631     0.000329764       -0.0123022      -0.0733965     -8.69854e-06    -0.000107493        -0.993464      0.00900259
                       -0.993213      0.00811535      6.84768e-05    -0.000196341       0.00701366      -0.0727721      0.000435844     0.000337516
                    -4.96052e-05    -0.000169471        -0.993199      0.00925591      0.000581781     0.000319479        0.0075205      -0.0732659
281700.1              -0.0116056      -0.0729321     -0.000399464     0.000285761        -0.993279      0.00816451     -3.09904e-05     -0.00025916
                    -0.000335701     0.000329731       -0.0123035      -0.0734023     -8.53044e-06    -0.000107545        -0.993463      0.00903228
                       -0.993212      0.00814503      6.84655e-05    -0.000196339        0.0070105      -0.0727785      0.000435801     0.000337323
                    -4.95817e-05    -0.000169483        -0.993198      0.00928571      0.000581727     0.000319425        0.0075173      -0.0732724
281700.2              -0.0116069       -0.072938     -0.000399459     0.000285753        -0.993278      0.00819423      -3.1073e-05    -0.000259103
                    -0.000335771     0.000329698       -0.0123048      -0.0734082     -8.36269e-06    -0.000107597        -0.993462      0.00906196
                       -0.993211      0.00817472      6.84542e-05    -0.000196338       0.00700734      -0.0727849       0.00043576     0.000337133
                    -4.95583e-05    -0.000169494        -0.993197      0.00931551      0.000581673     0.000319372        0.0075141      -0.0732788
281700.3              -0.0116081      -0.0729438     -0.000399454     0.000285744        -0.993278      0.00822395     -3.11555e-05    -0.000259047
                    -0.000335841     0.000329665       -0.0123061      -0.0734141     -8.19528e-06    -0.000107648        -0.993462      0.00909165
                        -0.99321       0.0082044      6.84429e-05    -0.000196336       0.00700418      -0.0727913       0.00043572     0.000336944
                    -4.95348e-05    -0.000169506        -0.993197      0.00934531      0.000581619     0.000319318        0.0075109      -0.0732853
281700.4              -0.0116094      -0.0729497     -0.000399449     0.000285736        -0.993277      0.00825367     -3.12379e-05     -0.00025899
                    -0.000335912     0.000329632       -0.0123074      -0.0734199      -8.0282e-06      -0.0001077        -0.993461      0.00912134
                       -0.993209      0.00823409      6.84317e-05    -0.000196335       0.00700101      -0.0727977      0.000435682     0.000336756
                    -4.95114e-05    -0.000169518        -0.993196      0.00937512      0.000581565     0.000319265       0.00750771      -0.0732917
281700.5              -0.0116107      -0.0729556     -0.000399444     0.000285727        -0.993276      0.00828339     -3.13201e-05    -0.000258934
                    -0.000335982       0.0003296       -0.0123087      -0.0734258     -7.86147e-06    -0.000107751        -0.993461      0.00915103
                       -0.993209      0.00826377      6.84204e-05    -0.000196333       0.00699785      -0.0728041      0.000435644      0.00033657
                    -4.94881e-05    -0.000169529        -0.993195      0.00940492      0.000581512     0.000319211       0.00750451      -0.0732982
281700.6               -0.011612      -0.0729615     -0.000399439     0.000285719        -0.993275       0.0083131     -3.14023e-05    -0.000258878
                    -0.000336052     0.000329568         -0.01231      -0.0734317     -7.69507e-06    -0.000107803         -0.99346      0.00918072
                       -0.993208      0.00829346      6.84091e-05    -0.000196332       0.00699469      -0.0728105      0.000435608     0.000336386
                    -4.94648e-05    -0.000169541        -0.993195      0.00943472      0.000581458     0.000319157       0.00750131      -0.0733046
281700.7              -0.0116132      -0.0729674     -0.000399434     0.000285711        -0.993275      0.00834282     -3.14843e-05    -0.000258822
                    -0.000336121     0.000329536       -0.0123113      -0.0734375     -7.52901e-06    -0.000107855        -0.993459      0.00921042
                       -0.993207      0.00832314      6.83979e-05     -0.00019633       0.00699152      -0.0728169      0.000435574     0.000336204
                    -4.94415e-05    -0.000169552        -0.993194      0.00946452      0.000581404     0.000319104       0.00749811      -0.0733111
281700.8              -0.0116145      -0.0729732     -0.000399429     0.000285702        -0.993274      0.00837254     -3.15663e-05    -0.000258766
                    -0.000336191     0.000329504       -0.0123127      -0.0734434     -7.36329e-06    -0.000107906        -0.993459      0.00924012
                       -0.993206      0.00835283      6.83866e-05    -0.000196329       0.00698836      -0.0728233       0.00043554     0.000336023
                    -4.94183e-05    -0.000169564        -0.993193      0.00949433      0.000581351      0.00031905       0.00749491      -0.0733175
281700.9              -0.0116158      -0.0729791     -0.000399424     0.000285694        -0.993273      0.00840226      -3.1648e-05     -0.00025871
                    -0.000336261     0.000329472        -0.012314      -0.0734493     -7.19791e-06    -0.000107958        -0.993458      0.00926982
                       -0.993205      0.00838252      6.83754e-05    -0.000196327        0.0069852      -0.0728297      0.000435508     0.000335844
                    -4.93951e-05    -0.000169576        -0.993193      0.00952413      0.000581297     0.000318996       0.00749171       -0.073324
281701                -0.0116171       -0.072985     -0.000399419     0.000285686        -0.993273      0.00843198     -3.17297e-05    -0.000258654
                    -0.000336331      0.00032944       -0.0123153      -0.0734551     -7.03285e-06    -0.000108009        -0.993458      0.00929952
                       -0.993204       0.0084122      6.83641e-05    -0.000196326       0.00698203      -0.0728361      0.000435477     0.000335667
                     -4.9372e-05    -0.000169588        -0.993192      0.00955393      0.000581244     0.000318942       0.00748851      -0.0733305
281701.1              -0.0116183      -0.0729909     -0.000399414     0.000285677        -0.993272       0.0084617     -3.18112e-05    -0.000258599
                      -0.0003364     0.000329409       -0.0123166       -0.073461     -6.86814e-06     -0.00010806        -0.993457      0.00932923
                       -0.993204      0.00844189      6.83529e-05    -0.000196324       0.00697887      -0.0728425      0.000435447     0.000335491
                    -4.93488e-05    -0.000169599        -0.993191      0.00958373       0.00058119     0.000318888       0.00748531      -0.0733369
281701.2              -0.0116196      -0.0729967     -0.000399409     0.000285669        -0.993271      0.00849142     -3.18925e-05    -0.000258544
                     -0.00033647     0.000329378       -0.0123179      -0.0734669     -6.70376e-06    -0.000108112        -0.993456      0.00935894
                       -0.993203      0.00847157      6.83417e-05    -0.000196323        0.0069757      -0.0728489      0.000435418     0.000335317
                    -4.93258e-05    -0.000169611         -0.99319      0.00961353      0.000581137     0.000318835       0.00748211      -0.0733434
281701.3              -0.0116209      -0.0730026     -0.000399404     0.000285661         -0.99327      0.00852113     -3.19736e-05    -0.000258489
                    -0.000336539     0.000329347       -0.0123192      -0.0734727     -6.53971e-06    -0.000108163        -0.993456      0.00938865
                       -0.993202      0.00850126      6.83304e-05    -0.000196321       0.00697253      -0.0728552      0.000435391     0.000335145
                    -4.93028e-05    -0.000169623         -0.99319      0.00964333      0.000581084     0.000318781       0.00747891      -0.0733498
281701.4              -0.0116222      -0.0730085     -0.000399399     0.000285653         -0.99327      0.00855085     -3.20546e-05    -0.000258434
                    -0.000336608     0.000329316       -0.0123205      -0.0734786     -6.37599e-06    -0.000108215        -0.993455      0.00941837
                       -0.993201      0.00853094      6.83192e-05    -0.000196319       0.00696937      -0.0728616      0.000435364     0.000334974
                    -4.92798e-05    -0.000169635        -0.993189      0.00967314       0.00058103     0.000318727        0.0074757      -0.0733563
281701.5              -0.0116234      -0.0730144     -0.000399394     0.000285644        -0.993269      0.00858057     -3.21354e-05    -0.000258379
                    -0.000336678     0.000329286       -0.0123218      -0.0734845     -6.21261e-06    -0.000108266        -0.993455      0.00944809
                         -0.9932      0.00856063       6.8308e-05    -0.000196318        0.0069662       -0.072868      0.000435339     0.000334806
                    -4.92568e-05    -0.000169647        -0.993188      0.00970294      0.000580977     0.000318673        0.0074725      -0.0733627
281701.6              -0.0116247      -0.0730202     -0.000399389     0.000285636        -0.993268      0.00861029     -3.22161e-05    -0.000258325
                    -0.000336747     0.000329255       -0.0123231      -0.0734903     -6.04956e-06    -0.000108318        -0.993454      0.00947781
                       -0.993199      0.00859031      6.82968e-05    -0.000196316       0.00696303      -0.0728744      0.000435314     0.000334638
                     -4.9234e-05    -0.000169659        -0.993188      0.00973274      0.000580924     0.000318619        0.0074693      -0.0733692
281701.7               -0.011626      -0.0730261     -0.000399384     0.000285628        -0.993267      0.00864001     -3.22965e-05    -0.000258271
                    -0.000336816     0.000329225       -0.0123244      -0.0734962     -5.88683e-06    -0.000108369        -0.993453      0.00950753
                       -0.993199         0.00862      6.82856e-05    -0.000196315       0.00695987      -0.0728808      0.000435291     0.000334473
                    -4.92111e-05    -0.000169671        -0.993187      0.00976254      0.000580871     0.000318565        0.0074661      -0.0733756
281701.8              -0.0116273       -0.073032     -0.000399379     0.000285619        -0.993267      0.00866972     -3.23767e-05    -0.000258217
                    -0.000336885     0.000329195       -0.0123257      -0.0735021     -5.72444e-06     -0.00010842        -0.993453      0.00953726
                       -0.993198      0.00864969      6.82744e-05    -0.000196313        0.0069567      -0.0728872      0.000435269     0.000334309
                    -4.91883e-05    -0.000169683        -0.993186      0.00979234      0.000580818     0.000318511       0.00746289      -0.0733821
281701.9              -0.0116285      -0.0730379     -0.000399374     0.000285611        -0.993266      0.00869944     -3.24567e-05    -0.000258163
                    -0.000336954     0.000329165        -0.012327      -0.0735079     -5.56238e-06    -0.000108472        -0.993452      0.00956699
                       -0.993197      0.00867937      6.82632e-05    -0.000196312       0.00695353      -0.0728936      0.000435247     0.000334147
                    -4.91655e-05    -0.000169695        -0.993185      0.00982214      0.000580765     0.000318457       0.00745969      -0.0733885
281702                -0.0116298      -0.0730438     -0.000399369     0.000285603        -0.993265      0.00872916     -3.25365e-05     -0.00025811
                    -0.000337023     0.000329136       -0.0123284      -0.0735138     -5.40065e-06    -0.000108523        -0.993451      0.00959672
                       -0.993196      0.00870906       6.8252e-05     -0.00019631       0.00695036         -0.0729      0.000435227     0.000333986
                    -4.91428e-05    -0.000169707        -0.993185      0.00985194      0.000580712     0.000318403       0.00745649       -0.073395
281702.1              -0.0116311      -0.0730496     -0.000399364     0.000285595        -0.993264      0.00875888      -3.2616e-05    -0.000258057
                    -0.000337091     0.000329106       -0.0123297      -0.0735197     -5.23925e-06    -0.000108574        -0.993451      0.00962646
                       -0.993195      0.00873874      6.82408e-05    -0.000196309       0.00694719      -0.0729064      0.000435208     0.000333828
                    -4.91201e-05    -0.000169719        -0.993184      0.00988174      0.000580659     0.000318348       0.00745328      -0.0734014
281702.2              -0.0116324      -0.0730555     -0.000399359     0.000285586        -0.993264       0.0087886     -3.26953e-05    -0.000258004
                     -0.00033716     0.000329077        -0.012331      -0.0735255     -5.07817e-06    -0.000108626         -0.99345      0.00965619
                       -0.993195      0.00876843      6.82296e-05    -0.000196307       0.00694402      -0.0729128       0.00043519     0.000333671
                    -4.90975e-05    -0.000169731        -0.993183      0.00991155      0.000580607     0.000318294       0.00745008      -0.0734079
281702.3              -0.0116337      -0.0730614     -0.000399354     0.000285578        -0.993263      0.00881831     -3.27743e-05    -0.000257952
                    -0.000337229     0.000329048       -0.0123323      -0.0735314     -4.91742e-06    -0.000108677        -0.993449      0.00968594
                       -0.993194      0.00879811      6.82185e-05    -0.000196306       0.00694085      -0.0729192      0.000435173     0.000333515
                    -4.90749e-05    -0.000169743        -0.993183      0.00994135      0.000580554      0.00031824       0.00744688      -0.0734143
281702.4              -0.0116349      -0.0730673     -0.000399349      0.00028557        -0.993262      0.00884803     -3.28531e-05    -0.000257899
                    -0.000337297     0.000329019       -0.0123336      -0.0735373       -4.757e-06    -0.000108728        -0.993449      0.00971568
                       -0.993193       0.0088278      6.82073e-05    -0.000196304       0.00693768      -0.0729256      0.000435156     0.000333362
                    -4.90523e-05    -0.000169755        -0.993182      0.00997115      0.000580501     0.000318186       0.00744367      -0.0734208
281702.5              -0.0116362      -0.0730731     -0.000399344     0.000285561        -0.993261      0.00887775     -3.29316e-05    -0.000257848
                    -0.000337366      0.00032899       -0.0123349      -0.0735431      -4.5969e-06    -0.000108779        -0.993448      0.00974543
                       -0.993192      0.00885748      6.81961e-05    -0.000196303       0.00693451       -0.072932      0.000435141      0.00033321
                    -4.90298e-05    -0.000169767        -0.993181       0.0100009      0.000580449     0.000318132       0.00744047      -0.0734272
281702.6              -0.0116375       -0.073079     -0.000399339     0.000285553        -0.993261      0.00890747     -3.30098e-05    -0.000257796
                    -0.000337434     0.000328962       -0.0123362       -0.073549     -4.43713e-06    -0.000108831        -0.993448      0.00977518
                       -0.993191      0.00888717       6.8185e-05    -0.000196301       0.00693134      -0.0729384      0.000435127     0.000333059
                    -4.90073e-05    -0.000169779         -0.99318       0.0100307      0.000580396     0.000318077       0.00743726      -0.0734337
281702.7              -0.0116388      -0.0730849     -0.000399334     0.000285545         -0.99326      0.00893719     -3.30878e-05    -0.000257745
                    -0.000337502     0.000328933       -0.0123375      -0.0735549     -4.27768e-06    -0.000108882        -0.993447      0.00980493
                        -0.99319      0.00891686      6.81738e-05      -0.0001963       0.00692816      -0.0729448      0.000435113     0.000332911
                    -4.89849e-05    -0.000169792         -0.99318       0.0100605      0.000580344     0.000318023       0.00743405      -0.0734401
281702.8              -0.0116401      -0.0730908     -0.000399329     0.000285537        -0.993259       0.0089669     -3.31654e-05    -0.000257695
                     -0.00033757     0.000328905       -0.0123388      -0.0735607     -4.11855e-06    -0.000108933        -0.993446      0.00983469
                       -0.993189      0.00894654      6.81627e-05    -0.000196298       0.00692499      -0.0729512      0.000435101     0.000332764
                    -4.89625e-05    -0.000169804        -0.993179       0.0100903      0.000580291     0.000317969       0.00743085      -0.0734466
281702.9              -0.0116413      -0.0730966     -0.000399324     0.000285529        -0.993259      0.00899662     -3.32427e-05    -0.000257645
                    -0.000337638     0.000328877       -0.0123402      -0.0735666     -3.95975e-06    -0.000108984        -0.993446      0.00986445
                       -0.993189      0.00897623      6.81515e-05    -0.000196297       0.00692182      -0.0729576      0.000435089     0.000332619
                    -4.89402e-05    -0.000169816        -0.993178       0.0101201      0.000580239     0.000317914       0.00742764       -0.073453
281703                -0.0116426      -0.0731025     -0.000399319      0.00028552        -0.993258      0.00902634     -3.33196e-05    -0.000257595
                    -0.000337706     0.000328849       -0.0123415      -0.0735724     -3.80127e-06    -0.000109035        -0.993445      0.00989421
                       -0.993188      0.00900591      6.81404e-05    -0.000196295       0.00691864       -0.072964      0.000435078     0.000332476
                    -4.89179e-05    -0.000169829        -0.993178       0.0101499      0.000580187      0.00031786       0.00742443      -0.0734595
281703.1              -0.0116439      -0.0731084     -0.000399314     0.000285512        -0.993257      0.00905606     -3.33963e-05    -0.000257546
                    -0.000337774     0.000328822       -0.0123428      -0.0735783     -3.64312e-06    -0.000109087        -0.993444      0.00992398
                       -0.993187       0.0090356      6.81293e-05    -0.000196294       0.00691547      -0.0729704      0.000435068     0.000332334
