! TOUCHSTONE file generated by CST MICROWAVE STUDIO
! Date and time: Wed Oct  8 06:50:57 2025
! Project name: Teste_Macro_Metasurface_Nanopilar.cst
! Parameters = {H=600; L_x=70; L_y=160; Lambda=1064; Max_L=200; Min_L=70; PathPara=1; Phi=0; Step_L=10; Theta=0; p=520; phaseX=180; phaseY=0}
! Header version: 2018
! Port assignment regex: !\s*Touchstone port\s*([0-9]+)\s*=\s*(CST MWS port|CST DS port)\s*([0-9]+|Zmin|Zmax)\s*\(\"(.*)\"\)(\s*mode\s*([0-9]+))?.*
! Touchstone port assignment:
! Touchstone port 1 = CST MWS port Zmax ("") mode 1
! Touchstone port 2 = CST MWS port Zmax ("") mode 2
! Touchstone port 3 = CST MWS port Zmin ("") mode 1
! Touchstone port 4 = CST MWS port Zmin ("") mode 2
! S-Parameters are not renormalized. Each port impedance will be approximated by the real part at minimum frequency. The values are described via the [Reference] keyword.
! Default impedance is overridden by [Reference]
[Version] 2.0
# GHz S RI R 376.73
[Number of Ports] 4
[Reference]
376.73 376.73 376.73 376.73 
[Number of Frequencies] 1001
[Network Data]
281700                   0.15214      -0.0544046      4.73332e-05     -0.00039639         0.854745       -0.473615      0.000235638     5.46356e-05
                     0.000222684    -0.000394415          0.11013      -0.0241749     -3.05631e-06    -0.000170609        -0.921949        0.369341
                        0.854784       -0.473683     -2.33613e-05    -0.000136949        -0.131518        0.102806      0.000360909     7.83362e-05
                     0.000193444     8.63631e-05        -0.922034         0.36937      0.000456123     3.74697e-05       -0.0965456       0.0587127
281700.1                0.152134      -0.0544127      4.73271e-05    -0.000396384         0.854729       -0.473645      0.000235638     5.46274e-05
                     0.000222672    -0.000394421         0.110127        -0.02418     -3.06035e-06    -0.000170607        -0.921939        0.369365
                        0.854768       -0.473713     -2.33582e-05    -0.000136944        -0.131514        0.102806      0.000360911     7.83264e-05
                     0.000193443     8.63552e-05        -0.922024        0.369394       0.00045613     3.74551e-05       -0.0965437        0.058712
281700.2                0.152128      -0.0544208      4.73211e-05    -0.000396378         0.854713       -0.473674      0.000235639     5.46191e-05
                     0.000222661    -0.000394427         0.110123      -0.0241851      -3.0644e-06    -0.000170604         -0.92193         0.36939
                        0.854752       -0.473742     -2.33552e-05    -0.000136938        -0.131511        0.102805      0.000360913     7.83166e-05
                     0.000193441     8.63472e-05        -0.922015        0.369419      0.000456137     3.74405e-05       -0.0965418       0.0587112
281700.3                0.152122      -0.0544289       4.7315e-05    -0.000396372         0.854697       -0.473704      0.000235639     5.46109e-05
                     0.000222649    -0.000394433          0.11012      -0.0241902     -3.06845e-06    -0.000170602         -0.92192        0.369415
                        0.854736       -0.473772     -2.33522e-05    -0.000136933        -0.131508        0.102805      0.000360916     7.83068e-05
                      0.00019344     8.63393e-05        -0.922005        0.369444      0.000456144     3.74259e-05       -0.0965398       0.0587105
281700.4                0.152116       -0.054437      4.73089e-05    -0.000396366         0.854681       -0.473734      0.000235639     5.46027e-05
                     0.000222638    -0.000394439         0.110117      -0.0241953     -3.07249e-06      -0.0001706         -0.92191         0.36944
                         0.85472       -0.473801     -2.33492e-05    -0.000136928        -0.131505        0.102805      0.000360918     7.82969e-05
                     0.000193438     8.63314e-05        -0.921996        0.369468      0.000456151     3.74113e-05       -0.0965379       0.0587097
281700.5                0.152111      -0.0544451      4.73028e-05     -0.00039636         0.854665       -0.473763       0.00023564     5.45944e-05
                     0.000222626    -0.000394446         0.110114      -0.0242003     -3.07654e-06    -0.000170598        -0.921901        0.369464
                        0.854704       -0.473831     -2.33462e-05    -0.000136923        -0.131501        0.102804       0.00036092     7.82871e-05
                     0.000193437     8.63235e-05        -0.921986        0.369493      0.000456157     3.73967e-05        -0.096536        0.058709
281700.6                0.152105      -0.0544532      4.72967e-05    -0.000396354         0.854649       -0.473793       0.00023564     5.45862e-05
                     0.000222615    -0.000394452         0.110111      -0.0242054     -3.08058e-06    -0.000170596        -0.921891        0.369489
                        0.854689       -0.473861     -2.33432e-05    -0.000136918        -0.131498        0.102804      0.000360922     7.82773e-05
                     0.000193435     8.63156e-05        -0.921976        0.369518      0.000456164     3.73822e-05        -0.096534       0.0587083
281700.7                0.152099      -0.0544613      4.72906e-05    -0.000396348         0.854634       -0.473822       0.00023564      5.4578e-05
                     0.000222603    -0.000394458         0.110107      -0.0242105     -3.08463e-06    -0.000170594        -0.921881        0.369514
                        0.854673        -0.47389     -2.33402e-05    -0.000136913        -0.131495        0.102803      0.000360924     7.82674e-05
                     0.000193434     8.63077e-05        -0.921967        0.369542      0.000456171     3.73676e-05       -0.0965321       0.0587075
281700.8                0.152093      -0.0544694      4.72845e-05    -0.000396342         0.854618       -0.473852      0.000235641     5.45697e-05
                     0.000222592    -0.000394464         0.110104      -0.0242156     -3.08868e-06    -0.000170592        -0.921872        0.369538
                        0.854657        -0.47392     -2.33372e-05    -0.000136907        -0.131492        0.102803      0.000360926     7.82576e-05
                     0.000193432     8.62998e-05        -0.921957        0.369567      0.000456178      3.7353e-05       -0.0965302       0.0587068
281700.9                0.152087      -0.0544776      4.72784e-05    -0.000396336         0.854602       -0.473882      0.000235641     5.45615e-05
                      0.00022258     -0.00039447         0.110101      -0.0242207     -3.09272e-06     -0.00017059        -0.921862        0.369563
                        0.854641       -0.473949     -2.33342e-05    -0.000136902        -0.131488        0.102802      0.000360928     7.82478e-05
                      0.00019343     8.62919e-05        -0.921948        0.369592      0.000456185     3.73384e-05       -0.0965282        0.058706
281701                  0.152081      -0.0544857      4.72724e-05     -0.00039633         0.854586       -0.473911      0.000235642     5.45533e-05
                     0.000222569    -0.000394476         0.110098      -0.0242257     -3.09677e-06    -0.000170587        -0.921853        0.369588
                        0.854625       -0.473979     -2.33312e-05    -0.000136897        -0.131485        0.102802       0.00036093     7.82379e-05
                     0.000193429      8.6284e-05        -0.921938        0.369617      0.000456192     3.73238e-05       -0.0965263       0.0587053
281701.1                0.152075      -0.0544938      4.72663e-05    -0.000396324          0.85457       -0.473941      0.000235642      5.4545e-05
                     0.000222557    -0.000394483         0.110095      -0.0242308     -3.10082e-06    -0.000170585        -0.921843        0.369612
                        0.854609       -0.474009     -2.33282e-05    -0.000136892        -0.131482        0.102802      0.000360933     7.82281e-05
                     0.000193427     8.62761e-05        -0.921928        0.369641      0.000456199     3.73092e-05       -0.0965244       0.0587045
281701.2                 0.15207      -0.0545019      4.72602e-05    -0.000396318         0.854554        -0.47397      0.000235642     5.45368e-05
                     0.000222546    -0.000394489         0.110091      -0.0242359     -3.10486e-06    -0.000170583        -0.921833        0.369637
                        0.854593       -0.474038     -2.33252e-05    -0.000136887        -0.131479        0.102801      0.000360935     7.82183e-05
                     0.000193426     8.62682e-05        -0.921919        0.369666      0.000456206     3.72946e-05       -0.0965224       0.0587038
281701.3                0.152064        -0.05451      4.72541e-05    -0.000396312         0.854538          -0.474      0.000235643     5.45285e-05
                     0.000222535    -0.000394495         0.110088       -0.024241     -3.10891e-06    -0.000170581        -0.921824        0.369662
                        0.854577       -0.474068     -2.33221e-05    -0.000136882        -0.131476        0.102801      0.000360937     7.82084e-05
                     0.000193424     8.62603e-05        -0.921909        0.369691      0.000456213       3.728e-05       -0.0965205       0.0587031
281701.4                0.152058      -0.0545181       4.7248e-05    -0.000396306         0.854522        -0.47403      0.000235643     5.45203e-05
                     0.000222523    -0.000394501         0.110085       -0.024246     -3.11295e-06    -0.000170579        -0.921814        0.369686
                        0.854562       -0.474097     -2.33191e-05    -0.000136877        -0.131472          0.1028      0.000360939     7.81986e-05
                     0.000193423     8.62524e-05        -0.921899        0.369715       0.00045622     3.72654e-05       -0.0965186       0.0587023
281701.5                0.152052      -0.0545262       4.7242e-05    -0.000396301         0.854507       -0.474059      0.000235643     5.45121e-05
                     0.000222512    -0.000394507         0.110082      -0.0242511       -3.117e-06    -0.000170577        -0.921804        0.369711
                        0.854546       -0.474127     -2.33161e-05    -0.000136871        -0.131469          0.1028      0.000360941     7.81888e-05
                     0.000193421     8.62445e-05         -0.92189         0.36974      0.000456227     3.72508e-05       -0.0965166       0.0587016
281701.6                0.152046      -0.0545343      4.72359e-05    -0.000396295         0.854491       -0.474089      0.000235644     5.45038e-05
                       0.0002225    -0.000394514         0.110079      -0.0242562     -3.12105e-06    -0.000170575        -0.921795        0.369736
                         0.85453       -0.474156     -2.33131e-05    -0.000136866        -0.131466          0.1028      0.000360943     7.81789e-05
                      0.00019342     8.62366e-05         -0.92188        0.369765      0.000456234     3.72362e-05       -0.0965147       0.0587008
281701.7                 0.15204      -0.0545424      4.72298e-05    -0.000396289         0.854475       -0.474118      0.000235644     5.44956e-05
                     0.000222489     -0.00039452         0.110075      -0.0242613     -3.12509e-06    -0.000170573        -0.921785         0.36976
                        0.854514       -0.474186     -2.33101e-05    -0.000136861        -0.131463        0.102799      0.000360945     7.81691e-05
                     0.000193418     8.62287e-05        -0.921871        0.369789      0.000456241     3.72216e-05       -0.0965128       0.0587001
281701.8                0.152034      -0.0545505      4.72238e-05    -0.000396283         0.854459       -0.474148      0.000235645     5.44874e-05
                     0.000222477    -0.000394526         0.110072      -0.0242663     -3.12914e-06     -0.00017057        -0.921775        0.369785
                        0.854498       -0.474216     -2.33071e-05    -0.000136856        -0.131459        0.102799      0.000360947     7.81593e-05
                     0.000193417     8.62208e-05        -0.921861        0.369814      0.000456248      3.7207e-05       -0.0965108       0.0586994
281701.9                0.152029      -0.0545586      4.72177e-05    -0.000396277         0.854443       -0.474178      0.000235645     5.44791e-05
                     0.000222466    -0.000394532         0.110069      -0.0242714     -3.13319e-06    -0.000170568        -0.921766         0.36981
                        0.854482       -0.474245     -2.33041e-05    -0.000136851        -0.131456        0.102798      0.000360949     7.81495e-05
                     0.000193415     8.62129e-05        -0.921851        0.369839      0.000456254     3.71924e-05       -0.0965089       0.0586986
281702                  0.152023      -0.0545667      4.72116e-05    -0.000396271         0.854427       -0.474207      0.000235645     5.44709e-05
                     0.000222454    -0.000394538         0.110066      -0.0242765     -3.13723e-06    -0.000170566        -0.921756        0.369834
                        0.854466       -0.474275     -2.33011e-05    -0.000136846        -0.131453        0.102798      0.000360952     7.81396e-05
                     0.000193414      8.6205e-05        -0.921842        0.369864      0.000456261     3.71778e-05        -0.096507       0.0586979
281702.1                0.152017      -0.0545748      4.72055e-05    -0.000396265         0.854411       -0.474237      0.000235646     5.44627e-05
                     0.000222443    -0.000394545         0.110063      -0.0242816     -3.14128e-06    -0.000170564        -0.921746        0.369859
                         0.85445       -0.474304     -2.32981e-05     -0.00013684         -0.13145        0.102797      0.000360954     7.81298e-05
                     0.000193412     8.61971e-05        -0.921832        0.369888      0.000456268     3.71632e-05        -0.096505       0.0586971
281702.2                0.152011      -0.0545829      4.71995e-05    -0.000396259         0.854395       -0.474266      0.000235646     5.44544e-05
                     0.000222431    -0.000394551         0.110059      -0.0242866     -3.14533e-06    -0.000170562        -0.921737        0.369884
                        0.854434       -0.474334      -2.3295e-05    -0.000136835        -0.131446        0.102797      0.000360956       7.812e-05
                     0.000193411     8.61892e-05        -0.921822        0.369913      0.000456275     3.71486e-05       -0.0965031       0.0586964
281702.3                0.152005       -0.054591      4.71934e-05    -0.000396253         0.854379       -0.474296      0.000235646     5.44462e-05
                      0.00022242    -0.000394557         0.110056      -0.0242917     -3.14937e-06     -0.00017056        -0.921727        0.369908
                        0.854418       -0.474364      -2.3292e-05     -0.00013683        -0.131443        0.102797      0.000360958     7.81101e-05
                     0.000193409     8.61813e-05        -0.921813        0.369938      0.000456282      3.7134e-05       -0.0965012       0.0586956
281702.4                0.151999      -0.0545991      4.71873e-05    -0.000396247         0.854364       -0.474326      0.000235647      5.4438e-05
                     0.000222408    -0.000394563         0.110053      -0.0242968     -3.15342e-06    -0.000170558        -0.921718        0.369933
                        0.854403       -0.474393      -2.3289e-05    -0.000136825         -0.13144        0.102796       0.00036096     7.81003e-05
                     0.000193408     8.61734e-05        -0.921803        0.369962      0.000456289     3.71193e-05       -0.0964992       0.0586949
281702.5                0.151994      -0.0546072      4.71813e-05    -0.000396241         0.854348       -0.474355      0.000235647     5.44297e-05
                     0.000222397    -0.000394569          0.11005      -0.0243019     -3.15746e-06    -0.000170556        -0.921708        0.369958
                        0.854387       -0.474423      -2.3286e-05     -0.00013682        -0.131437        0.102796      0.000360962     7.80905e-05
                     0.000193406     8.61655e-05        -0.921793        0.369987      0.000456296     3.71047e-05       -0.0964973       0.0586942
281702.6                0.151988      -0.0546153      4.71752e-05    -0.000396235         0.854332       -0.474385      0.000235647     5.44215e-05
                     0.000222385    -0.000394575         0.110047       -0.024307     -3.16151e-06    -0.000170553        -0.921698        0.369982
                        0.854371       -0.474452      -2.3283e-05    -0.000136815        -0.131433        0.102795      0.000360964     7.80806e-05
                     0.000193405     8.61576e-05        -0.921784        0.370012      0.000456303     3.70901e-05       -0.0964954       0.0586934
281702.7                0.151982      -0.0546234      4.71692e-05    -0.000396229         0.854316       -0.474414      0.000235648     5.44133e-05
                     0.000222374    -0.000394582         0.110043       -0.024312     -3.16556e-06    -0.000170551        -0.921689        0.370007
                        0.854355       -0.474482       -2.328e-05    -0.000136809         -0.13143        0.102795      0.000360966     7.80708e-05
                     0.000193403     8.61496e-05        -0.921774        0.370036       0.00045631     3.70755e-05       -0.0964934       0.0586927
281702.8                0.151976      -0.0546315      4.71631e-05    -0.000396223           0.8543       -0.474444      0.000235648      5.4405e-05
                     0.000222362    -0.000394588          0.11004      -0.0243171      -3.1696e-06    -0.000170549        -0.921679        0.370032
                        0.854339       -0.474511      -2.3277e-05    -0.000136804        -0.131427        0.102794      0.000360968      7.8061e-05
                     0.000193402     8.61417e-05        -0.921765        0.370061      0.000456317     3.70609e-05       -0.0964915       0.0586919
281702.9                 0.15197      -0.0546396       4.7157e-05    -0.000396218         0.854284       -0.474473      0.000235649     5.43968e-05
                     0.000222351    -0.000394594         0.110037      -0.0243222     -3.17365e-06    -0.000170547        -0.921669        0.370056
                        0.854323       -0.474541     -2.32739e-05    -0.000136799        -0.131424        0.102794      0.000360971     7.80512e-05
                       0.0001934     8.61338e-05        -0.921755        0.370086      0.000456324     3.70463e-05       -0.0964896       0.0586912
281703                  0.151964      -0.0546477       4.7151e-05    -0.000396212         0.854268       -0.474503      0.000235649     5.43886e-05
                     0.000222339      -0.0003946         0.110034      -0.0243273      -3.1777e-06    -0.000170545         -0.92166        0.370081
                        0.854307       -0.474571     -2.32709e-05    -0.000136794         -0.13142        0.102794      0.000360973     7.80413e-05
                     0.000193399     8.61259e-05        -0.921745         0.37011      0.000456331     3.70317e-05       -0.0964876       0.0586905
281703.1                0.151958      -0.0546558      4.71449e-05    -0.000396206         0.854252       -0.474533      0.000235649     5.43803e-05
                     0.000222328    -0.000394606         0.110031      -0.0243323     -3.18174e-06    -0.000170543         -0.92165        0.370106
                        0.854291         -0.4746     -2.32679e-05    -0.000136789        -0.131417        0.102793      0.000360975     7.80315e-05
