! TOUCHSTONE file generated by CST MICROWAVE STUDIO
! Date and time: Wed Oct  8 07:03:39 2025
! Project name: Teste_Macro_Metasurface_Nanopilar.cst
! Parameters = {H=600; L_x=175; L_y=195; Lambda=1064; Max_L=200; Min_L=70; PathPara=1; Phi=0; Step_L=10; Theta=0; p=520; phaseX=180; phaseY=0}
! Header version: 2018
! Port assignment regex: !\s*Touchstone port\s*([0-9]+)\s*=\s*(CST MWS port|CST DS port)\s*([0-9]+|Zmin|Zmax)\s*\(\"(.*)\"\)(\s*mode\s*([0-9]+))?.*
! Touchstone port assignment:
! Touchstone port 1 = CST MWS port Zmax ("") mode 1
! Touchstone port 2 = CST MWS port Zmax ("") mode 2
! Touchstone port 3 = CST MWS port Zmin ("") mode 1
! Touchstone port 4 = CST MWS port Zmin ("") mode 2
! S-Parameters are not renormalized. Each port impedance will be approximated by the real part at minimum frequency. The values are described via the [Reference] keyword.
! Default impedance is overridden by [Reference]
[Version] 2.0
# GHz S RI R 376.73
[Number of Ports] 4
[Reference]
376.73 376.73 376.73 376.73 
[Number of Frequencies] 1001
[Network Data]
281700                -0.0586096       -0.214234      0.000234123     0.000466131        -0.841958        0.476097     -0.000216156     -0.00060521
                     0.000199148     0.000476028        -0.112712       -0.167434     -0.000285461    -0.000454165         -0.97336       0.0718821
                       -0.841698        0.476202     -0.000217574    -0.000324963        -0.148755       -0.153836      0.000298332     0.000637928
                    -0.000199856    -0.000464284        -0.973208        0.071858      0.000334774     0.000569472        0.0839343       -0.181924
281700.1              -0.0586139       -0.214237      0.000234141     0.000466124        -0.841941        0.476125     -0.000216188     -0.00060522
                     0.000199176     0.000476034        -0.112716       -0.167437     -0.000285596    -0.000454318        -0.973357        0.071911
                       -0.841681         0.47623     -0.000217599    -0.000324947        -0.148765       -0.153831      0.000298363     0.000637939
                    -0.000199882    -0.000464275        -0.973205       0.0718869      0.000334963     0.000569445        0.0839265       -0.181933
281700.2              -0.0586182        -0.21424      0.000234159     0.000466117        -0.841923        0.476153      -0.00021622     -0.00060523
                     0.000199205      0.00047604        -0.112719       -0.167441     -0.000285731    -0.000454472        -0.973354       0.0719399
                       -0.841664        0.476259     -0.000217625    -0.000324931        -0.148775       -0.153825      0.000298394     0.000637951
                    -0.000199908    -0.000464266        -0.973202       0.0719158      0.000335154     0.000569417        0.0839188       -0.181943
281700.3              -0.0586225       -0.214243      0.000234177     0.000466111        -0.841906        0.476181     -0.000216252     -0.00060524
                     0.000199234     0.000476045        -0.112723       -0.167445     -0.000285867    -0.000454627        -0.973351       0.0719688
                       -0.841647        0.476287     -0.000217651    -0.000324915        -0.148785        -0.15382      0.000298425     0.000637962
                    -0.000199934    -0.000464257        -0.973199       0.0719447      0.000335347     0.000569389        0.0839111       -0.181952
281700.4              -0.0586268       -0.214245      0.000234195     0.000466104        -0.841889        0.476209     -0.000216284     -0.00060525
                     0.000199263     0.000476051        -0.112727       -0.167448     -0.000286005    -0.000454784        -0.973347       0.0719977
                       -0.841629        0.476315     -0.000217677    -0.000324899        -0.148796       -0.153815      0.000298456     0.000637973
                     -0.00019996    -0.000464248        -0.973196       0.0719736      0.000335541      0.00056936        0.0839033       -0.181961
281700.5              -0.0586311       -0.214248      0.000234213     0.000466097        -0.841871        0.476236     -0.000216316     -0.00060526
                     0.000199291     0.000476057         -0.11273       -0.167452     -0.000286144    -0.000454943        -0.973344       0.0720266
                       -0.841612        0.476343     -0.000217702    -0.000324883        -0.148806       -0.153809      0.000298486     0.000637985
                    -0.000199986    -0.000464239        -0.973192       0.0720025      0.000335736      0.00056933        0.0838956        -0.18197
281700.6              -0.0586354       -0.214251      0.000234231      0.00046609        -0.841854        0.476264     -0.000216348     -0.00060527
                      0.00019932     0.000476062        -0.112734       -0.167455     -0.000286283    -0.000455102        -0.973341       0.0720555
                       -0.841595        0.476371     -0.000217728    -0.000324867        -0.148816       -0.153804      0.000298517     0.000637996
                    -0.000200012     -0.00046423        -0.973189       0.0720314      0.000335932       0.0005693        0.0838878       -0.181979
281700.7              -0.0586398       -0.214254      0.000234249     0.000466084        -0.841836        0.476292      -0.00021638    -0.000605281
                     0.000199349     0.000476068        -0.112738       -0.167459     -0.000286424    -0.000455264        -0.973338       0.0720843
                       -0.841578        0.476399     -0.000217754    -0.000324851        -0.148826       -0.153799      0.000298549     0.000638007
                    -0.000200037    -0.000464221        -0.973186       0.0720603       0.00033613      0.00056927        0.0838801       -0.181989
281700.8              -0.0586441       -0.214256      0.000234267     0.000466077        -0.841819         0.47632     -0.000216412    -0.000605291
                     0.000199377     0.000476073        -0.112741       -0.167463     -0.000286566    -0.000455426        -0.973335       0.0721132
                       -0.841561        0.476427      -0.00021778    -0.000324836        -0.148837       -0.153793       0.00029858     0.000638019
                    -0.000200063    -0.000464212        -0.973183       0.0720892       0.00033633     0.000569239        0.0838723       -0.181998
281700.9              -0.0586484       -0.214259      0.000234286      0.00046607        -0.841801        0.476348     -0.000216444    -0.000605301
                     0.000199406     0.000476079        -0.112745       -0.167466      -0.00028671     -0.00045559        -0.973332       0.0721421
                       -0.841544        0.476455     -0.000217806     -0.00032482        -0.148847       -0.153788      0.000298611      0.00063803
                    -0.000200089    -0.000464203         -0.97318       0.0721181       0.00033653     0.000569207        0.0838646       -0.182007
281701                -0.0586527       -0.214262      0.000234304     0.000466064        -0.841784        0.476376     -0.000216476    -0.000605311
                     0.000199435     0.000476085        -0.112749        -0.16747     -0.000286854    -0.000455756        -0.973328        0.072171
                       -0.841527        0.476483     -0.000217831    -0.000324804        -0.148857       -0.153783      0.000298642     0.000638041
                    -0.000200115    -0.000464194        -0.973176        0.072147      0.000336733     0.000569175        0.0838569       -0.182016
281701.1               -0.058657       -0.214265      0.000234322     0.000466057        -0.841766        0.476404     -0.000216508    -0.000605321
                     0.000199463      0.00047609        -0.112752       -0.167473        -0.000287    -0.000455923        -0.973325       0.0721999
                        -0.84151        0.476511     -0.000217857    -0.000324788        -0.148867       -0.153777      0.000298673     0.000638053
                    -0.000200141    -0.000464185        -0.973173       0.0721759      0.000336936     0.000569142        0.0838491       -0.182025
281701.2              -0.0586613       -0.214268       0.00023434      0.00046605        -0.841749        0.476432      -0.00021654    -0.000605331
                     0.000199492     0.000476096        -0.112756       -0.167477     -0.000287147    -0.000456092        -0.973322       0.0722288
                       -0.841492         0.47654     -0.000217883    -0.000324772        -0.148877       -0.153772      0.000298704     0.000638064
                    -0.000200167    -0.000464176         -0.97317       0.0722048      0.000337142     0.000569109        0.0838414       -0.182035
281701.3              -0.0586657        -0.21427      0.000234358     0.000466043        -0.841731         0.47646     -0.000216572    -0.000605341
                     0.000199521     0.000476101         -0.11276       -0.167481     -0.000287295    -0.000456262        -0.973319       0.0722577
                       -0.841475        0.476568     -0.000217909    -0.000324756        -0.148888       -0.153767      0.000298735     0.000638075
                    -0.000200193    -0.000464167        -0.973167       0.0722337      0.000337348     0.000569075        0.0838336       -0.182044
281701.4                -0.05867       -0.214273      0.000234376     0.000466037        -0.841714        0.476488     -0.000216604    -0.000605351
                      0.00019955     0.000476107        -0.112763       -0.167484     -0.000287445    -0.000456434        -0.973316       0.0722865
                       -0.841458        0.476596     -0.000217935     -0.00032474        -0.148898       -0.153761      0.000298766     0.000638087
                    -0.000200219    -0.000464158        -0.973164       0.0722626      0.000337557      0.00056904        0.0838259       -0.182053
281701.5              -0.0586743       -0.214276      0.000234394      0.00046603        -0.841696        0.476516     -0.000216636    -0.000605361
                     0.000199578     0.000476113        -0.112767       -0.167488     -0.000287595    -0.000456607        -0.973312       0.0723154
                       -0.841441        0.476624      -0.00021796    -0.000324724        -0.148908       -0.153756      0.000298797     0.000638098
                    -0.000200244    -0.000464149         -0.97316       0.0722915      0.000337766     0.000569005        0.0838181       -0.182062
281701.6              -0.0586786       -0.214279      0.000234412     0.000466023        -0.841679        0.476544     -0.000216668    -0.000605371
                     0.000199607     0.000476118         -0.11277       -0.167491     -0.000287747    -0.000456782        -0.973309       0.0723443
                       -0.841424        0.476652     -0.000217986    -0.000324708        -0.148918       -0.153751      0.000298828     0.000638109
                     -0.00020027     -0.00046414        -0.973157       0.0723204      0.000337978     0.000568968        0.0838104       -0.182071
281701.7              -0.0586829       -0.214281       0.00023443     0.000466017        -0.841662        0.476572       -0.0002167    -0.000605381
                     0.000199636     0.000476124        -0.112774       -0.167495     -0.000287901    -0.000456959        -0.973306       0.0723732
                       -0.841407         0.47668     -0.000218012    -0.000324692        -0.148929       -0.153745      0.000298859     0.000638121
                    -0.000200296     -0.00046413        -0.973154       0.0723493       0.00033819     0.000568932        0.0838026       -0.182081
281701.8              -0.0586872       -0.214284      0.000234449      0.00046601        -0.841644        0.476599     -0.000216733    -0.000605391
                     0.000199665     0.000476129        -0.112778       -0.167499     -0.000288056    -0.000457137        -0.973303       0.0724021
                        -0.84139        0.476708     -0.000218038    -0.000324676        -0.148939        -0.15374      0.000298891     0.000638132
                    -0.000200322    -0.000464121        -0.973151       0.0723782      0.000338405     0.000568894        0.0837949        -0.18209
281701.9              -0.0586915       -0.214287      0.000234467     0.000466003        -0.841627        0.476627     -0.000216765    -0.000605401
                     0.000199693     0.000476135        -0.112781       -0.167502     -0.000288212    -0.000457317          -0.9733        0.072431
                       -0.841373        0.476736     -0.000218064     -0.00032466        -0.148949       -0.153735      0.000298922     0.000638143
                    -0.000200348    -0.000464112        -0.973148       0.0724071      0.000338621     0.000568856        0.0837871       -0.182099
281702                -0.0586959        -0.21429      0.000234485     0.000465996        -0.841609        0.476655     -0.000216797    -0.000605411
                     0.000199722      0.00047614        -0.112785       -0.167506     -0.000288369    -0.000457499        -0.973297       0.0724599
                       -0.841355        0.476764      -0.00021809    -0.000324644        -0.148959       -0.153729      0.000298953     0.000638154
                    -0.000200374    -0.000464103        -0.973144        0.072436      0.000338838     0.000568817        0.0837794       -0.182108
281702.1              -0.0587002       -0.214293      0.000234503      0.00046599        -0.841592        0.476683     -0.000216829    -0.000605421
                     0.000199751     0.000476146        -0.112789       -0.167509     -0.000288528    -0.000457682        -0.973293       0.0724887
                       -0.841338        0.476792     -0.000218116    -0.000324628         -0.14897       -0.153724      0.000298984     0.000638166
                      -0.0002004    -0.000464094        -0.973141       0.0724649      0.000339058     0.000568777        0.0837716       -0.182117
281702.2              -0.0587045       -0.214295      0.000234521     0.000465983        -0.841574        0.476711     -0.000216861    -0.000605431
                     0.000199779     0.000476151        -0.112792       -0.167513     -0.000288689    -0.000457867         -0.97329       0.0725176
                       -0.841321         0.47682     -0.000218141    -0.000324612         -0.14898       -0.153719      0.000299015     0.000638177
                    -0.000200426    -0.000464085        -0.973138       0.0724938      0.000339278     0.000568737        0.0837639       -0.182127
281702.3              -0.0587088       -0.214298      0.000234539     0.000465976        -0.841557        0.476739     -0.000216893    -0.000605441
                     0.000199808     0.000476157        -0.112796       -0.167517     -0.000288851    -0.000458053        -0.973287       0.0725465
                       -0.841304        0.476849     -0.000218167    -0.000324596         -0.14899       -0.153713      0.000299047     0.000638188
                    -0.000200451    -0.000464076        -0.973135       0.0725227      0.000339501     0.000568696        0.0837561       -0.182136
281702.4              -0.0587131       -0.214301      0.000234558     0.000465969        -0.841539        0.476767     -0.000216926    -0.000605451
                     0.000199837     0.000476162          -0.1128        -0.16752     -0.000289014    -0.000458242        -0.973284       0.0725754
                       -0.841287        0.476877     -0.000218193     -0.00032458           -0.149       -0.153708      0.000299078     0.000638199
                    -0.000200477    -0.000464067        -0.973131       0.0725516      0.000339725     0.000568654        0.0837484       -0.182145
281702.5              -0.0587174       -0.214304      0.000234576     0.000465963        -0.841522        0.476795     -0.000216958    -0.000605461
                     0.000199866     0.000476168        -0.112803       -0.167524     -0.000289179    -0.000458432        -0.973281       0.0726043
                        -0.84127        0.476905     -0.000218219    -0.000324565         -0.14901       -0.153703      0.000299109     0.000638211
                    -0.000200503    -0.000464058        -0.973128       0.0725805      0.000339951     0.000568611        0.0837406       -0.182154
281702.6              -0.0587217       -0.214306      0.000234594     0.000465956        -0.841504        0.476823      -0.00021699    -0.000605471
                     0.000199894     0.000476174        -0.112807       -0.167527     -0.000289346    -0.000458624        -0.973277       0.0726332
                       -0.841253        0.476933     -0.000218245    -0.000324549        -0.149021       -0.153697      0.000299141     0.000638222
                    -0.000200529    -0.000464049        -0.973125       0.0726094      0.000340178     0.000568567        0.0837329       -0.182163
281702.7              -0.0587261       -0.214309      0.000234612     0.000465949        -0.841487        0.476851     -0.000217022    -0.000605481
                     0.000199923     0.000476179        -0.112811       -0.167531     -0.000289514    -0.000458817        -0.973274       0.0726621
                       -0.841235        0.476961     -0.000218271    -0.000324533        -0.149031       -0.153692      0.000299172     0.000638233
                    -0.000200555     -0.00046404        -0.973122       0.0726383      0.000340407     0.000568522        0.0837251       -0.182172
281702.8              -0.0587304       -0.214312       0.00023463     0.000465942        -0.841469        0.476879     -0.000217055    -0.000605491
                     0.000199952     0.000476185        -0.112814       -0.167535     -0.000289683    -0.000459013        -0.973271       0.0726909
                       -0.841218        0.476989     -0.000218297    -0.000324517        -0.149041       -0.153687      0.000299203     0.000638244
                    -0.000200581     -0.00046403        -0.973119       0.0726672      0.000340638     0.000568477        0.0837174       -0.182182
281702.9              -0.0587347       -0.214315      0.000234648     0.000465936        -0.841452        0.476907     -0.000217087    -0.000605501
                     0.000199981      0.00047619        -0.112818       -0.167538     -0.000289855     -0.00045921        -0.973268       0.0727198
                       -0.841201        0.477017     -0.000218323    -0.000324501        -0.149051       -0.153681      0.000299234     0.000638255
                    -0.000200607    -0.000464021        -0.973115       0.0726961      0.000340871     0.000568431        0.0837096       -0.182191
281703                 -0.058739       -0.214317      0.000234667     0.000465929        -0.841434        0.476935     -0.000217119    -0.000605511
                     0.000200009     0.000476196        -0.112822       -0.167542     -0.000290027    -0.000459409        -0.973265       0.0727487
                       -0.841184        0.477045     -0.000218349    -0.000324485        -0.149062       -0.153676      0.000299266     0.000638267
                    -0.000200632    -0.000464012        -0.973112        0.072725      0.000341105     0.000568383        0.0837018         -0.1822
281703.1              -0.0587433        -0.21432      0.000234685     0.000465922        -0.841417        0.476963     -0.000217152    -0.000605521
                     0.000200038     0.000476201        -0.112825       -0.167545     -0.000290202     -0.00045961        -0.973261       0.0727776
                       -0.841167        0.477073     -0.000218375    -0.000324469        -0.149072        -0.15367      0.000299297     0.000638278
