! TOUCHSTONE file generated by CST MICROWAVE STUDIO
! Date and time: Wed Oct  8 07:03:53 2025
! Project name: Teste_Macro_Metasurface_Nanopilar.cst
! Parameters = {H=600; L_x=180; L_y=115; Lambda=1064; Max_L=200; Min_L=70; PathPara=1; Phi=0; Step_L=10; Theta=0; p=520; phaseX=180; phaseY=0}
! Header version: 2018
! Port assignment regex: !\s*Touchstone port\s*([0-9]+)\s*=\s*(CST MWS port|CST DS port)\s*([0-9]+|Zmin|Zmax)\s*\(\"(.*)\"\)(\s*mode\s*([0-9]+))?.*
! Touchstone port assignment:
! Touchstone port 1 = CST MWS port Zmax ("") mode 1
! Touchstone port 2 = CST MWS port Zmax ("") mode 2
! Touchstone port 3 = CST MWS port Zmin ("") mode 1
! Touchstone port 4 = CST MWS port Zmin ("") mode 2
! S-Parameters are not renormalized. Each port impedance will be approximated by the real part at minimum frequency. The values are described via the [Reference] keyword.
! Default impedance is overridden by [Reference]
[Version] 2.0
# GHz S RI R 376.73
[Number of Ports] 4
[Reference]
376.73 376.73 376.73 376.73 
[Number of Frequencies] 1001
[Network Data]
281700                 -0.237874       -0.103263      0.000856393    -0.000608126         0.144915       -0.947686     -0.000154898    -0.000349094
                     0.000665954    -0.000375143         -0.26199        0.389462      -0.00013667    -0.000102605        -0.565583       -0.664194
                        0.145146       -0.948249      0.000345853     0.000253025        -0.258084       0.0280328       0.00118989     0.000137502
                    -0.000157791    -0.000481339        -0.565863       -0.664085       0.00080413     7.23579e-06         -0.43179        0.180903
281700.1               -0.237877       -0.103254       0.00086823    -0.000608773         0.144885       -0.947691     -0.000154904    -0.000349079
                     0.000665937     -0.00037516        -0.261974        0.389463     -0.000136666    -0.000102599        -0.565608       -0.664178
                        0.145116       -0.948253      0.000336836     0.000259195        -0.258083       0.0280396       0.00118989     0.000137432
                    -0.000157795    -0.000481318        -0.565888       -0.664069      0.000804118     7.20349e-06        -0.431776        0.180917
281700.2                -0.23788       -0.103246      0.000880911    -0.000608716         0.144856       -0.947695      -0.00015491    -0.000349064
                     0.000665919    -0.000375177        -0.261959        0.389464     -0.000136662    -0.000102594        -0.565633       -0.664163
                        0.145087       -0.948258      0.000327399     0.000264839        -0.258082       0.0280465       0.00118989     0.000137362
                    -0.000157798    -0.000481296        -0.565914       -0.664054      0.000804105     7.17118e-06        -0.431762         0.18093
281700.3               -0.237884       -0.103238      0.000894437    -0.000607802         0.144827         -0.9477     -0.000154915    -0.000349049
                     0.000665902    -0.000375194        -0.261943        0.389465     -0.000136658    -0.000102588        -0.565658       -0.664147
                        0.145058       -0.948263      0.000317599     0.000269912        -0.258081       0.0280534       0.00118989     0.000137293
                    -0.000157802    -0.000481275        -0.565939       -0.664038      0.000804093     7.13888e-06        -0.431748        0.180943
281700.4               -0.237887       -0.103229      0.000908787    -0.000605854         0.144797       -0.947705     -0.000154921    -0.000349034
                     0.000665885    -0.000375211        -0.261927        0.389466     -0.000136654    -0.000102582        -0.565683       -0.664132
                        0.145028       -0.948267      0.000307497     0.000274377         -0.25808       0.0280603       0.00118989     0.000137223
                    -0.000157806    -0.000481253        -0.565964       -0.664022      0.000804081     7.10657e-06        -0.431734        0.180957
281700.5                -0.23789       -0.103221      0.000923904     -0.00060268         0.144768       -0.947709     -0.000154926    -0.000349019
                     0.000665868    -0.000375228        -0.261912        0.389467      -0.00013665    -0.000102576        -0.565708       -0.664116
                        0.144999       -0.948272      0.000297164     0.000278204        -0.258079       0.0280672        0.0011899     0.000137153
                    -0.000157809    -0.000481232         -0.56599       -0.664007      0.000804069     7.07427e-06         -0.43172         0.18097
281700.6               -0.237894       -0.103212      0.000939694    -0.000598076         0.144738       -0.947714     -0.000154932    -0.000349004
                     0.000665851    -0.000375245        -0.261896        0.389468     -0.000136646     -0.00010257        -0.565733       -0.664101
                        0.144969       -0.948276       0.00028667     0.000281375        -0.258077       0.0280741        0.0011899     0.000137084
                    -0.000157813     -0.00048121        -0.566015       -0.663991      0.000804056     7.04197e-06        -0.431706        0.180984
281700.7               -0.237897       -0.103204      0.000956009    -0.000591835         0.144709       -0.947718     -0.000154938    -0.000348989
                     0.000665833    -0.000375262        -0.261881        0.389469     -0.000136642    -0.000102565        -0.565758       -0.664085
                         0.14494       -0.948281      0.000276092     0.000283881        -0.258076        0.028081        0.0011899     0.000137014
                    -0.000157817    -0.000481189         -0.56604       -0.663975      0.000804044     7.00967e-06        -0.431692        0.180997
281700.8                 -0.2379       -0.103196      0.000972647    -0.000583757          0.14468       -0.947723     -0.000154944    -0.000348974
                     0.000665816    -0.000375278        -0.261865         0.38947     -0.000136638    -0.000102559        -0.565783       -0.664069
                         0.14491       -0.948286      0.000265504     0.000285725        -0.258075       0.0280879        0.0011899     0.000136945
                    -0.000157821    -0.000481167        -0.566066        -0.66396      0.000804032     6.97737e-06        -0.431677        0.181011
281700.9               -0.237904       -0.103187      0.000989343    -0.000573668          0.14465       -0.947727     -0.000154949    -0.000348959
                     0.000665799    -0.000375295        -0.261849         0.38947     -0.000136633    -0.000102553        -0.565808       -0.664054
                        0.144881        -0.94829      0.000254979     0.000286919        -0.258074       0.0280948        0.0011899     0.000136875
                    -0.000157824    -0.000481146        -0.566091       -0.663944       0.00080402     6.94507e-06        -0.431663        0.181024
281701                 -0.237907       -0.103179       0.00100577    -0.000561438         0.144621       -0.947732     -0.000154955    -0.000348944
                     0.000665782    -0.000375312        -0.261834        0.389471     -0.000136629    -0.000102547        -0.565833       -0.664038
                        0.144852       -0.948295      0.000244589     0.000287485        -0.258073       0.0281017        0.0011899     0.000136805
                    -0.000157828    -0.000481124        -0.566116       -0.663928      0.000804007     6.91277e-06        -0.431649        0.181037
281701.1                -0.23791        -0.10317       0.00102155    -0.000547006         0.144591       -0.947737     -0.000154961    -0.000348929
                     0.000665765    -0.000375329        -0.261818        0.389472     -0.000136625    -0.000102541        -0.565858       -0.664023
                        0.144822       -0.948299      0.000234399     0.000287455        -0.258072       0.0281086        0.0011899     0.000136736
                    -0.000157832    -0.000481103        -0.566142       -0.663913      0.000803995     6.88048e-06        -0.431635        0.181051
281701.2               -0.237914       -0.103162       0.00103626    -0.000530397         0.144562       -0.947741     -0.000154966    -0.000348914
                     0.000665748    -0.000375346        -0.261802        0.389473     -0.000136621    -0.000102536        -0.565883       -0.664007
                        0.144793       -0.948304      0.000224469     0.000286868        -0.258071       0.0281155        0.0011899     0.000136666
                    -0.000157835    -0.000481081        -0.566167       -0.663897      0.000803983     6.84818e-06        -0.431621        0.181064
281701.3               -0.237917       -0.103153       0.00104946    -0.000511745         0.144533       -0.947746     -0.000154972    -0.000348899
                      0.00066573    -0.000375363        -0.261787        0.389474     -0.000136617     -0.00010253        -0.565908       -0.663992
                        0.144763       -0.948309      0.000214852      0.00028577         -0.25807       0.0281224        0.0011899     0.000136597
                    -0.000157839     -0.00048106        -0.566192       -0.663881      0.000803971     6.81589e-06        -0.431607        0.181078
281701.4                -0.23792       -0.103145       0.00106075    -0.000491296         0.144503        -0.94775     -0.000154978    -0.000348884
                     0.000665713     -0.00037538        -0.261771        0.389475     -0.000136613    -0.000102524        -0.565933       -0.663976
                        0.144734       -0.948313      0.000205595      0.00028421        -0.258069       0.0281293        0.0011899     0.000136527
                    -0.000157843    -0.000481038        -0.566217       -0.663866      0.000803958     6.78359e-06        -0.431593        0.181091
281701.5               -0.237924       -0.103137       0.00106976    -0.000469412         0.144474       -0.947755     -0.000154984    -0.000348869
                     0.000665696    -0.000375397        -0.261756        0.389476     -0.000136609    -0.000102518        -0.565958        -0.66396
                        0.144705       -0.948318      0.000196735     0.000282244        -0.258068       0.0281361        0.0011899     0.000136457
                    -0.000157846    -0.000481017        -0.566243        -0.66385      0.000803946      6.7513e-06        -0.431579        0.181104
281701.6               -0.237927       -0.103128       0.00107624    -0.000446547         0.144444       -0.947759     -0.000154989    -0.000348854
                     0.000665679    -0.000375414         -0.26174        0.389477     -0.000136605    -0.000102512        -0.565983       -0.663945
                        0.144675       -0.948322      0.000188303     0.000279929        -0.258067        0.028143        0.0011899     0.000136388
                     -0.00015785    -0.000480995        -0.566268       -0.663834      0.000803934     6.71901e-06        -0.431565        0.181118
281701.7                -0.23793        -0.10312       0.00108004    -0.000423216         0.144415       -0.947764     -0.000154995    -0.000348839
                     0.000665662    -0.000375431        -0.261724        0.389478       -0.0001366    -0.000102507        -0.566008       -0.663929
                        0.144646       -0.948327      0.000180321     0.000277321        -0.258066       0.0281499        0.0011899     0.000136318
                    -0.000157854    -0.000480974        -0.566293       -0.663819      0.000803922     6.68672e-06        -0.431551        0.181131
281701.8               -0.237934       -0.103111       0.00108115     -0.00039996         0.144386       -0.947769     -0.000155001    -0.000348824
                     0.000665644    -0.000375448        -0.261709        0.389479     -0.000136596    -0.000102501        -0.566033       -0.663914
                        0.144616       -0.948332      0.000172805     0.000274478        -0.258065       0.0281568        0.0011899     0.000136249
                    -0.000157858    -0.000480952        -0.566318       -0.663803      0.000803909     6.65443e-06        -0.431536        0.181145
281701.9               -0.237937       -0.103103        0.0010797    -0.000377297         0.144356       -0.947773     -0.000155007    -0.000348809
                     0.000665627    -0.000375465        -0.261693         0.38948     -0.000136592    -0.000102495        -0.566058       -0.663898
                        0.144587       -0.948336      0.000165764     0.000271457        -0.258064       0.0281637       0.00118991     0.000136179
                    -0.000157861    -0.000480931        -0.566344       -0.663787      0.000803897     6.62214e-06        -0.431522        0.181158
281702                  -0.23794       -0.103094       0.00107593    -0.000355685         0.144327       -0.947778     -0.000155012    -0.000348794
                      0.00066561    -0.000375482        -0.261677        0.389481     -0.000136588    -0.000102489        -0.566083       -0.663882
                        0.144557       -0.948341      0.000159203     0.000268312        -0.258063       0.0281706       0.00118991      0.00013611
                    -0.000157865    -0.000480909        -0.566369       -0.663772      0.000803885     6.58985e-06        -0.431508        0.181172
281702.1               -0.237944       -0.103086        0.0010702    -0.000335494         0.144297       -0.947782     -0.000155018    -0.000348779
                     0.000665593    -0.000375499        -0.261662        0.389482     -0.000136584    -0.000102483        -0.566108       -0.663867
                        0.144528       -0.948345      0.000153118     0.000265094        -0.258061       0.0281775       0.00118991      0.00013604
                    -0.000157869    -0.000480888        -0.566394       -0.663756      0.000803873     6.55757e-06        -0.431494        0.181185
281702.2               -0.237947       -0.103078       0.00106289     -0.00031699         0.144268       -0.947787     -0.000155024    -0.000348764
                     0.000665576    -0.000375516        -0.261646        0.389483      -0.00013658    -0.000102477        -0.566133       -0.663851
                        0.144499        -0.94835      0.000147504     0.000261852         -0.25806       0.0281844       0.00118991     0.000135971
                    -0.000157873    -0.000480866        -0.566419        -0.66374       0.00080386     6.52528e-06         -0.43148        0.181198
281702.3                -0.23795       -0.103069       0.00105442    -0.000300333         0.144239       -0.947791      -0.00015503    -0.000348749
                     0.000665559    -0.000375533        -0.261631        0.389484     -0.000136575    -0.000102472        -0.566158       -0.663836
                        0.144469       -0.948355      0.000142353     0.000258631        -0.258059       0.0281913       0.00118991     0.000135901
                    -0.000157876    -0.000480845        -0.566444       -0.663725      0.000803848       6.493e-06        -0.431466        0.181212
281702.4               -0.237954       -0.103061       0.00104519    -0.000285584         0.144209       -0.947796     -0.000155036    -0.000348734
                     0.000665541     -0.00037555        -0.261615        0.389485     -0.000136571    -0.000102466        -0.566183        -0.66382
                         0.14444       -0.948359      0.000137653     0.000255474        -0.258058       0.0281982       0.00118991     0.000135832
                     -0.00015788    -0.000480823        -0.566469       -0.663709      0.000803836     6.46072e-06        -0.431452        0.181225
281702.5               -0.237957       -0.103052       0.00103559    -0.000272723          0.14418         -0.9478     -0.000155042    -0.000348719
                     0.000665524    -0.000375567        -0.261599        0.389486     -0.000136567     -0.00010246        -0.566208       -0.663804
                         0.14441       -0.948364       0.00013339     0.000252418        -0.258057       0.0282051       0.00118991     0.000135762
                    -0.000157884    -0.000480801        -0.566495       -0.663694      0.000803824     6.42843e-06        -0.431438        0.181239
281702.6                -0.23796       -0.103044       0.00102596    -0.000261671          0.14415       -0.947805     -0.000155047    -0.000348704
                     0.000665507    -0.000375584        -0.261584        0.389487     -0.000136563    -0.000102454        -0.566233       -0.663789
                        0.144381       -0.948368      0.000129549     0.000249499        -0.258056        0.028212       0.00118991     0.000135693
                    -0.000157888     -0.00048078         -0.56652       -0.663678      0.000803811     6.39615e-06        -0.431424        0.181252
281702.7               -0.237963       -0.103035       0.00101656    -0.000252304         0.144121        -0.94781     -0.000155053    -0.000348689
                      0.00066549    -0.000375601        -0.261568        0.389488     -0.000136559    -0.000102448        -0.566259       -0.663773
                        0.144351       -0.948373      0.000126118     0.000246749        -0.258055       0.0282189       0.00118991     0.000135623
                    -0.000157891    -0.000480758        -0.566545       -0.663662      0.000803799     6.36387e-06        -0.431409        0.181265
281702.8               -0.237967       -0.103027       0.00100765    -0.000244474         0.144092       -0.947814     -0.000155059    -0.000348674
                     0.000665473    -0.000375618        -0.261552        0.389489     -0.000136554    -0.000102443        -0.566284       -0.663758
                        0.144322       -0.948377      0.000123079     0.000244195        -0.258054       0.0282258       0.00118991     0.000135554
                    -0.000157895    -0.000480737         -0.56657       -0.663647      0.000803787     6.33159e-06        -0.431395        0.181279
281702.9                -0.23797       -0.103019        0.0009994    -0.000238024         0.144062       -0.947819     -0.000155065    -0.000348659
                     0.000665456    -0.000375635        -0.261537         0.38949      -0.00013655    -0.000102437        -0.566309       -0.663742
                        0.144293       -0.948382      0.000120421     0.000241864        -0.258053       0.0282326       0.00118991     0.000135484
                    -0.000157899    -0.000480715        -0.566595       -0.663631      0.000803775     6.29931e-06        -0.431381        0.181292
281703                 -0.237973        -0.10301      0.000991958    -0.000232801         0.144033       -0.947823     -0.000155071    -0.000348644
                     0.000665438    -0.000375652        -0.261521        0.389491     -0.000136546    -0.000102431        -0.566334       -0.663726
                        0.144263       -0.948387       0.00011813     0.000239779        -0.258052       0.0282395       0.00118991     0.000135415
                    -0.000157903    -0.000480694         -0.56662       -0.663615      0.000803762     6.26704e-06        -0.431367        0.181306
281703.1               -0.237977       -0.103002      0.000985435    -0.000228661         0.144003       -0.947828     -0.000155077    -0.000348629
                     0.000665421    -0.000375669        -0.261505        0.389492     -0.000136542    -0.000102425        -0.566359       -0.663711
                        0.144234       -0.948391      0.000116195     0.000237961        -0.258051       0.0282464       0.00118991     0.000135346
