! TOUCHSTONE file generated by CST MICROWAVE STUDIO
! Date and time: Wed Oct  8 07:03:44 2025
! Project name: Teste_Macro_Metasurface_Nanopilar.cst
! Parameters = {H=600; L_x=180; L_y=80; Lambda=1064; Max_L=200; Min_L=70; PathPara=1; Phi=0; Step_L=10; Theta=0; p=520; phaseX=180; phaseY=0}
! Header version: 2018
! Port assignment regex: !\s*Touchstone port\s*([0-9]+)\s*=\s*(CST MWS port|CST DS port)\s*([0-9]+|Zmin|Zmax)\s*\(\"(.*)\"\)(\s*mode\s*([0-9]+))?.*
! Touchstone port assignment:
! Touchstone port 1 = CST MWS port Zmax ("") mode 1
! Touchstone port 2 = CST MWS port Zmax ("") mode 2
! Touchstone port 3 = CST MWS port Zmin ("") mode 1
! Touchstone port 4 = CST MWS port Zmin ("") mode 2
! S-Parameters are not renormalized. Each port impedance will be approximated by the real part at minimum frequency. The values are described via the [Reference] keyword.
! Default impedance is overridden by [Reference]
[Version] 2.0
# GHz S RI R 376.73
[Number of Ports] 4
[Reference]
376.73 376.73 376.73 376.73 
[Number of Frequencies] 1001
[Network Data]
281700                 0.0207131       -0.148767     -0.000310903    -5.11512e-07        -0.681196        0.714888      0.000501754    -0.000241729
                    -0.000316984    -3.09442e-06        -0.152141      -0.0763465      -0.00038374    -0.000237046        -0.475909       -0.856251
                       -0.681214        0.714443     -0.000410293    -0.000310592        -0.147762       0.0282777      0.000528151     0.000162214
                     0.000648304    -1.85219e-05        -0.476348       -0.855817      0.000378463     9.41682e-05        -0.016659        0.167436
281700.1               0.0207065       -0.148767     -0.000310903    -5.01943e-07        -0.681176        0.714907      0.000501742    -0.000241736
                     -0.00031699    -3.09287e-06        -0.152137      -0.0763428     -0.000383751    -0.000237031        -0.475938       -0.856236
                       -0.681194        0.714462     -0.000410311    -0.000310583        -0.147761       0.0282792      0.000528152     0.000162191
                     0.000648298    -1.85356e-05        -0.476377       -0.855802      0.000378467     9.41535e-05       -0.0166495        0.167432
281700.2               0.0206998       -0.148768     -0.000310903    -4.92374e-07        -0.681157        0.714926      0.000501731    -0.000241743
                    -0.000316995    -3.09131e-06        -0.152134       -0.076339     -0.000383762    -0.000237017        -0.475966       -0.856221
                       -0.681175         0.71448     -0.000410329    -0.000310574        -0.147761       0.0282806      0.000528154     0.000162167
                     0.000648292    -1.85493e-05        -0.476405       -0.855787      0.000378471     9.41389e-05         -0.01664        0.167428
281700.3               0.0206932       -0.148768     -0.000310903    -4.82805e-07        -0.681137        0.714944       0.00050172    -0.000241749
                    -0.000317001    -3.08975e-06         -0.15213      -0.0763353     -0.000383773    -0.000237002        -0.475994       -0.856207
                       -0.681155        0.714499     -0.000410348    -0.000310565         -0.14776       0.0282821      0.000528155     0.000162143
                     0.000648287     -1.8563e-05        -0.476433       -0.855773      0.000378475     9.41243e-05       -0.0166305        0.167424
281700.4               0.0206866       -0.148769     -0.000310903    -4.73236e-07        -0.681118        0.714963      0.000501709    -0.000241756
                    -0.000317007    -3.08819e-06        -0.152127      -0.0763315     -0.000383784    -0.000236988        -0.476022       -0.856192
                       -0.681136        0.714518     -0.000410366    -0.000310556        -0.147759       0.0282835      0.000528156     0.000162119
                     0.000648281    -1.85767e-05        -0.476461       -0.855758      0.000378478     9.41096e-05        -0.016621         0.16742
281700.5               0.0206799       -0.148769     -0.000310903    -4.63667e-07        -0.681098        0.714982      0.000501698    -0.000241763
                    -0.000317012    -3.08663e-06        -0.152123      -0.0763278     -0.000383794    -0.000236974         -0.47605       -0.856177
                       -0.681116        0.714536     -0.000410385    -0.000310547        -0.147758        0.028285      0.000528157     0.000162095
                     0.000648275    -1.85904e-05        -0.476489       -0.855743      0.000378482      9.4095e-05       -0.0166115        0.167416
281700.6               0.0206733        -0.14877     -0.000310903    -4.54097e-07        -0.681079           0.715      0.000501686     -0.00024177
                    -0.000317018    -3.08507e-06         -0.15212       -0.076324     -0.000383805    -0.000236959        -0.476078       -0.856163
                       -0.681097        0.714555     -0.000410403    -0.000310538        -0.147758       0.0282865      0.000528158     0.000162071
                     0.000648269    -1.86041e-05        -0.476517       -0.855729      0.000378486     9.40804e-05        -0.016602        0.167412
281700.7               0.0206667        -0.14877     -0.000310903    -4.44528e-07        -0.681059        0.715019      0.000501675    -0.000241777
                    -0.000317024    -3.08351e-06        -0.152117      -0.0763203     -0.000383816    -0.000236945        -0.476106       -0.856148
                       -0.681077        0.714574     -0.000410421    -0.000310529        -0.147757       0.0282879      0.000528159     0.000162047
                     0.000648263    -1.86178e-05        -0.476545       -0.855714       0.00037849     9.40658e-05       -0.0165925        0.167408
281700.8                 0.02066       -0.148771     -0.000310903    -4.34959e-07         -0.68104        0.715038      0.000501664    -0.000241784
                    -0.000317029    -3.08195e-06        -0.152113      -0.0763165     -0.000383827     -0.00023693        -0.476134       -0.856133
                       -0.681058        0.714592      -0.00041044    -0.000310519        -0.147756       0.0282894       0.00052816     0.000162023
                     0.000648258    -1.86315e-05        -0.476573       -0.855699      0.000378494     9.40511e-05        -0.016583        0.167404
281700.9               0.0206534       -0.148771     -0.000310903     -4.2539e-07         -0.68102        0.715056      0.000501653    -0.000241791
                    -0.000317035    -3.08039e-06         -0.15211      -0.0763128     -0.000383838    -0.000236916        -0.476162       -0.856119
                       -0.681038        0.714611     -0.000410458     -0.00031051        -0.147756       0.0282909      0.000528161        0.000162
                     0.000648252    -1.86452e-05        -0.476601       -0.855685      0.000378497     9.40365e-05       -0.0165734          0.1674
281701                 0.0206467       -0.148772     -0.000310903    -4.15821e-07        -0.681001        0.715075      0.000501642    -0.000241798
                    -0.000317041    -3.07883e-06        -0.152106       -0.076309     -0.000383848    -0.000236902        -0.476191       -0.856104
                       -0.681019         0.71463     -0.000410477    -0.000310501        -0.147755       0.0282923      0.000528162     0.000161976
                     0.000648246    -1.86589e-05         -0.47663        -0.85567      0.000378501     9.40219e-05       -0.0165639        0.167396
281701.1               0.0206401       -0.148772     -0.000310903    -4.06252e-07        -0.680981        0.715094       0.00050163    -0.000241805
                    -0.000317046    -3.07727e-06        -0.152103      -0.0763053     -0.000383859    -0.000236887        -0.476219       -0.856089
                       -0.680999        0.714648     -0.000410495    -0.000310492        -0.147754       0.0282938      0.000528164     0.000161952
                      0.00064824    -1.86725e-05        -0.476658       -0.855655      0.000378505     9.40072e-05       -0.0165544        0.167392
281701.2               0.0206335       -0.148773     -0.000310904    -3.96683e-07        -0.680962        0.715112      0.000501619    -0.000241812
                    -0.000317052    -3.07571e-06        -0.152099      -0.0763015      -0.00038387    -0.000236873        -0.476247       -0.856075
                        -0.68098        0.714667     -0.000410514    -0.000310483        -0.147754       0.0282953      0.000528165     0.000161928
                     0.000648235    -1.86862e-05        -0.476686        -0.85564      0.000378509     9.39926e-05       -0.0165449        0.167388
281701.3               0.0206268       -0.148773     -0.000310904    -3.87114e-07        -0.680942        0.715131      0.000501608    -0.000241819
                    -0.000317057    -3.07415e-06        -0.152096      -0.0762978     -0.000383881    -0.000236858        -0.476275        -0.85606
                        -0.68096        0.714686     -0.000410532    -0.000310474        -0.147753       0.0282967      0.000528166     0.000161904
                     0.000648229    -1.86999e-05        -0.476714       -0.855626      0.000378512      9.3978e-05       -0.0165354        0.167384
281701.4               0.0206202       -0.148774     -0.000310904    -3.77545e-07        -0.680922         0.71515      0.000501597    -0.000241826
                    -0.000317063    -3.07259e-06        -0.152092      -0.0762941     -0.000383892    -0.000236844        -0.476303       -0.856045
                       -0.680941        0.714704      -0.00041055    -0.000310465        -0.147752       0.0282982      0.000528167      0.00016188
                     0.000648223    -1.87136e-05        -0.476742       -0.855611      0.000378516     9.39633e-05       -0.0165259         0.16738
281701.5               0.0206136       -0.148774     -0.000310904    -3.67977e-07        -0.680903        0.715168      0.000501586    -0.000241833
                    -0.000317069    -3.07103e-06        -0.152089      -0.0762903     -0.000383903     -0.00023683        -0.476331        -0.85603
                       -0.680921        0.714723     -0.000410569    -0.000310456        -0.147751       0.0282997      0.000528168     0.000161856
                     0.000648217    -1.87272e-05         -0.47677       -0.855596       0.00037852     9.39487e-05       -0.0165164        0.167376
281701.6               0.0206069       -0.148775     -0.000310904    -3.58408e-07        -0.680883        0.715187      0.000501574     -0.00024184
                    -0.000317074    -3.06946e-06        -0.152085      -0.0762866     -0.000383913    -0.000236815        -0.476359       -0.856016
                       -0.680902        0.714742     -0.000410587    -0.000310447        -0.147751       0.0283011      0.000528169     0.000161832
                     0.000648211    -1.87409e-05        -0.476798       -0.855582      0.000378524     9.39341e-05       -0.0165069        0.167372
281701.7               0.0206003       -0.148775     -0.000310904    -3.48839e-07        -0.680864        0.715206      0.000501563    -0.000241846
                     -0.00031708     -3.0679e-06        -0.152082      -0.0762828     -0.000383924    -0.000236801        -0.476387       -0.856001
                       -0.680882         0.71476     -0.000410606    -0.000310438         -0.14775       0.0283026       0.00052817     0.000161809
                     0.000648206    -1.87545e-05        -0.476826       -0.855567      0.000378528     9.39194e-05       -0.0164974        0.167368
281701.8               0.0205937       -0.148776     -0.000310904     -3.3927e-07        -0.680844        0.715224      0.000501552    -0.000241853
                    -0.000317086    -3.06634e-06        -0.152078      -0.0762791     -0.000383935    -0.000236786        -0.476415       -0.855986
                       -0.680863        0.714779     -0.000410624    -0.000310428        -0.147749       0.0283041      0.000528171     0.000161785
                       0.0006482    -1.87682e-05        -0.476854       -0.855552      0.000378531     9.39048e-05       -0.0164879        0.167364
281701.9                0.020587       -0.148777     -0.000310904    -3.29701e-07        -0.680825        0.715243      0.000501541     -0.00024186
                    -0.000317091    -3.06478e-06        -0.152075      -0.0762753     -0.000383946    -0.000236772        -0.476443       -0.855972
                       -0.680843        0.714798     -0.000410642    -0.000310419        -0.147749       0.0283055      0.000528172     0.000161761
                     0.000648194    -1.87818e-05        -0.476882       -0.855537      0.000378535     9.38902e-05       -0.0164784         0.16736
281702                 0.0205804       -0.148777     -0.000310904    -3.20132e-07        -0.680805        0.715262      0.000501529    -0.000241867
                    -0.000317097    -3.06322e-06        -0.152071      -0.0762716     -0.000383957    -0.000236758        -0.476472       -0.855957
                       -0.680824        0.714816     -0.000410661     -0.00031041        -0.147748        0.028307      0.000528173     0.000161737
                     0.000648188    -1.87955e-05         -0.47691       -0.855523      0.000378539     9.38755e-05       -0.0164689        0.167356
281702.1               0.0205738       -0.148778     -0.000310904    -3.10563e-07        -0.680786         0.71528      0.000501518    -0.000241874
                    -0.000317103    -3.06166e-06        -0.152068      -0.0762678     -0.000383967    -0.000236743          -0.4765       -0.855942
                       -0.680804        0.714835     -0.000410679    -0.000310401        -0.147747       0.0283085      0.000528175     0.000161713
                     0.000648182    -1.88091e-05        -0.476939       -0.855508      0.000378543     9.38609e-05       -0.0164594        0.167352
281702.2               0.0205671       -0.148778     -0.000310904    -3.00994e-07        -0.680766        0.715299      0.000501507    -0.000241881
                    -0.000317108    -3.06009e-06        -0.152065      -0.0762641     -0.000383978    -0.000236729        -0.476528       -0.855927
                       -0.680785        0.714854     -0.000410698    -0.000310392        -0.147747       0.0283099      0.000528176     0.000161689
                     0.000648177    -1.88228e-05        -0.476967       -0.855493      0.000378547     9.38463e-05       -0.0164498        0.167349
281702.3               0.0205605       -0.148779     -0.000310904    -2.91425e-07        -0.680747        0.715318      0.000501496    -0.000241888
                    -0.000317114    -3.05853e-06        -0.152061      -0.0762604     -0.000383989    -0.000236714        -0.476556       -0.855913
                       -0.680765        0.714872     -0.000410716    -0.000310383        -0.147746       0.0283114      0.000528177     0.000161665
                     0.000648171    -1.88364e-05        -0.476995       -0.855479       0.00037855     9.38316e-05       -0.0164403        0.167345
281702.4               0.0205539       -0.148779     -0.000310905    -2.81857e-07        -0.680727        0.715336      0.000501485    -0.000241895
                     -0.00031712    -3.05697e-06        -0.152058      -0.0762566        -0.000384      -0.0002367        -0.476584       -0.855898
                       -0.680746        0.714891     -0.000410734    -0.000310374        -0.147745       0.0283129      0.000528178     0.000161641
                     0.000648165    -1.88501e-05        -0.477023       -0.855464      0.000378554      9.3817e-05       -0.0164308        0.167341
281702.5               0.0205472        -0.14878     -0.000310905    -2.72288e-07        -0.680708        0.715355      0.000501473    -0.000241902
                    -0.000317125     -3.0554e-06        -0.152054      -0.0762529      -0.00038401    -0.000236686        -0.476612       -0.855883
                       -0.680726         0.71491     -0.000410753    -0.000310365        -0.147744       0.0283143      0.000528179     0.000161618
                     0.000648159    -1.88637e-05        -0.477051       -0.855449      0.000378558     9.38024e-05       -0.0164213        0.167337
281702.6               0.0205406        -0.14878     -0.000310905    -2.62719e-07        -0.680688        0.715373      0.000501462    -0.000241909
                    -0.000317131    -3.05384e-06        -0.152051      -0.0762491     -0.000384021    -0.000236671         -0.47664       -0.855869
                       -0.680707        0.714928     -0.000410771    -0.000310356        -0.147744       0.0283158       0.00052818     0.000161594
                     0.000648153    -1.88773e-05        -0.477079       -0.855434      0.000378562     9.37877e-05       -0.0164118        0.167333
281702.7                0.020534       -0.148781     -0.000310905     -2.5315e-07        -0.680669        0.715392      0.000501451    -0.000241916
                    -0.000317136    -3.05228e-06        -0.152047      -0.0762454     -0.000384032    -0.000236657        -0.476668       -0.855854
                       -0.680687        0.714947      -0.00041079    -0.000310346        -0.147743       0.0283173      0.000528181      0.00016157
                     0.000648148     -1.8891e-05        -0.477107        -0.85542      0.000378565     9.37731e-05       -0.0164023        0.167329
281702.8               0.0205273       -0.148781     -0.000310905    -2.43581e-07        -0.680649        0.715411       0.00050144    -0.000241923
                    -0.000317142    -3.05071e-06        -0.152044      -0.0762417     -0.000384043    -0.000236642        -0.476696       -0.855839
                       -0.680668        0.714966     -0.000410808    -0.000310337        -0.147742       0.0283187      0.000528182     0.000161546
                     0.000648142    -1.89046e-05        -0.477135       -0.855405      0.000378569     9.37585e-05       -0.0163928        0.167325
281702.9               0.0205207       -0.148782     -0.000310905    -2.34013e-07         -0.68063        0.715429      0.000501429     -0.00024193
                    -0.000317148    -3.04915e-06         -0.15204      -0.0762379     -0.000384054    -0.000236628        -0.476725       -0.855825
                       -0.680648        0.714984     -0.000410826    -0.000310328        -0.147742       0.0283202      0.000528183     0.000161522
                     0.000648136    -1.89182e-05        -0.477163        -0.85539      0.000378573     9.37438e-05       -0.0163833        0.167321
281703                 0.0205141       -0.148782     -0.000310905    -2.24444e-07         -0.68061        0.715448      0.000501417    -0.000241937
                    -0.000317153    -3.04759e-06        -0.152037      -0.0762342     -0.000384064    -0.000236614        -0.476753        -0.85581
                       -0.680629        0.715003     -0.000410845    -0.000310319        -0.147741       0.0283217      0.000528184     0.000161498
                      0.00064813    -1.89318e-05        -0.477191       -0.855376      0.000378577     9.37292e-05       -0.0163738        0.167317
281703.1               0.0205074       -0.148783     -0.000310905    -2.14875e-07        -0.680591        0.715467      0.000501406    -0.000241944
                    -0.000317159    -3.04602e-06        -0.152033      -0.0762304     -0.000384075    -0.000236599        -0.476781       -0.855795
                       -0.680609        0.715022     -0.000410863     -0.00031031         -0.14774       0.0283231      0.000528186     0.000161474
