! TOUCHSTONE file generated by CST MICROWAVE STUDIO
! Date and time: Wed Oct  8 06:57:56 2025
! Project name: Teste_Macro_Metasurface_Nanopilar.cst
! Parameters = {H=600; L_x=130; L_y=120; Lambda=1064; Max_L=200; Min_L=70; PathPara=1; Phi=0; Step_L=10; Theta=0; p=520; phaseX=180; phaseY=0}
! Header version: 2018
! Port assignment regex: !\s*Touchstone port\s*([0-9]+)\s*=\s*(CST MWS port|CST DS port)\s*([0-9]+|Zmin|Zmax)\s*\(\"(.*)\"\)(\s*mode\s*([0-9]+))?.*
! Touchstone port assignment:
! Touchstone port 1 = CST MWS port Zmax ("") mode 1
! Touchstone port 2 = CST MWS port Zmax ("") mode 2
! Touchstone port 3 = CST MWS port Zmin ("") mode 1
! Touchstone port 4 = CST MWS port Zmin ("") mode 2
! S-Parameters are not renormalized. Each port impedance will be approximated by the real part at minimum frequency. The values are described via the [Reference] keyword.
! Default impedance is overridden by [Reference]
[Version] 2.0
# GHz S RI R 376.73
[Number of Ports] 4
[Reference]
376.73 376.73 376.73 376.73 
[Number of Frequencies] 1001
[Network Data]
281700                -0.0328832       -0.160301     -0.000668441     0.000502216         0.715471       -0.665863      -0.00052715     1.78009e-05
                    -0.000530856      0.00070577        -0.179828       -0.146626     -0.000474358    -0.000620488         0.246563       -0.933316
                         0.71542       -0.665821     -0.000368729    -0.000619874        -0.160437      -0.0413585      0.000150712    -0.000690988
                    -0.000572588     0.000212887         0.246662       -0.933076     -0.000201872    -0.000803875        -0.229754       0.0401147
281700.1              -0.0328922       -0.160302     -0.000668439     0.000502245         0.715448       -0.665887     -0.000527151     1.78241e-05
                    -0.000530841     0.000705783        -0.179834       -0.146619     -0.000474385    -0.000620484         0.246534       -0.933324
                        0.715397       -0.665845     -0.000368755    -0.000619853        -0.160441      -0.0413568      0.000150693    -0.000690996
                    -0.000572573     0.000212903         0.246632       -0.933084     -0.000201904    -0.000803927        -0.229752       0.0401202
281700.2              -0.0329011       -0.160303     -0.000668437     0.000502274         0.715425       -0.665911     -0.000527152     1.78474e-05
                    -0.000530825     0.000705796        -0.179839       -0.146612     -0.000474411     -0.00062048         0.246504       -0.933331
                        0.715374       -0.665869     -0.000368781    -0.000619831        -0.160444      -0.0413551      0.000150674    -0.000691004
                    -0.000572557     0.000212919         0.246602       -0.933092     -0.000201936    -0.000803979        -0.229751       0.0401258
281700.3              -0.0329101       -0.160304     -0.000668434     0.000502303         0.715402       -0.665935     -0.000527152     1.78706e-05
                     -0.00053081     0.000705809        -0.179845       -0.146605     -0.000474438    -0.000620476         0.246474       -0.933339
                        0.715351       -0.665893     -0.000368806    -0.000619809        -0.160447      -0.0413534      0.000150655    -0.000691011
                    -0.000572541     0.000212935         0.246573         -0.9331     -0.000201969    -0.000804031         -0.22975       0.0401313
281700.4               -0.032919       -0.160305     -0.000668432     0.000502331         0.715379       -0.665959     -0.000527153     1.78939e-05
                    -0.000530795     0.000705822        -0.179851       -0.146598     -0.000474465    -0.000620472         0.246445       -0.933347
                        0.715328       -0.665917     -0.000368832    -0.000619788        -0.160451      -0.0413516      0.000150636    -0.000691019
                    -0.000572525      0.00021295         0.246543       -0.933108     -0.000202001    -0.000804083        -0.229749       0.0401368
281700.5               -0.032928       -0.160306      -0.00066843      0.00050236         0.715356       -0.665983     -0.000527154     1.79171e-05
                     -0.00053078     0.000705835        -0.179856       -0.146591     -0.000474491    -0.000620468         0.246415       -0.933355
                        0.715305       -0.665941     -0.000368858    -0.000619766        -0.160454      -0.0413499      0.000150617    -0.000691027
                    -0.000572509     0.000212966         0.246513       -0.933116     -0.000202033    -0.000804135        -0.229748       0.0401424
281700.6               -0.032937       -0.160308     -0.000668428     0.000502389         0.715333       -0.666007     -0.000527155     1.79403e-05
                    -0.000530764     0.000705848        -0.179862       -0.146583     -0.000474518    -0.000620464         0.246385       -0.933363
                        0.715282       -0.665965     -0.000368884    -0.000619745        -0.160458      -0.0413482      0.000150597    -0.000691034
                    -0.000572493     0.000212982         0.246483       -0.933124     -0.000202065    -0.000804188        -0.229747       0.0401479
281700.7              -0.0329459       -0.160309     -0.000668426     0.000502417          0.71531       -0.666031     -0.000527156     1.79636e-05
                    -0.000530749     0.000705861        -0.179868       -0.146576     -0.000474545     -0.00062046         0.246355       -0.933371
                        0.715259       -0.665989     -0.000368909    -0.000619723        -0.160461      -0.0413465      0.000150578    -0.000691042
                    -0.000572477     0.000212997         0.246454       -0.933132     -0.000202097     -0.00080424        -0.229746       0.0401535
281700.8              -0.0329549        -0.16031     -0.000668424     0.000502446         0.715287       -0.666055     -0.000527156     1.79868e-05
                    -0.000530734     0.000705874        -0.179873       -0.146569     -0.000474572    -0.000620456         0.246326       -0.933379
                        0.715236       -0.666013     -0.000368935    -0.000619701        -0.160464      -0.0413448      0.000150559     -0.00069105
                    -0.000572462     0.000213013         0.246424        -0.93314     -0.000202129    -0.000804292        -0.229744        0.040159
281700.9              -0.0329638       -0.160311     -0.000668421     0.000502475         0.715264       -0.666079     -0.000527157       1.801e-05
                    -0.000530719     0.000705887        -0.179879       -0.146562     -0.000474598    -0.000620452         0.246296       -0.933387
                        0.715213       -0.666037     -0.000368961     -0.00061968        -0.160468       -0.041343       0.00015054    -0.000691057
                    -0.000572446     0.000213029         0.246394       -0.933147     -0.000202162    -0.000804344        -0.229743       0.0401646
281701                -0.0329728       -0.160312     -0.000668419     0.000502504         0.715241       -0.666103     -0.000527158     1.80333e-05
                    -0.000530703       0.0007059        -0.179885       -0.146555     -0.000474625    -0.000620448         0.246266       -0.933395
                         0.71519       -0.666061     -0.000368987    -0.000619658        -0.160471      -0.0413413      0.000150521    -0.000691065
                     -0.00057243     0.000213045         0.246365       -0.933155     -0.000202194    -0.000804396        -0.229742       0.0401701
281701.1              -0.0329817       -0.160313     -0.000668417     0.000502532         0.715218       -0.666127     -0.000527159     1.80565e-05
                    -0.000530688     0.000705913         -0.17989       -0.146548     -0.000474652    -0.000620444         0.246237       -0.933403
                        0.715167       -0.666085     -0.000369012    -0.000619637        -0.160474      -0.0413396      0.000150502    -0.000691073
                    -0.000572414      0.00021306         0.246335       -0.933163     -0.000202226    -0.000804448        -0.229741       0.0401756
281701.2              -0.0329907       -0.160314     -0.000668415     0.000502561         0.715195       -0.666151      -0.00052716     1.80797e-05
                    -0.000530673     0.000705926        -0.179896       -0.146541     -0.000474678     -0.00062044         0.246207       -0.933411
                        0.715144       -0.666109     -0.000369038    -0.000619615        -0.160478      -0.0413379      0.000150483    -0.000691081
                    -0.000572398     0.000213076         0.246305       -0.933171     -0.000202258      -0.0008045         -0.22974       0.0401812
281701.3              -0.0329997       -0.160316     -0.000668413      0.00050259         0.715172       -0.666175      -0.00052716      1.8103e-05
                    -0.000530658     0.000705939        -0.179901       -0.146534     -0.000474705    -0.000620436         0.246177       -0.933419
                        0.715121       -0.666133     -0.000369064    -0.000619593        -0.160481      -0.0413361      0.000150464    -0.000691088
                    -0.000572382     0.000213092         0.246276       -0.933179      -0.00020229    -0.000804552        -0.229739       0.0401867
281701.4              -0.0330086       -0.160317     -0.000668411     0.000502618         0.715149       -0.666199     -0.000527161     1.81262e-05
                    -0.000530642     0.000705952        -0.179907       -0.146526     -0.000474732    -0.000620432         0.246147       -0.933426
                        0.715098       -0.666157      -0.00036909    -0.000619572        -0.160485      -0.0413344      0.000150445    -0.000691096
                    -0.000572366     0.000213108         0.246246       -0.933187     -0.000202322    -0.000804604        -0.229738       0.0401923
281701.5              -0.0330176       -0.160318     -0.000668408     0.000502647         0.715126       -0.666223     -0.000527162     1.81494e-05
                    -0.000530627     0.000705965        -0.179913       -0.146519     -0.000474758    -0.000620428         0.246118       -0.933434
                        0.715075       -0.666181     -0.000369115     -0.00061955        -0.160488      -0.0413327      0.000150426    -0.000691104
                    -0.000572351     0.000213123         0.246216       -0.933195     -0.000202354    -0.000804656        -0.229736       0.0401978
281701.6              -0.0330265       -0.160319     -0.000668406     0.000502676         0.715103       -0.666247     -0.000527163     1.81726e-05
                    -0.000530612     0.000705978        -0.179918       -0.146512     -0.000474785    -0.000620424         0.246088       -0.933442
                        0.715052       -0.666205     -0.000369141    -0.000619528        -0.160491      -0.0413309      0.000150407    -0.000691111
                    -0.000572335     0.000213139         0.246187       -0.933203     -0.000202386    -0.000804708        -0.229735       0.0402034
281701.7              -0.0330355        -0.16032     -0.000668404     0.000502705          0.71508       -0.666271     -0.000527164     1.81959e-05
                    -0.000530597      0.00070599        -0.179924       -0.146505     -0.000474812     -0.00062042         0.246058        -0.93345
                        0.715029       -0.666229     -0.000369167    -0.000619507        -0.160495      -0.0413292      0.000150387    -0.000691119
                    -0.000572319     0.000213155         0.246157       -0.933211     -0.000202418     -0.00080476        -0.229734       0.0402089
281701.8              -0.0330445       -0.160321     -0.000668402     0.000502733         0.715057       -0.666295     -0.000527164     1.82191e-05
                    -0.000530581     0.000706003         -0.17993       -0.146498     -0.000474838    -0.000620416         0.246028       -0.933458
                        0.715006       -0.666253     -0.000369193    -0.000619485        -0.160498      -0.0413275      0.000150368    -0.000691127
                    -0.000572303      0.00021317         0.246127       -0.933219      -0.00020245    -0.000804812        -0.229733       0.0402144
281701.9              -0.0330534       -0.160323       -0.0006684     0.000502762         0.715034       -0.666319     -0.000527165     1.82423e-05
                    -0.000530566     0.000706016        -0.179935       -0.146491     -0.000474865    -0.000620412         0.245999       -0.933466
                        0.714983       -0.666277     -0.000369219    -0.000619464        -0.160501      -0.0413258      0.000150349    -0.000691134
                    -0.000572287     0.000213186         0.246097       -0.933227     -0.000202482    -0.000804864        -0.229732         0.04022
281702                -0.0330624       -0.160324     -0.000668398     0.000502791         0.715011       -0.666343     -0.000527166     1.82655e-05
                    -0.000530551     0.000706029        -0.179941       -0.146484     -0.000474892    -0.000620408         0.245969       -0.933474
                         0.71496       -0.666301     -0.000369244    -0.000619442        -0.160505       -0.041324       0.00015033    -0.000691142
                    -0.000572271     0.000213202         0.246068       -0.933234     -0.000202514    -0.000804916        -0.229731       0.0402255
281702.1              -0.0330713       -0.160325     -0.000668395     0.000502819         0.714988       -0.666367     -0.000527167     1.82888e-05
                    -0.000530536     0.000706042        -0.179946       -0.146477     -0.000474918    -0.000620404         0.245939       -0.933482
                        0.714937       -0.666325      -0.00036927     -0.00061942        -0.160508      -0.0413223      0.000150311     -0.00069115
                    -0.000572255     0.000213218         0.246038       -0.933242     -0.000202546    -0.000804969         -0.22973       0.0402311
281702.2              -0.0330803       -0.160326     -0.000668393     0.000502848         0.714965       -0.666391     -0.000527167      1.8312e-05
                     -0.00053052     0.000706055        -0.179952       -0.146469     -0.000474945      -0.0006204          0.24591        -0.93349
                        0.714914       -0.666349     -0.000369296    -0.000619399        -0.160512      -0.0413206      0.000150292    -0.000691158
                     -0.00057224     0.000213233         0.246008        -0.93325     -0.000202578    -0.000805021        -0.229728       0.0402366
281702.3              -0.0330892       -0.160327     -0.000668391     0.000502877         0.714942       -0.666415     -0.000527168     1.83352e-05
                    -0.000530505     0.000706068        -0.179958       -0.146462     -0.000474972    -0.000620396          0.24588       -0.933498
                        0.714891       -0.666373     -0.000369322    -0.000619377        -0.160515      -0.0413189      0.000150273    -0.000691165
                    -0.000572224     0.000213249         0.245979       -0.933258      -0.00020261    -0.000805073        -0.229727       0.0402422
281702.4              -0.0330982       -0.160328     -0.000668389     0.000502906         0.714919       -0.666439     -0.000527169     1.83584e-05
                     -0.00053049     0.000706081        -0.179963       -0.146455     -0.000474998    -0.000620392          0.24585       -0.933506
                        0.714868       -0.666397     -0.000369347    -0.000619355        -0.160518      -0.0413171      0.000150254    -0.000691173
                    -0.000572208     0.000213265         0.245949       -0.933266     -0.000202642    -0.000805125        -0.229726       0.0402477
281702.5              -0.0331072       -0.160329     -0.000668387     0.000502934         0.714896       -0.666463      -0.00052717     1.83816e-05
                    -0.000530475     0.000706094        -0.179969       -0.146448     -0.000475025    -0.000620388          0.24582       -0.933514
                        0.714845       -0.666421     -0.000369373    -0.000619334        -0.160522      -0.0413154      0.000150235    -0.000691181
                    -0.000572192      0.00021328         0.245919       -0.933274     -0.000202674    -0.000805177        -0.229725       0.0402532
281702.6              -0.0331161       -0.160331     -0.000668384     0.000502963         0.714873       -0.666487     -0.000527171     1.84048e-05
                     -0.00053046     0.000706107        -0.179975       -0.146441     -0.000475052    -0.000620384         0.245791       -0.933521
                        0.714822       -0.666445     -0.000369399    -0.000619312        -0.160525      -0.0413137      0.000150215    -0.000691188
                    -0.000572176     0.000213296          0.24589       -0.933282     -0.000202706    -0.000805229        -0.229724       0.0402588
281702.7              -0.0331251       -0.160332     -0.000668382     0.000502992          0.71485       -0.666511     -0.000527171      1.8428e-05
                    -0.000530444      0.00070612         -0.17998       -0.146434     -0.000475078     -0.00062038         0.245761       -0.933529
                        0.714799       -0.666469     -0.000369425     -0.00061929        -0.160528      -0.0413119      0.000150196    -0.000691196
                     -0.00057216     0.000213312          0.24586        -0.93329     -0.000202738    -0.000805281        -0.229723       0.0402643
281702.8               -0.033134       -0.160333      -0.00066838      0.00050302         0.714827       -0.666535     -0.000527172     1.84512e-05
                    -0.000530429     0.000706133        -0.179986       -0.146427     -0.000475105    -0.000620376         0.245731       -0.933537
                        0.714776       -0.666493      -0.00036945    -0.000619269        -0.160532      -0.0413102      0.000150177    -0.000691204
                    -0.000572144     0.000213327          0.24583       -0.933298      -0.00020277    -0.000805333        -0.229721       0.0402699
281702.9               -0.033143       -0.160334     -0.000668378     0.000503049         0.714804       -0.666559     -0.000527173     1.84745e-05
                    -0.000530414     0.000706146        -0.179991        -0.14642     -0.000475131    -0.000620372         0.245702       -0.933545
                        0.714753       -0.666517     -0.000369476    -0.000619247        -0.160535      -0.0413085      0.000150158    -0.000691211
                    -0.000572129     0.000213343           0.2458       -0.933305     -0.000202802    -0.000805385         -0.22972       0.0402754
281703                 -0.033152       -0.160335     -0.000668376     0.000503078         0.714781       -0.666583     -0.000527174     1.84977e-05
                    -0.000530399     0.000706159        -0.179997       -0.146412     -0.000475158    -0.000620368         0.245672       -0.933553
                         0.71473       -0.666541     -0.000369502    -0.000619226        -0.160539      -0.0413068      0.000150139    -0.000691219
                    -0.000572113     0.000213359         0.245771       -0.933313     -0.000202834    -0.000805437        -0.229719        0.040281
281703.1              -0.0331609       -0.160336     -0.000668373     0.000503107         0.714758       -0.666607     -0.000527174     1.85209e-05
                    -0.000530383     0.000706172        -0.180003       -0.146405     -0.000475185    -0.000620364         0.245642       -0.933561
                        0.714707       -0.666565     -0.000369528    -0.000619204        -0.160542       -0.041305       0.00015012    -0.000691227
