! TOUCHSTONE file generated by CST MICROWAVE STUDIO
! Date and time: Wed Oct  8 07:06:26 2025
! Project name: Teste_Macro_Metasurface_Nanopilar.cst
! Parameters = {H=600; L_x=200; L_y=150; Lambda=1064; Max_L=200; Min_L=70; PathPara=1; Phi=0; Step_L=10; Theta=0; p=520; phaseX=180; phaseY=0}
! Header version: 2018
! Port assignment regex: !\s*Touchstone port\s*([0-9]+)\s*=\s*(CST MWS port|CST DS port)\s*([0-9]+|Zmin|Zmax)\s*\(\"(.*)\"\)(\s*mode\s*([0-9]+))?.*
! Touchstone port assignment:
! Touchstone port 1 = CST MWS port Zmax ("") mode 1
! Touchstone port 2 = CST MWS port Zmax ("") mode 2
! Touchstone port 3 = CST MWS port Zmin ("") mode 1
! Touchstone port 4 = CST MWS port Zmin ("") mode 2
! S-Parameters are not renormalized. Each port impedance will be approximated by the real part at minimum frequency. The values are described via the [Reference] keyword.
! Default impedance is overridden by [Reference]
[Version] 2.0
# GHz S RI R 376.73
[Number of Ports] 4
[Reference]
376.73 376.73 376.73 376.73 
[Number of Frequencies] 1001
[Network Data]
281700                  -0.10963       -0.017806      5.48019e-05     0.000419075         -0.88372       -0.432983      0.000300399    -0.000803244
                     0.000117397     0.000511237        -0.099852       -0.173933     -0.000167052    -0.000893466        -0.950339        0.220524
                       -0.883442       -0.432942     -0.000264974    -0.000951072        0.0774471       0.0855459     -7.65214e-05     0.000668995
                     0.000256272     -0.00080148        -0.949971        0.220575     -0.000104734     0.000511343       0.00828108        -0.20015
281700.1               -0.109623      -0.0178025      5.48274e-05     0.000419072        -0.883737       -0.432952      0.000300357    -0.000803257
                     0.000117432     0.000511233       -0.0998579       -0.173937     -0.000167063    -0.000893473        -0.950332        0.220552
                       -0.883459       -0.432911     -0.000265006    -0.000951071        0.0774463       0.0855352     -7.64915e-05     0.000668967
                     0.000256215    -0.000801516        -0.949963        0.220603     -0.000104738     0.000511367       0.00827268       -0.200157
281700.2               -0.109616      -0.0177991       5.4853e-05     0.000419068        -0.883754       -0.432921      0.000300315    -0.000803269
                     0.000117467     0.000511229       -0.0998638       -0.173941     -0.000167074    -0.000893479        -0.950324         0.22058
                       -0.883476        -0.43288     -0.000265038    -0.000951071        0.0774455       0.0855245     -7.64616e-05     0.000668939
                     0.000256158    -0.000801553        -0.949955        0.220632     -0.000104742     0.000511392       0.00826427       -0.200164
281700.3                -0.10961      -0.0177956      5.48785e-05     0.000419065        -0.883771        -0.43289      0.000300273    -0.000803282
                     0.000117502     0.000511225       -0.0998697       -0.173945     -0.000167085    -0.000893486        -0.950316        0.220608
                       -0.883493       -0.432849     -0.000265069     -0.00095107        0.0774447       0.0855139     -7.64317e-05     0.000668911
                     0.000256101     -0.00080159        -0.949947         0.22066     -0.000104746     0.000511416       0.00825587        -0.20017
281700.4               -0.109603      -0.0177921       5.4904e-05     0.000419061        -0.883789       -0.432859      0.000300231    -0.000803295
                     0.000117537     0.000511221       -0.0998756       -0.173949     -0.000167096    -0.000893493        -0.950308        0.220637
                       -0.883511       -0.432818     -0.000265101     -0.00095107         0.077444       0.0855032     -7.64018e-05     0.000668882
                     0.000256044    -0.000801626         -0.94994        0.220688      -0.00010475     0.000511441       0.00824746       -0.200177
281700.5               -0.109597      -0.0177887      5.49295e-05     0.000419057        -0.883806       -0.432828      0.000300189    -0.000803308
                     0.000117572     0.000511217       -0.0998815       -0.173953     -0.000167107      -0.0008935          -0.9503        0.220665
                       -0.883528       -0.432787     -0.000265133    -0.000951069        0.0774432       0.0854926     -7.63719e-05     0.000668854
                     0.000255988    -0.000801663        -0.949932        0.220716     -0.000104755     0.000511466       0.00823906       -0.200184
281700.6                -0.10959      -0.0177852      5.49551e-05     0.000419054        -0.883823       -0.432797      0.000300146    -0.000803321
                     0.000117607     0.000511213       -0.0998874       -0.173957     -0.000167118    -0.000893507        -0.950292        0.220693
                       -0.883545       -0.432756     -0.000265165    -0.000951069        0.0774424       0.0854819      -7.6342e-05     0.000668826
                     0.000255931      -0.0008017        -0.949924        0.220744     -0.000104759      0.00051149       0.00823065       -0.200191
281700.7               -0.109583      -0.0177817      5.49806e-05      0.00041905         -0.88384       -0.432766      0.000300104    -0.000803334
                     0.000117642     0.000511209       -0.0998933       -0.173961     -0.000167129    -0.000893514        -0.950284        0.220721
                       -0.883562       -0.432726     -0.000265197    -0.000951068        0.0774417       0.0854712     -7.63121e-05     0.000668798
                     0.000255874    -0.000801736        -0.949916        0.220772     -0.000104763     0.000511515       0.00822225       -0.200197
281700.8               -0.109577      -0.0177783      5.50061e-05     0.000419046        -0.883858       -0.432735      0.000300062    -0.000803346
                     0.000117677     0.000511205       -0.0998992       -0.173965      -0.00016714     -0.00089352        -0.950276        0.220749
                       -0.883579       -0.432695     -0.000265228    -0.000951068        0.0774409       0.0854606     -7.62822e-05      0.00066877
                     0.000255817    -0.000801773        -0.949908          0.2208     -0.000104767      0.00051154       0.00821384       -0.200204
281700.9                -0.10957      -0.0177748      5.50316e-05     0.000419043        -0.883875       -0.432704       0.00030002    -0.000803359
                     0.000117713       0.0005112       -0.0999051       -0.173969      -0.00016715    -0.000893527        -0.950269        0.220777
                       -0.883596       -0.432664      -0.00026526    -0.000951067        0.0774401       0.0854499     -7.62523e-05     0.000668742
                     0.000255761    -0.000801809          -0.9499        0.220828     -0.000104772     0.000511564       0.00820543       -0.200211
281701                 -0.109563      -0.0177713      5.50571e-05     0.000419039        -0.883892       -0.432673      0.000299978    -0.000803372
                     0.000117748     0.000511196        -0.099911       -0.173973     -0.000167161    -0.000893534        -0.950261        0.220806
                       -0.883614       -0.432633     -0.000265292    -0.000951067        0.0774394       0.0854392     -7.62224e-05     0.000668714
                     0.000255704    -0.000801846        -0.949892        0.220856     -0.000104776     0.000511589       0.00819703       -0.200217
281701.1               -0.109557      -0.0177679      5.50826e-05     0.000419035        -0.883909       -0.432642      0.000299936    -0.000803385
                     0.000117783     0.000511192       -0.0999168       -0.173977     -0.000167172    -0.000893541        -0.950253        0.220834
                       -0.883631       -0.432602     -0.000265324    -0.000951066        0.0774386       0.0854286     -7.61924e-05     0.000668686
                     0.000255647    -0.000801883        -0.949884        0.220885      -0.00010478     0.000511614       0.00818862       -0.200224
281701.2                -0.10955      -0.0177644      5.51081e-05     0.000419032        -0.883927       -0.432611      0.000299893    -0.000803397
                     0.000117818     0.000511188       -0.0999227       -0.173981     -0.000167183    -0.000893548        -0.950245        0.220862
                       -0.883648       -0.432571     -0.000265355    -0.000951066        0.0774378       0.0854179     -7.61625e-05     0.000668658
                      0.00025559    -0.000801919        -0.949877        0.220913     -0.000104784     0.000511638       0.00818021       -0.200231
281701.3               -0.109543      -0.0177609      5.51336e-05     0.000419028        -0.883944        -0.43258      0.000299851     -0.00080341
                     0.000117853     0.000511184       -0.0999286       -0.173985     -0.000167194    -0.000893555        -0.950237         0.22089
                       -0.883665        -0.43254     -0.000265387    -0.000951065        0.0774371       0.0854072     -7.61326e-05      0.00066863
                     0.000255534    -0.000801956        -0.949869        0.220941     -0.000104788     0.000511663        0.0081718       -0.200238
281701.4               -0.109537      -0.0177575      5.51592e-05     0.000419024        -0.883961       -0.432549      0.000299809    -0.000803423
                     0.000117888      0.00051118       -0.0999345       -0.173988     -0.000167205    -0.000893562        -0.950229        0.220918
                       -0.883682       -0.432509     -0.000265419    -0.000951064        0.0774363       0.0853966     -7.61027e-05     0.000668602
                     0.000255477    -0.000801992        -0.949861        0.220969     -0.000104793     0.000511688       0.00816339       -0.200244
281701.5                -0.10953       -0.017754      5.51847e-05     0.000419021        -0.883978       -0.432518      0.000299767    -0.000803436
                     0.000117923     0.000511176       -0.0999404       -0.173992     -0.000167216    -0.000893569        -0.950221        0.220946
                       -0.883699       -0.432478     -0.000265451    -0.000951064        0.0774355       0.0853859     -7.60728e-05     0.000668574
                      0.00025542    -0.000802029        -0.949853        0.220997     -0.000104797     0.000511713       0.00815498       -0.200251
281701.6               -0.109523      -0.0177506      5.52102e-05     0.000419017        -0.883995       -0.432487      0.000299725    -0.000803449
                     0.000117958     0.000511172       -0.0999463       -0.173996     -0.000167227    -0.000893576        -0.950214        0.220974
                       -0.883717       -0.432447     -0.000265483    -0.000951063        0.0774347       0.0853753     -7.60429e-05     0.000668546
                     0.000255363    -0.000802065        -0.949845        0.221025     -0.000104801     0.000511738       0.00814657       -0.200258
281701.7               -0.109517      -0.0177471      5.52357e-05     0.000419013        -0.884013       -0.432456      0.000299683    -0.000803461
                     0.000117993     0.000511168       -0.0999522          -0.174     -0.000167238    -0.000893583        -0.950206        0.221003
                       -0.883734       -0.432417     -0.000265514    -0.000951063         0.077434       0.0853646      -7.6013e-05     0.000668518
                     0.000255307    -0.000802102        -0.949837        0.221053     -0.000104806     0.000511763       0.00813816       -0.200265
281701.8                -0.10951      -0.0177437      5.52612e-05      0.00041901         -0.88403       -0.432425      0.000299641    -0.000803474
                     0.000118028     0.000511164       -0.0999581       -0.174004     -0.000167249     -0.00089359        -0.950198        0.221031
                       -0.883751       -0.432386     -0.000265546    -0.000951062        0.0774332        0.085354     -7.59831e-05      0.00066849
                      0.00025525    -0.000802139        -0.949829        0.221081      -0.00010481     0.000511788       0.00812975       -0.200271
281701.9               -0.109503      -0.0177402      5.52867e-05     0.000419006        -0.884047       -0.432394      0.000299598    -0.000803487
                     0.000118063      0.00051116        -0.099964       -0.174008      -0.00016726    -0.000893597         -0.95019        0.221059
                       -0.883768       -0.432355     -0.000265578    -0.000951062        0.0774324       0.0853433     -7.59532e-05     0.000668462
                     0.000255193    -0.000802175        -0.949821        0.221109     -0.000104814     0.000511813       0.00812134       -0.200278
281702                 -0.109497      -0.0177368      5.53122e-05     0.000419002        -0.884064       -0.432363      0.000299556    -0.000803499
                     0.000118098     0.000511155       -0.0999699       -0.174012     -0.000167271    -0.000893604        -0.950182        0.221087
                       -0.883785       -0.432324      -0.00026561    -0.000951061        0.0774317       0.0853326     -7.59233e-05     0.000668434
                     0.000255136    -0.000802212        -0.949813        0.221138     -0.000104818     0.000511838       0.00811293       -0.200285
281702.1                -0.10949      -0.0177333      5.53377e-05     0.000418999        -0.884081       -0.432332      0.000299514    -0.000803512
                     0.000118133     0.000511151       -0.0999758       -0.174016     -0.000167282    -0.000893611        -0.950174        0.221115
                       -0.883802       -0.432293     -0.000265642    -0.000951061        0.0774309        0.085322     -7.58934e-05     0.000668406
                     0.000255079    -0.000802248        -0.949806        0.221166     -0.000104823     0.000511862       0.00810452       -0.200292
281702.2               -0.109484      -0.0177299      5.53632e-05     0.000418995        -0.884099       -0.432301      0.000299472    -0.000803525
                     0.000118168     0.000511147       -0.0999817        -0.17402     -0.000167293    -0.000893618        -0.950166        0.221143
                       -0.883819       -0.432262     -0.000265673     -0.00095106        0.0774301       0.0853113     -7.58635e-05     0.000668378
                     0.000255023    -0.000802285        -0.949798        0.221194     -0.000104827     0.000511887        0.0080961       -0.200298
281702.3               -0.109477      -0.0177264      5.53887e-05     0.000418991        -0.884116        -0.43227       0.00029943    -0.000803538
                     0.000118203     0.000511143       -0.0999876       -0.174024     -0.000167304    -0.000893625        -0.950158        0.221171
                       -0.883837       -0.432231     -0.000265705    -0.000951059        0.0774294       0.0853007     -7.58336e-05      0.00066835
                     0.000254966    -0.000802321         -0.94979        0.221222     -0.000104831     0.000511913       0.00808769       -0.200305
281702.4                -0.10947       -0.017723      5.54141e-05     0.000418988        -0.884133       -0.432239      0.000299388     -0.00080355
                     0.000118238     0.000511139       -0.0999935       -0.174028     -0.000167315    -0.000893633         -0.95015          0.2212
                       -0.883854         -0.4322     -0.000265737    -0.000951059        0.0774286         0.08529     -7.58037e-05     0.000668322
                     0.000254909    -0.000802358        -0.949782         0.22125     -0.000104836     0.000511938       0.00807928       -0.200312
281702.5               -0.109464      -0.0177196      5.54396e-05     0.000418984         -0.88415       -0.432208      0.000299346    -0.000803563
                     0.000118273     0.000511135       -0.0999994       -0.174032     -0.000167326     -0.00089364        -0.950143        0.221228
                       -0.883871       -0.432169     -0.000265769    -0.000951058        0.0774278       0.0852794     -7.57738e-05     0.000668294
                     0.000254852    -0.000802394        -0.949774        0.221278      -0.00010484     0.000511963       0.00807086       -0.200319
281702.6               -0.109457      -0.0177161      5.54651e-05      0.00041898        -0.884167       -0.432177      0.000299304    -0.000803576
                     0.000118308     0.000511131        -0.100005       -0.174036     -0.000167337    -0.000893647        -0.950135        0.221256
                       -0.883888       -0.432138     -0.000265801    -0.000951058        0.0774271       0.0852687     -7.57439e-05     0.000668266
                     0.000254796    -0.000802431        -0.949766        0.221306     -0.000104844     0.000511988       0.00806245       -0.200325
281702.7                -0.10945      -0.0177127      5.54906e-05     0.000418977        -0.884185       -0.432146      0.000299261    -0.000803588
                     0.000118343     0.000511127        -0.100011        -0.17404     -0.000167348    -0.000893654        -0.950127        0.221284
                       -0.883905       -0.432108     -0.000265832    -0.000951057        0.0774263       0.0852581      -7.5714e-05     0.000668238
                     0.000254739    -0.000802467        -0.949758        0.221334     -0.000104848     0.000512013       0.00805404       -0.200332
281702.8               -0.109444      -0.0177092      5.55161e-05     0.000418973        -0.884202       -0.432115      0.000299219    -0.000803601
                     0.000118378     0.000511122        -0.100017       -0.174044     -0.000167359    -0.000893661        -0.950119        0.221312
                       -0.883922       -0.432077     -0.000265864    -0.000951056        0.0774255       0.0852474     -7.56841e-05     0.000668211
                     0.000254682    -0.000802504         -0.94975        0.221362     -0.000104853     0.000512038       0.00804562       -0.200339
281702.9               -0.109437      -0.0177058      5.55416e-05     0.000418969        -0.884219       -0.432084      0.000299177    -0.000803614
                     0.000118413     0.000511118        -0.100023       -0.174047      -0.00016737    -0.000893668        -0.950111         0.22134
                       -0.883939       -0.432046     -0.000265896    -0.000951056        0.0774248       0.0852368     -7.56542e-05     0.000668183
                     0.000254625     -0.00080254        -0.949742        0.221391     -0.000104857     0.000512063       0.00803721       -0.200345
281703                  -0.10943      -0.0177024      5.55671e-05     0.000418966        -0.884236       -0.432053      0.000299135    -0.000803626
                     0.000118449     0.000511114        -0.100029       -0.174051     -0.000167381    -0.000893675        -0.950103        0.221369
                       -0.883957       -0.432015     -0.000265928    -0.000951055         0.077424       0.0852261     -7.56243e-05     0.000668155
                     0.000254569    -0.000802577        -0.949735        0.221419     -0.000104861     0.000512088       0.00802879       -0.200352
281703.1               -0.109424      -0.0176989      5.55925e-05     0.000418962        -0.884253       -0.432022      0.000299093    -0.000803639
                     0.000118484      0.00051111        -0.100035       -0.174055     -0.000167392    -0.000893683        -0.950095        0.221397
                       -0.883974       -0.431984      -0.00026596    -0.000951054        0.0774232       0.0852155     -7.55944e-05     0.000668127
