! TOUCHSTONE file generated by CST MICROWAVE STUDIO
! Date and time: Wed Oct  8 06:58:10 2025
! Project name: Teste_Macro_Metasurface_Nanopilar.cst
! Parameters = {H=600; L_x=130; L_y=175; Lambda=1064; Max_L=200; Min_L=70; PathPara=1; Phi=0; Step_L=10; Theta=0; p=520; phaseX=180; phaseY=0}
! Header version: 2018
! Port assignment regex: !\s*Touchstone port\s*([0-9]+)\s*=\s*(CST MWS port|CST DS port)\s*([0-9]+|Zmin|Zmax)\s*\(\"(.*)\"\)(\s*mode\s*([0-9]+))?.*
! Touchstone port assignment:
! Touchstone port 1 = CST MWS port Zmax ("") mode 1
! Touchstone port 2 = CST MWS port Zmax ("") mode 2
! Touchstone port 3 = CST MWS port Zmin ("") mode 1
! Touchstone port 4 = CST MWS port Zmin ("") mode 2
! S-Parameters are not renormalized. Each port impedance will be approximated by the real part at minimum frequency. The values are described via the [Reference] keyword.
! Default impedance is overridden by [Reference]
[Version] 2.0
# GHz S RI R 376.73
[Number of Ports] 4
[Reference]
376.73 376.73 376.73 376.73 
[Number of Frequencies] 1001
[Network Data]
281700                -0.0920189        0.232731      0.000653646    -0.000487895        -0.809337       -0.519848     -0.000642173     0.000283473
                     0.000382925    -0.000686221          -0.1413      0.00114256     -0.000466997     0.000550686        -0.629687       -0.757853
                       -0.809501       -0.519263     -0.000215002     0.000423131        -0.178825        0.173976      0.000610257    -0.000560067
                    -0.000688163     0.000423851        -0.629622       -0.757527      0.000750175    -0.000495393       -0.0288049        0.136171
281700.1              -0.0920097        0.232728      0.000653612    -0.000487903        -0.809354       -0.519824     -0.000641316     0.000283256
                     0.000382894    -0.000686257        -0.141294      0.00114389     -0.000466998      0.00055071        -0.629712       -0.757834
                       -0.809519       -0.519239     -0.000214907     0.000423129        -0.178814        0.173977      0.000610583    -0.000560363
                    -0.000688215     0.000423928        -0.629646       -0.757508      0.000750168    -0.000495426       -0.0287967        0.136166
281700.2              -0.0920004        0.232724      0.000653577    -0.000487911        -0.809372         -0.5198     -0.000640487     0.000283048
                     0.000382863    -0.000686294        -0.141289      0.00114523     -0.000466998     0.000550734        -0.629736       -0.757815
                       -0.809536       -0.519215     -0.000214813     0.000423127        -0.178804        0.173978        0.0006109    -0.000560655
                    -0.000688266     0.000424006         -0.62967       -0.757489      0.000750162    -0.000495458       -0.0287884        0.136162
281700.3              -0.0919911        0.232721      0.000653543    -0.000487919        -0.809389       -0.519776     -0.000639684      0.00028285
                     0.000382832     -0.00068633        -0.141283      0.00114656     -0.000466998     0.000550758        -0.629761       -0.757796
                       -0.809554       -0.519191     -0.000214719     0.000423125        -0.178794        0.173979      0.000611208    -0.000560943
                    -0.000688317     0.000424084        -0.629694        -0.75747      0.000750156     -0.00049549       -0.0287802        0.136158
281700.4              -0.0919819        0.232717      0.000653509    -0.000487928        -0.809407       -0.519752     -0.000638908      0.00028266
                     0.000382801    -0.000686367        -0.141278       0.0011479     -0.000466999     0.000550782        -0.629786       -0.757777
                       -0.809571       -0.519167     -0.000214625     0.000423123        -0.178784         0.17398      0.000611507    -0.000561227
                    -0.000688368     0.000424162        -0.629719        -0.75745       0.00075015    -0.000495523        -0.028772        0.136154
281700.5              -0.0919726        0.232714      0.000653475    -0.000487936        -0.809424       -0.519728     -0.000638158     0.000282479
                      0.00038277    -0.000686404        -0.141272      0.00114923     -0.000466999     0.000550806         -0.62981       -0.757758
                       -0.809588       -0.519143     -0.000214531     0.000423121        -0.178773        0.173981      0.000611796    -0.000561506
                     -0.00068842      0.00042424        -0.629743       -0.757431      0.000750144    -0.000495555       -0.0287638         0.13615
281700.6              -0.0919634         0.23271      0.000653441    -0.000487944        -0.809442       -0.519704     -0.000637434     0.000282307
                     0.000382739    -0.000686441        -0.141266      0.00115057     -0.000466999      0.00055083        -0.629835       -0.757738
                       -0.809606       -0.519119     -0.000214437     0.000423119        -0.178763        0.173982      0.000612077    -0.000561782
                    -0.000688471     0.000424318        -0.629767       -0.757412      0.000750138    -0.000495588       -0.0287555        0.136146
281700.7              -0.0919541        0.232707      0.000653407    -0.000487952        -0.809459        -0.51968     -0.000636735     0.000282143
                     0.000382708    -0.000686478        -0.141261       0.0011519     -0.000466999     0.000550854         -0.62986       -0.757719
                       -0.809623       -0.519095     -0.000214344     0.000423117        -0.178753        0.173984      0.000612348    -0.000562052
                    -0.000688522     0.000424396        -0.629791       -0.757393      0.000750132     -0.00049562       -0.0287473        0.136142
281700.8              -0.0919448        0.232703      0.000653373     -0.00048796        -0.809477       -0.519656     -0.000636061     0.000281987
                     0.000382676    -0.000686515        -0.141255      0.00115323        -0.000467     0.000550878        -0.629884         -0.7577
                       -0.809641        -0.51907      -0.00021425     0.000423114        -0.178743        0.173985       0.00061261    -0.000562318
                    -0.000688572     0.000424474        -0.629816       -0.757374      0.000750125    -0.000495652       -0.0287391        0.136138
281700.9              -0.0919356          0.2327      0.000653339    -0.000487968        -0.809494       -0.519632     -0.000635411      0.00028184
                     0.000382645    -0.000686552         -0.14125      0.00115457        -0.000467     0.000550902        -0.629909       -0.757681
                       -0.809658       -0.519046     -0.000214157     0.000423112        -0.178732        0.173986      0.000612863    -0.000562578
                    -0.000688623     0.000424552         -0.62984       -0.757354      0.000750119    -0.000495685       -0.0287308        0.136133
281701                -0.0919263        0.232696      0.000653305    -0.000487976        -0.809512       -0.519608     -0.000634786       0.0002817
                     0.000382614    -0.000686589        -0.141244       0.0011559        -0.000467     0.000550926        -0.629934       -0.757662
                       -0.809676       -0.519022     -0.000214063      0.00042311        -0.178722        0.173987      0.000613107    -0.000562834
                    -0.000688674      0.00042463        -0.629864       -0.757335      0.000750113    -0.000495717       -0.0287226        0.136129
281701.1              -0.0919171        0.232693      0.000653271    -0.000487984        -0.809529       -0.519584     -0.000634185     0.000281568
                     0.000382582    -0.000686626        -0.141238      0.00115723        -0.000467      0.00055095        -0.629958       -0.757642
                       -0.809693       -0.518998      -0.00021397     0.000423107        -0.178712        0.173988      0.000613342    -0.000563083
                    -0.000688724     0.000424709        -0.629888       -0.757316      0.000750107     -0.00049575       -0.0287144        0.136125
281701.2              -0.0919078        0.232689      0.000653237    -0.000487992        -0.809547        -0.51956     -0.000633608     0.000281444
                     0.000382551    -0.000686663        -0.141233      0.00115857     -0.000467001     0.000550974        -0.629983       -0.757623
                       -0.809711       -0.518974     -0.000213877     0.000423105        -0.178702        0.173989      0.000613567    -0.000563327
                    -0.000688775     0.000424787        -0.629913       -0.757297      0.000750101    -0.000495782       -0.0287061        0.136121
281701.3              -0.0918986        0.232686      0.000653203    -0.000487999        -0.809564       -0.519536     -0.000633054     0.000281327
                     0.000382519      -0.0006867        -0.141227       0.0011599     -0.000467001     0.000550998        -0.630008       -0.757604
                       -0.809728        -0.51895     -0.000213784     0.000423103        -0.178691         0.17399      0.000613784    -0.000563565
                    -0.000688825     0.000424866        -0.629937       -0.757277      0.000750095    -0.000495814       -0.0286979        0.136117
281701.4              -0.0918893        0.232682       0.00065317    -0.000488007        -0.809582       -0.519512     -0.000632523     0.000281218
                     0.000382488    -0.000686738        -0.141222      0.00116123     -0.000467001     0.000551022        -0.630032       -0.757585
                       -0.809746       -0.518926     -0.000213691       0.0004231        -0.178681        0.173991      0.000613991    -0.000563796
                    -0.000688876     0.000424944        -0.629961       -0.757258      0.000750089    -0.000495847       -0.0286896        0.136113
281701.5                -0.09188        0.232679      0.000653136    -0.000488015        -0.809599       -0.519488     -0.000632016     0.000281116
                     0.000382456    -0.000686775        -0.141216      0.00116256     -0.000467002     0.000551046        -0.630057       -0.757566
                       -0.809763       -0.518902     -0.000213598     0.000423098        -0.178671        0.173992      0.000614188    -0.000564021
                    -0.000688926     0.000425023        -0.629985       -0.757239      0.000750083    -0.000495879       -0.0286814        0.136109
281701.6              -0.0918708        0.232675      0.000653103    -0.000488023        -0.809617       -0.519464     -0.000631532     0.000281022
                     0.000382424    -0.000686813         -0.14121      0.00116389     -0.000467002      0.00055107        -0.630081       -0.757546
                       -0.809781       -0.518878     -0.000213505     0.000423095        -0.178661        0.173993      0.000614377    -0.000564239
                    -0.000688976     0.000425102         -0.63001        -0.75722      0.000750076    -0.000495912       -0.0286732        0.136105
281701.7              -0.0918615        0.232671      0.000653069     -0.00048803        -0.809634        -0.51944     -0.000631071     0.000280935
                     0.000382392     -0.00068685        -0.141205      0.00116522     -0.000467002     0.000551094        -0.630106       -0.757527
                       -0.809798       -0.518854     -0.000213412     0.000423093         -0.17865        0.173994      0.000614556    -0.000564451
                    -0.000689026     0.000425181        -0.630034       -0.757201       0.00075007    -0.000495944       -0.0286649        0.136101
281701.8              -0.0918523        0.232668      0.000653036    -0.000488038        -0.809652       -0.519416     -0.000630633     0.000280855
                      0.00038236    -0.000686888        -0.141199      0.00116655     -0.000467002     0.000551118         -0.63013       -0.757508
                       -0.809815        -0.51883      -0.00021332      0.00042309         -0.17864        0.173995      0.000614725    -0.000564655
                    -0.000689076      0.00042526        -0.630058       -0.757181      0.000750064    -0.000495976       -0.0286567        0.136096
281701.9               -0.091843        0.232664      0.000653002    -0.000488045        -0.809669       -0.519392     -0.000630218     0.000280782
                     0.000382328    -0.000686925        -0.141194      0.00116788     -0.000467003     0.000551142        -0.630155       -0.757489
                       -0.809833       -0.518806     -0.000213227     0.000423087         -0.17863        0.173996      0.000614885    -0.000564852
                    -0.000689126     0.000425339        -0.630082       -0.757162      0.000750058    -0.000496009       -0.0286484        0.136092
281702                -0.0918338        0.232661      0.000652969    -0.000488053        -0.809687       -0.519368     -0.000629826     0.000280716
                     0.000382296    -0.000686963        -0.141188      0.00116921     -0.000467003     0.000551166        -0.630179        -0.75747
                        -0.80985       -0.518782     -0.000213135     0.000423085         -0.17862        0.173997      0.000615036    -0.000565042
                    -0.000689176     0.000425418        -0.630107       -0.757143      0.000750052    -0.000496041       -0.0286402        0.136088
281702.1              -0.0918245        0.232657      0.000652936    -0.000488061        -0.809704       -0.519344     -0.000629457     0.000280658
                     0.000382264    -0.000687001        -0.141182      0.00117053     -0.000467003      0.00055119        -0.630204        -0.75745
                       -0.809868       -0.518757     -0.000213042     0.000423082        -0.178609        0.173999      0.000615177    -0.000565223
                    -0.000689226     0.000425497        -0.630131       -0.757124      0.000750046    -0.000496073       -0.0286319        0.136084
281702.2              -0.0918152        0.232654      0.000652902    -0.000488068        -0.809722        -0.51932     -0.000629111     0.000280606
                     0.000382232    -0.000687039        -0.141177      0.00117186     -0.000467003     0.000551214        -0.630228       -0.757431
                       -0.809885       -0.518733      -0.00021295     0.000423079        -0.178599           0.174      0.000615308    -0.000565397
                    -0.000689276     0.000425576        -0.630155       -0.757104       0.00075004    -0.000496106       -0.0286237         0.13608
281702.3               -0.091806         0.23265      0.000652869    -0.000488075        -0.809739       -0.519296     -0.000628788     0.000280562
                       0.0003822    -0.000687077        -0.141171      0.00117319     -0.000467004     0.000551238        -0.630253       -0.757412
                       -0.809903       -0.518709     -0.000212858     0.000423077        -0.178589        0.174001      0.000615429    -0.000565562
                    -0.000689325     0.000425655        -0.630179       -0.757085      0.000750034    -0.000496138       -0.0286154        0.136076
281702.4              -0.0917967        0.232647      0.000652836    -0.000488083        -0.809757       -0.519272     -0.000628489     0.000280524
                     0.000382168    -0.000687115        -0.141166      0.00117452     -0.000467004     0.000551262        -0.630277       -0.757393
                        -0.80992       -0.518685     -0.000212766     0.000423074        -0.178579        0.174002       0.00061554    -0.000565719
                    -0.000689375     0.000425735        -0.630204       -0.757066      0.000750028    -0.000496171       -0.0286072        0.136072
281702.5              -0.0917875        0.232643      0.000652803     -0.00048809        -0.809774       -0.519248     -0.000628213     0.000280494
                     0.000382135    -0.000687153         -0.14116      0.00117584     -0.000467004     0.000551286        -0.630302       -0.757374
                       -0.809938       -0.518661     -0.000212674     0.000423071        -0.178569        0.174003       0.00061564    -0.000565867
                    -0.000689424     0.000425814        -0.630228       -0.757047      0.000750021    -0.000496203       -0.0285989        0.136068
281702.6              -0.0917782         0.23264       0.00065277    -0.000488097        -0.809792       -0.519224     -0.000627961     0.000280471
                     0.000382103    -0.000687191        -0.141154      0.00117717     -0.000467004      0.00055131        -0.630326       -0.757354
                       -0.809955       -0.518637     -0.000212582     0.000423068        -0.178558        0.174004      0.000615731    -0.000566006
                    -0.000689473     0.000425894        -0.630252       -0.757027      0.000750015    -0.000496235       -0.0285907        0.136064
281702.7               -0.091769        0.232636      0.000652737    -0.000488105        -0.809809         -0.5192     -0.000627733     0.000280455
                     0.000382071    -0.000687229        -0.141149       0.0011785     -0.000467005     0.000551335        -0.630351       -0.757335
                       -0.809973       -0.518613      -0.00021249     0.000423065        -0.178548        0.174005      0.000615811    -0.000566136
                    -0.000689523     0.000425973        -0.630276       -0.757008      0.000750009    -0.000496268       -0.0285824        0.136059
281702.8              -0.0917597        0.232633      0.000652704    -0.000488112        -0.809827       -0.519176     -0.000627529     0.000280446
                     0.000382038    -0.000687267        -0.141143      0.00117982     -0.000467005     0.000551359        -0.630375       -0.757316
                        -0.80999       -0.518589     -0.000212399     0.000423062        -0.178538        0.174006       0.00061588    -0.000566256
                    -0.000689572     0.000426053        -0.630301       -0.756989      0.000750003      -0.0004963       -0.0285741        0.136055
281702.9              -0.0917505        0.232629      0.000652671    -0.000488119        -0.809844       -0.519152      -0.00062735     0.000280445
                     0.000382006    -0.000687306        -0.141138      0.00118115     -0.000467005     0.000551383        -0.630399       -0.757297
                       -0.810007       -0.518565     -0.000212307      0.00042306        -0.178528        0.174007      0.000615939    -0.000566366
                    -0.000689621     0.000426133        -0.630325        -0.75697      0.000749997    -0.000496332       -0.0285659        0.136051
281703                -0.0917412        0.232626      0.000652638    -0.000488126        -0.809862       -0.519128     -0.000627196     0.000280451
                     0.000381973    -0.000687344        -0.141132      0.00118247     -0.000467005     0.000551407        -0.630424       -0.757278
                       -0.810025       -0.518541     -0.000212215     0.000423057        -0.178517        0.174008      0.000615986    -0.000566467
                     -0.00068967     0.000426213        -0.630349        -0.75695      0.000749991    -0.000496365       -0.0285576        0.136047
281703.1               -0.091732        0.232622      0.000652606    -0.000488133        -0.809879       -0.519104     -0.000627068     0.000280464
                      0.00038194    -0.000687383        -0.141126       0.0011838     -0.000467005     0.000551431        -0.630448       -0.757258
                       -0.810042       -0.518517     -0.000212124     0.000423054        -0.178507        0.174009      0.000616022    -0.000566557
