! TOUCHSTONE file generated by CST MICROWAVE STUDIO
! Date and time: Wed Oct  8 06:56:09 2025
! Project name: Teste_Macro_Metasurface_Nanopilar.cst
! Parameters = {H=600; L_x=115; L_y=120; Lambda=1064; Max_L=200; Min_L=70; PathPara=1; Phi=0; Step_L=10; Theta=0; p=520; phaseX=180; phaseY=0}
! Header version: 2018
! Port assignment regex: !\s*Touchstone port\s*([0-9]+)\s*=\s*(CST MWS port|CST DS port)\s*([0-9]+|Zmin|Zmax)\s*\(\"(.*)\"\)(\s*mode\s*([0-9]+))?.*
! Touchstone port assignment:
! Touchstone port 1 = CST MWS port Zmax ("") mode 1
! Touchstone port 2 = CST MWS port Zmax ("") mode 2
! Touchstone port 3 = CST MWS port Zmin ("") mode 1
! Touchstone port 4 = CST MWS port Zmin ("") mode 2
! S-Parameters are not renormalized. Each port impedance will be approximated by the real part at minimum frequency. The values are described via the [Reference] keyword.
! Default impedance is overridden by [Reference]
[Version] 2.0
# GHz S RI R 376.73
[Number of Ports] 4
[Reference]
376.73 376.73 376.73 376.73 
[Number of Frequencies] 1001
[Network Data]
281700                   0.06981       0.0311394     -0.000403537    -0.000181082         0.981414        -0.09899      5.73687e-05     4.62402e-06
                    -0.000473665    -0.000248816       -0.0138969        0.127918      3.51268e-05    -1.84968e-05         0.935191        0.300198
                        0.981793      -0.0988877     -4.90133e-05     7.03249e-05       -0.0675469       0.0460524      0.000427448    -0.000114309
                      6.6607e-05     5.56954e-05         0.935121        0.300216       0.00049054     -6.8355e-05       -0.0679506        0.111978
281700.1               0.0698102       0.0311308     -0.000403535    -0.000181073         0.981411      -0.0990249      5.73683e-05     4.62143e-06
                    -0.000473679    -0.000248804       -0.0138901        0.127912      3.51258e-05    -1.85041e-05         0.935202        0.300165
                         0.98179      -0.0989227     -4.90102e-05     7.03249e-05       -0.0675456       0.0460486       0.00042744    -0.000114329
                     6.66099e-05     5.56855e-05         0.935132        0.300183      0.000490533    -6.83787e-05       -0.0679454        0.111974
281700.2               0.0698104       0.0311221     -0.000403533    -0.000181064         0.981408      -0.0990598       5.7368e-05     4.61883e-06
                    -0.000473694    -0.000248792       -0.0138833        0.127907      3.51248e-05    -1.85114e-05         0.935214        0.300133
                        0.981786      -0.0989576     -4.90071e-05     7.03249e-05       -0.0675443       0.0460447      0.000427431    -0.000114348
                     6.66128e-05     5.56756e-05         0.935143        0.300151      0.000490525    -6.84024e-05       -0.0679401        0.111971
281700.3               0.0698107       0.0311135     -0.000403532    -0.000181055         0.981404      -0.0990948      5.73677e-05     4.61624e-06
                    -0.000473709    -0.000248781       -0.0138764        0.127902      3.51237e-05    -1.85187e-05         0.935225          0.3001
                        0.981783      -0.0989925      -4.9004e-05     7.03249e-05       -0.0675431       0.0460409      0.000427422    -0.000114368
                     6.66157e-05     5.56657e-05         0.935155        0.300118      0.000490517    -6.84261e-05       -0.0679348        0.111967
281700.4               0.0698109       0.0311049      -0.00040353    -0.000181046         0.981401      -0.0991297      5.73673e-05     4.61365e-06
                    -0.000473724    -0.000248769       -0.0138696        0.127897      3.51227e-05     -1.8526e-05         0.935236        0.300067
                         0.98178      -0.0990275     -4.90009e-05     7.03249e-05       -0.0675418       0.0460371      0.000427414    -0.000114387
                     6.66186e-05     5.56558e-05         0.935166        0.300085      0.000490509    -6.84498e-05       -0.0679295        0.111964
281700.5               0.0698112       0.0310962     -0.000403528    -0.000181037         0.981398      -0.0991647       5.7367e-05     4.61105e-06
                    -0.000473738    -0.000248757       -0.0138628        0.127892      3.51217e-05    -1.85332e-05         0.935247        0.300035
                        0.981777      -0.0990624     -4.89978e-05     7.03249e-05       -0.0675406       0.0460333      0.000427405    -0.000114406
                     6.66215e-05     5.56459e-05         0.935177        0.300053      0.000490501    -6.84735e-05       -0.0679243         0.11196
281700.6               0.0698114       0.0310876     -0.000403527    -0.000181028         0.981394      -0.0991996      5.73667e-05     4.60846e-06
                    -0.000473753    -0.000248745        -0.013856        0.127887      3.51207e-05    -1.85405e-05         0.935259        0.300002
                        0.981773      -0.0990974     -4.89947e-05     7.03249e-05       -0.0675393       0.0460295      0.000427397    -0.000114426
                     6.66244e-05      5.5636e-05         0.935188         0.30002      0.000490493    -6.84972e-05        -0.067919        0.111956
281700.7               0.0698117        0.031079     -0.000403525     -0.00018102         0.981391      -0.0992345      5.73663e-05     4.60586e-06
                    -0.000473768    -0.000248733       -0.0138492        0.127882      3.51197e-05    -1.85478e-05          0.93527        0.299969
                         0.98177      -0.0991323     -4.89916e-05     7.03249e-05        -0.067538       0.0460256      0.000427388    -0.000114445
                     6.66273e-05     5.56261e-05           0.9352        0.299987      0.000490485    -6.85209e-05       -0.0679137        0.111953
281700.8               0.0698119       0.0310704     -0.000403523    -0.000181011         0.981388      -0.0992695       5.7366e-05     4.60326e-06
                    -0.000473783    -0.000248721       -0.0138423        0.127877      3.51187e-05    -1.85551e-05         0.935281        0.299937
                        0.981767      -0.0991672     -4.89885e-05     7.03249e-05       -0.0675368       0.0460218       0.00042738    -0.000114465
                     6.66301e-05     5.56162e-05         0.935211        0.299955      0.000490477    -6.85446e-05       -0.0679084        0.111949
281700.9               0.0698122       0.0310617     -0.000403521    -0.000181002         0.981385      -0.0993044      5.73657e-05     4.60067e-06
                    -0.000473797     -0.00024871       -0.0138355        0.127871      3.51176e-05    -1.85624e-05         0.935292        0.299904
                        0.981764      -0.0992022     -4.89854e-05     7.03249e-05       -0.0675355        0.046018      0.000427371    -0.000114484
                      6.6633e-05     5.56063e-05         0.935222        0.299922      0.000490469    -6.85682e-05       -0.0679032        0.111946
281701                 0.0698124       0.0310531      -0.00040352    -0.000180993         0.981381      -0.0993394      5.73653e-05     4.59807e-06
                    -0.000473812    -0.000248698       -0.0138287        0.127866      3.51166e-05    -1.85696e-05         0.935304        0.299871
                         0.98176      -0.0992371     -4.89823e-05     7.03249e-05       -0.0675343       0.0460142      0.000427363    -0.000114503
                     6.66359e-05     5.55963e-05         0.935233        0.299889      0.000490461    -6.85919e-05       -0.0678979        0.111942
281701.1               0.0698126       0.0310445     -0.000403518    -0.000180984         0.981378      -0.0993743       5.7365e-05     4.59547e-06
                    -0.000473827    -0.000248686       -0.0138219        0.127861      3.51156e-05    -1.85769e-05         0.935315        0.299839
                        0.981757      -0.0992721     -4.89792e-05     7.03249e-05        -0.067533       0.0460103      0.000427354    -0.000114523
                     6.66387e-05     5.55864e-05         0.935245        0.299857      0.000490453    -6.86155e-05       -0.0678926        0.111939
281701.2               0.0698129       0.0310358     -0.000403516    -0.000180975         0.981375      -0.0994092      5.73647e-05     4.59286e-06
                    -0.000473842    -0.000248674       -0.0138151        0.127856      3.51146e-05    -1.85842e-05         0.935326        0.299806
                        0.981754       -0.099307     -4.89761e-05     7.03248e-05       -0.0675317       0.0460065      0.000427346    -0.000114542
                     6.66416e-05     5.55765e-05         0.935256        0.299824      0.000490445    -6.86392e-05       -0.0678874        0.111935
281701.3               0.0698131       0.0310272     -0.000403515    -0.000180966         0.981372      -0.0994442      5.73643e-05     4.59026e-06
                    -0.000473856    -0.000248662       -0.0138082        0.127851      3.51136e-05    -1.85915e-05         0.935337        0.299774
                         0.98175      -0.0993419      -4.8973e-05     7.03248e-05       -0.0675305       0.0460027      0.000427337    -0.000114562
                     6.66444e-05     5.55666e-05         0.935267        0.299792      0.000490437    -6.86628e-05       -0.0678821        0.111931
281701.4               0.0698134       0.0310186     -0.000403513    -0.000180957         0.981368      -0.0994791       5.7364e-05     4.58766e-06
                    -0.000473871     -0.00024865       -0.0138014        0.127846      3.51126e-05    -1.85988e-05         0.935349        0.299741
                        0.981747      -0.0993769     -4.89699e-05     7.03248e-05       -0.0675292       0.0459989      0.000427328    -0.000114581
                     6.66472e-05     5.55567e-05         0.935278        0.299759       0.00049043    -6.86864e-05       -0.0678768        0.111928
281701.5               0.0698136       0.0310099     -0.000403511    -0.000180948         0.981365      -0.0995141      5.73637e-05     4.58506e-06
                    -0.000473886    -0.000248638       -0.0137946        0.127841      3.51115e-05     -1.8606e-05          0.93536        0.299708
                        0.981744      -0.0994118     -4.89669e-05     7.03248e-05        -0.067528       0.0459951       0.00042732      -0.0001146
                       6.665e-05     5.55467e-05          0.93529        0.299726      0.000490422      -6.871e-05       -0.0678715        0.111924
281701.6               0.0698138       0.0310013     -0.000403509     -0.00018094         0.981362       -0.099549      5.73634e-05     4.58245e-06
                    -0.000473901    -0.000248626       -0.0137878        0.127836      3.51105e-05    -1.86133e-05         0.935371        0.299676
                        0.981741      -0.0994467     -4.89638e-05     7.03248e-05       -0.0675267       0.0459912      0.000427311     -0.00011462
                     6.66528e-05     5.55368e-05         0.935301        0.299694      0.000490414    -6.87336e-05       -0.0678663        0.111921
281701.7               0.0698141       0.0309927     -0.000403508    -0.000180931         0.981359      -0.0995839       5.7363e-05     4.57984e-06
                    -0.000473916    -0.000248615        -0.013781         0.12783      3.51095e-05    -1.86206e-05         0.935382        0.299643
                        0.981737      -0.0994817     -4.89607e-05     7.03248e-05       -0.0675254       0.0459874      0.000427303    -0.000114639
                     6.66556e-05     5.55269e-05         0.935312        0.299661      0.000490406    -6.87572e-05        -0.067861        0.111917
281701.8               0.0698143        0.030984     -0.000403506    -0.000180922         0.981355      -0.0996189      5.73627e-05     4.57724e-06
                     -0.00047393    -0.000248603       -0.0137742        0.127825      3.51085e-05    -1.86279e-05         0.935394         0.29961
                        0.981734      -0.0995166     -4.89576e-05     7.03248e-05       -0.0675242       0.0459836      0.000427294    -0.000114659
                     6.66584e-05     5.55169e-05         0.935323        0.299628      0.000490398    -6.87808e-05       -0.0678557        0.111914
281701.9               0.0698146       0.0309754     -0.000403504    -0.000180913         0.981352      -0.0996538      5.73624e-05     4.57463e-06
                    -0.000473945    -0.000248591       -0.0137673         0.12782      3.51075e-05    -1.86351e-05         0.935405        0.299578
                        0.981731      -0.0995516     -4.89545e-05     7.03248e-05       -0.0675229       0.0459798      0.000427286    -0.000114678
                     6.66612e-05      5.5507e-05         0.935335        0.299596       0.00049039    -6.88044e-05       -0.0678505         0.11191
281702                 0.0698148       0.0309668     -0.000403503    -0.000180904         0.981349      -0.0996888       5.7362e-05     4.57202e-06
                     -0.00047396    -0.000248579       -0.0137605        0.127815      3.51064e-05    -1.86424e-05         0.935416        0.299545
                        0.981727      -0.0995865     -4.89514e-05     7.03248e-05       -0.0675217        0.045976      0.000427277    -0.000114697
                      6.6664e-05     5.54971e-05         0.935346        0.299563      0.000490382    -6.88279e-05       -0.0678452        0.111907
281702.1                0.069815       0.0309581     -0.000403501    -0.000180895         0.981345      -0.0997237      5.73617e-05     4.56941e-06
                    -0.000473975    -0.000248567       -0.0137537         0.12781      3.51054e-05    -1.86497e-05         0.935427        0.299512
                        0.981724      -0.0996214     -4.89483e-05     7.03247e-05       -0.0675204       0.0459721      0.000427268    -0.000114717
                     6.66668e-05     5.54871e-05         0.935357         0.29953      0.000490374    -6.88515e-05       -0.0678399        0.111903
281702.2               0.0698153       0.0309495     -0.000403499    -0.000180886         0.981342      -0.0997586      5.73614e-05      4.5668e-06
                    -0.000473989    -0.000248555       -0.0137469        0.127805      3.51044e-05     -1.8657e-05         0.935439         0.29948
                        0.981721      -0.0996564     -4.89452e-05     7.03247e-05       -0.0675191       0.0459683       0.00042726    -0.000114736
                     6.66695e-05     5.54772e-05         0.935368        0.299498      0.000490366     -6.8875e-05       -0.0678347        0.111899
281702.3               0.0698155       0.0309409     -0.000403498    -0.000180877         0.981339      -0.0997936      5.73611e-05     4.56419e-06
                    -0.000474004    -0.000248543       -0.0137401          0.1278      3.51034e-05    -1.86642e-05          0.93545        0.299447
                        0.981718      -0.0996913     -4.89421e-05     7.03247e-05       -0.0675179       0.0459645      0.000427251    -0.000114756
                     6.66723e-05     5.54672e-05         0.935379        0.299465      0.000490358    -6.88986e-05       -0.0678294        0.111896
281702.4               0.0698157       0.0309323     -0.000403496    -0.000180868         0.981336      -0.0998285      5.73607e-05     4.56158e-06
                    -0.000474019    -0.000248531       -0.0137333        0.127795      3.51024e-05    -1.86715e-05         0.935461        0.299414
                        0.981714      -0.0997262      -4.8939e-05     7.03247e-05       -0.0675166       0.0459607      0.000427243    -0.000114775
                      6.6675e-05     5.54573e-05         0.935391        0.299432       0.00049035    -6.89221e-05       -0.0678241        0.111892
281702.5                0.069816       0.0309236     -0.000403494     -0.00018086         0.981332      -0.0998634      5.73604e-05     4.55896e-06
                    -0.000474034    -0.000248519       -0.0137265        0.127789      3.51013e-05    -1.86788e-05         0.935472        0.299382
                        0.981711      -0.0997612     -4.89359e-05     7.03247e-05       -0.0675154       0.0459568      0.000427234    -0.000114794
                     6.66778e-05     5.54473e-05         0.935402          0.2994      0.000490342    -6.89456e-05       -0.0678189        0.111889
281702.6               0.0698162        0.030915     -0.000403492    -0.000180851         0.981329      -0.0998984      5.73601e-05     4.55635e-06
                    -0.000474048    -0.000248507       -0.0137197        0.127784      3.51003e-05    -1.86861e-05         0.935483        0.299349
                        0.981708      -0.0997961     -4.89328e-05     7.03247e-05       -0.0675141        0.045953      0.000427226    -0.000114814
                     6.66805e-05     5.54374e-05         0.935413        0.299367      0.000490334    -6.89691e-05       -0.0678136        0.111885
281702.7               0.0698164       0.0309064     -0.000403491    -0.000180842         0.981326      -0.0999333      5.73597e-05     4.55374e-06
                    -0.000474063    -0.000248495       -0.0137128        0.127779      3.50993e-05    -1.86933e-05         0.935495        0.299316
                        0.981704      -0.0998311     -4.89297e-05     7.03246e-05       -0.0675129       0.0459492      0.000427217    -0.000114833
                     6.66832e-05     5.54274e-05         0.935424        0.299335      0.000490326    -6.89926e-05       -0.0678083        0.111882
281702.8               0.0698167       0.0308977     -0.000403489    -0.000180833         0.981322      -0.0999683      5.73594e-05     4.55112e-06
                    -0.000474078    -0.000248483        -0.013706        0.127774      3.50983e-05    -1.87006e-05         0.935506        0.299284
                        0.981701       -0.099866     -4.89266e-05     7.03246e-05       -0.0675116       0.0459454      0.000427208    -0.000114853
                     6.66859e-05     5.54175e-05         0.935436        0.299302      0.000490318    -6.90161e-05        -0.067803        0.111878
281702.9               0.0698169       0.0308891     -0.000403487    -0.000180824         0.981319       -0.100003      5.73591e-05      4.5485e-06
                    -0.000474093    -0.000248472       -0.0136992        0.127769      3.50972e-05    -1.87079e-05         0.935517        0.299251
                        0.981698      -0.0999009     -4.89235e-05     7.03246e-05       -0.0675104       0.0459416        0.0004272    -0.000114872
                     6.66886e-05     5.54075e-05         0.935447        0.299269       0.00049031    -6.90396e-05       -0.0677978        0.111874
281703                 0.0698171       0.0308805     -0.000403486    -0.000180815         0.981316       -0.100038      5.73588e-05     4.54589e-06
                    -0.000474107     -0.00024846       -0.0136924        0.127764      3.50962e-05    -1.87151e-05         0.935528        0.299218
                        0.981694      -0.0999359     -4.89204e-05     7.03246e-05       -0.0675091       0.0459377      0.000427191    -0.000114891
                     6.66913e-05     5.53976e-05         0.935458        0.299237      0.000490302    -6.90631e-05       -0.0677925        0.111871
281703.1               0.0698174       0.0308718     -0.000403484    -0.000180806         0.981313       -0.100073      5.73584e-05     4.54327e-06
                    -0.000474122    -0.000248448       -0.0136856        0.127759      3.50952e-05    -1.87224e-05          0.93554        0.299186
                        0.981691      -0.0999708     -4.89173e-05     7.03246e-05       -0.0675078       0.0459339      0.000427183    -0.000114911
