! TOUCHSTONE file generated by CST MICROWAVE STUDIO
! Date and time: Wed Oct  8 06:55:17 2025
! Project name: Teste_Macro_Metasurface_Nanopilar.cst
! Parameters = {H=600; L_x=105; L_y=195; Lambda=1064; Max_L=200; Min_L=70; PathPara=1; Phi=0; Step_L=10; Theta=0; p=520; phaseX=180; phaseY=0}
! Header version: 2018
! Port assignment regex: !\s*Touchstone port\s*([0-9]+)\s*=\s*(CST MWS port|CST DS port)\s*([0-9]+|Zmin|Zmax)\s*\(\"(.*)\"\)(\s*mode\s*([0-9]+))?.*
! Touchstone port assignment:
! Touchstone port 1 = CST MWS port Zmax ("") mode 1
! Touchstone port 2 = CST MWS port Zmax ("") mode 2
! Touchstone port 3 = CST MWS port Zmin ("") mode 1
! Touchstone port 4 = CST MWS port Zmin ("") mode 2
! S-Parameters are not renormalized. Each port impedance will be approximated by the real part at minimum frequency. The values are described via the [Reference] keyword.
! Default impedance is overridden by [Reference]
[Version] 2.0
# GHz S RI R 376.73
[Number of Ports] 4
[Reference]
376.73 376.73 376.73 376.73 
[Number of Frequencies] 1001
[Network Data]
281700                 -0.219036        0.412118     -0.000610924     0.000109675        -0.608811       -0.628354      0.000274916      0.00028818
                    -0.000634777     0.000160025       -0.0707693       -0.155642       8.6487e-05     4.37119e-05         0.812171       -0.542482
                       -0.608449       -0.628196      5.47048e-05     0.000345661         -0.42462        0.192435     -0.000444207    -0.000541172
                     8.44641e-05     9.99485e-05         0.811795       -0.542569     -0.000667851    -0.000441034        -0.119495       -0.122071
281700.1               -0.219021        0.412118     -0.000610927      0.00010969        -0.608834       -0.628337      0.000274941     0.000288163
                    -0.000634789     0.000160069       -0.0707772       -0.155644      8.64813e-05     4.37316e-05         0.812152       -0.542509
                       -0.608472       -0.628179      5.47206e-05     0.000345664        -0.424606        0.192447     -0.000444222    -0.000541174
                     8.44836e-05     9.99487e-05         0.811776       -0.542596     -0.000667874    -0.000441002        -0.119502       -0.122071
281700.2               -0.219006        0.412118     -0.000610931     0.000109704        -0.608857        -0.62832      0.000274967     0.000288146
                    -0.000634801     0.000160112       -0.0707851       -0.155646      8.64757e-05     4.37512e-05         0.812132       -0.542536
                       -0.608495       -0.628162      5.47364e-05     0.000345667        -0.424593         0.19246     -0.000444238    -0.000541176
                     8.45031e-05     9.99489e-05         0.811757       -0.542623     -0.000667898    -0.000440969        -0.119509       -0.122071
281700.3               -0.218991        0.412118     -0.000610934     0.000109718         -0.60888       -0.628303      0.000274992     0.000288129
                    -0.000634814     0.000160155       -0.0707931       -0.155647        8.647e-05     4.37708e-05         0.812113       -0.542563
                       -0.608518       -0.628145      5.47521e-05      0.00034567         -0.42458        0.192472     -0.000444254    -0.000541178
                     8.45226e-05     9.99491e-05         0.811737        -0.54265     -0.000667922    -0.000440936        -0.119516       -0.122071
281700.4               -0.218976        0.412118     -0.000610938     0.000109732        -0.608903       -0.628286      0.000275018     0.000288111
                    -0.000634826     0.000160198        -0.070801       -0.155649      8.64644e-05     4.37904e-05         0.812094        -0.54259
                       -0.608541       -0.628128      5.47679e-05     0.000345672        -0.424566        0.192485     -0.000444269     -0.00054118
                     8.45422e-05     9.99492e-05         0.811718       -0.542677     -0.000667945    -0.000440904        -0.119523       -0.122071
281700.5               -0.218961        0.412118     -0.000610942     0.000109746        -0.608926       -0.628269      0.000275043     0.000288094
                    -0.000634838     0.000160241       -0.0708089       -0.155651      8.64587e-05       4.381e-05         0.812075       -0.542618
                       -0.608564       -0.628111      5.47836e-05     0.000345675        -0.424553        0.192497     -0.000444285    -0.000541183
                     8.45617e-05     9.99494e-05         0.811699       -0.542704     -0.000667969    -0.000440871         -0.11953       -0.122071
281700.6               -0.218946        0.412118     -0.000610945     0.000109761        -0.608949       -0.628252      0.000275069     0.000288077
                     -0.00063485     0.000160284       -0.0708169       -0.155653      8.64531e-05     4.38297e-05         0.812056       -0.542645
                       -0.608587       -0.628094      5.47994e-05     0.000345678         -0.42454        0.192509     -0.000444301    -0.000541185
                     8.45812e-05     9.99496e-05          0.81168       -0.542732     -0.000667993    -0.000440839        -0.119537       -0.122071
281700.7               -0.218931        0.412118     -0.000610949     0.000109775        -0.608972       -0.628235      0.000275094      0.00028806
                    -0.000634862     0.000160328       -0.0708248       -0.155654      8.64475e-05     4.38493e-05         0.812037       -0.542672
                        -0.60861       -0.628078      5.48152e-05      0.00034568        -0.424526        0.192522     -0.000444317    -0.000541187
                     8.46008e-05     9.99498e-05         0.811661       -0.542759     -0.000668016    -0.000440806        -0.119544       -0.122071
281700.8               -0.218916        0.412118     -0.000610952     0.000109789        -0.608995       -0.628218       0.00027512     0.000288043
                    -0.000634874     0.000160371       -0.0708327       -0.155656      8.64419e-05     4.38689e-05         0.812018       -0.542699
                       -0.608633       -0.628061      5.48309e-05     0.000345683        -0.424513        0.192534     -0.000444332    -0.000541189
                     8.46203e-05     9.99499e-05         0.811642       -0.542786      -0.00066804    -0.000440773         -0.11955       -0.122071
281700.9               -0.218901        0.412118     -0.000610956     0.000109803        -0.609018       -0.628201      0.000275145     0.000288025
                    -0.000634886     0.000160414       -0.0708407       -0.155658      8.64363e-05     4.38885e-05         0.811999       -0.542726
                       -0.608656       -0.628044      5.48467e-05     0.000345686          -0.4245        0.192547     -0.000444348    -0.000541191
                     8.46398e-05     9.99501e-05         0.811623       -0.542813     -0.000668064    -0.000440741        -0.119557       -0.122071
281701                 -0.218886        0.412117      -0.00061096     0.000109817        -0.609041       -0.628184      0.000275171     0.000288008
                    -0.000634899     0.000160457       -0.0708486        -0.15566      8.64307e-05     4.39082e-05          0.81198       -0.542753
                       -0.608679       -0.628027      5.48624e-05     0.000345688        -0.424486        0.192559     -0.000444364    -0.000541193
                     8.46594e-05     9.99503e-05         0.811603        -0.54284     -0.000668087    -0.000440708        -0.119564       -0.122071
281701.1               -0.218871        0.412117     -0.000610963     0.000109832        -0.609064       -0.628167      0.000275196     0.000287991
                    -0.000634911       0.0001605       -0.0708565       -0.155661      8.64251e-05     4.39278e-05         0.811961       -0.542781
                       -0.608702        -0.62801      5.48782e-05     0.000345691        -0.424473        0.192572     -0.000444379    -0.000541195
                     8.46789e-05     9.99505e-05         0.811584       -0.542867     -0.000668111    -0.000440675        -0.119571       -0.122071
281701.2               -0.218856        0.412117     -0.000610967     0.000109846        -0.609087        -0.62815      0.000275221     0.000287974
                    -0.000634923     0.000160543       -0.0708645       -0.155663      8.64196e-05     4.39474e-05         0.811942       -0.542808
                       -0.608725       -0.627993       5.4894e-05     0.000345694         -0.42446        0.192584     -0.000444395    -0.000541197
                     8.46985e-05     9.99506e-05         0.811565       -0.542894     -0.000668134    -0.000440643        -0.119578       -0.122071
281701.3               -0.218841        0.412117      -0.00061097      0.00010986         -0.60911       -0.628133      0.000275247     0.000287956
                    -0.000634935     0.000160586       -0.0708724       -0.155665       8.6414e-05      4.3967e-05         0.811922       -0.542835
                       -0.608748       -0.627976      5.49097e-05     0.000345696        -0.424446        0.192597     -0.000444411    -0.000541199
                      8.4718e-05     9.99508e-05         0.811546       -0.542921     -0.000668158     -0.00044061        -0.119585       -0.122071
281701.4               -0.218826        0.412117     -0.000610974     0.000109874        -0.609133       -0.628116      0.000275272     0.000287939
                    -0.000634947     0.000160629       -0.0708803       -0.155667      8.64084e-05     4.39867e-05         0.811903       -0.542862
                       -0.608771       -0.627959      5.49255e-05     0.000345699        -0.424433        0.192609     -0.000444427    -0.000541201
                     8.47376e-05      9.9951e-05         0.811527       -0.542948     -0.000668182    -0.000440577        -0.119592       -0.122071
281701.5               -0.218811        0.412117     -0.000610978     0.000109888        -0.609156       -0.628099      0.000275298     0.000287922
                    -0.000634959     0.000160672       -0.0708883       -0.155668      8.64029e-05     4.40063e-05         0.811884       -0.542889
                       -0.608794       -0.627942      5.49413e-05     0.000345702        -0.424419        0.192622     -0.000444442    -0.000541203
                     8.47571e-05     9.99511e-05         0.811508       -0.542976     -0.000668205    -0.000440544        -0.119599       -0.122071
281701.6               -0.218796        0.412117     -0.000610981     0.000109903        -0.609179       -0.628082      0.000275323     0.000287905
                    -0.000634971     0.000160716       -0.0708962        -0.15567      8.63974e-05     4.40259e-05         0.811865       -0.542916
                       -0.608817       -0.627925       5.4957e-05     0.000345704        -0.424406        0.192634     -0.000444458    -0.000541205
                     8.47767e-05     9.99513e-05         0.811489       -0.543003     -0.000668229    -0.000440512        -0.119606       -0.122071
281701.7               -0.218781        0.412117     -0.000610985     0.000109917        -0.609202       -0.628066      0.000275349     0.000287887
                    -0.000634983     0.000160759       -0.0709041       -0.155672      8.63919e-05     4.40456e-05         0.811846       -0.542944
                        -0.60884       -0.627908      5.49728e-05     0.000345707        -0.424393        0.192646     -0.000444474    -0.000541207
                     8.47963e-05     9.99515e-05          0.81147        -0.54303     -0.000668252    -0.000440479        -0.119613       -0.122072
281701.8               -0.218766        0.412117     -0.000610988     0.000109931        -0.609225       -0.628049      0.000275374      0.00028787
                    -0.000634995     0.000160802       -0.0709121       -0.155674      8.63863e-05     4.40652e-05         0.811827       -0.542971
                       -0.608863       -0.627891      5.49886e-05      0.00034571        -0.424379        0.192659      -0.00044449    -0.000541209
                     8.48158e-05     9.99517e-05          0.81145       -0.543057     -0.000668276    -0.000440446         -0.11962       -0.122072
281701.9               -0.218751        0.412117     -0.000610992     0.000109945        -0.609248       -0.628032      0.000275399     0.000287853
                    -0.000635007     0.000160845         -0.07092       -0.155675      8.63808e-05     4.40848e-05         0.811808       -0.542998
                       -0.608886       -0.627874      5.50043e-05     0.000345712        -0.424366        0.192671     -0.000444505    -0.000541211
                     8.48354e-05     9.99518e-05         0.811431       -0.543084     -0.000668299    -0.000440414        -0.119627       -0.122072
281702                 -0.218736        0.412117     -0.000610995      0.00010996        -0.609271       -0.628015      0.000275425     0.000287836
                    -0.000635019     0.000160888       -0.0709279       -0.155677      8.63754e-05     4.41045e-05         0.811789       -0.543025
                       -0.608909       -0.627857      5.50201e-05     0.000345715        -0.424353        0.192684     -0.000444521    -0.000541213
                      8.4855e-05      9.9952e-05         0.811412       -0.543111     -0.000668323    -0.000440381        -0.119634       -0.122072
281702.1               -0.218721        0.412117     -0.000610999     0.000109974        -0.609294       -0.627998       0.00027545     0.000287818
                    -0.000635031     0.000160931       -0.0709359       -0.155679      8.63699e-05     4.41241e-05          0.81177       -0.543052
                       -0.608932        -0.62784      5.50359e-05     0.000345718        -0.424339        0.192696     -0.000444537    -0.000541215
                     8.48746e-05     9.99522e-05         0.811393       -0.543138     -0.000668346    -0.000440348        -0.119641       -0.122072
281702.2               -0.218706        0.412117     -0.000611003     0.000109988        -0.609317       -0.627981      0.000275476     0.000287801
                    -0.000635043     0.000160974       -0.0709438       -0.155681      8.63644e-05     4.41438e-05         0.811751       -0.543079
                       -0.608955       -0.627823      5.50516e-05      0.00034572        -0.424326        0.192709     -0.000444553    -0.000541217
                     8.48942e-05     9.99523e-05         0.811374       -0.543165      -0.00066837    -0.000440315        -0.119647       -0.122072
281702.3               -0.218691        0.412117     -0.000611006     0.000110002         -0.60934       -0.627964      0.000275501     0.000287784
                    -0.000635055     0.000161017       -0.0709518       -0.155682      8.63589e-05     4.41634e-05         0.811731       -0.543106
                       -0.608978       -0.627806      5.50674e-05     0.000345723        -0.424313        0.192721     -0.000444569    -0.000541219
                     8.49137e-05     9.99525e-05         0.811355       -0.543192     -0.000668394    -0.000440283        -0.119654       -0.122072
281702.4               -0.218676        0.412117      -0.00061101     0.000110016        -0.609363       -0.627947      0.000275526     0.000287767
                    -0.000635067      0.00016106       -0.0709597       -0.155684      8.63535e-05      4.4183e-05         0.811712       -0.543134
                       -0.609001       -0.627789      5.50832e-05     0.000345726        -0.424299        0.192734     -0.000444584    -0.000541221
                     8.49333e-05     9.99527e-05         0.811336        -0.54322     -0.000668417     -0.00044025        -0.119661       -0.122072
281702.5               -0.218661        0.412116     -0.000611013     0.000110031        -0.609386        -0.62793      0.000275552     0.000287749
                    -0.000635079     0.000161103       -0.0709676       -0.155686       8.6348e-05     4.42027e-05         0.811693       -0.543161
                       -0.609024       -0.627772      5.50989e-05     0.000345728        -0.424286        0.192746       -0.0004446    -0.000541223
                     8.49529e-05     9.99528e-05         0.811316       -0.543247     -0.000668441    -0.000440217        -0.119668       -0.122072
281702.6               -0.218646        0.412116     -0.000611017     0.000110045        -0.609409       -0.627913      0.000275577     0.000287732
                    -0.000635091     0.000161146       -0.0709756       -0.155688      8.63426e-05     4.42223e-05         0.811674       -0.543188
                       -0.609047       -0.627755      5.51147e-05     0.000345731        -0.424273        0.192758     -0.000444616    -0.000541225
                     8.49725e-05      9.9953e-05         0.811297       -0.543274     -0.000668464    -0.000440184        -0.119675       -0.122072
281702.7               -0.218631        0.412116     -0.000611021     0.000110059        -0.609432       -0.627896      0.000275602     0.000287715
                    -0.000635103     0.000161189       -0.0709835       -0.155689      8.63372e-05      4.4242e-05         0.811655       -0.543215
                        -0.60907       -0.627738      5.51305e-05     0.000345734        -0.424259        0.192771     -0.000444632    -0.000541227
                     8.49921e-05     9.99532e-05         0.811278       -0.543301     -0.000668488    -0.000440152        -0.119682       -0.122072
281702.8               -0.218616        0.412116     -0.000611024     0.000110073        -0.609455       -0.627879      0.000275628     0.000287698
                    -0.000635115     0.000161232       -0.0709914       -0.155691      8.63318e-05     4.42616e-05         0.811636       -0.543242
                       -0.609093       -0.627722      5.51462e-05     0.000345736        -0.424246        0.192783     -0.000444647    -0.000541229
                     8.50117e-05     9.99533e-05         0.811259       -0.543328     -0.000668511    -0.000440119        -0.119689       -0.122072
281702.9               -0.218601        0.412116     -0.000611028     0.000110087        -0.609478       -0.627862      0.000275653      0.00028768
                    -0.000635127     0.000161275       -0.0709994       -0.155693      8.63264e-05     4.42813e-05         0.811617       -0.543269
                       -0.609116       -0.627705       5.5162e-05     0.000345739        -0.424232        0.192796     -0.000444663    -0.000541231
                     8.50313e-05     9.99535e-05          0.81124       -0.543355     -0.000668535    -0.000440086        -0.119696       -0.122072
281703                 -0.218586        0.412116     -0.000611031     0.000110102        -0.609501       -0.627845      0.000275679     0.000287663
                    -0.000635139     0.000161318       -0.0710073       -0.155695       8.6321e-05     4.43009e-05         0.811598       -0.543297
                       -0.609139       -0.627688      5.51778e-05     0.000345742        -0.424219        0.192808     -0.000444679    -0.000541233
                      8.5051e-05     9.99537e-05         0.811221       -0.543382     -0.000668558    -0.000440053        -0.119703       -0.122072
281703.1               -0.218571        0.412116     -0.000611035     0.000110116        -0.609524       -0.627828      0.000275704     0.000287646
                    -0.000635151     0.000161361       -0.0710152       -0.155696      8.63156e-05     4.43206e-05         0.811579       -0.543324
                       -0.609162       -0.627671      5.51935e-05     0.000345744        -0.424206        0.192821     -0.000444695    -0.000541235
