! TOUCHSTONE file generated by CST MICROWAVE STUDIO
! Date and time: Wed Oct  8 07:01:37 2025
! Project name: Teste_Macro_Metasurface_Nanopilar.cst
! Parameters = {H=600; L_x=160; L_y=140; Lambda=1064; Max_L=200; Min_L=70; PathPara=1; Phi=0; Step_L=10; Theta=0; p=520; phaseX=180; phaseY=0}
! Header version: 2018
! Port assignment regex: !\s*Touchstone port\s*([0-9]+)\s*=\s*(CST MWS port|CST DS port)\s*([0-9]+|Zmin|Zmax)\s*\(\"(.*)\"\)(\s*mode\s*([0-9]+))?.*
! Touchstone port assignment:
! Touchstone port 1 = CST MWS port Zmax ("") mode 1
! Touchstone port 2 = CST MWS port Zmax ("") mode 2
! Touchstone port 3 = CST MWS port Zmin ("") mode 1
! Touchstone port 4 = CST MWS port Zmin ("") mode 2
! S-Parameters are not renormalized. Each port impedance will be approximated by the real part at minimum frequency. The values are described via the [Reference] keyword.
! Default impedance is overridden by [Reference]
[Version] 2.0
# GHz S RI R 376.73
[Number of Ports] 4
[Reference]
376.73 376.73 376.73 376.73 
[Number of Frequencies] 1001
[Network Data]
281700                -0.0988672       -0.233298      4.38487e-05     0.000757124        -0.873444       -0.382818      0.000242581    -3.35479e-05
                    -9.79861e-05     0.000615154        -0.224325        0.313984       0.00041829    -2.55106e-05        -0.621507       -0.668666
                       -0.873413       -0.383207      6.61387e-05    -7.71943e-05           0.2207       -0.101446     -0.000670047     0.000250807
                     0.000149244    -4.11103e-06        -0.621655       -0.668557     -0.000495856     0.000589051        -0.335745        0.186527
281700.1              -0.0988715       -0.233312      4.38782e-05     0.000757127        -0.873456       -0.382777      0.000242558     -3.3567e-05
                    -9.78912e-05     0.000615173        -0.224311        0.313984      0.000418172    -2.55753e-05        -0.621532       -0.668647
                       -0.873426       -0.383166      6.61382e-05    -7.71955e-05         0.220704       -0.101474     -0.000670035     0.000250831
                     0.000149238     -4.1555e-06         -0.62168       -0.668539     -0.000495792     0.000588994        -0.335731        0.186536
281700.2              -0.0988758       -0.233327      4.39077e-05     0.000757131        -0.873469       -0.382735      0.000242535    -3.35862e-05
                    -9.77971e-05     0.000615192        -0.224297        0.313984      0.000418055    -2.56402e-05        -0.621557       -0.668629
                       -0.873438       -0.383125      6.61376e-05    -7.71968e-05         0.220708       -0.101503     -0.000670023     0.000250855
                     0.000149232    -4.20004e-06        -0.621705       -0.668521     -0.000495728     0.000588937        -0.335717        0.186544
281700.3              -0.0988802       -0.233341      4.39372e-05     0.000757134        -0.873482       -0.382694      0.000242512    -3.36053e-05
                    -9.77037e-05     0.000615211        -0.224284        0.313984      0.000417938    -2.57053e-05        -0.621581       -0.668611
                        -0.87345       -0.383083      6.61371e-05     -7.7198e-05         0.220711       -0.101532     -0.000670011     0.000250879
                     0.000149227    -4.24465e-06         -0.62173       -0.668503     -0.000495664     0.000588881        -0.335702        0.186553
281700.4              -0.0988845       -0.233356      4.39667e-05     0.000757138        -0.873495       -0.382652      0.000242488    -3.36244e-05
                    -9.76111e-05     0.000615231         -0.22427        0.313983      0.000417821    -2.57705e-05        -0.621606       -0.668593
                       -0.873463       -0.383042      6.61366e-05    -7.71993e-05         0.220715       -0.101561         -0.00067     0.000250903
                     0.000149221    -4.28932e-06        -0.621755       -0.668485       -0.0004956     0.000588824        -0.335688        0.186562
281700.5              -0.0988889        -0.23337      4.39963e-05     0.000757141        -0.873507       -0.382611      0.000242465    -3.36434e-05
                    -9.75193e-05     0.000615251        -0.224256        0.313983      0.000417703    -2.58359e-05        -0.621631       -0.668575
                       -0.873475       -0.383001       6.6136e-05    -7.72005e-05         0.220719        -0.10159     -0.000669988     0.000250927
                     0.000149215    -4.33407e-06        -0.621779       -0.668467     -0.000495536     0.000588767        -0.335674        0.186571
281700.6              -0.0988932       -0.233385      4.40258e-05     0.000757144         -0.87352        -0.38257      0.000242442    -3.36625e-05
                    -9.74282e-05     0.000615271        -0.224242        0.313983      0.000417586    -2.59014e-05        -0.621656       -0.668557
                       -0.873488        -0.38296      6.61355e-05    -7.72018e-05         0.220723       -0.101619     -0.000669976     0.000250951
                     0.000149209    -4.37889e-06        -0.621804       -0.668449     -0.000495472      0.00058871         -0.33566         0.18658
281700.7              -0.0988976       -0.233399      4.40553e-05     0.000757148        -0.873533       -0.382528      0.000242418    -3.36815e-05
                    -9.73379e-05     0.000615292        -0.224228        0.313983      0.000417468     -2.5967e-05         -0.62168       -0.668539
                         -0.8735       -0.382919       6.6135e-05    -7.72031e-05         0.220726       -0.101648     -0.000669964     0.000250975
                     0.000149203    -4.42377e-06        -0.621829       -0.668431     -0.000495408     0.000588654        -0.335646        0.186588
281700.8              -0.0989019       -0.233414      4.40848e-05     0.000757151        -0.873546       -0.382487      0.000242395    -3.37005e-05
                    -9.72483e-05     0.000615313        -0.224214        0.313983      0.000417351    -2.60329e-05        -0.621705       -0.668521
                       -0.873512       -0.382877      6.61344e-05    -7.72043e-05          0.22073       -0.101677     -0.000669952     0.000250999
                     0.000149197    -4.46873e-06        -0.621854       -0.668413     -0.000495344     0.000588597        -0.335632        0.186597
281700.9              -0.0989063       -0.233428      4.41144e-05     0.000757155        -0.873558       -0.382445      0.000242372    -3.37195e-05
                    -9.71594e-05     0.000615335          -0.2242        0.313982      0.000417234    -2.60988e-05         -0.62173       -0.668503
                       -0.873525       -0.382836      6.61339e-05    -7.72056e-05         0.220734       -0.101706      -0.00066994     0.000251023
                     0.000149191    -4.51376e-06        -0.621879       -0.668395      -0.00049528      0.00058854        -0.335617        0.186606
281701                -0.0989106       -0.233443      4.41439e-05     0.000757158        -0.873571       -0.382404      0.000242348    -3.37385e-05
                    -9.70713e-05     0.000615357        -0.224186        0.313982      0.000417116     -2.6165e-05        -0.621755       -0.668485
                       -0.873537       -0.382795      6.61334e-05    -7.72068e-05         0.220737       -0.101735     -0.000669928     0.000251047
                     0.000149185    -4.55886e-06        -0.621903       -0.668376     -0.000495215     0.000588483        -0.335603        0.186615
281701.1              -0.0989149       -0.233457      4.41734e-05     0.000757161        -0.873584       -0.382363      0.000242325    -3.37574e-05
                    -9.69839e-05     0.000615379        -0.224172        0.313982      0.000416999    -2.62312e-05        -0.621779       -0.668467
                        -0.87355       -0.382754      6.61328e-05    -7.72081e-05         0.220741       -0.101764     -0.000669916     0.000251071
                     0.000149179    -4.60404e-06        -0.621928       -0.668358     -0.000495151     0.000588427        -0.335589        0.186623
281701.2              -0.0989193       -0.233472       4.4203e-05     0.000757165        -0.873596       -0.382321      0.000242301    -3.37763e-05
                    -9.68973e-05     0.000615401        -0.224158        0.313982      0.000416881    -2.62977e-05        -0.621804       -0.668448
                       -0.873562       -0.382713      6.61323e-05    -7.72093e-05         0.220745       -0.101793     -0.000669904     0.000251095
                     0.000149173    -4.64929e-06        -0.621953        -0.66834     -0.000495087      0.00058837        -0.335575        0.186632
281701.3              -0.0989236       -0.233487      4.42325e-05     0.000757168        -0.873609        -0.38228      0.000242278    -3.37952e-05
                    -9.68113e-05     0.000615424        -0.224144        0.313982      0.000416764    -2.63643e-05        -0.621829        -0.66843
                       -0.873574       -0.382671      6.61317e-05    -7.72106e-05         0.220748       -0.101822     -0.000669892     0.000251119
                     0.000149167    -4.69461e-06        -0.621978       -0.668322     -0.000495022     0.000588313        -0.335561        0.186641
281701.4               -0.098928       -0.233501       4.4262e-05     0.000757172        -0.873622       -0.382238      0.000242255    -3.38141e-05
                    -9.67261e-05     0.000615447         -0.22413        0.313981      0.000416646     -2.6431e-05        -0.621854       -0.668412
                       -0.873587        -0.38263      6.61312e-05    -7.72118e-05         0.220752       -0.101851      -0.00066988     0.000251142
                      0.00014916       -4.74e-06        -0.622002       -0.668304     -0.000494958     0.000588257        -0.335547         0.18665
281701.5              -0.0989323       -0.233516      4.42916e-05     0.000757175        -0.873635       -0.382197      0.000242231     -3.3833e-05
                    -9.66416e-05      0.00061547        -0.224116        0.313981      0.000416529    -2.64979e-05        -0.621878       -0.668394
                       -0.873599       -0.382589      6.61306e-05    -7.72131e-05         0.220756        -0.10188     -0.000669868     0.000251166
                     0.000149154    -4.78547e-06        -0.622027       -0.668286     -0.000494893       0.0005882        -0.335532        0.186658
281701.6              -0.0989367        -0.23353      4.43211e-05     0.000757179        -0.873647       -0.382156      0.000242208    -3.38518e-05
                    -9.65578e-05     0.000615493        -0.224103        0.313981      0.000416411    -2.65649e-05        -0.621903       -0.668376
                       -0.873612       -0.382548      6.61301e-05    -7.72144e-05         0.220759       -0.101909     -0.000669856      0.00025119
                     0.000149148    -4.83102e-06        -0.622052       -0.668268     -0.000494829     0.000588143        -0.335518        0.186667
281701.7               -0.098941       -0.233545      4.43507e-05     0.000757182         -0.87366       -0.382114      0.000242184    -3.38706e-05
                    -9.64747e-05     0.000615517        -0.224089        0.313981      0.000416294    -2.66321e-05        -0.621928       -0.668358
                       -0.873624       -0.382507      6.61296e-05    -7.72156e-05         0.220763       -0.101938     -0.000669844     0.000251214
                     0.000149141    -4.87663e-06        -0.622077        -0.66825     -0.000494764     0.000588086        -0.335504        0.186676
281701.8              -0.0989454       -0.233559      4.43802e-05     0.000757185        -0.873673       -0.382073      0.000242161    -3.38894e-05
                    -9.63923e-05     0.000615541        -0.224075        0.313981      0.000416176    -2.66994e-05        -0.621953        -0.66834
                       -0.873636       -0.382465       6.6129e-05    -7.72169e-05         0.220767       -0.101967     -0.000669832     0.000251238
                     0.000149135    -4.92233e-06        -0.622102       -0.668232     -0.000494699      0.00058803         -0.33549        0.186685
281701.9              -0.0989497       -0.233574      4.44098e-05     0.000757189        -0.873686       -0.382031      0.000242137    -3.39082e-05
                    -9.63106e-05     0.000615565        -0.224061         0.31398      0.000416059    -2.67669e-05        -0.621977       -0.668322
                       -0.873649       -0.382424      6.61285e-05    -7.72182e-05          0.22077       -0.101995      -0.00066982     0.000251262
                     0.000149129     -4.9681e-06        -0.622126       -0.668214     -0.000494635     0.000587973        -0.335476        0.186693
281702                -0.0989541       -0.233588      4.44393e-05     0.000757192        -0.873698        -0.38199      0.000242114    -3.39269e-05
                    -9.62296e-05      0.00061559        -0.224047         0.31398      0.000415941    -2.68345e-05        -0.622002       -0.668304
                       -0.873661       -0.382383      6.61279e-05    -7.72194e-05         0.220774       -0.102024     -0.000669807     0.000251286
                     0.000149122    -5.01395e-06        -0.622151       -0.668195      -0.00049457     0.000587916        -0.335462        0.186702
281702.1              -0.0989584       -0.233603      4.44689e-05     0.000757196        -0.873711       -0.381949       0.00024209    -3.39456e-05
                    -9.61492e-05     0.000615614        -0.224033         0.31398      0.000415824    -2.69022e-05        -0.622027       -0.668286
                       -0.873674       -0.382342      6.61274e-05    -7.72207e-05         0.220778       -0.102053     -0.000669795     0.000251309
                     0.000149116    -5.05987e-06        -0.622176       -0.668177     -0.000494505      0.00058786        -0.335447        0.186711
281702.2              -0.0989628       -0.233618      4.44984e-05     0.000757199        -0.873724       -0.381907      0.000242067    -3.39643e-05
                    -9.60695e-05     0.000615639        -0.224019         0.31398      0.000415706    -2.69702e-05        -0.622052       -0.668268
                       -0.873686         -0.3823      6.61268e-05    -7.72219e-05         0.220781       -0.102082     -0.000669783     0.000251333
                     0.000149109    -5.10588e-06        -0.622201       -0.668159      -0.00049444     0.000587803        -0.335433         0.18672
281702.3              -0.0989671       -0.233632       4.4528e-05     0.000757202        -0.873736       -0.381866      0.000242043     -3.3983e-05
                    -9.59906e-05     0.000615664        -0.224005        0.313979      0.000415588    -2.70382e-05        -0.622077       -0.668249
                       -0.873698       -0.382259      6.61263e-05    -7.72232e-05         0.220785       -0.102111     -0.000669771     0.000251357
                     0.000149102    -5.15196e-06        -0.622226       -0.668141     -0.000494375     0.000587747        -0.335419        0.186728
281702.4              -0.0989715       -0.233647      4.45575e-05     0.000757206        -0.873749       -0.381824       0.00024202    -3.40017e-05
                    -9.59122e-05      0.00061569        -0.223991        0.313979      0.000415471    -2.71064e-05        -0.622101       -0.668231
                       -0.873711       -0.382218      6.61257e-05    -7.72245e-05         0.220789        -0.10214     -0.000669759     0.000251381
                     0.000149095    -5.19811e-06         -0.62225       -0.668123      -0.00049431      0.00058769        -0.335405        0.186737
281702.5              -0.0989758       -0.233661      4.45871e-05     0.000757209        -0.873762       -0.381783      0.000241996    -3.40203e-05
                    -9.58346e-05     0.000615715        -0.223977        0.313979      0.000415353    -2.71748e-05        -0.622126       -0.668213
                       -0.873723       -0.382177      6.61252e-05    -7.72257e-05         0.220792       -0.102169     -0.000669747     0.000251405
                     0.000149089    -5.24435e-06        -0.622275       -0.668105     -0.000494245     0.000587633        -0.335391        0.186746
281702.6              -0.0989802       -0.233676      4.46167e-05     0.000757213        -0.873774       -0.381742      0.000241973    -3.40389e-05
                    -9.57576e-05     0.000615741        -0.223963        0.313979      0.000415235    -2.72433e-05        -0.622151       -0.668195
                       -0.873736       -0.382136      6.61246e-05     -7.7227e-05         0.220796       -0.102198     -0.000669735     0.000251428
                     0.000149082    -5.29067e-06          -0.6223       -0.668087      -0.00049418     0.000587577        -0.335377        0.186755
281702.7              -0.0989846        -0.23369      4.46462e-05     0.000757216        -0.873787         -0.3817      0.000241949    -3.40575e-05
                    -9.56812e-05     0.000615766        -0.223949        0.313979      0.000415118    -2.73119e-05        -0.622176       -0.668177
                       -0.873748       -0.382094       6.6124e-05    -7.72283e-05           0.2208       -0.102227     -0.000669722     0.000251452
                     0.000149075    -5.33706e-06        -0.622325       -0.668069     -0.000494115      0.00058752        -0.335362        0.186763
281702.8              -0.0989889       -0.233705      4.46758e-05     0.000757219          -0.8738       -0.381659      0.000241925    -3.40761e-05
                    -9.56055e-05     0.000615792        -0.223935        0.313978         0.000415    -2.73807e-05          -0.6222       -0.668159
                       -0.873761       -0.382053      6.61235e-05    -7.72296e-05         0.220803       -0.102256      -0.00066971     0.000251476
                     0.000149068    -5.38354e-06         -0.62235       -0.668051      -0.00049405     0.000587463        -0.335348        0.186772
281702.9              -0.0989933        -0.23372      4.47054e-05     0.000757223        -0.873812       -0.381617      0.000241902    -3.40946e-05
                    -9.55304e-05     0.000615818        -0.223922        0.313978      0.000414882    -2.74496e-05        -0.622225       -0.668141
                       -0.873773       -0.382012      6.61229e-05    -7.72308e-05         0.220807       -0.102285     -0.000669698       0.0002515
                     0.000149061     -5.4301e-06        -0.622374       -0.668033     -0.000493984     0.000587407        -0.335334        0.186781
281703                -0.0989976       -0.233734      4.47349e-05     0.000757226        -0.873825       -0.381576      0.000241878    -3.41132e-05
                     -9.5456e-05     0.000615844        -0.223908        0.313978      0.000414765    -2.75187e-05         -0.62225       -0.668123
                       -0.873785       -0.381971      6.61224e-05    -7.72321e-05         0.220811       -0.102314     -0.000669686     0.000251524
                     0.000149054    -5.47674e-06        -0.622399       -0.668014     -0.000493919      0.00058735         -0.33532         0.18679
281703.1               -0.099002       -0.233749      4.47645e-05      0.00075723        -0.873838       -0.381534      0.000241855    -3.41317e-05
                    -9.53822e-05     0.000615871        -0.223894        0.313978      0.000414647    -2.75879e-05        -0.622275       -0.668105
                       -0.873798       -0.381929      6.61218e-05    -7.72334e-05         0.220814       -0.102343     -0.000669674     0.000251547
