! TOUCHSTONE file generated by CST MICROWAVE STUDIO
! Date and time: Wed Oct  8 06:56:54 2025
! Project name: Teste_Macro_Metasurface_Nanopilar.cst
! Parameters = {H=600; L_x=120; L_y=155; Lambda=1064; Max_L=200; Min_L=70; PathPara=1; Phi=0; Step_L=10; Theta=0; p=520; phaseX=180; phaseY=0}
! Header version: 2018
! Port assignment regex: !\s*Touchstone port\s*([0-9]+)\s*=\s*(CST MWS port|CST DS port)\s*([0-9]+|Zmin|Zmax)\s*\(\"(.*)\"\)(\s*mode\s*([0-9]+))?.*
! Touchstone port assignment:
! Touchstone port 1 = CST MWS port Zmax ("") mode 1
! Touchstone port 2 = CST MWS port Zmax ("") mode 2
! Touchstone port 3 = CST MWS port Zmin ("") mode 1
! Touchstone port 4 = CST MWS port Zmin ("") mode 2
! S-Parameters are not renormalized. Each port impedance will be approximated by the real part at minimum frequency. The values are described via the [Reference] keyword.
! Default impedance is overridden by [Reference]
[Version] 2.0
# GHz S RI R 376.73
[Number of Ports] 4
[Reference]
376.73 376.73 376.73 376.73 
[Number of Frequencies] 1001
[Network Data]
281700                -0.0855302       -0.127227     -0.000467832    -0.000782201        -0.828368        -0.52604     -0.000705803     9.18628e-05
                    -0.000252947    -0.000814186        -0.227371       -0.107176     -0.000188857     0.000297348         0.149048       -0.949734
                       -0.828712       -0.525696     -0.000186277     0.000534914         0.145799       0.0171214       0.00054462     0.000893014
                    -0.000666827       0.0001862         0.149001       -0.949319       0.00055081     0.000640518        -0.249737       0.0331874
281700.1              -0.0855278       -0.127233     -0.000467843    -0.000782189        -0.828386       -0.526011     -0.000705815     9.18874e-05
                    -0.000252974    -0.000814188        -0.227374       -0.107168     -0.000188872     0.000297343         0.149018       -0.949739
                        -0.82873       -0.525666     -0.000186268      0.00053492         0.145805       0.0171059      0.000544664     0.000892985
                    -0.000666849     0.000186218         0.148971       -0.949324      0.000550839     0.000640471        -0.249736       0.0331938
281700.2              -0.0855255       -0.127239     -0.000467854    -0.000782177        -0.828404       -0.525981     -0.000705828     9.19119e-05
                    -0.000253001    -0.000814191        -0.227378        -0.10716     -0.000188886     0.000297338         0.148988       -0.949744
                       -0.828748       -0.525636     -0.000186259     0.000534926         0.145811       0.0170904      0.000544709     0.000892957
                    -0.000666871     0.000186235         0.148941       -0.949329      0.000550867     0.000640423        -0.249735       0.0332002
281700.3              -0.0855231       -0.127245     -0.000467865    -0.000782165        -0.828423       -0.525951      -0.00070584     9.19364e-05
                    -0.000253028    -0.000814194        -0.227382       -0.107151     -0.000188901     0.000297333         0.148959       -0.949748
                       -0.828766       -0.525607      -0.00018625     0.000534932         0.145816       0.0170749      0.000544754     0.000892929
                    -0.000666893     0.000186253         0.148912       -0.949333      0.000550896     0.000640376        -0.249733       0.0332065
281700.4              -0.0855208       -0.127251     -0.000467876    -0.000782153        -0.828441       -0.525921     -0.000705852      9.1961e-05
                    -0.000253055    -0.000814197        -0.227385       -0.107143     -0.000188916     0.000297328         0.148929       -0.949753
                       -0.828784       -0.525577     -0.000186242     0.000534938         0.145822       0.0170594      0.000544798     0.000892901
                    -0.000666915      0.00018627         0.148882       -0.949338      0.000550924     0.000640328        -0.249732       0.0332129
281700.5              -0.0855185       -0.127257     -0.000467888    -0.000782141        -0.828459       -0.525891     -0.000705864     9.19855e-05
                    -0.000253082    -0.000814199        -0.227389       -0.107134      -0.00018893     0.000297323           0.1489       -0.949758
                       -0.828802       -0.525547     -0.000186233     0.000534944         0.145827       0.0170438      0.000544843     0.000892872
                    -0.000666937     0.000186288         0.148852       -0.949343      0.000550953      0.00064028        -0.249731       0.0332193
281700.6              -0.0855161       -0.127263     -0.000467899    -0.000782129        -0.828477       -0.525861     -0.000705876     9.20101e-05
                    -0.000253109    -0.000814202        -0.227392       -0.107126     -0.000188945     0.000297318          0.14887       -0.949763
                        -0.82882       -0.525517     -0.000186224      0.00053495         0.145833       0.0170283      0.000544888     0.000892844
                    -0.000666959     0.000186305         0.148823       -0.949348      0.000550982     0.000640233         -0.24973       0.0332256
281700.7              -0.0855138       -0.127269      -0.00046791    -0.000782117        -0.828495       -0.525831     -0.000705888     9.20346e-05
                    -0.000253136    -0.000814205        -0.227396       -0.107118     -0.000188959     0.000297313          0.14884       -0.949767
                       -0.828839       -0.525487     -0.000186215     0.000534955         0.145839       0.0170128      0.000544932     0.000892816
                    -0.000666981     0.000186323         0.148793       -0.949352       0.00055101     0.000640185        -0.249729        0.033232
281700.8              -0.0855114       -0.127275     -0.000467921    -0.000782105        -0.828513       -0.525801     -0.000705901     9.20592e-05
                    -0.000253163    -0.000814207          -0.2274       -0.107109     -0.000188974     0.000297308         0.148811       -0.949772
                       -0.828857       -0.525457     -0.000186206     0.000534961         0.145844       0.0169973      0.000544977     0.000892787
                    -0.000667003      0.00018634         0.148764       -0.949357      0.000551039     0.000640137        -0.249727       0.0332384
281700.9              -0.0855091       -0.127281     -0.000467932    -0.000782093        -0.828531       -0.525771     -0.000705913     9.20837e-05
                     -0.00025319     -0.00081421        -0.227403       -0.107101     -0.000188988     0.000297303         0.148781       -0.949777
                       -0.828875       -0.525427     -0.000186197     0.000534967          0.14585       0.0169817      0.000545022     0.000892759
                    -0.000667024     0.000186358         0.148734       -0.949362      0.000551067      0.00064009        -0.249726       0.0332448
281701                -0.0855068       -0.127287     -0.000467944     -0.00078208        -0.828549       -0.525741     -0.000705925     9.21082e-05
                    -0.000253217    -0.000814213        -0.227407       -0.107092     -0.000189003     0.000297298         0.148751       -0.949782
                       -0.828893       -0.525397     -0.000186189     0.000534973         0.145855       0.0169662      0.000545067     0.000892731
                    -0.000667046     0.000186376         0.148704       -0.949367      0.000551096     0.000640042        -0.249725       0.0332511
281701.1              -0.0855044       -0.127293     -0.000467955    -0.000782068        -0.828568       -0.525711     -0.000705937     9.21328e-05
                    -0.000253244    -0.000814215        -0.227411       -0.107084     -0.000189018     0.000297293         0.148722       -0.949786
                       -0.828911       -0.525367      -0.00018618     0.000534979         0.145861       0.0169507      0.000545111     0.000892702
                    -0.000667068     0.000186393         0.148675       -0.949371      0.000551124     0.000639995        -0.249724       0.0332575
281701.2              -0.0855021       -0.127299     -0.000467966    -0.000782056        -0.828586       -0.525681     -0.000705949     9.21573e-05
                    -0.000253271    -0.000814218        -0.227414       -0.107075     -0.000189032     0.000297288         0.148692       -0.949791
                       -0.828929       -0.525337     -0.000186171     0.000534985         0.145866       0.0169351      0.000545156     0.000892674
                     -0.00066709     0.000186411         0.148645       -0.949376      0.000551153     0.000639947        -0.249723       0.0332639
281701.3              -0.0854997       -0.127305     -0.000467977    -0.000782044        -0.828604       -0.525652     -0.000705962     9.21819e-05
                    -0.000253298    -0.000814221        -0.227418       -0.107067     -0.000189047     0.000297283         0.148662       -0.949796
                       -0.828947       -0.525307     -0.000186162     0.000534991         0.145872       0.0169196      0.000545201     0.000892646
                    -0.000667112     0.000186428         0.148615       -0.949381      0.000551182     0.000639899        -0.249721       0.0332702
281701.4              -0.0854974       -0.127311     -0.000467988    -0.000782032        -0.828622       -0.525622     -0.000705974     9.22064e-05
                    -0.000253325    -0.000814223        -0.227421       -0.107059     -0.000189061     0.000297278         0.148633       -0.949801
                       -0.828965       -0.525277     -0.000186153     0.000534996         0.145878       0.0169041      0.000545245     0.000892618
                    -0.000667134     0.000186446         0.148586       -0.949386       0.00055121     0.000639852         -0.24972       0.0332766
281701.5              -0.0854951       -0.127317     -0.000467999     -0.00078202         -0.82864       -0.525592     -0.000705986      9.2231e-05
                    -0.000253352    -0.000814226        -0.227425        -0.10705     -0.000189076     0.000297273         0.148603       -0.949805
                       -0.828984       -0.525247     -0.000186144     0.000535002         0.145883       0.0168886       0.00054529     0.000892589
                    -0.000667156     0.000186463         0.148556        -0.94939      0.000551239     0.000639804        -0.249719        0.033283
281701.6              -0.0854927       -0.127323     -0.000468011    -0.000782008        -0.828658       -0.525562     -0.000705998     9.22555e-05
                    -0.000253379    -0.000814228        -0.227429       -0.107042     -0.000189091     0.000297268         0.148574        -0.94981
                       -0.829002       -0.525217     -0.000186136     0.000535008         0.145889        0.016873      0.000545335     0.000892561
                    -0.000667178     0.000186481         0.148527       -0.949395      0.000551267     0.000639757        -0.249718       0.0332893
281701.7              -0.0854904       -0.127329     -0.000468022    -0.000781996        -0.828676       -0.525532      -0.00070601     9.22801e-05
                    -0.000253406    -0.000814231        -0.227432       -0.107033     -0.000189105     0.000297263         0.148544       -0.949815
                        -0.82902       -0.525187     -0.000186127     0.000535014         0.145894       0.0168575      0.000545379     0.000892533
                      -0.0006672     0.000186498         0.148497         -0.9494      0.000551296     0.000639709        -0.249717       0.0332957
281701.8              -0.0854881       -0.127335     -0.000468033    -0.000781984        -0.828694       -0.525502     -0.000706022     9.23046e-05
                    -0.000253433    -0.000814234        -0.227436       -0.107025      -0.00018912     0.000297258         0.148514        -0.94982
                       -0.829038       -0.525157     -0.000186118      0.00053502           0.1459        0.016842      0.000545424     0.000892504
                    -0.000667222     0.000186516         0.148467       -0.949405      0.000551324     0.000639661        -0.249715       0.0333021
281701.9              -0.0854857       -0.127341     -0.000468044    -0.000781972        -0.828713       -0.525472     -0.000706035     9.23291e-05
                     -0.00025346    -0.000814236        -0.227439       -0.107016     -0.000189135     0.000297253         0.148485       -0.949824
                       -0.829056       -0.525127     -0.000186109     0.000535026         0.145906       0.0168264      0.000545469     0.000892476
                    -0.000667244     0.000186534         0.148438       -0.949409      0.000551353     0.000639614        -0.249714       0.0333084
281702                -0.0854834       -0.127347     -0.000468055     -0.00078196        -0.828731       -0.525442     -0.000706047     9.23537e-05
                    -0.000253487    -0.000814239        -0.227443       -0.107008     -0.000189149     0.000297248         0.148455       -0.949829
                       -0.829074       -0.525097       -0.0001861     0.000535032         0.145911       0.0168109      0.000545514     0.000892448
                    -0.000667265     0.000186551         0.148408       -0.949414      0.000551381     0.000639566        -0.249713       0.0333148
281702.1               -0.085481       -0.127353     -0.000468067    -0.000781948        -0.828749       -0.525412     -0.000706059     9.23782e-05
                    -0.000253514    -0.000814242        -0.227447          -0.107     -0.000189164     0.000297244         0.148425       -0.949834
                       -0.829092       -0.525067     -0.000186091     0.000535037         0.145917       0.0167954      0.000545558     0.000892419
                    -0.000667287     0.000186569         0.148379       -0.949419       0.00055141     0.000639519        -0.249712       0.0333212
281702.2              -0.0854787       -0.127359     -0.000468078    -0.000781936        -0.828767       -0.525382     -0.000706071     9.24028e-05
                    -0.000253541    -0.000814244         -0.22745       -0.106991     -0.000189178     0.000297239         0.148396       -0.949839
                        -0.82911       -0.525037     -0.000186083     0.000535043         0.145922       0.0167798      0.000545603     0.000892391
                    -0.000667309     0.000186586         0.148349       -0.949424      0.000551439     0.000639471         -0.24971       0.0333275
281702.3              -0.0854764       -0.127365     -0.000468089    -0.000781924        -0.828785       -0.525352     -0.000706083     9.24273e-05
                    -0.000253568    -0.000814247        -0.227454       -0.106983     -0.000189193     0.000297234         0.148366       -0.949843
                       -0.829129       -0.525007     -0.000186074     0.000535049         0.145928       0.0167643      0.000545648     0.000892363
                    -0.000667331     0.000186604         0.148319       -0.949428      0.000551467     0.000639423        -0.249709       0.0333339
281702.4               -0.085474       -0.127371       -0.0004681    -0.000781912        -0.828803       -0.525322     -0.000706095     9.24519e-05
                    -0.000253595     -0.00081425        -0.227457       -0.106974     -0.000189208     0.000297229         0.148336       -0.949848
                       -0.829147       -0.524977     -0.000186065     0.000535055         0.145934       0.0167488      0.000545692     0.000892334
                    -0.000667353     0.000186621          0.14829       -0.949433      0.000551496     0.000639376        -0.249708       0.0333403
281702.5              -0.0854717       -0.127377     -0.000468111      -0.0007819        -0.828821       -0.525292     -0.000706108     9.24764e-05
                    -0.000253622    -0.000814252        -0.227461       -0.106966     -0.000189222     0.000297224         0.148307       -0.949853
                       -0.829165       -0.524947     -0.000186056     0.000535061         0.145939       0.0167332      0.000545737     0.000892306
                    -0.000667375     0.000186639          0.14826       -0.949438      0.000551524     0.000639328        -0.249707       0.0333466
281702.6              -0.0854694       -0.127383     -0.000468122    -0.000781888        -0.828839       -0.525263      -0.00070612      9.2501e-05
                    -0.000253649    -0.000814255        -0.227465       -0.106957     -0.000189237     0.000297219         0.148277       -0.949858
                       -0.829183       -0.524917     -0.000186047     0.000535067         0.145945       0.0167177      0.000545782     0.000892278
                    -0.000667397     0.000186657          0.14823       -0.949443      0.000551553      0.00063928        -0.249706        0.033353
281702.7               -0.085467       -0.127389     -0.000468134    -0.000781876        -0.828857       -0.525233     -0.000706132     9.25255e-05
                    -0.000253675    -0.000814257        -0.227468       -0.106949     -0.000189251     0.000297214         0.148248       -0.949862
                       -0.829201       -0.524887     -0.000186038     0.000535073          0.14595       0.0167021      0.000545826     0.000892249
                    -0.000667419     0.000186674         0.148201       -0.949447      0.000551581     0.000639233        -0.249704       0.0333594
281702.8              -0.0854647       -0.127395     -0.000468145    -0.000781864        -0.828876       -0.525203     -0.000706144     9.25501e-05
                    -0.000253702     -0.00081426        -0.227472       -0.106941     -0.000189266     0.000297209         0.148218       -0.949867
                       -0.829219       -0.524857      -0.00018603     0.000535078         0.145956       0.0166866      0.000545871     0.000892221
                    -0.000667441     0.000186692         0.148171       -0.949452       0.00055161     0.000639185        -0.249703       0.0333657
281702.9              -0.0854624       -0.127401     -0.000468156    -0.000781852        -0.828894       -0.525173     -0.000706156     9.25747e-05
                    -0.000253729    -0.000814263        -0.227475       -0.106932     -0.000189281     0.000297204         0.148188       -0.949872
                       -0.829237       -0.524827     -0.000186021     0.000535084         0.145961       0.0166711      0.000545916     0.000892193
                    -0.000667463      0.00018671         0.148142       -0.949457      0.000551638     0.000639138        -0.249702       0.0333721
281703                -0.0854601       -0.127407     -0.000468167     -0.00078184        -0.828912       -0.525143     -0.000706168     9.25992e-05
                    -0.000253756    -0.000814265        -0.227479       -0.106924     -0.000189295     0.000297199         0.148159       -0.949877
                       -0.829255       -0.524797     -0.000186012      0.00053509         0.145967       0.0166555       0.00054596     0.000892164
                    -0.000667484     0.000186727         0.148112       -0.949462      0.000551667      0.00063909        -0.249701       0.0333785
281703.1              -0.0854577       -0.127413     -0.000468178    -0.000781828         -0.82893       -0.525113     -0.000706181     9.26238e-05
                    -0.000253783    -0.000814268        -0.227483       -0.106915      -0.00018931     0.000297194         0.148129       -0.949881
                       -0.829273       -0.524767     -0.000186003     0.000535096         0.145973         0.01664      0.000546005     0.000892136
