! TOUCHSTONE file generated by CST MICROWAVE STUDIO
! Date and time: Wed Oct  8 07:01:32 2025
! Project name: Teste_Macro_Metasurface_Nanopilar.cst
! Parameters = {H=600; L_x=160; L_y=120; Lambda=1064; Max_L=200; Min_L=70; PathPara=1; Phi=0; Step_L=10; Theta=0; p=520; phaseX=180; phaseY=0}
! Header version: 2018
! Port assignment regex: !\s*Touchstone port\s*([0-9]+)\s*=\s*(CST MWS port|CST DS port)\s*([0-9]+|Zmin|Zmax)\s*\(\"(.*)\"\)(\s*mode\s*([0-9]+))?.*
! Touchstone port assignment:
! Touchstone port 1 = CST MWS port Zmax ("") mode 1
! Touchstone port 2 = CST MWS port Zmax ("") mode 2
! Touchstone port 3 = CST MWS port Zmin ("") mode 1
! Touchstone port 4 = CST MWS port Zmin ("") mode 2
! S-Parameters are not renormalized. Each port impedance will be approximated by the real part at minimum frequency. The values are described via the [Reference] keyword.
! Default impedance is overridden by [Reference]
[Version] 2.0
# GHz S RI R 376.73
[Number of Ports] 4
[Reference]
376.73 376.73 376.73 376.73 
[Number of Frequencies] 1001
[Network Data]
281700                 -0.239625       -0.083604      0.000592824     0.000602637        0.0624465       -0.958706     -7.24087e-05    -0.000772158
                     0.000389469     0.000633823         -0.21138       -0.406481      0.000867347    -0.000277226        -0.863112       -0.107314
                       0.0623773       -0.958921       0.00110041    -0.000233984        -0.248781       0.0522365     -0.000787654    -0.000112515
                     -5.6177e-05    -0.000811457        -0.863142       -0.107756     -0.000856893    -0.000157533         0.272553       -0.358742
281700.1               -0.239627      -0.0835954      0.000592863     0.000602632        0.0624169       -0.958708     -7.24385e-05    -0.000772162
                     0.000389502     0.000633826        -0.211399       -0.406495      0.000867349    -0.000277279        -0.863106       -0.107269
                       0.0623476       -0.958923       0.00110042    -0.000234047        -0.248779        0.052243     -0.000787668    -0.000112462
                    -5.62182e-05    -0.000811469        -0.863136       -0.107711     -0.000856918    -0.000157477         0.272537       -0.358781
281700.2               -0.239629      -0.0835868      0.000592901     0.000602627        0.0623873        -0.95871     -7.24683e-05    -0.000772165
                     0.000389536     0.000633829        -0.211419       -0.406508      0.000867352    -0.000277332          -0.8631       -0.107223
                        0.062318       -0.958925       0.00110044    -0.000234111        -0.248777       0.0522494     -0.000787682    -0.000112409
                    -5.62593e-05    -0.000811481        -0.863129       -0.107666     -0.000856943    -0.000157421         0.272521       -0.358819
281700.3               -0.239631      -0.0835781       0.00059294     0.000602622        0.0623577       -0.958712     -7.24981e-05    -0.000772169
                      0.00038957     0.000633832        -0.211438       -0.406521      0.000867354    -0.000277384        -0.863093       -0.107178
                       0.0622884       -0.958927       0.00110045    -0.000234174        -0.248775       0.0522558     -0.000787696    -0.000112356
                    -5.63005e-05    -0.000811493        -0.863123        -0.10762     -0.000856968    -0.000157365         0.272505       -0.358858
281700.4               -0.239633      -0.0835695      0.000592979     0.000602618        0.0623281       -0.958714     -7.25279e-05    -0.000772173
                     0.000389604     0.000633835        -0.211457       -0.406535      0.000867357    -0.000277437        -0.863087       -0.107133
                       0.0622588       -0.958929       0.00110047    -0.000234237        -0.248772       0.0522623      -0.00078771    -0.000112303
                    -5.63417e-05    -0.000811506        -0.863116       -0.107575     -0.000856993    -0.000157309         0.272489       -0.358896
281700.5               -0.239635      -0.0835609      0.000593018     0.000602613        0.0622985       -0.958716     -7.25577e-05    -0.000772176
                     0.000389637     0.000633838        -0.211476       -0.406548      0.000867359     -0.00027749         -0.86308       -0.107088
                       0.0622292       -0.958931       0.00110048    -0.000234301         -0.24877       0.0522687     -0.000787724    -0.000112249
                    -5.63829e-05    -0.000811518         -0.86311        -0.10753     -0.000857018    -0.000157253         0.272473       -0.358934
281700.6               -0.239638      -0.0835522      0.000593056     0.000602608        0.0622689       -0.958719     -7.25875e-05     -0.00077218
                     0.000389671     0.000633841        -0.211496       -0.406562      0.000867361    -0.000277542        -0.863074       -0.107043
                       0.0621996       -0.958934       0.00110049    -0.000234364        -0.248768       0.0522752     -0.000787738    -0.000112196
                    -5.64241e-05     -0.00081153        -0.863104       -0.107485     -0.000857042    -0.000157197         0.272458       -0.358973
281700.7                -0.23964      -0.0835436      0.000593095     0.000602603        0.0622393       -0.958721     -7.26173e-05    -0.000772184
                     0.000389705     0.000633844        -0.211515       -0.406575      0.000867364    -0.000277595        -0.863067       -0.106998
                         0.06217       -0.958936       0.00110051    -0.000234427        -0.248766       0.0522816     -0.000787752    -0.000112143
                    -5.64653e-05    -0.000811542        -0.863097        -0.10744     -0.000857067    -0.000157141         0.272442       -0.359011
281700.8               -0.239642      -0.0835349      0.000593134     0.000602598        0.0622097       -0.958723     -7.26471e-05    -0.000772187
                     0.000389738     0.000633847        -0.211534       -0.406588      0.000867366    -0.000277648        -0.863061       -0.106953
                       0.0621404       -0.958938       0.00110052    -0.000234491        -0.248763       0.0522881     -0.000787765     -0.00011209
                    -5.65065e-05    -0.000811555        -0.863091       -0.107395     -0.000857092    -0.000157085         0.272426        -0.35905
281700.9               -0.239644      -0.0835263      0.000593172     0.000602593        0.0621801       -0.958725     -7.26769e-05    -0.000772191
                     0.000389772      0.00063385        -0.211554       -0.406602      0.000867368    -0.000277701        -0.863054       -0.106908
                       0.0621108        -0.95894       0.00110054    -0.000234554        -0.248761       0.0522945     -0.000787779    -0.000112037
                    -5.65477e-05    -0.000811567        -0.863084        -0.10735     -0.000857117    -0.000157029          0.27241       -0.359088
281701                 -0.239646      -0.0835177      0.000593211     0.000602588        0.0621505       -0.958727     -7.27067e-05    -0.000772194
                     0.000389806     0.000633852        -0.211573       -0.406615      0.000867371    -0.000277753        -0.863048       -0.106863
                       0.0620811       -0.958942       0.00110055    -0.000234617        -0.248759       0.0523009     -0.000787793    -0.000111984
                    -5.65888e-05    -0.000811579        -0.863078       -0.107305     -0.000857142    -0.000156973         0.272394       -0.359126
281701.1               -0.239648       -0.083509       0.00059325     0.000602583        0.0621209       -0.958729     -7.27365e-05    -0.000772198
                      0.00038984     0.000633855        -0.211592       -0.406628      0.000867373    -0.000277806        -0.863041       -0.106817
                       0.0620515       -0.958945       0.00110056    -0.000234681        -0.248757       0.0523074     -0.000787807    -0.000111931
                      -5.663e-05    -0.000811591        -0.863071        -0.10726     -0.000857167    -0.000156917         0.272378       -0.359165
281701.2                -0.23965      -0.0835004      0.000593288     0.000602578        0.0620913       -0.958732     -7.27664e-05    -0.000772202
                     0.000389873     0.000633858        -0.211612       -0.406642      0.000867375    -0.000277859        -0.863035       -0.106772
                       0.0620219       -0.958947       0.00110058    -0.000234744        -0.248754       0.0523138     -0.000787821    -0.000111878
                    -5.66712e-05    -0.000811603        -0.863065       -0.107214     -0.000857192    -0.000156861         0.272362       -0.359203
281701.3               -0.239652      -0.0834918      0.000593327     0.000602573        0.0620618       -0.958734     -7.27962e-05    -0.000772205
                     0.000389907     0.000633861        -0.211631       -0.406655      0.000867378    -0.000277912        -0.863029       -0.106727
                       0.0619923       -0.958949       0.00110059    -0.000234807        -0.248752       0.0523203     -0.000787835    -0.000111825
                    -5.67124e-05    -0.000811616        -0.863058       -0.107169     -0.000857217    -0.000156805         0.272346       -0.359242
281701.4               -0.239655      -0.0834831      0.000593366     0.000602568        0.0620322       -0.958736      -7.2826e-05    -0.000772209
                     0.000389941     0.000633864         -0.21165       -0.406669       0.00086738    -0.000277964        -0.863022       -0.106682
                       0.0619627       -0.958951       0.00110061    -0.000234871         -0.24875       0.0523267     -0.000787849    -0.000111771
                    -5.67536e-05    -0.000811628        -0.863052       -0.107124     -0.000857241    -0.000156749          0.27233        -0.35928
281701.5               -0.239657      -0.0834745      0.000593405     0.000602563        0.0620026       -0.958738     -7.28558e-05    -0.000772213
                     0.000389975     0.000633867        -0.211669       -0.406682      0.000867382    -0.000278017        -0.863016       -0.106637
                       0.0619331       -0.958953       0.00110062    -0.000234934        -0.248748       0.0523331     -0.000787863    -0.000111718
                    -5.67949e-05     -0.00081164        -0.863046       -0.107079     -0.000857266    -0.000156693         0.272314       -0.359318
281701.6               -0.239659      -0.0834658      0.000593443     0.000602558         0.061973        -0.95874     -7.28857e-05    -0.000772216
                     0.000390008      0.00063387        -0.211689       -0.406695      0.000867385     -0.00027807        -0.863009       -0.106592
                       0.0619035       -0.958955       0.00110064    -0.000234997        -0.248746       0.0523396     -0.000787876    -0.000111665
                    -5.68361e-05    -0.000811652        -0.863039       -0.107034     -0.000857291    -0.000156637         0.272298       -0.359357
281701.7               -0.239661      -0.0834572      0.000593482     0.000602553        0.0619434       -0.958742     -7.29155e-05     -0.00077222
                     0.000390042     0.000633873        -0.211708       -0.406709      0.000867387    -0.000278122        -0.863003       -0.106547
                       0.0618739       -0.958958       0.00110065    -0.000235061        -0.248743        0.052346      -0.00078789    -0.000111612
                    -5.68773e-05    -0.000811664        -0.863033       -0.106989     -0.000857316    -0.000156581         0.272282       -0.359395
281701.8               -0.239663      -0.0834486      0.000593521     0.000602548        0.0619138       -0.958745     -7.29453e-05    -0.000772223
                     0.000390076     0.000633876        -0.211727       -0.406722      0.000867389    -0.000278175        -0.862996       -0.106502
                       0.0618443        -0.95896       0.00110066    -0.000235124        -0.248741       0.0523525     -0.000787904    -0.000111559
                    -5.69185e-05    -0.000811677        -0.863026       -0.106944     -0.000857341    -0.000156525         0.272266       -0.359434
281701.9               -0.239665      -0.0834399      0.000593559     0.000602543        0.0618842       -0.958747     -7.29752e-05    -0.000772227
                      0.00039011     0.000633879        -0.211747       -0.406735      0.000867392    -0.000278228         -0.86299       -0.106457
                       0.0618146       -0.958962       0.00110068    -0.000235188        -0.248739       0.0523589     -0.000787918    -0.000111506
                    -5.69597e-05    -0.000811689         -0.86302       -0.106899     -0.000857366    -0.000156469          0.27225       -0.359472
281702                 -0.239667      -0.0834313      0.000593598     0.000602538        0.0618546       -0.958749      -7.3005e-05    -0.000772231
                     0.000390143     0.000633882        -0.211766       -0.406749      0.000867394    -0.000278281        -0.862983       -0.106411
                        0.061785       -0.958964       0.00110069    -0.000235251        -0.248737       0.0523653     -0.000787932    -0.000111453
                    -5.70009e-05    -0.000811701        -0.863013       -0.106854     -0.000857391    -0.000156413         0.272235       -0.359511
281702.1               -0.239669      -0.0834226      0.000593637     0.000602533         0.061825       -0.958751     -7.30349e-05    -0.000772234
                     0.000390177     0.000633885        -0.211785       -0.406762      0.000867396    -0.000278333        -0.862977       -0.106366
                       0.0617554       -0.958966       0.00110071    -0.000235315        -0.248734       0.0523718     -0.000787946    -0.000111399
                    -5.70421e-05    -0.000811713        -0.863007       -0.106808     -0.000857415    -0.000156357         0.272219       -0.359549
281702.2               -0.239671       -0.083414      0.000593675     0.000602528        0.0617954       -0.958753     -7.30647e-05    -0.000772238
                     0.000390211     0.000633887        -0.211805       -0.406776      0.000867399    -0.000278386         -0.86297       -0.106321
                       0.0617258       -0.958968       0.00110072    -0.000235378        -0.248732       0.0523782      -0.00078796    -0.000111346
                    -5.70833e-05    -0.000811725           -0.863       -0.106763      -0.00085744      -0.0001563         0.272203       -0.359587
281702.3               -0.239674      -0.0834054      0.000593714     0.000602523        0.0617658       -0.958755     -7.30946e-05    -0.000772241
                     0.000390245      0.00063389        -0.211824       -0.406789      0.000867401    -0.000278439        -0.862964       -0.106276
                       0.0616962       -0.958971       0.00110073    -0.000235441         -0.24873       0.0523847     -0.000787974    -0.000111293
                    -5.71246e-05    -0.000811738        -0.862994       -0.106718     -0.000857465    -0.000156244         0.272187       -0.359626
281702.4               -0.239676      -0.0833967      0.000593753     0.000602518        0.0617362       -0.958758     -7.31245e-05    -0.000772245
                     0.000390278     0.000633893        -0.211843       -0.406802      0.000867403    -0.000278492        -0.862957       -0.106231
                       0.0616666       -0.958973       0.00110075    -0.000235505        -0.248728       0.0523911     -0.000787987     -0.00011124
                    -5.71658e-05     -0.00081175        -0.862987       -0.106673      -0.00085749    -0.000156188         0.272171       -0.359664
281702.5               -0.239678      -0.0833881      0.000593791     0.000602513        0.0617066        -0.95876     -7.31543e-05    -0.000772249
                     0.000390312     0.000633896        -0.211863       -0.406816      0.000867405    -0.000278544        -0.862951       -0.106186
                        0.061637       -0.958975       0.00110076    -0.000235568        -0.248725       0.0523975     -0.000788001    -0.000111187
                     -5.7207e-05    -0.000811762        -0.862981       -0.106628     -0.000857515    -0.000156132         0.272155       -0.359703
281702.6                -0.23968      -0.0833794       0.00059383     0.000602508         0.061677       -0.958762     -7.31842e-05    -0.000772252
                     0.000390346     0.000633899        -0.211882       -0.406829      0.000867408    -0.000278597        -0.862944       -0.106141
                       0.0616074       -0.958977       0.00110078    -0.000235632        -0.248723        0.052404     -0.000788015    -0.000111134
                    -5.72482e-05    -0.000811774        -0.862974       -0.106583     -0.000857539    -0.000156076         0.272139       -0.359741
281702.7               -0.239682      -0.0833708      0.000593869     0.000602503        0.0616474       -0.958764      -7.3214e-05    -0.000772256
                      0.00039038     0.000633902        -0.211902       -0.406842       0.00086741     -0.00027865        -0.862937       -0.106096
                       0.0615778       -0.958979       0.00110079    -0.000235695        -0.248721       0.0524104     -0.000788029     -0.00011108
                    -5.72895e-05    -0.000811786        -0.862968       -0.106538     -0.000857564     -0.00015602         0.272123       -0.359779
281702.8               -0.239684      -0.0833622      0.000593907     0.000602498        0.0616178       -0.958766     -7.32439e-05    -0.000772259
                     0.000390413     0.000633905        -0.211921       -0.406856      0.000867412    -0.000278703        -0.862931       -0.106051
                       0.0615481       -0.958981        0.0011008    -0.000235759        -0.248719       0.0524169     -0.000788043    -0.000111027
                    -5.73307e-05    -0.000811799        -0.862961       -0.106493     -0.000857589    -0.000155964         0.272107       -0.359818
281702.9               -0.239686      -0.0833535      0.000593946     0.000602493        0.0615882       -0.958768     -7.32738e-05    -0.000772263
                     0.000390447     0.000633908         -0.21194       -0.406869      0.000867415    -0.000278756        -0.862924       -0.106005
                       0.0615185       -0.958983       0.00110082    -0.000235822        -0.248717       0.0524233     -0.000788057    -0.000110974
                    -5.73719e-05    -0.000811811        -0.862955       -0.106448     -0.000857614    -0.000155908         0.272091       -0.359856
281703                 -0.239688      -0.0833449      0.000593985     0.000602488        0.0615586        -0.95877     -7.33037e-05    -0.000772266
                     0.000390481     0.000633911         -0.21196       -0.406882      0.000867417    -0.000278808        -0.862918        -0.10596
                       0.0614889       -0.958986       0.00110083    -0.000235885        -0.248714       0.0524297     -0.000788071    -0.000110921
                    -5.74132e-05    -0.000811823        -0.862948       -0.106403     -0.000857639    -0.000155852         0.272075       -0.359895
281703.1               -0.239691      -0.0833363      0.000594024     0.000602483         0.061529       -0.958773     -7.33335e-05     -0.00077227
                     0.000390515     0.000633914        -0.211979       -0.406896      0.000867419    -0.000278861        -0.862911       -0.105915
                       0.0614593       -0.958988       0.00110085    -0.000235949        -0.248712       0.0524362     -0.000788085    -0.000110868
