! TOUCHSTONE file generated by CST MICROWAVE STUDIO
! Date and time: Wed Oct  8 07:06:04 2025
! Project name: Teste_Macro_Metasurface_Nanopilar.cst
! Parameters = {H=600; L_x=195; L_y=200; Lambda=1064; Max_L=200; Min_L=70; PathPara=1; Phi=0; Step_L=10; Theta=0; p=520; phaseX=180; phaseY=0}
! Header version: 2018
! Port assignment regex: !\s*Touchstone port\s*([0-9]+)\s*=\s*(CST MWS port|CST DS port)\s*([0-9]+|Zmin|Zmax)\s*\(\"(.*)\"\)(\s*mode\s*([0-9]+))?.*
! Touchstone port assignment:
! Touchstone port 1 = CST MWS port Zmax ("") mode 1
! Touchstone port 2 = CST MWS port Zmax ("") mode 2
! Touchstone port 3 = CST MWS port Zmin ("") mode 1
! Touchstone port 4 = CST MWS port Zmin ("") mode 2
! S-Parameters are not renormalized. Each port impedance will be approximated by the real part at minimum frequency. The values are described via the [Reference] keyword.
! Default impedance is overridden by [Reference]
[Version] 2.0
# GHz S RI R 376.73
[Number of Ports] 4
[Reference]
376.73 376.73 376.73 376.73 
[Number of Frequencies] 1001
[Network Data]
281700                 -0.363671       -0.267716     -0.000307156    -4.30968e-05         -0.75627        0.465665      0.000319168     0.000438675
                    -0.000313788    -3.31785e-05        -0.317867       -0.268227      0.000582564     0.000269207        -0.794898        0.433339
                       -0.756186        0.465753      0.000523543     0.000324722       -0.0792119       -0.443813     -0.000500735    -0.000196648
                     0.000282103     0.000437102        -0.794904        0.433281     -0.000548319    -0.000129132       -0.0571487       -0.411181
281700.1               -0.363679       -0.267712     -0.000307205    -4.30938e-05        -0.756255        0.465685      0.000319181     0.000438663
                     -0.00031379    -3.31631e-05        -0.317876       -0.268225      0.000582571     0.000269187        -0.794883        0.433361
                        -0.75617        0.465774      0.000523624     0.000324751       -0.0792306       -0.443815      -0.00050075    -0.000196626
                     0.000282114     0.000437091        -0.794889        0.433303     -0.000548319    -0.000129105       -0.0571661       -0.411184
281700.2               -0.363688       -0.267708     -0.000307255    -4.30907e-05        -0.756239        0.465706      0.000319195     0.000438651
                    -0.000313792    -3.31477e-05        -0.317885       -0.268222      0.000582577     0.000269168        -0.794868        0.433383
                       -0.756154        0.465795      0.000523705      0.00032478       -0.0792493       -0.443817     -0.000500764    -0.000196604
                     0.000282126      0.00043708        -0.794874        0.433326      -0.00054832    -0.000129078       -0.0571835       -0.411187
281700.3               -0.363697       -0.267705     -0.000307304    -4.30874e-05        -0.756223        0.465727      0.000319208     0.000438639
                    -0.000313795    -3.31323e-05        -0.317893        -0.26822      0.000582584     0.000269149        -0.794853        0.433405
                       -0.756138        0.465816      0.000523786     0.000324808        -0.079268       -0.443818     -0.000500779    -0.000196581
                     0.000282138     0.000437069         -0.79486        0.433348     -0.000548321     -0.00012905        -0.057201        -0.41119
281700.4               -0.363706       -0.267701     -0.000307352    -4.30841e-05        -0.756207        0.465747      0.000319222     0.000438626
                    -0.000313797     -3.3117e-05        -0.317902       -0.268218      0.000582591      0.00026913        -0.794838        0.433427
                       -0.756123        0.465837      0.000523866     0.000324836       -0.0792867        -0.44382     -0.000500793    -0.000196559
                     0.000282149     0.000437058        -0.794845         0.43337     -0.000548321    -0.000129023       -0.0572184       -0.411193
281700.5               -0.363715       -0.267697     -0.000307401    -4.30807e-05        -0.756192        0.465768      0.000319235     0.000438614
                    -0.000313799    -3.31016e-05        -0.317911       -0.268215      0.000582597      0.00026911        -0.794823        0.433449
                       -0.756107        0.465857      0.000523947     0.000324864       -0.0793054       -0.443822     -0.000500808    -0.000196537
                     0.000282161     0.000437046         -0.79483        0.433392     -0.000548322    -0.000128995       -0.0572358       -0.411196
281700.6               -0.363724       -0.267694      -0.00030745    -4.30772e-05        -0.756176        0.465789      0.000319248     0.000438602
                    -0.000313801    -3.30862e-05         -0.31792       -0.268213      0.000582604     0.000269091        -0.794809        0.433472
                       -0.756091        0.465878      0.000524027     0.000324891       -0.0793241       -0.443823     -0.000500822    -0.000196515
                     0.000282172     0.000437035        -0.794816        0.433414     -0.000548322    -0.000128968       -0.0572532       -0.411199
281700.7               -0.363733        -0.26769     -0.000307499    -4.30737e-05         -0.75616         0.46581      0.000319262      0.00043859
                    -0.000313803    -3.30708e-05        -0.317929       -0.268211      0.000582611     0.000269072        -0.794794        0.433494
                       -0.756076        0.465899      0.000524107     0.000324918       -0.0793427       -0.443825     -0.000500836    -0.000196492
                     0.000282184     0.000437024        -0.794801        0.433436     -0.000548323     -0.00012894       -0.0572706       -0.411202
281700.8               -0.363741       -0.267687     -0.000307547      -4.307e-05        -0.756144         0.46583      0.000319275     0.000438578
                    -0.000313805    -3.30554e-05        -0.317937       -0.268208      0.000582617     0.000269052        -0.794779        0.433516
                        -0.75606         0.46592      0.000524187     0.000324945       -0.0793614       -0.443827     -0.000500851     -0.00019647
                     0.000282196     0.000437013        -0.794786        0.433458     -0.000548324    -0.000128913       -0.0572881       -0.411205
281700.9                -0.36375       -0.267683     -0.000307595    -4.30662e-05        -0.756129        0.465851      0.000319289     0.000438565
                    -0.000313807      -3.304e-05        -0.317946       -0.268206      0.000582624     0.000269033        -0.794764        0.433538
                       -0.756044        0.465941      0.000524267     0.000324971       -0.0793801       -0.443829     -0.000500865    -0.000196448
                     0.000282207     0.000437002        -0.794771         0.43348     -0.000548324    -0.000128885       -0.0573055       -0.411208
281701                 -0.363759       -0.267679     -0.000307644    -4.30623e-05        -0.756113        0.465872      0.000319302     0.000438553
                     -0.00031381    -3.30247e-05        -0.317955       -0.268204      0.000582631     0.000269014        -0.794749         0.43356
                       -0.756028        0.465961      0.000524347     0.000324997       -0.0793988        -0.44383      -0.00050088    -0.000196425
                     0.000282219     0.000436991        -0.794757        0.433502     -0.000548325    -0.000128858       -0.0573229       -0.411211
281701.1               -0.363768       -0.267676     -0.000307692    -4.30583e-05        -0.756097        0.465893      0.000319316     0.000438541
                    -0.000313812    -3.30093e-05        -0.317964       -0.268202      0.000582638     0.000268995        -0.794734        0.433582
                       -0.756013        0.465982      0.000524426     0.000325022       -0.0794175       -0.443832     -0.000500894    -0.000196403
                      0.00028223     0.000436979        -0.794742        0.433524     -0.000548326     -0.00012883       -0.0573403       -0.411213
281701.2               -0.363777       -0.267672      -0.00030774    -4.30543e-05        -0.756081        0.465913      0.000319329     0.000438529
                    -0.000313814    -3.29939e-05        -0.317973       -0.268199      0.000582644     0.000268975         -0.79472        0.433604
                       -0.755997        0.466003      0.000524506     0.000325048       -0.0794362       -0.443834     -0.000500908    -0.000196381
                     0.000282242     0.000436968        -0.794727        0.433546     -0.000548326    -0.000128803       -0.0573577       -0.411216
281701.3               -0.363786       -0.267669     -0.000307788    -4.30501e-05        -0.756066        0.465934      0.000319342     0.000438517
                    -0.000313816    -3.29785e-05        -0.317981       -0.268197      0.000582651     0.000268956        -0.794705        0.433627
                       -0.755981        0.466024      0.000524585     0.000325072       -0.0794549       -0.443835     -0.000500923    -0.000196358
                     0.000282254     0.000436957        -0.794712        0.433568     -0.000548327    -0.000128776       -0.0573752       -0.411219
281701.4               -0.363794       -0.267665     -0.000307835    -4.30458e-05         -0.75605        0.465955      0.000319356     0.000438504
                    -0.000313818    -3.29631e-05         -0.31799       -0.268195      0.000582657     0.000268937         -0.79469        0.433649
                       -0.755965        0.466045      0.000524664     0.000325097       -0.0794736       -0.443837     -0.000500937    -0.000196336
                     0.000282265     0.000436946        -0.794698         0.43359     -0.000548327    -0.000128748       -0.0573926       -0.411222
281701.5               -0.363803       -0.267661     -0.000307883    -4.30415e-05        -0.756034        0.465976      0.000319369     0.000438492
                     -0.00031382    -3.29477e-05        -0.317999       -0.268192      0.000582664     0.000268917        -0.794675        0.433671
                        -0.75595        0.466065      0.000524744     0.000325121       -0.0794923       -0.443839     -0.000500952    -0.000196314
                     0.000282277     0.000436935        -0.794683        0.433612     -0.000548328    -0.000128721         -0.05741       -0.411225
281701.6               -0.363812       -0.267658      -0.00030793     -4.3037e-05        -0.756018        0.465996      0.000319383      0.00043848
                    -0.000313822    -3.29323e-05        -0.318008        -0.26819      0.000582671     0.000268898         -0.79466        0.433693
                       -0.755934        0.466086      0.000524822     0.000325145        -0.079511       -0.443841     -0.000500966    -0.000196291
                     0.000282288     0.000436924        -0.794668        0.433634     -0.000548329    -0.000128693       -0.0574274       -0.411228
281701.7               -0.363821       -0.267654     -0.000307978    -4.30325e-05        -0.756002        0.466017      0.000319396     0.000438468
                    -0.000313825    -3.29169e-05        -0.318016       -0.268188      0.000582677     0.000268879        -0.794645        0.433715
                       -0.755918        0.466107      0.000524901     0.000325169       -0.0795297       -0.443842      -0.00050098    -0.000196269
                       0.0002823     0.000436912        -0.794653        0.433656     -0.000548329    -0.000128666       -0.0574448       -0.411231
281701.8                -0.36383        -0.26765     -0.000308025    -4.30278e-05        -0.755987        0.466038      0.000319409     0.000438456
                    -0.000313827    -3.29016e-05        -0.318025       -0.268185      0.000582684      0.00026886         -0.79463        0.433737
                       -0.755903        0.466128       0.00052498     0.000325192       -0.0795484       -0.443844     -0.000500995    -0.000196246
                     0.000282312     0.000436901        -0.794638        0.433678      -0.00054833    -0.000128638       -0.0574623       -0.411234
281701.9               -0.363839       -0.267647     -0.000308072    -4.30231e-05        -0.755971        0.466059      0.000319423     0.000438443
                    -0.000313829    -3.28862e-05        -0.318034       -0.268183      0.000582691      0.00026884        -0.794616         0.43376
                       -0.755887        0.466149      0.000525058     0.000325214       -0.0795671       -0.443846     -0.000501009    -0.000196224
                     0.000282323      0.00043689        -0.794624          0.4337      -0.00054833    -0.000128611       -0.0574797       -0.411237
281702                 -0.363848       -0.267643     -0.000308119    -4.30183e-05        -0.755955        0.466079      0.000319436     0.000438431
                    -0.000313831    -3.28708e-05        -0.318043       -0.268181      0.000582697     0.000268821        -0.794601        0.433782
                       -0.755871        0.466169      0.000525137     0.000325237       -0.0795858       -0.443847     -0.000501023    -0.000196201
                     0.000282335     0.000436879        -0.794609        0.433722     -0.000548331    -0.000128583       -0.0574971        -0.41124
281702.1               -0.363856        -0.26764     -0.000308166    -4.30133e-05        -0.755939          0.4661       0.00031945     0.000438419
                    -0.000313833    -3.28554e-05        -0.318052       -0.268178      0.000582704     0.000268802        -0.794586        0.433804
                       -0.755855         0.46619      0.000525215     0.000325259       -0.0796044       -0.443849     -0.000501037    -0.000196179
                     0.000282346     0.000436868        -0.794594        0.433744     -0.000548331    -0.000128556       -0.0575145       -0.411242
281702.2               -0.363865       -0.267636     -0.000308213    -4.30083e-05        -0.755924        0.466121      0.000319463     0.000438407
                    -0.000313835      -3.284e-05         -0.31806       -0.268176      0.000582711     0.000268782        -0.794571        0.433826
                        -0.75584        0.466211      0.000525293     0.000325281       -0.0796231       -0.443851     -0.000501052    -0.000196157
                     0.000282358     0.000436857        -0.794579        0.433766     -0.000548332    -0.000128528        -0.057532       -0.411245
281702.3               -0.363874       -0.267632     -0.000308259    -4.30032e-05        -0.755908        0.466142      0.000319476     0.000438395
                    -0.000313837    -3.28246e-05        -0.318069       -0.268174      0.000582717     0.000268763        -0.794556        0.433848
                       -0.755824        0.466232      0.000525371     0.000325302       -0.0796418       -0.443853     -0.000501066    -0.000196134
                      0.00028237     0.000436845        -0.794565        0.433788     -0.000548333    -0.000128501       -0.0575494       -0.411248
281702.4               -0.363883       -0.267629     -0.000308306    -4.29979e-05        -0.755892        0.466162       0.00031949     0.000438382
                     -0.00031384    -3.28092e-05        -0.318078       -0.268171      0.000582724     0.000268744        -0.794541         0.43387
                       -0.755808        0.466253      0.000525449     0.000325323       -0.0796605       -0.443854      -0.00050108    -0.000196112
                     0.000282381     0.000436834         -0.79455         0.43381     -0.000548333    -0.000128473       -0.0575668       -0.411251
281702.5               -0.363892       -0.267625     -0.000308352    -4.29926e-05        -0.755876        0.466183      0.000319503      0.00043837
                    -0.000313842    -3.27939e-05        -0.318087       -0.268169      0.000582731     0.000268724        -0.794527        0.433892
                       -0.755792        0.466273      0.000525526     0.000325344       -0.0796792       -0.443856     -0.000501095    -0.000196089
                     0.000282393     0.000436823        -0.794535        0.433832     -0.000548334    -0.000128446       -0.0575842       -0.411254
281702.6               -0.363901       -0.267621     -0.000308398    -4.29872e-05        -0.755861        0.466204      0.000319517     0.000438358
                    -0.000313844    -3.27785e-05        -0.318096       -0.268167      0.000582737     0.000268705        -0.794512        0.433915
                       -0.755777        0.466294      0.000525604     0.000325364       -0.0796979       -0.443858     -0.000501109    -0.000196067
                     0.000282404     0.000436812         -0.79452        0.433855     -0.000548334    -0.000128418       -0.0576016       -0.411257
281702.7                -0.36391       -0.267618     -0.000308445    -4.29817e-05        -0.755845        0.466224       0.00031953     0.000438346
                    -0.000313846    -3.27631e-05        -0.318104       -0.268164      0.000582744     0.000268686        -0.794497        0.433937
                       -0.755761        0.466315      0.000525681     0.000325384       -0.0797166       -0.443859     -0.000501123    -0.000196044
                     0.000282416     0.000436801        -0.794506        0.433877     -0.000548335    -0.000128391       -0.0576191        -0.41126
281702.8               -0.363918       -0.267614     -0.000308491    -4.29761e-05        -0.755829        0.466245      0.000319543     0.000438333
                    -0.000313848    -3.27477e-05        -0.318113       -0.268162       0.00058275     0.000268667        -0.794482        0.433959
                       -0.755745        0.466336      0.000525758     0.000325404       -0.0797353       -0.443861     -0.000501137    -0.000196021
                     0.000282428      0.00043679        -0.794491        0.433899     -0.000548336    -0.000128364       -0.0576365       -0.411263
281702.9               -0.363927        -0.26761     -0.000308536    -4.29703e-05        -0.755813        0.466266      0.000319557     0.000438321
                     -0.00031385    -3.27323e-05        -0.318122        -0.26816      0.000582757     0.000268647        -0.794467        0.433981
                       -0.755729        0.466356      0.000525835     0.000325423        -0.079754       -0.443863     -0.000501152    -0.000195999
                     0.000282439     0.000436778        -0.794476        0.433921     -0.000548336    -0.000128336       -0.0576539       -0.411266
281703                 -0.363936       -0.267607     -0.000308582    -4.29645e-05        -0.755797        0.466287       0.00031957     0.000438309
                    -0.000313852    -3.27169e-05        -0.318131       -0.268157      0.000582764     0.000268628        -0.794452        0.434003
                       -0.755714        0.466377      0.000525912     0.000325442       -0.0797727       -0.443864     -0.000501166    -0.000195976
                     0.000282451     0.000436767        -0.794461        0.433943     -0.000548337    -0.000128309       -0.0576713       -0.411269
281703.1               -0.363945       -0.267603     -0.000308628    -4.29586e-05        -0.755782        0.466307      0.000319584     0.000438297
                    -0.000313855    -3.27015e-05         -0.31814       -0.268155       0.00058277     0.000268609        -0.794437        0.434025
                       -0.755698        0.466398      0.000525989     0.000325461       -0.0797914       -0.443866      -0.00050118    -0.000195954
