! TOUCHSTONE file generated by CST MICROWAVE STUDIO
! Date and time: Wed Oct  8 06:54:46 2025
! Project name: Teste_Macro_Metasurface_Nanopilar.cst
! Parameters = {H=600; L_x=105; L_y=80; Lambda=1064; Max_L=200; Min_L=70; PathPara=1; Phi=0; Step_L=10; Theta=0; p=520; phaseX=180; phaseY=0}
! Header version: 2018
! Port assignment regex: !\s*Touchstone port\s*([0-9]+)\s*=\s*(CST MWS port|CST DS port)\s*([0-9]+|Zmin|Zmax)\s*\(\"(.*)\"\)(\s*mode\s*([0-9]+))?.*
! Touchstone port assignment:
! Touchstone port 1 = CST MWS port Zmax ("") mode 1
! Touchstone port 2 = CST MWS port Zmax ("") mode 2
! Touchstone port 3 = CST MWS port Zmin ("") mode 1
! Touchstone port 4 = CST MWS port Zmin ("") mode 2
! S-Parameters are not renormalized. Each port impedance will be approximated by the real part at minimum frequency. The values are described via the [Reference] keyword.
! Default impedance is overridden by [Reference]
[Version] 2.0
# GHz S RI R 376.73
[Number of Ports] 4
[Reference]
376.73 376.73 376.73 376.73 
[Number of Frequencies] 1001
[Network Data]
281700                  0.118889      -0.0136478      0.000106157     0.000420864        -0.934751        0.331956     -0.000275354    -0.000308406
                     0.000267671      0.00031099       0.00700037        -0.15339     -0.000141763    -0.000361643        -0.715177         0.67967
                        -0.93503        0.331646     -0.000135211    -0.000361634        -0.101107       0.0644636      0.000349184     0.000258588
                    -0.000392376    -0.000143023        -0.715044        0.679758      0.000349508     0.000238062        -0.154054    -0.000284165
281700.1                0.118886      -0.0136532      0.000106169      0.00042086        -0.934742        0.331981     -0.000275362    -0.000308396
                     0.000267693     0.000310985       0.00699344       -0.153391     -0.000141776    -0.000361623        -0.715158        0.679689
                       -0.935021        0.331671     -0.000135222     -0.00036163        -0.101105        0.064463      0.000349189     0.000258577
                    -0.000392384    -0.000143017        -0.715026        0.679777      0.000349516     0.000238044        -0.154054     -0.00028269
281700.2                0.118883      -0.0136587      0.000106181     0.000420856        -0.934734        0.332006      -0.00027537    -0.000308385
                     0.000267714     0.000310979       0.00698651       -0.153392      -0.00014179    -0.000361604        -0.715139        0.679709
                       -0.935012        0.331696     -0.000135233    -0.000361625        -0.101103       0.0644624      0.000349194     0.000258566
                    -0.000392392    -0.000143011        -0.715007        0.679797      0.000349524     0.000238025        -0.154054    -0.000281216
281700.3                0.118881      -0.0136641      0.000106193     0.000420852        -0.934725        0.332031     -0.000275378    -0.000308374
                     0.000267736     0.000310974       0.00697958       -0.153392     -0.000141803    -0.000361584        -0.715121        0.679729
                       -0.935004        0.331721     -0.000135244     -0.00036162        -0.101101       0.0644618      0.000349199     0.000258554
                      -0.0003924    -0.000143005        -0.714988        0.679816      0.000349532     0.000238007        -0.154055    -0.000279741
281700.4                0.118878      -0.0136696      0.000106205     0.000420848        -0.934717        0.332056     -0.000275386    -0.000308363
                     0.000267758     0.000310968       0.00697265       -0.153393     -0.000141816    -0.000361565        -0.715102        0.679748
                       -0.934995        0.331746     -0.000135255    -0.000361615        -0.101098       0.0644612      0.000349204     0.000258543
                    -0.000392408    -0.000142999         -0.71497        0.679836      0.000349539     0.000237989        -0.154055    -0.000278266
281700.5                0.118875       -0.013675      0.000106217     0.000420844        -0.934708        0.332081     -0.000275394    -0.000308353
                      0.00026778     0.000310963       0.00696572       -0.153394     -0.000141829    -0.000361545        -0.715083        0.679768
                       -0.934986        0.331771     -0.000135266     -0.00036161        -0.101096       0.0644606      0.000349209     0.000258532
                    -0.000392416    -0.000142992        -0.714951        0.679855      0.000349547     0.000237971        -0.154056    -0.000276792
281700.6                0.118872      -0.0136804      0.000106229      0.00042084        -0.934699        0.332106     -0.000275402    -0.000308342
                     0.000267801     0.000310957       0.00695879       -0.153395     -0.000141842    -0.000361526        -0.715065        0.679787
                       -0.934978        0.331796     -0.000135277    -0.000361606        -0.101094         0.06446      0.000349214      0.00025852
                    -0.000392424    -0.000142986        -0.714932        0.679875      0.000349555     0.000237953        -0.154056    -0.000275317
281700.7                0.118869      -0.0136859      0.000106241     0.000420836        -0.934691        0.332131     -0.000275411    -0.000308331
                     0.000267823     0.000310952       0.00695186       -0.153395     -0.000141855    -0.000361506        -0.715046        0.679807
                       -0.934969        0.331821     -0.000135288    -0.000361601        -0.101092       0.0644594      0.000349219     0.000258509
                    -0.000392432     -0.00014298        -0.714914        0.679895      0.000349563     0.000237935        -0.154057    -0.000273842
281700.8                0.118867      -0.0136913      0.000106253     0.000420832        -0.934682        0.332156     -0.000275419     -0.00030832
                     0.000267845     0.000310946       0.00694493       -0.153396     -0.000141868    -0.000361487        -0.715027        0.679826
                       -0.934961        0.331847     -0.000135299    -0.000361596         -0.10109       0.0644587      0.000349223     0.000258498
                     -0.00039244    -0.000142974        -0.714895        0.679914       0.00034957     0.000237916        -0.154057    -0.000272367
281700.9                0.118864      -0.0136967      0.000106265     0.000420828        -0.934673        0.332182     -0.000275427     -0.00030831
                     0.000267866      0.00031094         0.006938       -0.153397     -0.000141881    -0.000361467        -0.715009        0.679846
                       -0.934952        0.331872      -0.00013531    -0.000361591        -0.101087       0.0644581      0.000349228     0.000258487
                    -0.000392449    -0.000142968        -0.714876        0.679934      0.000349578     0.000237898        -0.154057    -0.000270892
281701                  0.118861      -0.0137022      0.000106277     0.000420824        -0.934665        0.332207     -0.000275435    -0.000308299
                     0.000267888     0.000310935       0.00693107       -0.153398     -0.000141895    -0.000361448         -0.71499        0.679866
                       -0.934943        0.331897     -0.000135322    -0.000361587        -0.101085       0.0644575      0.000349233     0.000258475
                    -0.000392457    -0.000142962        -0.714857        0.679953      0.000349586      0.00023788        -0.154058    -0.000269418
281701.1                0.118858      -0.0137076      0.000106289      0.00042082        -0.934656        0.332232     -0.000275443    -0.000308288
                      0.00026791     0.000310929       0.00692414       -0.153398     -0.000141908    -0.000361428        -0.714971        0.679885
                       -0.934935        0.331922     -0.000135333    -0.000361582        -0.101083       0.0644569      0.000349238     0.000258464
                    -0.000392465    -0.000142956        -0.714839        0.679973      0.000349594     0.000237862        -0.154058    -0.000267943
281701.2                0.118855       -0.013713      0.000106301     0.000420816        -0.934648        0.332257     -0.000275451    -0.000308277
                     0.000267931     0.000310924       0.00691721       -0.153399     -0.000141921    -0.000361409        -0.714952        0.679905
                       -0.934926        0.331947     -0.000135344    -0.000361577        -0.101081       0.0644563      0.000349243     0.000258453
                    -0.000392473     -0.00014295         -0.71482        0.679992      0.000349601     0.000237844        -0.154059    -0.000266468
281701.3                0.118852      -0.0137185      0.000106313     0.000420812        -0.934639        0.332282     -0.000275459    -0.000308267
                     0.000267953     0.000310918       0.00691028         -0.1534     -0.000141934    -0.000361389        -0.714934        0.679924
                       -0.934918        0.331972     -0.000135355    -0.000361572        -0.101079       0.0644557      0.000349248     0.000258441
                    -0.000392481    -0.000142944        -0.714801        0.680012      0.000349609     0.000237826        -0.154059    -0.000264993
281701.4                 0.11885      -0.0137239      0.000106325     0.000420808         -0.93463        0.332307     -0.000275468    -0.000308256
                     0.000267975     0.000310913       0.00690335       -0.153401     -0.000141947     -0.00036137        -0.714915        0.679944
                       -0.934909        0.331997     -0.000135366    -0.000361567        -0.101076       0.0644551      0.000349253      0.00025843
                    -0.000392489    -0.000142938        -0.714783        0.680031      0.000349617     0.000237807         -0.15406    -0.000263518
281701.5                0.118847      -0.0137293      0.000106337     0.000420804        -0.934622        0.332332     -0.000275476    -0.000308245
                     0.000267996     0.000310907       0.00689642       -0.153401      -0.00014196     -0.00036135        -0.714896        0.679963
                         -0.9349        0.332022     -0.000135377    -0.000361563        -0.101074       0.0644545      0.000349258     0.000258419
                    -0.000392497    -0.000142932        -0.714764        0.680051      0.000349625     0.000237789         -0.15406    -0.000262043
281701.6                0.118844      -0.0137348      0.000106349       0.0004208        -0.934613        0.332357     -0.000275484    -0.000308234
                     0.000268018     0.000310902       0.00688949       -0.153402     -0.000141973     -0.00036133        -0.714878        0.679983
                       -0.934892        0.332047     -0.000135388    -0.000361558        -0.101072       0.0644539      0.000349263     0.000258407
                    -0.000392505    -0.000142926        -0.714745        0.680071      0.000349633     0.000237771         -0.15406    -0.000260568
281701.7                0.118841      -0.0137402      0.000106361     0.000420796        -0.934604        0.332382     -0.000275492    -0.000308223
                      0.00026804     0.000310896       0.00688256       -0.153403     -0.000141986    -0.000361311        -0.714859        0.680003
                       -0.934883        0.332072     -0.000135399    -0.000361553         -0.10107       0.0644533      0.000349268     0.000258396
                    -0.000392513     -0.00014292        -0.714726         0.68009       0.00034964     0.000237753        -0.154061    -0.000259093
281701.8                0.118838      -0.0137456      0.000106374     0.000420792        -0.934596        0.332407       -0.0002755    -0.000308213
                     0.000268062     0.000310891       0.00687562       -0.153404        -0.000142    -0.000361291         -0.71484        0.680022
                       -0.934874        0.332097      -0.00013541    -0.000361548        -0.101068       0.0644527      0.000349272     0.000258385
                    -0.000392521    -0.000142914        -0.714708         0.68011      0.000349648     0.000237735        -0.154061    -0.000257617
281701.9                0.118836      -0.0137511      0.000106386     0.000420788        -0.934587        0.332432     -0.000275508    -0.000308202
                     0.000268083     0.000310885       0.00686869       -0.153404     -0.000142013    -0.000361272        -0.714822        0.680042
                       -0.934866        0.332122     -0.000135421    -0.000361543        -0.101066        0.064452      0.000349277     0.000258373
                    -0.000392529    -0.000142907        -0.714689        0.680129      0.000349656     0.000237717        -0.154062    -0.000256142
281702                  0.118833      -0.0137565      0.000106398     0.000420784        -0.934578        0.332457     -0.000275516    -0.000308191
                     0.000268105      0.00031088       0.00686176       -0.153405     -0.000142026    -0.000361252        -0.714803        0.680061
                       -0.934857        0.332147     -0.000135432    -0.000361539        -0.101063       0.0644514      0.000349282     0.000258362
                    -0.000392537    -0.000142901         -0.71467        0.680149      0.000349664     0.000237698        -0.154062    -0.000254667
281702.1                 0.11883      -0.0137619       0.00010641      0.00042078         -0.93457        0.332482     -0.000275525     -0.00030818
                     0.000268127     0.000310874       0.00685483       -0.153406     -0.000142039    -0.000361233        -0.714784        0.680081
                       -0.934849        0.332172     -0.000135443    -0.000361534        -0.101061       0.0644508      0.000349287     0.000258351
                    -0.000392546    -0.000142895        -0.714652        0.680168      0.000349671      0.00023768        -0.154063    -0.000253192
281702.2                0.118827      -0.0137674      0.000106422     0.000420776        -0.934561        0.332507     -0.000275533     -0.00030817
                     0.000268148     0.000310869        0.0068479       -0.153407     -0.000142052    -0.000361213        -0.714765          0.6801
                        -0.93484        0.332197     -0.000135454    -0.000361529        -0.101059       0.0644502      0.000349292      0.00025834
                    -0.000392554    -0.000142889        -0.714633        0.680188      0.000349679     0.000237662        -0.154063    -0.000251716
281702.3                0.118824      -0.0137728      0.000106434     0.000420773        -0.934552        0.332532     -0.000275541    -0.000308159
                      0.00026817     0.000310863       0.00684097       -0.153407     -0.000142065    -0.000361193        -0.714747         0.68012
                       -0.934831        0.332222     -0.000135465    -0.000361524        -0.101057       0.0644496      0.000349297     0.000258328
                    -0.000392562    -0.000142883        -0.714614        0.680208      0.000349687     0.000237644        -0.154063    -0.000250241
281702.4                0.118821      -0.0137782      0.000106446     0.000420769        -0.934544        0.332557     -0.000275549    -0.000308148
                     0.000268192     0.000310858       0.00683404       -0.153408     -0.000142078    -0.000361174        -0.714728         0.68014
                       -0.934823        0.332247     -0.000135476    -0.000361519        -0.101055        0.064449      0.000349302     0.000258317
                     -0.00039257    -0.000142877        -0.714595        0.680227      0.000349695     0.000237626        -0.154064    -0.000248766
281702.5                0.118819      -0.0137837      0.000106458     0.000420765        -0.934535        0.332582     -0.000275557    -0.000308137
                     0.000268213     0.000310852       0.00682711       -0.153409     -0.000142091    -0.000361154        -0.714709        0.680159
                       -0.934814        0.332272     -0.000135487    -0.000361515        -0.101052       0.0644484      0.000349307     0.000258306
                    -0.000392578    -0.000142871        -0.714577        0.680247      0.000349702     0.000237608        -0.154064     -0.00024729
281702.6                0.118816      -0.0137891       0.00010647     0.000420761        -0.934527        0.332607     -0.000275565    -0.000308127
                     0.000268235     0.000310847       0.00682018        -0.15341     -0.000142104    -0.000361135        -0.714691        0.680179
                       -0.934806        0.332297     -0.000135499     -0.00036151         -0.10105       0.0644478      0.000349312     0.000258294
                    -0.000392586    -0.000142865        -0.714558        0.680266       0.00034971     0.000237589        -0.154065    -0.000245815
281702.7                0.118813      -0.0137945      0.000106482     0.000420757        -0.934518        0.332632     -0.000275573    -0.000308116
                     0.000268257     0.000310841       0.00681325        -0.15341     -0.000142118    -0.000361115        -0.714672        0.680198
                       -0.934797        0.332322      -0.00013551    -0.000361505        -0.101048       0.0644472      0.000349316     0.000258283
                    -0.000392594    -0.000142859        -0.714539        0.680286      0.000349718     0.000237571        -0.154065     -0.00024434
281702.8                 0.11881         -0.0138      0.000106494     0.000420753        -0.934509        0.332657     -0.000275582    -0.000308105
                     0.000268278     0.000310836       0.00680632       -0.153411     -0.000142131    -0.000361096        -0.714653        0.680218
                       -0.934788        0.332347     -0.000135521      -0.0003615        -0.101046       0.0644466      0.000349321     0.000258272
                    -0.000392602    -0.000142853        -0.714521        0.680305      0.000349726     0.000237553        -0.154065    -0.000242864
281702.9                0.118807      -0.0138054      0.000106506     0.000420749        -0.934501        0.332682      -0.00027559    -0.000308094
                       0.0002683      0.00031083       0.00679938       -0.153412     -0.000142144    -0.000361076        -0.714634        0.680237
                        -0.93478        0.332372     -0.000135532    -0.000361495        -0.101044       0.0644459      0.000349326      0.00025826
                     -0.00039261    -0.000142847        -0.714502        0.680325      0.000349734     0.000237535        -0.154066    -0.000241389
281703                  0.118805      -0.0138108      0.000106518     0.000420745        -0.934492        0.332707     -0.000275598    -0.000308083
                     0.000268321     0.000310825       0.00679245       -0.153412     -0.000142157    -0.000361056        -0.714616        0.680257
                       -0.934771        0.332397     -0.000135543    -0.000361491        -0.101041       0.0644453      0.000349331     0.000258249
                    -0.000392618    -0.000142841        -0.714483        0.680344      0.000349741     0.000237517        -0.154066    -0.000239913
281703.1                0.118802      -0.0138163       0.00010653     0.000420741        -0.934483        0.332732     -0.000275606    -0.000308073
                     0.000268343     0.000310819       0.00678552       -0.153413      -0.00014217    -0.000361037        -0.714597        0.680277
                       -0.934762        0.332422     -0.000135554    -0.000361486        -0.101039       0.0644447      0.000349336     0.000258238
