! TOUCHSTONE file generated by CST MICROWAVE STUDIO
! Date and time: Wed Oct  8 06:52:53 2025
! Project name: Teste_Macro_Metasurface_Nanopilar.cst
! Parameters = {H=600; L_x=85; L_y=190; Lambda=1064; Max_L=200; Min_L=70; PathPara=1; Phi=0; Step_L=10; Theta=0; p=520; phaseX=180; phaseY=0}
! Header version: 2018
! Port assignment regex: !\s*Touchstone port\s*([0-9]+)\s*=\s*(CST MWS port|CST DS port)\s*([0-9]+|Zmin|Zmax)\s*\(\"(.*)\"\)(\s*mode\s*([0-9]+))?.*
! Touchstone port assignment:
! Touchstone port 1 = CST MWS port Zmax ("") mode 1
! Touchstone port 2 = CST MWS port Zmax ("") mode 2
! Touchstone port 3 = CST MWS port Zmin ("") mode 1
! Touchstone port 4 = CST MWS port Zmin ("") mode 2
! S-Parameters are not renormalized. Each port impedance will be approximated by the real part at minimum frequency. The values are described via the [Reference] keyword.
! Default impedance is overridden by [Reference]
[Version] 2.0
# GHz S RI R 376.73
[Number of Ports] 4
[Reference]
376.73 376.73 376.73 376.73 
[Number of Frequencies] 1001
[Network Data]
281700                 -0.157097       -0.354646       0.00049679    -0.000437585        -0.865383       -0.288339      0.000160021    -0.000630699
                     0.000807982    -0.000300825       -0.0882106       -0.175493      -0.00104066    -0.000221583        -0.394973        0.895415
                       -0.865574       -0.289246     -0.000366414    -0.000315556         0.327534       -0.197656       -0.0008389     0.000515462
                     0.000188702    -0.000844575        -0.395177        0.895161     -0.000863092     0.000695317        -0.189148       0.0534792
281700.1               -0.157105       -0.354654       0.00049677    -0.000437644         -0.86539       -0.288303      0.000159986    -0.000630705
                     0.000808023    -0.000301085       -0.0882168       -0.175489      -0.00104064    -0.000221535        -0.394947        0.895427
                       -0.865582        -0.28921     -0.000366376    -0.000315569         0.327528       -0.197685     -0.000838878     0.000515484
                     0.000188384    -0.000844341        -0.395152        0.895173     -0.000863045     0.000695349        -0.189147       0.0534825
281700.2               -0.157112       -0.354661      0.000496749    -0.000437703        -0.865397       -0.288267      0.000159952    -0.000630711
                     0.000808092    -0.000301367       -0.0882231       -0.175485      -0.00104063    -0.000221486        -0.394922        0.895438
                       -0.865589       -0.289174     -0.000366336    -0.000315583         0.327523       -0.197713     -0.000838855     0.000515506
                     0.000188018    -0.000844049        -0.395126        0.895184     -0.000862999     0.000695381        -0.189145       0.0534857
281700.3                -0.15712       -0.354669      0.000496728    -0.000437762        -0.865404       -0.288231      0.000159918    -0.000630717
                     0.000808196     -0.00030167       -0.0882293       -0.175481      -0.00104061    -0.000221437        -0.394897        0.895449
                       -0.865597       -0.289138     -0.000366294    -0.000315599         0.327518       -0.197742     -0.000838832     0.000515527
                     0.000187593    -0.000843677        -0.395101        0.895195     -0.000862952     0.000695413        -0.189143        0.053489
281700.4               -0.157127       -0.354677      0.000496707    -0.000437822        -0.865412       -0.288194      0.000159885    -0.000630723
                     0.000808345    -0.000301993       -0.0882355       -0.175477      -0.00104059    -0.000221389        -0.394872         0.89546
                       -0.865604       -0.289101      -0.00036625    -0.000315617         0.327513        -0.19777     -0.000838809     0.000515548
                     0.000187093    -0.000843191        -0.395076        0.895207     -0.000862905     0.000695445        -0.189141       0.0534922
281700.5               -0.157135       -0.354685      0.000496685    -0.000437881        -0.865419       -0.288158      0.000159852    -0.000630729
                     0.000808552    -0.000302328       -0.0882418       -0.175473      -0.00104057     -0.00022134        -0.394847        0.895472
                       -0.865612       -0.289065     -0.000366205    -0.000315636         0.327507       -0.197799     -0.000838785     0.000515569
                     0.000186497    -0.000842537        -0.395051        0.895218     -0.000862858     0.000695477        -0.189139       0.0534955
281700.6               -0.157142       -0.354692      0.000496664    -0.000437941        -0.865426       -0.288122       0.00015982    -0.000630735
                     0.000808829    -0.000302664        -0.088248       -0.175469      -0.00104055    -0.000221292        -0.394822        0.895483
                       -0.865619       -0.289029     -0.000366157    -0.000315657         0.327502       -0.197827     -0.000838762     0.000515589
                     0.000185782    -0.000841623        -0.395025        0.895229     -0.000862812     0.000695509        -0.189138       0.0534988
281700.7                -0.15715         -0.3547      0.000496642       -0.000438        -0.865433       -0.288086      0.000159788    -0.000630742
                     0.000809187    -0.000302984       -0.0882542       -0.175464      -0.00104053    -0.000221243        -0.394797        0.895494
                       -0.865627       -0.288993     -0.000366106     -0.00031568         0.327497       -0.197856     -0.000838738     0.000515609
                     0.000184927    -0.000840286           -0.395        0.895241     -0.000862765     0.000695541        -0.189136        0.053502
281700.8               -0.157157       -0.354708      0.000496621     -0.00043806        -0.865441        -0.28805      0.000159756    -0.000630748
                     0.000809632    -0.000303261       -0.0882605        -0.17546      -0.00104052    -0.000221194        -0.394771        0.895506
                       -0.865634       -0.288957     -0.000366053    -0.000315705         0.327492       -0.197885     -0.000838714     0.000515628
                     0.000183954    -0.000838207        -0.394975        0.895252     -0.000862718     0.000695573        -0.189134       0.0535053
281700.9               -0.157165       -0.354716      0.000496599     -0.00043812        -0.865448       -0.288014      0.000159725    -0.000630755
                     0.000810161    -0.000303464       -0.0882667       -0.175456       -0.0010405    -0.000221146        -0.394746        0.895517
                       -0.865642       -0.288921     -0.000365998    -0.000315732         0.327487       -0.197913      -0.00083869     0.000515648
                     0.000183089    -0.000834745         -0.39495        0.895263     -0.000862672     0.000695605        -0.189132       0.0535085
281701                 -0.157172       -0.354723      0.000496577    -0.000438179        -0.865455       -0.287978      0.000159694    -0.000630761
                     0.000810756    -0.000303559       -0.0882729       -0.175452      -0.00104048    -0.000221097        -0.394721        0.895528
                       -0.865649       -0.288885     -0.000365938     -0.00031576         0.327481       -0.197942     -0.000838666     0.000515667
                     0.000183497    -0.000828692        -0.394924        0.895275     -0.000862625     0.000695637         -0.18913       0.0535118
281701.1                -0.15718       -0.354731      0.000496555    -0.000438239        -0.865463       -0.287942      0.000159663    -0.000630768
                     0.000811383    -0.000303518       -0.0882791       -0.175448      -0.00104046    -0.000221049        -0.394696        0.895539
                       -0.865656       -0.288849     -0.000365876    -0.000315791         0.327476        -0.19797     -0.000838642     0.000515686
                     0.000189922     -0.00081973        -0.394899        0.895286     -0.000862578     0.000695669        -0.189128        0.053515
281701.2               -0.157187       -0.354739      0.000496533    -0.000438299         -0.86547       -0.287906      0.000159633    -0.000630776
                     0.000811992     -0.00030333       -0.0882854       -0.175444      -0.00104044       -0.000221        -0.394671        0.895551
                       -0.865664       -0.288813     -0.000365809    -0.000315824         0.327471       -0.197999     -0.000838618     0.000515704
                     0.000207233    -0.000819578        -0.394874        0.895297     -0.000862532       0.0006957        -0.189127       0.0535183
281701.3               -0.157195       -0.354747      0.000496511    -0.000438359        -0.865477        -0.28787      0.000159602    -0.000630783
                     0.000812536    -0.000303007       -0.0882916        -0.17544      -0.00104043    -0.000220952        -0.394646        0.895562
                       -0.865671       -0.288777     -0.000365738    -0.000315859         0.327466       -0.198027     -0.000838593     0.000515723
                     0.000214408    -0.000834421        -0.394849        0.895308     -0.000862485     0.000695732        -0.189125       0.0535216
281701.4               -0.157202       -0.354754      0.000496489    -0.000438419        -0.865484       -0.287834      0.000159572    -0.000630791
                     0.000812971     -0.00030258       -0.0882978       -0.175436      -0.00104041    -0.000220903         -0.39462        0.895573
                       -0.865679        -0.28874     -0.000365662    -0.000315896          0.32746       -0.198056     -0.000838569     0.000515741
                     0.000210361    -0.000843548        -0.394824         0.89532     -0.000862438     0.000695764        -0.189123       0.0535248
281701.5                -0.15721       -0.354762      0.000496466    -0.000438479        -0.865492       -0.287798      0.000159542    -0.000630799
                     0.000813279    -0.000302096       -0.0883041       -0.175432      -0.00104039    -0.000220855        -0.394595        0.895585
                       -0.865686       -0.288704     -0.000365581    -0.000315934         0.327455       -0.198085     -0.000838544     0.000515759
                     0.000205984    -0.000846946        -0.394798        0.895331     -0.000862391     0.000695796        -0.189121       0.0535281
281701.6               -0.157217        -0.35477      0.000496444    -0.000438539        -0.865499       -0.287762      0.000159512    -0.000630807
                      0.00081346    -0.000301598       -0.0883103       -0.175427      -0.00104037    -0.000220806         -0.39457        0.895596
                       -0.865694       -0.288668     -0.000365494    -0.000315975          0.32745       -0.198113      -0.00083852     0.000515777
                     0.000202899    -0.000848193        -0.394773        0.895342     -0.000862345     0.000695828        -0.189119       0.0535313
281701.7               -0.157225       -0.354778      0.000496421    -0.000438599        -0.865506       -0.287725      0.000159482    -0.000630815
                     0.000813528    -0.000301123       -0.0883165       -0.175423      -0.00104035    -0.000220757        -0.394545        0.895607
                       -0.865701       -0.288632       -0.0003654    -0.000316017         0.327445       -0.198142     -0.000838495     0.000515795
                     0.000200769     -0.00084866        -0.394748        0.895354     -0.000862298      0.00069586        -0.189117       0.0535346
281701.8               -0.157232       -0.354785      0.000496398     -0.00043866        -0.865513       -0.287689      0.000159452    -0.000630824
                     0.000813509    -0.000300693       -0.0883228       -0.175419      -0.00104033    -0.000220709         -0.39452        0.895619
                       -0.865709       -0.288596     -0.000365299    -0.000316061         0.327439        -0.19817     -0.000838471     0.000515813
                     0.000199248    -0.000848823        -0.394723        0.895365     -0.000862251     0.000695892        -0.189116       0.0535379
281701.9                -0.15724       -0.354793      0.000496375     -0.00043872        -0.865521       -0.287653      0.000159423    -0.000630832
                     0.000813427    -0.000300319        -0.088329       -0.175415      -0.00104032     -0.00022066        -0.394495         0.89563
                       -0.865716        -0.28856      -0.00036519    -0.000316106         0.327434       -0.198199     -0.000838446      0.00051583
                     0.000198117    -0.000848858        -0.394697        0.895376     -0.000862205     0.000695924        -0.189114       0.0535411
281702                 -0.157247       -0.354801      0.000496352     -0.00043878        -0.865528       -0.287617      0.000159393    -0.000630841
                     0.000813303    -0.000300003       -0.0883352       -0.175411       -0.0010403    -0.000220612         -0.39447        0.895641
                       -0.865724       -0.288524     -0.000365073    -0.000316152         0.327429       -0.198227     -0.000838421     0.000515848
                     0.000197245    -0.000848838        -0.394672        0.895388     -0.000862158     0.000695956        -0.189112       0.0535444
281702.1               -0.157255       -0.354809      0.000496329    -0.000438841        -0.865535       -0.287581      0.000159363     -0.00063085
                     0.000813154    -0.000299742       -0.0883415       -0.175407      -0.00104028    -0.000220563        -0.394444        0.895652
                       -0.865731       -0.288488     -0.000364945    -0.000316198         0.327424       -0.198256     -0.000838397     0.000515865
                     0.000196552    -0.000848796        -0.394647        0.895399     -0.000862111     0.000695988         -0.18911       0.0535476
281702.2               -0.157262       -0.354816      0.000496305    -0.000438901        -0.865542       -0.287545      0.000159334     -0.00063086
                     0.000812994     -0.00029953       -0.0883477       -0.175403      -0.00104026    -0.000220515        -0.394419        0.895664
                       -0.865738       -0.288452     -0.000364807    -0.000316244         0.327418       -0.198285     -0.000838372     0.000515883
                     0.000195989    -0.000848746        -0.394622         0.89541     -0.000862064      0.00069602        -0.189108       0.0535509
281702.3                -0.15727       -0.354824      0.000496282    -0.000438962         -0.86555       -0.287509      0.000159304    -0.000630869
                      0.00081283     -0.00029936       -0.0883539       -0.175399      -0.00104024    -0.000220466        -0.394394        0.895675
                       -0.865746       -0.288415     -0.000364657    -0.000316289         0.327413       -0.198313     -0.000838347       0.0005159
                     0.000195519    -0.000848694        -0.394596        0.895421     -0.000862018     0.000696051        -0.189106       0.0535542
281702.4               -0.157278       -0.354832      0.000496258    -0.000439022        -0.865557       -0.287473      0.000159274    -0.000630879
                     0.000812668    -0.000299225       -0.0883601       -0.175395      -0.00104023    -0.000220418        -0.394369        0.895686
                       -0.865753       -0.288379     -0.000364495    -0.000316331         0.327408       -0.198342     -0.000838323     0.000515917
                     0.000195122    -0.000848645        -0.394571        0.895433     -0.000861971     0.000696083        -0.189105       0.0535574
281702.5               -0.157285        -0.35484      0.000496234    -0.000439083        -0.865564       -0.287437      0.000159245    -0.000630888
                     0.000812512     -0.00029912       -0.0883664       -0.175391      -0.00104021    -0.000220369        -0.394344        0.895698
                       -0.865761       -0.288343     -0.000364319    -0.000316369         0.327403        -0.19837     -0.000838298     0.000515934
                     0.000194779    -0.000848599        -0.394546        0.895444     -0.000861924     0.000696115        -0.189103       0.0535607
281702.6               -0.157293       -0.354847       0.00049621    -0.000439143        -0.865571       -0.287401      0.000159215    -0.000630898
                     0.000812363     -0.00029904       -0.0883726       -0.175386      -0.00104019    -0.000220321        -0.394319        0.895709
                       -0.865768       -0.288307     -0.000364127    -0.000316402         0.327397       -0.198399     -0.000838273     0.000515951
                     0.000194481    -0.000848558        -0.394521        0.895455     -0.000861878     0.000696147        -0.189101       0.0535639
281702.7                 -0.1573       -0.354855      0.000496186    -0.000439204        -0.865578       -0.287365      0.000159185    -0.000630908
                     0.000812223     -0.00029898       -0.0883788       -0.175382      -0.00104017    -0.000220273        -0.394293         0.89572
                       -0.865776       -0.288271      -0.00036392    -0.000316428         0.327392       -0.198427     -0.000838248     0.000515968
                     0.000194217    -0.000848521        -0.394495        0.895467     -0.000861831     0.000696179        -0.189099       0.0535672
281702.8               -0.157308       -0.354863      0.000496162    -0.000439265        -0.865586       -0.287328      0.000159155    -0.000630918
                     0.000812092    -0.000298936       -0.0883851       -0.175378      -0.00104015    -0.000220224        -0.394268        0.895731
                       -0.865783       -0.288235     -0.000363697    -0.000316443         0.327387       -0.198456     -0.000838224     0.000515985
                     0.000193982    -0.000848488         -0.39447        0.895478     -0.000861784     0.000696211        -0.189097       0.0535704
281702.9               -0.157315       -0.354871      0.000496137    -0.000439325        -0.865593       -0.287292      0.000159126    -0.000630928
                     0.000811969    -0.000298906       -0.0883913       -0.175374      -0.00104013    -0.000220176        -0.394243        0.895743
                        -0.86579       -0.288199     -0.000363456    -0.000316446         0.327381       -0.198485     -0.000838199     0.000516002
                      0.00019377    -0.000848459        -0.394445        0.895489     -0.000861737     0.000696243        -0.189095       0.0535737
281703                 -0.157323       -0.354878      0.000496113    -0.000439386          -0.8656       -0.287256      0.000159096    -0.000630939
                     0.000811855    -0.000298886       -0.0883975        -0.17537      -0.00104012    -0.000220127        -0.394218        0.895754
                       -0.865798       -0.288163     -0.000363198    -0.000316432         0.327376       -0.198513     -0.000838174     0.000516019
                     0.000193577    -0.000848433         -0.39442        0.895501     -0.000861691     0.000696275        -0.189094        0.053577
281703.1                -0.15733       -0.354886      0.000496088    -0.000439447        -0.865607        -0.28722      0.000159066    -0.000630949
                     0.000811748    -0.000298876       -0.0884038       -0.175366       -0.0010401    -0.000220079        -0.394193        0.895765
                       -0.865805       -0.288126     -0.000362923    -0.000316398         0.327371       -0.198542     -0.000838149     0.000516035
