! TOUCHSTONE file generated by CST MICROWAVE STUDIO
! Date and time: Wed Oct  8 06:53:15 2025
! Project name: Teste_Macro_Metasurface_Nanopilar.cst
! Parameters = {H=600; L_x=90; L_y=135; Lambda=1064; Max_L=200; Min_L=70; PathPara=1; Phi=0; Step_L=10; Theta=0; p=520; phaseX=180; phaseY=0}
! Header version: 2018
! Port assignment regex: !\s*Touchstone port\s*([0-9]+)\s*=\s*(CST MWS port|CST DS port)\s*([0-9]+|Zmin|Zmax)\s*\(\"(.*)\"\)(\s*mode\s*([0-9]+))?.*
! Touchstone port assignment:
! Touchstone port 1 = CST MWS port Zmax ("") mode 1
! Touchstone port 2 = CST MWS port Zmax ("") mode 2
! Touchstone port 3 = CST MWS port Zmin ("") mode 1
! Touchstone port 4 = CST MWS port Zmin ("") mode 2
! S-Parameters are not renormalized. Each port impedance will be approximated by the real part at minimum frequency. The values are described via the [Reference] keyword.
! Default impedance is overridden by [Reference]
[Version] 2.0
# GHz S RI R 376.73
[Number of Ports] 4
[Reference]
376.73 376.73 376.73 376.73 
[Number of Frequencies] 1001
[Network Data]
281700                  0.122935        0.019341      0.000305227    -0.000245134         0.952885       -0.237343       7.7913e-05    -5.25728e-05
                    -4.80118e-05    -8.72532e-05       -0.0259874       -0.167322      0.000178255     6.36461e-05        -0.601579        0.778035
                        0.952689       -0.236774      0.000139632      0.00021175        -0.104966       0.0767216      0.000127345    -0.000169319
                     1.35102e-05    -0.000206369        -0.601793        0.778237      0.000136928     5.08716e-05        -0.168763       0.0174893
281700.1                0.122934       0.0193314      0.000305224    -0.000245141         0.952877       -0.237377      7.79069e-05    -5.25696e-05
                     -4.8023e-05    -8.72432e-05       -0.0259945       -0.167321      0.000178256     6.36436e-05        -0.601557        0.778051
                        0.952681       -0.236808      0.000139679     0.000211713        -0.104964       0.0767195      0.000127357    -0.000169299
                     1.35015e-05    -0.000206382        -0.601772        0.778254      0.000136912     5.08587e-05        -0.168763       0.0174915
281700.2                0.122932       0.0193218      0.000305222    -0.000245149          0.95287       -0.237411      7.79008e-05    -5.25664e-05
                    -4.80341e-05    -8.72333e-05       -0.0260015       -0.167319      0.000178256      6.3641e-05        -0.601536        0.778068
                        0.952673       -0.236841      0.000139727     0.000211677        -0.104961       0.0767174       0.00012737     -0.00016928
                     1.34928e-05    -0.000206396         -0.60175         0.77827      0.000136897     5.08458e-05        -0.168763       0.0174938
281700.3                 0.12293       0.0193123      0.000305219    -0.000245157         0.952862       -0.237444      7.78946e-05    -5.25632e-05
                    -4.80453e-05    -8.72233e-05       -0.0260085       -0.167318      0.000178257     6.36384e-05        -0.601514        0.778085
                        0.952665       -0.236875      0.000139774     0.000211641        -0.104959       0.0767153      0.000127382     -0.00016926
                     1.34842e-05     -0.00020641        -0.601728        0.778287      0.000136881     5.08329e-05        -0.168763       0.0174961
281700.4                0.122928       0.0193027      0.000305217    -0.000245165         0.952854       -0.237478      7.78885e-05      -5.256e-05
                    -4.80564e-05    -8.72133e-05       -0.0260156       -0.167317      0.000178257     6.36358e-05        -0.601493        0.778101
                        0.952657       -0.236909      0.000139821     0.000211605        -0.104957       0.0767132      0.000127394     -0.00016924
                     1.34755e-05    -0.000206423        -0.601707        0.778304      0.000136866     5.08201e-05        -0.168762       0.0174984
281700.5                0.122927       0.0192931      0.000305215    -0.000245172         0.952846       -0.237512      7.78823e-05    -5.25568e-05
                    -4.80676e-05    -8.72034e-05       -0.0260226       -0.167316      0.000178257     6.36332e-05        -0.601471        0.778118
                         0.95265       -0.236942      0.000139868     0.000211569        -0.104954       0.0767111      0.000127407    -0.000169221
                     1.34668e-05    -0.000206437        -0.601685         0.77832      0.000136851     5.08072e-05        -0.168762       0.0175006
281700.6                0.122925       0.0192836      0.000305212     -0.00024518         0.952838       -0.237545      7.78761e-05    -5.25536e-05
                    -4.80787e-05    -8.71934e-05       -0.0260296       -0.167315      0.000178258     6.36306e-05        -0.601449        0.778135
                        0.952642       -0.236976      0.000139915     0.000211532        -0.104952        0.076709      0.000127419    -0.000169201
                     1.34582e-05    -0.000206451        -0.601663        0.778337      0.000136835     5.07943e-05        -0.168762       0.0175029
281700.7                0.122923        0.019274       0.00030521    -0.000245188          0.95283       -0.237579        7.787e-05    -5.25504e-05
                    -4.80899e-05    -8.71834e-05       -0.0260366       -0.167314      0.000178258      6.3628e-05        -0.601428        0.778151
                        0.952634        -0.23701      0.000139962     0.000211496        -0.104949       0.0767069      0.000127432    -0.000169182
                     1.34495e-05    -0.000206464        -0.601642        0.778354       0.00013682     5.07815e-05        -0.168762       0.0175052
281700.8                0.122921       0.0192644      0.000305207    -0.000245196         0.952822       -0.237613      7.78638e-05    -5.25472e-05
                     -4.8101e-05    -8.71735e-05       -0.0260437       -0.167313      0.000178259     6.36254e-05        -0.601406        0.778168
                        0.952626       -0.237043      0.000140009      0.00021146        -0.104947       0.0767048      0.000127444    -0.000169162
                     1.34408e-05    -0.000206478         -0.60162         0.77837      0.000136804     5.07686e-05        -0.168762       0.0175075
281700.9                 0.12292       0.0192549      0.000305205    -0.000245203         0.952814       -0.237646      7.78577e-05     -5.2544e-05
                    -4.81122e-05    -8.71635e-05       -0.0260507       -0.167312      0.000178259     6.36228e-05        -0.601385        0.778185
                        0.952618       -0.237077      0.000140056     0.000211424        -0.104944       0.0767027      0.000127457    -0.000169143
                     1.34321e-05    -0.000206492        -0.601598        0.778387      0.000136789     5.07557e-05        -0.168761       0.0175097
281701                  0.122918       0.0192453      0.000305202    -0.000245211         0.952806        -0.23768      7.78515e-05    -5.25408e-05
                    -4.81233e-05    -8.71535e-05       -0.0260577       -0.167311       0.00017826     6.36202e-05        -0.601363        0.778201
                         0.95261       -0.237111      0.000140103     0.000211387        -0.104942       0.0767006      0.000127469    -0.000169123
                     1.34234e-05    -0.000206505        -0.601577        0.778404      0.000136773     5.07429e-05        -0.168761        0.017512
281701.1                0.122916       0.0192357        0.0003052    -0.000245219         0.952798       -0.237714      7.78454e-05    -5.25376e-05
                    -4.81345e-05    -8.71436e-05       -0.0260648        -0.16731       0.00017826     6.36176e-05        -0.601341        0.778218
                        0.952602       -0.237145       0.00014015     0.000211351         -0.10494       0.0766985      0.000127482    -0.000169104
                     1.34148e-05    -0.000206519        -0.601555         0.77842      0.000136758       5.073e-05        -0.168761       0.0175143
281701.2                0.122914       0.0192262      0.000305198    -0.000245227          0.95279       -0.237748      7.78392e-05    -5.25344e-05
                    -4.81456e-05    -8.71336e-05       -0.0260718       -0.167309      0.000178261     6.36151e-05         -0.60132        0.778235
                        0.952594       -0.237178      0.000140197     0.000211315        -0.104937       0.0766964      0.000127494    -0.000169084
                     1.34061e-05    -0.000206533        -0.601534        0.778437      0.000136742     5.07172e-05        -0.168761       0.0175165
281701.3                0.122912       0.0192166      0.000305195    -0.000245234         0.952782       -0.237781      7.78331e-05    -5.25312e-05
                    -4.81568e-05    -8.71236e-05       -0.0260788       -0.167308      0.000178261     6.36125e-05        -0.601298        0.778251
                        0.952586       -0.237212      0.000140245     0.000211279        -0.104935       0.0766943      0.000127506    -0.000169064
                     1.33974e-05    -0.000206546        -0.601512        0.778454      0.000136727     5.07043e-05         -0.16876       0.0175188
281701.4                0.122911        0.019207      0.000305193    -0.000245242         0.952774       -0.237815      7.78269e-05     -5.2528e-05
                    -4.81679e-05    -8.71136e-05       -0.0260858       -0.167307      0.000178262     6.36099e-05        -0.601277        0.778268
                        0.952578       -0.237246      0.000140292     0.000211243        -0.104932       0.0766922      0.000127519    -0.000169045
                     1.33887e-05     -0.00020656         -0.60149         0.77847      0.000136711     5.06915e-05         -0.16876       0.0175211
281701.5                0.122909       0.0191975       0.00030519     -0.00024525         0.952766       -0.237849      7.78208e-05    -5.25248e-05
                     -4.8179e-05    -8.71037e-05       -0.0260929       -0.167306      0.000178262     6.36073e-05        -0.601255        0.778285
                         0.95257       -0.237279      0.000140339     0.000211206         -0.10493       0.0766901      0.000127531    -0.000169025
                       1.338e-05    -0.000206573        -0.601469        0.778487      0.000136696     5.06786e-05         -0.16876       0.0175234
281701.6                0.122907       0.0191879      0.000305188    -0.000245258         0.952758       -0.237882      7.78146e-05    -5.25216e-05
                    -4.81902e-05    -8.70937e-05       -0.0260999       -0.167305      0.000178263     6.36047e-05        -0.601233        0.778301
                        0.952562       -0.237313      0.000140386      0.00021117        -0.104927        0.076688      0.000127544    -0.000169006
                     1.33713e-05    -0.000206587        -0.601447        0.778504       0.00013668     5.06657e-05         -0.16876       0.0175256
281701.7                0.122905       0.0191783      0.000305185    -0.000245265          0.95275       -0.237916      7.78084e-05    -5.25184e-05
                    -4.82013e-05    -8.70837e-05       -0.0261069       -0.167304      0.000178263     6.36021e-05        -0.601212        0.778318
                        0.952554       -0.237347      0.000140433     0.000211134        -0.104925       0.0766859      0.000127556    -0.000168986
                     1.33626e-05    -0.000206601        -0.601425         0.77852      0.000136665     5.06529e-05         -0.16876       0.0175279
281701.8                0.122904       0.0191688      0.000305183    -0.000245273         0.952742        -0.23795      7.78023e-05    -5.25152e-05
                    -4.82125e-05    -8.70737e-05        -0.026114       -0.167302      0.000178264     6.35995e-05         -0.60119        0.778335
                        0.952546        -0.23738       0.00014048     0.000211098        -0.104923       0.0766838      0.000127569    -0.000168967
                      1.3354e-05    -0.000206614        -0.601404        0.778537      0.000136649       5.064e-05        -0.168759       0.0175302
281701.9                0.122902       0.0191592      0.000305181    -0.000245281         0.952734       -0.237984      7.77961e-05     -5.2512e-05
                    -4.82236e-05    -8.70638e-05        -0.026121       -0.167301      0.000178264     6.35969e-05        -0.601169        0.778351
                        0.952538       -0.237414      0.000140527     0.000211061         -0.10492       0.0766817      0.000127581    -0.000168947
                     1.33453e-05    -0.000206628        -0.601382        0.778554      0.000136634     5.06272e-05        -0.168759       0.0175325
281702                    0.1229       0.0191497      0.000305178    -0.000245288         0.952726       -0.238017        7.779e-05    -5.25088e-05
                    -4.82347e-05    -8.70538e-05        -0.026128         -0.1673      0.000178265     6.35943e-05        -0.601147        0.778368
                         0.95253       -0.237448      0.000140574     0.000211025        -0.104918       0.0766796      0.000127594    -0.000168928
                     1.33366e-05    -0.000206642         -0.60136         0.77857      0.000136618     5.06144e-05        -0.168759       0.0175347
281702.1                0.122898       0.0191401      0.000305176    -0.000245296         0.952718       -0.238051      7.77838e-05    -5.25056e-05
                    -4.82459e-05    -8.70438e-05        -0.026135       -0.167299      0.000178265     6.35917e-05        -0.601125        0.778385
                        0.952522       -0.237481      0.000140621     0.000210989        -0.104915       0.0766775      0.000127606    -0.000168908
                     1.33279e-05    -0.000206655        -0.601339        0.778587      0.000136603     5.06015e-05        -0.168759        0.017537
281702.2                0.122897       0.0191305      0.000305173    -0.000245304          0.95271       -0.238085      7.77776e-05    -5.25024e-05
                     -4.8257e-05    -8.70338e-05       -0.0261421       -0.167298      0.000178265     6.35891e-05        -0.601104        0.778401
                        0.952514       -0.237515      0.000140668     0.000210953        -0.104913       0.0766754      0.000127618    -0.000168888
                     1.33192e-05    -0.000206669        -0.601317        0.778604      0.000136587     5.05887e-05        -0.168759       0.0175393
281702.3                0.122895        0.019121      0.000305171    -0.000245312         0.952702       -0.238118      7.77715e-05    -5.24992e-05
                    -4.82681e-05    -8.70238e-05       -0.0261491       -0.167297      0.000178266     6.35865e-05        -0.601082        0.778418
                        0.952506       -0.237549      0.000140715     0.000210917         -0.10491       0.0766733      0.000127631    -0.000168869
                     1.33105e-05    -0.000206683        -0.601295         0.77862      0.000136572     5.05758e-05        -0.168758       0.0175416
281702.4                0.122893       0.0191114      0.000305168    -0.000245319         0.952694       -0.238152      7.77653e-05     -5.2496e-05
                    -4.82793e-05    -8.70138e-05       -0.0261561       -0.167296      0.000178266     6.35839e-05        -0.601061        0.778435
                        0.952498       -0.237583      0.000140762      0.00021088        -0.104908       0.0766712      0.000127643    -0.000168849
                     1.33018e-05    -0.000206696        -0.601274        0.778637      0.000136556      5.0563e-05        -0.168758       0.0175438
281702.5                0.122891       0.0191018      0.000305166    -0.000245327         0.952686       -0.238186      7.77592e-05    -5.24928e-05
                    -4.82904e-05    -8.70038e-05       -0.0261632       -0.167295      0.000178267     6.35813e-05        -0.601039        0.778451
                         0.95249       -0.237616      0.000140809     0.000210844        -0.104905       0.0766691      0.000127656     -0.00016883
                     1.32931e-05     -0.00020671        -0.601252        0.778654      0.000136541     5.05501e-05        -0.168758       0.0175461
281702.6                0.122889       0.0190923      0.000305163    -0.000245335         0.952678       -0.238219       7.7753e-05    -5.24896e-05
                    -4.83016e-05    -8.69938e-05       -0.0261702       -0.167294      0.000178267     6.35787e-05        -0.601018        0.778468
                        0.952483        -0.23765      0.000140856     0.000210808        -0.104903        0.076667      0.000127668     -0.00016881
                     1.32844e-05    -0.000206724         -0.60123         0.77867      0.000136525     5.05373e-05        -0.168758       0.0175484
281702.7                0.122888       0.0190827      0.000305161    -0.000245343          0.95267       -0.238253      7.77468e-05    -5.24864e-05
                    -4.83127e-05    -8.69838e-05       -0.0261772       -0.167293      0.000178268      6.3576e-05        -0.600996        0.778485
                        0.952475       -0.237684      0.000140904     0.000210772        -0.104901       0.0766649      0.000127681    -0.000168791
                     1.32757e-05    -0.000206737        -0.601209        0.778687       0.00013651     5.05245e-05        -0.168757       0.0175507
281702.8                0.122886       0.0190731      0.000305158     -0.00024535         0.952662       -0.238287      7.77407e-05    -5.24832e-05
                    -4.83238e-05    -8.69738e-05       -0.0261842       -0.167292      0.000178268     6.35734e-05        -0.600974        0.778501
                        0.952467       -0.237717      0.000140951     0.000210735        -0.104898       0.0766628      0.000127693    -0.000168771
                     1.32669e-05    -0.000206751        -0.601187        0.778704      0.000136494     5.05116e-05        -0.168757       0.0175529
281702.9                0.122884       0.0190636      0.000305156    -0.000245358         0.952654       -0.238321      7.77345e-05      -5.248e-05
                    -4.83349e-05    -8.69639e-05       -0.0261913       -0.167291      0.000178269     6.35708e-05        -0.600953        0.778518
                        0.952459       -0.237751      0.000140998     0.000210699        -0.104896       0.0766607      0.000127705    -0.000168751
                     1.32582e-05    -0.000206765        -0.601166         0.77872      0.000136479     5.04988e-05        -0.168757       0.0175552
281703                  0.122882        0.019054      0.000305154    -0.000245366         0.952646       -0.238354      7.77283e-05    -5.24768e-05
                    -4.83461e-05    -8.69539e-05       -0.0261983        -0.16729      0.000178269     6.35682e-05        -0.600931        0.778535
                        0.952451       -0.237785      0.000141045     0.000210663        -0.104893       0.0766586      0.000127718    -0.000168732
                     1.32495e-05    -0.000206778        -0.601144        0.778737      0.000136464      5.0486e-05        -0.168757       0.0175575
281703.1                 0.12288       0.0190445      0.000305151    -0.000245373         0.952638       -0.238388      7.77222e-05    -5.24736e-05
                    -4.83572e-05    -8.69439e-05       -0.0262053       -0.167289       0.00017827     6.35656e-05         -0.60091        0.778551
                        0.952443       -0.237818      0.000141092     0.000210627        -0.104891       0.0766565       0.00012773    -0.000168712
