! TOUCHSTONE file generated by CST MICROWAVE STUDIO
! Date and time: Thu Oct 16 17:14:11 2025
! Project name: Teste_Macro_Metasurface_Nanopilar.cst
! Parameters = {H=600; L_x=70; L_y=70; Lambda=1064; Max_L=200; Min_L=70; PathPara=1; Phi=0; Step_L=10; Theta=0; p=520; phaseX=180; phaseY=0}
! Header version: 2018
! Port assignment regex: !\s*Touchstone port\s*([0-9]+)\s*=\s*(CST MWS port|CST DS port)\s*([0-9]+|Zmin|Zmax)\s*\(\"(.*)\"\)(\s*mode\s*([0-9]+))?.*
! Touchstone port assignment:
! Touchstone port 1 = CST MWS port Zmax ("") mode 1
! Touchstone port 2 = CST MWS port Zmax ("") mode 2
! Touchstone port 3 = CST MWS port Zmin ("") mode 1
! Touchstone port 4 = CST MWS port Zmin ("") mode 2
! S-Parameters are not renormalized. Each port impedance will be approximated by the real part at minimum frequency. The values are described via the [Reference] keyword.
! Default impedance is overridden by [Reference]
[Version] 2.0
# GHz S RI R 376.73
[Number of Ports] 4
[Reference]
376.73 376.73 259.888 259.888 
[Number of Frequencies] 51
[Network Data]
281700                  0.148913       0.0374993     -1.28419e-05     5.09706e-05         0.792393       -0.590135     -5.11365e-05    -6.19557e-05
                    -1.12226e-05     3.61044e-05         0.148903       0.0375011     -5.20729e-06    -1.90766e-05         0.792441       -0.590091
                        0.792417       -0.590103     -4.97314e-05    -6.41278e-05      -0.00674124        0.153441      6.55891e-05     6.74909e-06
                     -3.6994e-05    -5.83654e-05         0.792434        -0.59009      7.75046e-06     -2.5318e-05      -0.00678053        0.153414
290066                   0.15564       0.0389307     -1.21959e-05     5.06885e-05         0.793798        -0.58463     -5.07701e-05     -6.3417e-05
                    -1.07781e-05     3.58239e-05          0.15563       0.0389382     -5.71419e-06    -1.95613e-05         0.793839       -0.584586
                        0.793821       -0.584599     -5.02044e-05    -6.50096e-05      -0.00704211        0.161394      6.64988e-05     7.26396e-06
                    -3.64394e-05    -5.92874e-05          0.79383       -0.584587      7.36999e-06    -2.58651e-05      -0.00708034        0.161363
298432                  0.163095       0.0405453     -1.15056e-05     5.02969e-05         0.795095       -0.579234     -5.03473e-05    -6.49278e-05
                    -1.02941e-05     3.54551e-05         0.163084       0.0405596     -6.27083e-06    -2.00722e-05         0.795128        -0.57919
                        0.795116       -0.579205     -5.06758e-05    -6.58808e-05      -0.00730704        0.170333      6.73854e-05     7.81414e-06
                    -3.58328e-05    -6.02302e-05         0.795117       -0.579192      6.92587e-06    -2.64322e-05      -0.00734387        0.170298
306798                  0.171417       0.0423902     -1.07681e-05     4.97789e-05         0.796282       -0.573959     -4.98622e-05     -6.6491e-05
                     -9.7671e-06     3.49839e-05         0.171405       0.0424127     -6.88386e-06    -2.06117e-05         0.796309       -0.573915
                        0.796302       -0.573931     -5.11448e-05    -6.67349e-05      -0.00750424        0.180473      6.82375e-05     8.40177e-06
                    -3.51691e-05    -6.11948e-05         0.796296       -0.573918      6.40749e-06    -2.70198e-05      -0.00753925        0.180433
315164                  0.180782       0.0445281     -9.98043e-06     4.91158e-05         0.797359       -0.568818     -4.93085e-05    -6.81097e-05
                    -9.19314e-06     3.43947e-05         0.180768       0.0445608      -7.5607e-06    -2.11823e-05          0.79738       -0.568773
                        0.797378       -0.568791     -5.16103e-05    -6.75642e-05      -0.00758328        0.192086      6.90411e-05     9.02858e-06
                    -3.44427e-05    -6.21818e-05         0.797365       -0.568778      5.80263e-06    -2.76281e-05      -0.00761595        0.192039
323530                  0.191415        0.047047     -9.13972e-06     4.82856e-05         0.798327       -0.563825     -4.86791e-05    -6.97872e-05
                    -8.56789e-06     3.36693e-05           0.1914        0.047092     -8.31007e-06    -2.17869e-05         0.798342       -0.563781
                        0.798344       -0.563799     -5.20712e-05    -6.83592e-05      -0.00746286        0.205534      6.97783e-05      9.6959e-06
                    -3.36473e-05    -6.31924e-05         0.798325       -0.563787      5.09666e-06    -2.82572e-05      -0.00749257        0.205479
331896                  0.203615       0.0500724     -8.24264e-06     4.72629e-05         0.799184       -0.558998     -4.79658e-05    -7.15274e-05
                    -7.88645e-06     3.27861e-05         0.203597       0.0501328     -9.14218e-06     -2.2429e-05         0.799194       -0.558953
                          0.7992       -0.558973     -5.25263e-05    -6.91083e-05      -0.00700963         0.22131      7.04265e-05     1.04044e-05
                    -3.27757e-05    -6.42275e-05         0.799174       -0.558961      4.27199e-06    -2.89066e-05      -0.00703566        0.221243
340262                  0.217784       0.0537893     -7.28557e-06     4.60177e-05         0.799929       -0.554354     -4.71595e-05    -7.33344e-05
                    -7.14317e-06     3.17197e-05         0.217763       0.0538692     -1.00691e-05    -2.31121e-05         0.799935       -0.554309
                        0.799944        -0.55433     -5.29745e-05    -6.97973e-05      -0.00599958        0.240094      7.09569e-05     1.11537e-05
                    -3.18195e-05    -6.52883e-05         0.799913       -0.554319      3.30736e-06    -2.95754e-05       -0.0060211        0.240012
348628                  0.234477       0.0584791     -6.26439e-06     4.45147e-05          0.80056       -0.549915     -4.62493e-05    -7.52131e-05
                    -6.33153e-06     3.04403e-05          0.23445        0.058584     -1.11053e-05    -2.38406e-05         0.800562        -0.54987
                        0.800574       -0.549893     -5.34143e-05     -7.0409e-05      -0.00404478        0.262853      7.13332e-05     1.19417e-05
                    -3.07693e-05    -6.63761e-05         0.800538       -0.549882      2.17691e-06     -3.0262e-05      -0.00406099         0.26275
356994                  0.254478       0.0645868     -5.17437e-06     4.27123e-05         0.801076       -0.545708      -4.5223e-05     -7.7169e-05
                    -5.44385e-06     2.89123e-05         0.254443       0.0647245     -1.22678e-05    -2.46195e-05         0.801075       -0.545662
                        0.801089       -0.545687     -5.38446e-05    -7.09223e-05     -0.000447882        0.290998      7.15084e-05      1.2764e-05
                     -2.9614e-05    -6.74923e-05         0.801049       -0.545676      8.48966e-07    -3.09636e-05      -0.00045837        0.290865
365360                   0.27893       0.0728488     -4.00987e-06     4.05607e-05         0.801474       -0.541761     -4.40663e-05    -7.92083e-05
                      -4.471e-06     2.70929e-05         0.278881       0.0730306     -1.35774e-05    -2.54544e-05          0.80147       -0.541715
                        0.801486       -0.541741     -5.42641e-05     -7.1311e-05       0.00610384        0.326636      7.14219e-05     1.36123e-05
                    -2.83404e-05    -6.86386e-05         0.801441        -0.54173     -7.15574e-07    -3.16759e-05       0.00609815         0.32646
373726                  0.309552       0.0845515     -2.76396e-06     3.80006e-05         0.801749        -0.53811     -4.27621e-05    -8.13386e-05
                    -3.40189e-06     2.49311e-05          0.30948        0.084794     -1.50593e-05     -2.6352e-05         0.801744       -0.538063
                         0.80176       -0.538091     -5.46714e-05    -7.15431e-05        0.0182238        0.372992      7.09952e-05     1.44725e-05
                    -2.69333e-05    -6.98169e-05         0.801712        -0.53808     -2.56532e-06    -3.23925e-05        0.0182178        0.372749
382092                  0.349817        0.102748     -1.42166e-06     3.49255e-05         0.801888       -0.534819     -4.12788e-05    -8.35749e-05
                    -2.21507e-06     2.23354e-05           0.3497         0.10308     -1.67588e-05     -2.7325e-05         0.801882       -0.534771
                        0.801898       -0.534802     -5.50647e-05    -7.15638e-05         0.042931        0.436364      7.00894e-05     1.53194e-05
                    -2.53639e-05    -7.10315e-05         0.801848       -0.534791     -4.78698e-06    -3.31026e-05        0.0429037        0.436009
390458                  0.404254         0.13318      2.58939e-08     3.12609e-05         0.801891        -0.53193     -3.95977e-05    -8.59241e-05
                    -8.96279e-07     1.92408e-05         0.404044        0.133646      -1.8709e-05    -2.83804e-05         0.801885        -0.53188
                        0.801899       -0.531914     -5.54433e-05    -7.13269e-05        0.0958237        0.523306       6.8571e-05     1.61121e-05
                    -2.36151e-05    -7.22835e-05         0.801848       -0.531903     -7.45065e-06    -3.37903e-05        0.0957023        0.522767
398824                  0.479997        0.189769      1.59434e-06     2.69014e-05         0.801748       -0.529502      -3.7691e-05    -8.83971e-05
                     5.76638e-07     1.55555e-05         0.479571        0.190434     -2.09567e-05    -2.95284e-05         0.801744        -0.52945
                        0.801756       -0.529488     -5.58067e-05    -7.07699e-05         0.215976        0.633085      6.62494e-05     1.67886e-05
                    -2.16616e-05    -7.35754e-05         0.801704       -0.529475     -1.06557e-05    -3.44333e-05         0.215524        0.632302
407190                  0.582815        0.311061      3.30778e-06     2.17072e-05         0.801448       -0.527614     -3.55218e-05    -9.10093e-05
                     2.23547e-06     1.11581e-05         0.581819        0.311949     -2.35653e-05    -3.07828e-05         0.801446       -0.527559
                        0.801454       -0.527601      -5.6154e-05    -6.98099e-05         0.477578        0.701414      6.28533e-05     1.72501e-05
                    -1.94694e-05    -7.49107e-05         0.801404       -0.527587     -1.45383e-05    -3.49976e-05         0.476293        0.700748
415556                   0.64278        0.577814      5.20141e-06      1.5502e-05         0.800972       -0.526367      -3.3044e-05    -9.37792e-05
                     4.12383e-06     5.89537e-06         0.641111        0.578979     -2.66165e-05    -3.21605e-05         0.800976       -0.526309
                        0.800978       -0.526356     -5.64845e-05    -6.83408e-05         0.819358         0.50704      5.80031e-05     1.73384e-05
                    -1.69966e-05    -7.62934e-05          0.80093        -0.52634     -1.92779e-05    -3.54327e-05         0.817974        0.507754
423922                  0.336593        0.891737        7.328e-06     8.06088e-06         0.800298       -0.525889     -3.01996e-05    -9.67299e-05
                     6.30323e-06    -4.28014e-07         0.335545        0.892438     -3.02172e-05    -3.36821e-05         0.800308       -0.525826
                        0.800303        -0.52588     -5.67969e-05    -6.62253e-05         0.889095       0.0654147      5.11558e-05     1.67955e-05
                      -1.419e-05    -7.77283e-05         0.800259        -0.52586     -2.51155e-05    -3.56612e-05         0.889055       0.0669835
432288                 -0.266365        0.880162      9.76859e-06    -9.07189e-07         0.799392       -0.526345     -2.69142e-05      -9.989e-05
                     8.86279e-06    -8.06403e-06        -0.265297        0.879596     -3.45092e-05    -3.53734e-05         0.799411       -0.526277
                        0.799396       -0.526338     -5.70886e-05    -6.32845e-05         0.663038       -0.196928      4.15149e-05     1.51902e-05
                    -1.09821e-05     -7.9221e-05         0.799358       -0.526314     -3.23792e-05     -3.5563e-05         0.663529       -0.196211
440654                 -0.457871        0.526933      1.26506e-05    -1.17843e-05         0.798208       -0.527955     -2.30908e-05    -0.000103296
                     1.19354e-05    -1.73424e-05        -0.456781        0.526767     -3.96855e-05    -3.72667e-05          0.79824       -0.527879
                        0.798211        -0.52795     -5.73537e-05     -5.9281e-05         0.443183       -0.233828      2.78761e-05     1.17768e-05
                    -7.28455e-06    -8.07782e-05         0.798182       -0.527921     -4.15243e-05    -3.49472e-05         0.443548       -0.233701
449020                 -0.353652         0.27187      1.61796e-05    -2.50799e-05         0.796679       -0.531014     -1.86003e-05    -0.000106994
                     1.57252e-05    -2.87004e-05        -0.353435        0.271999     -4.60136e-05    -3.94035e-05         0.796726       -0.530929
                        0.796681       -0.531011      -5.7579e-05    -5.38964e-05         0.313176       -0.200315      8.35293e-06     5.20507e-06
                    -2.98085e-06    -8.24074e-05         0.796663       -0.530975     -5.31953e-05     -3.3502e-05         0.313323       -0.200368
457386                 -0.246259        0.169085      2.06954e-05    -4.14838e-05         0.794703       -0.535931     -1.32667e-05    -0.000111045
                     2.05554e-05     -4.2727e-05        -0.246337        0.169082     -5.38756e-05    -4.18375e-05         0.794771       -0.535835
                        0.794704        -0.53593     -5.77365e-05     -4.6695e-05         0.237997       -0.157706     -2.01385e-05     -7.1254e-06
                     2.08693e-06    -8.41174e-05         0.794702       -0.535885     -6.83242e-05    -3.06997e-05         0.238005       -0.157799
465752                 -0.167832        0.122294      2.67633e-05     -6.1911e-05         0.792131       -0.543266     -6.85257e-06    -0.000115526
                     2.69428e-05    -6.01981e-05           -0.168        0.122191     -6.38178e-05    -4.46356e-05         0.792227       -0.543156
                         0.79213       -0.543268     -5.77679e-05    -3.70886e-05         0.191887       -0.118979     -6.27609e-05    -3.05492e-05
                     8.13019e-06    -8.59168e-05          0.79215       -0.543212       -8.825e-05     -2.5631e-05          0.19181       -0.119076
474118                 -0.110716       0.0987375      3.56012e-05    -8.80207e-05         0.788654       -0.554094      1.09248e-06    -0.000120578
                     3.59721e-05    -8.25154e-05        -0.110912       0.0985785     -7.69084e-05    -4.79179e-05         0.788788       -0.553964
                        0.788651       -0.554099     -5.75279e-05    -2.39914e-05         0.162586      -0.0857857     -0.000130784    -8.02924e-05
                      1.5547e-05    -8.78196e-05         0.788702       -0.554027     -0.000115525    -1.62487e-05         0.162455      -0.0858767
482484                -0.0663104       0.0852406       4.9412e-05      -0.0001218         0.783782       -0.569898      1.11692e-05    -0.000126359
                     4.95178e-05     -0.00011135        -0.066519       0.0850489     -9.47519e-05    -5.18099e-05         0.783969       -0.569744
                        0.783778       -0.569906     -5.67018e-05    -5.97339e-06         0.142831      -0.0569815     -0.000241858    -0.000204069
                     2.48586e-05    -8.98277e-05         0.783871       -0.569815     -0.000153722     1.54537e-06         0.142661      -0.0570662
490850                -0.0295779       0.0767734      7.22258e-05    -0.000165495         0.776666       -0.592919      2.42553e-05     -0.00013306
                     7.09049e-05    -0.000148619       -0.0297937       0.0765617      -0.00011998    -5.64297e-05         0.776928       -0.592734
                        0.776659       -0.592932     -5.46321e-05     1.89534e-05         0.128983      -0.0312224     -0.000355391    -0.000574653
                     3.68124e-05    -9.19211e-05         0.776814       -0.592814     -0.000207477     3.63227e-05         0.128782      -0.0313023
499216                 0.0022974       0.0711212       0.00011232     -0.00022133         0.765324       -0.627187      4.19345e-05    -0.000140957
                      0.00010686    -0.000196429       0.00207497       0.0708971     -0.000157946    -6.18208e-05         0.765656       -0.626924
                        0.765313       -0.627205     -4.97983e-05     5.41052e-05         0.119207     -0.00749441      0.000144279     -0.00120814
                     5.27341e-05    -9.40288e-05          0.76553       -0.627027     -0.000281122     0.000108775         0.118978     -0.00757135
507582                 0.0312047        0.067053      0.000185987    -0.000287457         0.738331       -0.673733      6.71374e-05    -0.000150362
                      0.00017069    -0.000254336        0.0309745       0.0668214       -0.0002207    -6.73506e-05          0.73872        -0.67331
                        0.738311       -0.673755     -3.85574e-05     0.000104801         0.112402       0.0150619       0.00125401    -0.000900656
                     7.50165e-05    -9.59159e-05         0.738588       -0.673455     -0.000361056     0.000266922         0.112145       0.0149858
515948                 0.0585019       0.0637964      0.000319576    -0.000343892         0.674544       -0.736327      0.000105901    -0.000161322
                     0.000285747    -0.000309153        0.0582619       0.0635609     -0.000342013    -6.76742e-05         0.675165       -0.735768
                        0.674511       -0.736356     -1.16556e-05     0.000179271         0.107896       0.0372058        0.0011867    -2.81511e-05
                     0.000108448     -9.6804e-05         0.674979       -0.735937     -0.000338169     0.000570704          0.10761       0.0371285
524314                 0.0852465       0.0607864      0.000523557    -0.000325162         0.535366       -0.838382      0.000172623    -0.000171736
                     0.000471599    -0.000309227        0.0849945       0.0605503      -0.00066027    -4.51207e-06         0.536498       -0.837693
                        0.535308       -0.838417      5.54806e-05      0.00028691          0.10529       0.0596597       0.00092423     0.000218353
                     0.000164104    -9.37542e-05           0.5362       -0.837877     -6.24476e-06     0.000852021         0.104973       0.0595787
532680                  0.112338       0.0575243      0.000709408    -0.000154933         0.115546       -0.960212      0.000308576    -0.000162943
                       0.0006696    -0.000168328         0.112071        0.057291     -0.000926727      0.00171253         0.117843       -0.960076
                        0.115428       -0.960219      0.000223415     0.000415515         0.104373       0.0831765       0.00077649     0.000316322
                      0.00027361    -7.20325e-05         0.117308       -0.960114      0.000428859     0.000777026         0.104019       0.0830892
541046                  0.140609       0.0534768      0.000736632     9.16793e-05        -0.710282       0.0229122      0.000610793     5.44918e-05
                     0.000727097     8.10987e-05         0.140326       0.0532504       0.00040853      0.00103906        -0.709887       0.0221035
                       -0.710298       0.0229633      0.000560982     0.000433612          0.10508        0.108619      0.000685168     0.000384218
