! TOUCHSTONE file generated by CST MICROWAVE STUDIO
! Date and time: Mon Oct 20 08:27:27 2025
! Project name: Teste_Macro_Metasurface_Nanopilar.cst
! Parameters = {H=600; L_x=115; L_y=115; Lambda=1064; Max_L=200; Min_L=70; PathPara=1; Phi=0; Step_L=10; Theta=0; p=520; phaseX=180; phaseY=0}
! Header version: 2018
! Port assignment regex: !\s*Touchstone port\s*([0-9]+)\s*=\s*(CST MWS port|CST DS port)\s*([0-9]+|Zmin|Zmax)\s*\(\"(.*)\"\)(\s*mode\s*([0-9]+))?.*
! Touchstone port assignment:
! Touchstone port 1 = CST MWS port Zmax ("") mode 1
! Touchstone port 2 = CST MWS port Zmax ("") mode 2
! Touchstone port 3 = CST MWS port Zmin ("") mode 1
! Touchstone port 4 = CST MWS port Zmin ("") mode 2
! S-Parameters are not renormalized. Each port impedance will be approximated by the real part at minimum frequency. The values are described via the [Reference] keyword.
! Default impedance is overridden by [Reference]
[Version] 2.0
# GHz S RI R 376.73
[Number of Ports] 4
[Reference]
376.73 376.73 259.888 259.888 
[Number of Frequencies] 52
[Network Data]
474000                 0.0848231        0.212959     -2.32331e-05    -1.91252e-05        -0.970583       -0.014698     -5.80469e-06    -7.62033e-06
                    -2.30478e-05    -1.41365e-05        0.0849653        0.213013       9.6097e-06    -1.42261e-05        -0.970558      -0.0147292
                       -0.970592      -0.0146987     -7.93203e-06    -5.81949e-06       -0.0904675        0.211554      1.78283e-05    -2.33532e-05
                    -1.96984e-05    -8.69771e-06         -0.97057        -0.01473      7.41911e-06    -2.27143e-05       -0.0906184        0.211596
477200                 0.0855949        0.205519     -2.38978e-05    -1.89107e-05        -0.940476      -0.0329043     -7.57532e-06    -1.17782e-05
                    -2.37458e-05    -1.38365e-05        0.0857357        0.205567      9.23866e-06    -1.49935e-05        -0.940209      -0.0329766
                       -0.940485      -0.0329049     -8.33276e-06    -6.43709e-06       -0.0841979        0.209209      1.87022e-05    -2.09364e-05
                    -2.12742e-05    -1.36821e-05         -0.94022      -0.0329774      8.23325e-06    -2.03683e-05       -0.0843489        0.209248
480400                  0.086371        0.197598     -2.46107e-05    -1.86806e-05        -0.909743      -0.0500768     -9.47242e-06     -1.6437e-05
                    -2.44941e-05     -1.3515e-05        0.0865101         0.19764      8.83699e-06    -1.58071e-05         -0.90924      -0.0501713
                       -0.909752      -0.0500775     -8.76196e-06    -7.09189e-06       -0.0775267        0.206742      1.96168e-05    -1.83587e-05
                    -2.29052e-05    -1.92731e-05         -0.90925      -0.0501721      9.08627e-06    -1.78665e-05       -0.0776779        0.206777
483600                 0.0871471         0.18915     -2.53772e-05    -1.84331e-05        -0.878436      -0.0661842     -1.15038e-05      -2.169e-05
                    -2.52985e-05    -1.31695e-05        0.0872843        0.189185        8.401e-06    -1.66712e-05        -0.877707      -0.0662827
                       -0.878445      -0.0661848     -9.22272e-06    -7.78732e-06       -0.0704142        0.204142      2.05746e-05    -1.56038e-05
                    -2.45758e-05    -2.55826e-05        -0.877717      -0.0662835       9.9806e-06    -1.51932e-05       -0.0705657        0.204173
486800                 0.0879179         0.18012     -2.62036e-05     -1.8166e-05        -0.846612      -0.0811987      -1.3675e-05    -2.76549e-05
                    -2.61656e-05    -1.27975e-05        0.0880527        0.180147      7.92638e-06    -1.75905e-05        -0.845667      -0.0812842
                       -0.846621      -0.0811992     -9.71859e-06    -8.52724e-06       -0.0628153        0.201399       2.1578e-05     -1.2653e-05
                    -2.62595e-05    -3.27498e-05        -0.845676       -0.081285      1.09188e-05    -1.23301e-05       -0.0629672        0.201425
490000                 0.0886763        0.170447     -2.70971e-05    -1.78769e-05        -0.814328      -0.0950964     -1.59869e-05    -3.44815e-05
                     -2.7103e-05    -1.23956e-05        0.0888083        0.170466      7.40812e-06    -1.85703e-05        -0.813179      -0.0951531
                       -0.814336       -0.095097     -1.02537e-05    -9.31601e-06       -0.0546788        0.198502      2.26296e-05    -9.48482e-06
                    -2.79124e-05      -4.095e-05        -0.813188      -0.0951539      1.19036e-05    -9.25653e-06       -0.0548311        0.198522
493200                 0.0894133         0.16006     -2.80663e-05    -1.75631e-05        -0.781643       -0.107858     -1.84322e-05    -4.23626e-05
                    -2.81195e-05      -1.196e-05         0.089542        0.160071      6.84035e-06    -1.96166e-05        -0.780303       -0.107871
                       -0.781651       -0.107858     -1.08327e-05    -1.01586e-05       -0.0459456        0.195438       2.3732e-05    -6.07471e-06
                    -2.94633e-05    -5.04055e-05        -0.780311       -0.107872      1.29377e-05     -5.9487e-06       -0.0460985        0.195451
496400                 0.0901173        0.148879     -2.91212e-05    -1.72213e-05        -0.748617       -0.119467     -2.09879e-05    -5.15507e-05
                    -2.92256e-05    -1.14865e-05        0.0902421        0.148881      6.21614e-06    -2.07361e-05        -0.747099       -0.119424
                       -0.748625       -0.119468     -1.14612e-05    -1.10605e-05       -0.0365481        0.192193      2.48878e-05    -2.39426e-06
                    -3.07976e-05    -6.14006e-05        -0.747108       -0.119424      1.40238e-05    -2.37907e-06       -0.0367016        0.192199
499600                 0.0907733         0.13681     -3.02738e-05    -1.68474e-05         -0.71531       -0.129913     -2.36029e-05    -6.23809e-05
                    -3.04338e-05    -1.09699e-05        0.0908935        0.136802      5.52728e-06    -2.19363e-05         -0.71363       -0.129801
                       -0.715318       -0.129913     -1.21456e-05    -1.20283e-05        -0.026408        0.188752      2.60993e-05     1.58949e-06
                    -3.17302e-05    -7.43011e-05        -0.713638       -0.129801      1.51648e-05      1.4843e-06       -0.0265621         0.18875
502800                 0.0913621        0.123744     -3.15382e-05    -1.64367e-05        -0.681784       -0.139188     -2.61757e-05    -7.53053e-05
                    -3.17588e-05    -1.04038e-05        0.0914768        0.123725      4.76398e-06     -2.3226e-05        -0.679957       -0.138997
                       -0.681791       -0.139189     -1.28936e-05    -1.30692e-05       -0.0154341        0.185098      2.73687e-05     5.91498e-06
                    -3.19604e-05    -8.95792e-05        -0.679964       -0.138998      1.63632e-05     5.67871e-06        -0.015589        0.185086
506000                 0.0918588        0.109555     -3.29316e-05    -1.59837e-05        -0.648099        -0.14729     -2.85122e-05    -9.09439e-05
                    -3.32184e-05    -9.78092e-06         0.091967        0.109525      3.91451e-06    -2.46148e-05        -0.646141       -0.147011
                       -0.648106        -0.14729     -1.37142e-05    -1.41917e-05      -0.00351992        0.181214      2.86974e-05     1.06273e-05
                    -3.09936e-05    -0.000107842        -0.646148       -0.147011      1.76213e-05      1.0248e-05      -0.00367582        0.181191
509200                  0.092231       0.0940936     -3.44748e-05    -1.54812e-05        -0.614315       -0.154218     -3.02454e-05    -0.000110159
                    -3.48343e-05    -9.09224e-06        0.0923313       0.0940508      2.96467e-06    -2.61141e-05        -0.612242       -0.153844
                       -0.614321       -0.154219     -1.46183e-05    -1.54056e-05       0.00945973         0.17708      3.00862e-05     1.57798e-05
                    -2.80069e-05    -0.000129852        -0.612249       -0.153845      1.89407e-05     1.52438e-05       0.00930278        0.177043
512400                 0.0924365       0.0771848     -3.61932e-05    -1.49209e-05        -0.580491       -0.159979     -3.06767e-05    -0.000134164
                    -3.66329e-05    -8.32674e-06        0.0925273       0.0771283      1.89716e-06    -2.77365e-05        -0.578322       -0.159505
                       -0.580498        -0.15998     -1.56189e-05    -1.67223e-05        0.0236533        0.172673      3.15344e-05     2.14356e-05
                    -2.16118e-05    -0.000156519        -0.578328       -0.159505      2.03221e-05     2.07278e-05        0.0234952        0.172622
515600                 0.0924195       0.0586197     -3.81185e-05     -1.4292e-05        -0.546688       -0.164582     -2.84529e-05    -0.000164662
                    -3.86472e-05     -7.4708e-06         0.092499       0.0585482      6.90747e-07    -2.94966e-05        -0.544438       -0.164003
                       -0.546694       -0.164582     -1.67318e-05     -1.8155e-05        0.0392379        0.167972      3.30393e-05     2.76706e-05
                    -9.44921e-06    -0.000188763        -0.544444       -0.164003      2.17645e-05     2.67736e-05        0.0390785        0.167903
518800                 0.0921065       0.0381484     -4.02906e-05    -1.35812e-05        -0.512961       -0.168039     -2.08866e-05    -0.000203961
                    -4.09183e-05    -6.50741e-06        0.0921723       0.0380605     -6.80844e-07    -3.14109e-05        -0.510647       -0.167352
                       -0.512967       -0.168039     -1.79764e-05    -1.97192e-05        0.0564264        0.162953      3.45953e-05      3.4576e-05
                     1.24562e-05    -0.000227034        -0.510653       -0.167352      2.32647e-05     3.34705e-05        0.0562656        0.162862
522000                 0.0913991       0.0154696     -4.27599e-05    -1.27713e-05        -0.479366       -0.170365     -2.52606e-06    -0.000254781
                    -4.34987e-05    -5.41497e-06        0.0914483       0.0153639     -2.25047e-06    -3.34982e-05        -0.477005        -0.16957
                       -0.479372       -0.170366     -1.93767e-05    -2.14333e-05         0.075477         0.15759      3.61917e-05     4.22629e-05
                     5.04837e-05    -0.000269916        -0.477011        -0.16957      2.48155e-05     4.09268e-05        0.0753147        0.157474
525200                 0.0901646     -0.00978286     -4.55922e-05    -1.18402e-05        -0.445956       -0.171582      3.76592e-05    -0.000318559
                    -4.64564e-05    -4.16571e-06        0.0901934     -0.00990799     -4.05957e-06    -3.57799e-05        -0.443565       -0.170679
                       -0.445962       -0.171583     -2.09627e-05    -2.33191e-05        0.0967059        0.151862       3.7811e-05     5.08673e-05
                     0.000113371    -0.000310817         -0.44357       -0.170679      2.64041e-05     4.92759e-05        0.0965421        0.151715
528400                 0.0882222      -0.0380576     -4.88737e-05    -1.07584e-05        -0.412784       -0.171712      0.000119983    -0.000388275
                    -4.98803e-05    -2.72326e-06        0.0882258       -0.038204     -6.16099e-06    -3.82795e-05        -0.410377       -0.170702
                       -0.412789       -0.171712     -2.27722e-05    -2.54023e-05         0.120504        0.145747      3.94252e-05     6.05577e-05
                     0.000207745     -0.00033261        -0.410383       -0.170702      2.80088e-05     5.86834e-05         0.120339        0.145563
531600                  0.085322      -0.0699095     -5.27206e-05    -9.48613e-06        -0.379897       -0.170779      0.000267961     -0.00042839
                    -5.38904e-05    -1.03905e-06        0.0852943      -0.0700788     -8.62288e-06    -4.10231e-05        -0.377492       -0.169666
                       -0.379903        -0.17078     -2.48541e-05    -2.77138e-05          0.14736        0.139231      4.09897e-05     7.15446e-05
                     0.000323795    -0.000307508        -0.377497       -0.169666      2.95941e-05     6.93568e-05         0.147194        0.139003
534800                 0.0811141        -0.10603     -5.72925e-05    -7.96818e-06        -0.347343       -0.168814      0.000456809    -0.000363437
                    -5.86512e-05     9.53197e-07        0.0810473       -0.106224     -1.15341e-05    -4.40381e-05        -0.344953       -0.167601
                       -0.347348       -0.168814     -2.72715e-05    -3.02907e-05         0.177894        0.132314       4.2435e-05     8.40937e-05
                     0.000422224    -0.000220286        -0.344958       -0.167601       3.1103e-05     8.15597e-05         0.177727        0.132031
538000                 0.0751009       -0.147292      -6.2816e-05     -6.1259e-06        -0.315165       -0.165845       0.00056637    -0.000179695
                    -6.43952e-05     3.34646e-06        0.0749846       -0.147512     -1.50118e-05    -4.73513e-05        -0.312805       -0.164538
                        -0.31517       -0.165846      -3.0108e-05    -3.31774e-05           0.2129        0.125019      4.36524e-05     9.85445e-05
                     0.000461755    -9.92155e-05        -0.312809       -0.164538       3.2445e-05     9.56303e-05         0.212735        0.124668
541200                 0.0665617         -0.1948     -6.96225e-05    -3.84299e-06        -0.283405       -0.161907      0.000542303     5.00084e-07
                    -7.14619e-05     6.27528e-06         0.066382       -0.195047     -1.92127e-05    -5.09847e-05        -0.281087       -0.160512
                        -0.28341       -0.161907     -3.34762e-05    -3.64269e-05         0.253416        0.117416      4.44709e-05     0.000115335
                      0.00044357     8.28322e-06        -0.281091       -0.160512      3.34746e-05     0.000112009         0.253254        0.116977
544400                 0.0544316       -0.249972     -7.82178e-05    -9.40055e-07          -0.2521       -0.157033      0.000460681     0.000105194
                    -8.03678e-05     9.94186e-06        0.0541698       -0.250244     -2.43481e-05    -5.49473e-05        -0.249837       -0.155558
                       -0.252105       -0.157033       -3.753e-05    -4.01021e-05         0.300817        0.109648      4.46186e-05     0.000135036
                     0.000397314     8.11475e-05        -0.249841       -0.155558      3.39574e-05     0.000131275         0.300662        0.109098
547600                 0.0371016       -0.314629     -8.94136e-05      2.8748e-06        -0.221286       -0.151259      0.000380936     0.000152106
                     -9.1938e-05     1.46648e-05        0.0367324       -0.314923     -3.07063e-05    -5.92188e-05        -0.219089       -0.149712
                       -0.221291        -0.15126     -4.24857e-05    -4.42755e-05          0.35696        0.102002      4.36571e-05       0.0001584
                     0.000346494     0.000123542        -0.219093       -0.149712      3.35083e-05     0.000154204         0.356821        0.101307
550800                 0.0120805       -0.391116       -0.0001046      8.1105e-06        -0.190995       -0.144624      0.000318054     0.000169424
                    -0.000107578     2.09763e-05        0.0115686       -0.391421     -3.86824e-05    -6.37167e-05        -0.188875       -0.143013
                          -0.191       -0.144625     -4.86536e-05    -4.90261e-05         0.424413       0.0950187      4.08652e-05     0.000186421
                     0.000301075     0.000145946        -0.188879       -0.143013      3.14836e-05     0.000181838         0.424303       0.0941311
554000                 -0.024596       -0.482405     -0.000126373     1.57401e-05        -0.161257       -0.137165      0.000270812     0.000173272
                    -0.000129893     2.98377e-05       -0.0252991       -0.482698     -4.88155e-05    -6.82354e-05        -0.159222         -0.1355
                       -0.161261       -0.137166     -5.64915e-05    -5.44277e-05           0.5068        0.089717      3.50303e-05     0.000220409
                     0.000263335     0.000156639        -0.159226         -0.1355      2.67788e-05     0.000215593         0.506744        0.088568
557200                -0.0794163       -0.592106     -0.000160199     2.78837e-05        -0.132096       -0.128922      0.000235284     0.000171253
                     -0.00016431     4.31767e-05       -0.0803777        -0.59234     -6.18255e-05    -7.23257e-05        -0.130156       -0.127213
                       -0.132101       -0.128923     -6.66939e-05    -6.05156e-05         0.609376       0.0880376      2.40618e-05     0.000262049
                       0.0002327      0.00016077         -0.13016       -0.127213      1.74441e-05     0.000257373          0.60942       0.0865255
560400                 -0.163295       -0.724068      -0.00021991     5.01901e-05        -0.103538       -0.119935      0.000208125     0.000166823
                    -0.000224322     6.54948e-05        -0.164603       -0.724147     -7.86109e-05    -7.50735e-05          -0.1017       -0.118192
                       -0.103542       -0.119936     -8.03444e-05    -6.71975e-05          0.73995       0.0937836      4.26965e-06     0.000313342
                       0.0002079     0.000161296        -0.101703       -0.118192      -7.0484e-08     0.000309627         0.740187       0.0917541
563600                 -0.294962       -0.880639     -0.000353491     0.000104217       -0.0756027       -0.110244       0.00018694     0.000161554
                    -0.000355252     0.000110132        -0.296715       -0.880371     -0.000100096    -7.47159e-05       -0.0738719       -0.108477
                      -0.0756063       -0.110245     -9.91727e-05    -7.40168e-05         0.910392        0.114719     -3.09662e-05     0.000376092
                       0.0001877     0.000159879       -0.0738754       -0.108477     -3.24106e-05     0.000375069         0.911014        0.111934
564000                 -0.316184        -0.90185     -0.000382759     0.000116835       -0.0721554       -0.108985      0.000184624     0.000160878
                    -0.000383342        0.000119        -0.317998       -0.901517     -0.000103144     -7.4315e-05       -0.0704385       -0.107216
                       -0.072159       -0.108986     -0.000102014    -7.48252e-05         0.935318         0.11908     -3.69675e-05     0.000384773
                     0.000185445     0.000159618        -0.070442       -0.107216     -3.80295e-05     0.000384282          0.93601        0.116178
566800                 -0.432129       -0.901812     -0.000913227     0.000398921       -0.0483071      -0.0998889      0.000170085     0.000156166
                    -0.000859362     0.000233115         -0.43402       -0.900903     -0.000126639    -6.81132e-05       -0.0466896      -0.0981086
                      -0.0483106      -0.0998901      -0.00012594     -7.9516e-05         0.989348         0.14557     -9.34052e-05     0.000449883
                     0.000171086     0.000157454       -0.0466929      -0.0981088     -9.21398e-05     0.000454969         0.989856        0.142075
570000                 -0.569829       -0.821763       0.00138098    -0.000200204       -0.0216666        -0.08891      0.000156427     0.000150976
                      0.00166347     -0.00147519        -0.571725       -0.820445     -0.000156486    -5.05224e-05       -0.0201667      -0.0871275
                      -0.0216699      -0.0889114     -0.000164732    -7.95222e-05         0.980534         0.19635     -0.000202181     0.000525747
