! TOUCHSTONE file generated by CST MICROWAVE STUDIO
! Date and time: Mon Oct 20 08:27:23 2025
! Project name: Teste_Macro_Metasurface_Nanopilar.cst
! Parameters = {H=600; L_x=100; L_y=160; Lambda=1064; Max_L=200; Min_L=70; PathPara=1; Phi=0; Step_L=10; Theta=0; p=520; phaseX=180; phaseY=0}
! Header version: 2018
! Port assignment regex: !\s*Touchstone port\s*([0-9]+)\s*=\s*(CST MWS port|CST DS port)\s*([0-9]+|Zmin|Zmax)\s*\(\"(.*)\"\)(\s*mode\s*([0-9]+))?.*
! Touchstone port assignment:
! Touchstone port 1 = CST MWS port Zmax ("") mode 1
! Touchstone port 2 = CST MWS port Zmax ("") mode 2
! Touchstone port 3 = CST MWS port Zmin ("") mode 1
! Touchstone port 4 = CST MWS port Zmin ("") mode 2
! S-Parameters are not renormalized. Each port impedance will be approximated by the real part at minimum frequency. The values are described via the [Reference] keyword.
! Default impedance is overridden by [Reference]
[Version] 2.0
# GHz S RI R 376.73
[Number of Ports] 4
[Reference]
376.73 376.73 259.888 259.888 
[Number of Frequencies] 52
[Network Data]
474000                  0.351692        0.214047     -0.000296971     0.000156232        -0.808079       -0.385496      3.28323e-06    -0.000322859
                    -0.000283821     0.000205152        0.0655225       -0.757666     -0.000494035     0.000125135        -0.296557         0.31754
                       -0.808078       -0.385497     -0.000481439     0.000156164        -0.373526       -0.137659      3.81187e-05    -0.000468446
                     3.81067e-06    -0.000348264        -0.296581        0.317561      4.41829e-05    -0.000469426        -0.624873        0.520754
477200                  0.363285        0.211357      -0.00028523     0.000148394        -0.787298       -0.376598      5.28492e-06    -0.000318054
                    -0.000273547     0.000195495        0.0448182       -0.746625     -0.000494426     0.000114336        -0.288738         0.32061
                       -0.787297         -0.3766     -0.000482437     0.000145792        -0.377167       -0.135981      4.55264e-05    -0.000477888
                     6.10551e-06    -0.000343495        -0.288762        0.320631      5.14217e-05    -0.000478366        -0.633836        0.536268
480400                  0.375651         0.20819     -0.000273202     0.000140674           -0.766       -0.368022      7.34775e-06    -0.000312934
                    -0.000262921     0.000185924        0.0242215       -0.734504     -0.000494581     0.000102839        -0.280413         0.32381
                       -0.765999       -0.368023     -0.000483257     0.000134726        -0.381087       -0.134146      5.38455e-05     -0.00048686
                     8.48004e-06    -0.000338405        -0.280437        0.323831      5.95115e-05     -0.00048686        -0.643336        0.553698
483600                  0.388857         0.20446     -0.000260883     0.000133083        -0.744185       -0.359791      9.47124e-06    -0.000307471
                    -0.000251937     0.000176453       0.00380547       -0.721285     -0.000494452     9.05855e-05        -0.271533        0.327146
                       -0.744184       -0.359792     -0.000483857     0.000122903        -0.385319       -0.132133      6.30328e-05    -0.000495235
                     1.09353e-05    -0.000332962        -0.271556        0.327168      6.84133e-05    -0.000494792        -0.653375        0.573391
486800                  0.402978        0.200067     -0.000248272     0.000125631        -0.721852       -0.351931       1.1654e-05     -0.00030163
                    -0.000240591     0.000167094       -0.0163529       -0.706953      -0.00049398     7.75106e-05         -0.26204        0.330624
                       -0.721851       -0.351933     -0.000484183     0.000110253        -0.389903       -0.129913      7.30232e-05    -0.000502894
                     1.34715e-05    -0.000327132        -0.262064        0.330646      7.80682e-05    -0.000502053        -0.663934        0.595782
490000                  0.418093         0.19489     -0.000235368     0.000118329        -0.699002        -0.34447      1.38934e-05    -0.000295371
                     -0.00022888     0.000157863       -0.0361727         -0.6915     -0.000493091     6.35442e-05        -0.251871         0.33425
                       -0.699001       -0.344471      -0.00048417     9.67012e-05        -0.394884       -0.127455      8.37298e-05    -0.000509727
                     1.60878e-05    -0.000320871        -0.251895        0.334273      8.83975e-05    -0.000508539        -0.674953        0.621412
493200                  0.434285        0.188781      -0.00022217     0.000111189        -0.675639       -0.337433      1.61853e-05    -0.000288652
                      -0.0002168     0.000148775       -0.0555703       -0.674925     -0.000491699     4.86105e-05        -0.240953        0.338031
                       -0.675638       -0.337434     -0.000483741      8.2164e-05        -0.400314       -0.124719      9.50462e-05    -0.000515639
                     1.87819e-05    -0.000314135        -0.240976        0.338053      9.93051e-05    -0.000514163        -0.686308        0.650962
496400                  0.451642        0.181562     -0.000208677     0.000104221        -0.651765       -0.330848      1.85234e-05    -0.000281423
                     -0.00020435     0.000139846       -0.0744596       -0.657236     -0.000489701     3.26286e-05          -0.2292         0.34197
                       -0.651764       -0.330849       -0.0004828     6.65515e-05        -0.406256       -0.121659       0.00010685    -0.000520553
                     2.15496e-05     -0.00030687        -0.229223        0.341993       0.00011068    -0.000518852        -0.697771        0.685294
499600                  0.470254        0.173017     -0.000194889     9.74381e-05        -0.627386       -0.324743      2.08988e-05    -0.000273626
                    -0.000191527      0.00013109        -0.092753       -0.638446      -0.00048697      1.5513e-05        -0.216516        0.346071
                       -0.627386       -0.324745      -0.00048123     4.97665e-05        -0.412786       -0.118213      0.000119008    -0.000524415
                      2.4384e-05    -0.000299016        -0.216539        0.346094      0.000122399    -0.000522552        -0.698897        0.715222
502800                  0.490206         0.16288     -0.000180808     9.08514e-05         -0.60251       -0.319148      2.32988e-05    -0.000265196
                    -0.000178331     0.000122526        -0.110363       -0.618581     -0.000483354    -2.82516e-06         -0.20279        0.350336
                        -0.60251        -0.31915     -0.000478887     3.17053e-05        -0.419994       -0.114309      0.000131378    -0.000527195
                     2.72745e-05    -0.000290502        -0.202812         0.35036      0.000134334    -0.000525233        -0.681149        0.732145
506000                  0.511579         0.15083     -0.000166433     8.44734e-05        -0.577144       -0.314092      2.57061e-05     -0.00025606
                    -0.000164761      0.00011417        -0.127201       -0.597673     -0.000478668    -2.24762e-05        -0.187889        0.354764
                       -0.577144       -0.314094     -0.000475598     1.22593e-05        -0.427988       -0.109852       0.00014382    -0.000528887
                     3.02061e-05    -0.000281248        -0.187911        0.354788      0.000146352    -0.000526886         -0.65923        0.751942
509200                  0.534431        0.136471     -0.000151765     7.83167e-05        -0.551298       -0.309605      2.80971e-05    -0.000246131
                    -0.000150818      0.00010604        -0.143182       -0.575763      -0.00047269    -4.35281e-05        -0.171661        0.359351
                       -0.551298       -0.309606     -0.000471147      -8.683e-06        -0.436902       -0.104721      0.000156194    -0.000529511
                     3.31571e-05    -0.000271161        -0.171684        0.359375      0.000158325    -0.000527522        -0.631772        0.775154
512400                  0.558789         0.11932     -0.000136808     7.23939e-05        -0.524985       -0.305715      3.04402e-05     -0.00023531
                    -0.000136504     9.81539e-05        -0.158222       -0.552903     -0.000465151    -6.60616e-05        -0.153928        0.364085
                       -0.524985       -0.305716     -0.000465271    -3.12309e-05          -0.4469      -0.0987602       0.00016837    -0.000529106
                     3.60975e-05    -0.000260134         -0.15395        0.364109       0.00017013    -0.000527177        -0.596847        0.802355
515600                  0.584623       0.0987885     -0.000121564      6.6718e-05        -0.498219       -0.302455      3.26925e-05    -0.000223482
                     -0.00012182     9.05296e-05        -0.172242       -0.529152     -0.000455725    -9.01416e-05        -0.134476        0.368947
                       -0.498219       -0.302456     -0.000457649    -5.54851e-05        -0.458185      -0.0917607      0.000180233    -0.000527731
                     3.89856e-05    -0.000248042        -0.134497        0.368972      0.000181657    -0.000525901        -0.551725        0.834026
518800                  0.611812       0.0741647     -0.000106035     6.13021e-05        -0.471014       -0.299853      3.47968e-05    -0.000210515
                     -0.00010677      8.3186e-05        -0.185168       -0.504578     -0.000444022    -0.000115806        -0.113053        0.373908
                       -0.471014       -0.299854     -0.000447887    -8.15267e-05        -0.471013       -0.083443       0.00019168    -0.000525463
                     4.17644e-05    -0.000234739        -0.113074        0.373933      0.000192805     -0.00052376        -0.492563        0.870277
522000                  0.640095       0.0445941     -9.02262e-05     5.61593e-05         -0.44339        -0.29794      3.66762e-05    -0.000196255
                     -9.1359e-05      7.6142e-05        -0.196931       -0.479257     -0.000429575     -0.00014305       -0.0893571         0.37892
                        -0.44339       -0.297941     -0.000435506    -0.000109401        -0.485709       -0.073422      0.000202626    -0.000522386
                     4.43556e-05    -0.000220054       -0.0893773        0.378945      0.000203493    -0.000520833        -0.414139        0.910214
525200                  0.668997      0.00907263     -7.41409e-05      5.1303e-05        -0.415365       -0.296747      3.82277e-05    -0.000180523
                    -7.55919e-05     6.94166e-05         -0.20747       -0.453272      -0.00041183    -0.000171797       -0.0630229         0.38391
                       -0.415365       -0.296747     -0.000419928    -0.000139093        -0.502686      -0.0611555      0.000213005    -0.000518594
                     4.66526e-05    -0.000203789       -0.0630425        0.383936      0.000213653    -0.000517204         -0.30999         0.95074
528400                  0.697727      -0.0335452     -5.77847e-05     4.67467e-05        -0.386961       -0.296302       3.9313e-05     -0.00016311
                    -5.94754e-05     6.30291e-05        -0.216733       -0.426714     -0.000390141    -0.000201874       -0.0336084        0.388773
                       -0.386961       -0.296303     -0.000400464    -0.000170495        -0.522478      -0.0458594      0.000222769    -0.000514183
                     4.85094e-05    -0.000185714       -0.0336273        0.388799      0.000223236    -0.000512963        -0.173919         0.98476
531600                  0.725049      -0.0844985     -4.11633e-05     4.25038e-05        -0.358204       -0.296635      3.97454e-05    -0.000143777
                    -4.30173e-05     5.69987e-05        -0.224674       -0.399677     -0.000363767     -0.00023296     -0.000572664         0.39335
                       -0.358204       -0.296636     -0.000376304    -0.000203356        -0.545771      -0.0263647      0.000231885     -0.00050925
                     4.97262e-05    -0.000165559     -0.000590605        0.393376      0.000232206      -0.0005082      -0.00438129         0.99999
534800                  0.749113       -0.145005     -2.42831e-05     3.85877e-05        -0.329119       -0.297774      3.92726e-05    -0.000122249
                    -2.62266e-05     5.13448e-05         -0.23126       -0.372261     -0.000331888     -0.00026453        0.0367502        0.397409
                       -0.329119       -0.297775     -0.000346522    -0.000237217        -0.573437    -0.000866312      0.000240336    -0.000503889
                     5.00291e-05    -0.000143015        0.0367334        0.397435      0.000240544    -0.000503005         0.188603        0.982053
538000                   0.76729       -0.216036     -7.15153e-06     3.50121e-05        -0.299734       -0.299748      3.75527e-05    -9.82128e-05
                    -9.11344e-06     4.60864e-05        -0.236466       -0.344569     -0.000293632    -0.000295788        0.0791856        0.400603
                       -0.299734       -0.299749     -0.000310102    -0.000271331        -0.606543       0.0335365       0.00024812    -0.000498187
                     4.90416e-05     -0.00011773          0.07917         0.40063      0.000248242    -0.000497461         0.381116        0.924527
541200                  0.776047       -0.297932      1.02236e-05     3.17901e-05        -0.270081       -0.302582        3.412e-05    -7.13214e-05
                     8.31075e-06     4.12426e-05        -0.240278       -0.316704      -0.00024815    -0.000325586         0.127763         0.40242
                       -0.270081       -0.302583     -0.000266003    -0.000304557        -0.646212       0.0817193      0.000255244    -0.000492228
                     4.62449e-05    -8.93123e-05         0.127749        0.402447      0.000255304     -0.00049165         0.546381        0.837536
544400                  0.771005       -0.389834      2.78334e-05     2.89352e-05        -0.240193       -0.306303        2.834e-05    -4.12044e-05
                     2.60333e-05     3.68321e-05        -0.242691       -0.288772     -0.000194727    -0.000352348          0.18377        0.402087
                       -0.240193       -0.306303     -0.000213276    -0.000335266         -0.69299        0.152277      0.000261725    -0.000486086
                     4.09237e-05    -5.73457e-05         0.183758        0.402113      0.000261744    -0.000485642         0.670426        0.741977
547600                  0.747335       -0.488998      4.56686e-05     2.64603e-05        -0.210104       -0.310934      1.93469e-05    -7.49429e-06
                     4.40402e-05     3.28732e-05        -0.243714       -0.260876     -0.000132959     -0.00037403         0.248824        0.398432
                       -0.210104       -0.310934     -0.000151268    -0.000361249        -0.744358        0.261001      0.000267587    -0.000479828
                     3.20926e-05    -2.14235e-05         0.248813        0.398457      0.000267581    -0.000479504         0.742755        0.645726
550800                  0.700693       -0.590213      6.37187e-05     2.43785e-05        -0.179852       -0.316497      5.96347e-06     3.01196e-05
                     6.23164e-05     2.93839e-05        -0.243362       -0.233118     -6.29964e-05    -0.000388138          0.32494        0.389651
                       -0.179852       -0.316498     -7.99033e-05    -0.000379721        -0.785468        0.436892       0.00027286    -0.000473511
                     1.84016e-05     1.87813e-05         0.324932        0.389675      0.000272842    -0.000473294         0.656854        0.479409
554000                   0.62868       -0.685773      8.19728e-05     2.27022e-05        -0.149476       -0.323014     -1.33973e-05     7.17864e-05
                     8.08452e-05     2.63815e-05        -0.241662       -0.205597      1.41815e-05    -0.000391876         0.414592        0.372933
                       -0.149476       -0.323014     -4.42689e-08    -0.000387449        -0.722963        0.690887      0.000277576    -0.000467185
                    -1.97649e-06     6.33806e-05         0.414587        0.372954      0.000277556    -0.000467061         0.560406        0.364634
557200                  0.532433       -0.766491      0.000100419     2.14439e-05        -0.119017       -0.330503     -4.08362e-05     0.000117306
                     9.96089e-05     2.38828e-05        -0.238649       -0.178408       9.6511e-05    -0.000382461          0.52069         0.34383
                       -0.119017       -0.330503      8.61642e-05    -0.000381118        -0.400796        0.916167      0.000281772    -0.000460894
                    -3.14552e-05     0.000112029         0.520687        0.343847      0.000281757     -0.00046085         0.467724        0.287531
560400                  0.417461       -0.823817      0.000119045     2.06155e-05       -0.0885186       -0.338981     -7.90372e-05     0.000165811
                     0.000118589     2.19035e-05        -0.234367        -0.15164      0.000180733    -0.000357618         0.646307        0.295237
                      -0.0885186       -0.338981      0.000175106    -0.000357932         0.138909        0.990305      0.000285483    -0.000454673
                    -7.30801e-05     0.000163518         0.646307        0.295248      0.000285477    -0.000454695         0.384271        0.236347
563600                  0.292902       -0.852349      0.000137836     2.02285e-05       -0.0580255       -0.348461     -0.000131209     0.000215265
                     0.000137764     2.04588e-05        -0.228868       -0.125374      0.000262551    -0.000316182          0.79375         0.21577
                      -0.0580255       -0.348461      0.000261852    -0.000316382         0.602559         0.72044      0.000288745    -0.000448551
                    -0.000130373     0.000215164          0.79375        0.215772      0.000288753    -0.000448628         0.311241        0.202603
564000                  0.277185       -0.853803      0.000140196     2.02118e-05       -0.0542165       -0.349717     -0.000138883     0.000221345
                     0.000140174     2.03165e-05        -0.228098       -0.122131       0.00027237    -0.000309839          0.81373        0.202862
                      -0.0542166       -0.349717      0.000272263    -0.000309896         0.619549        0.654711      0.000289123    -0.000447794
                    -0.000138814     0.000221415          0.81373        0.202862      0.000289133    -0.000447876         0.302826          0.1993
566800                  0.169242       -0.851396       0.00015678      2.0294e-05       -0.0275841       -0.358955     -0.000200706     0.000261782
                     0.000157114     1.95627e-05         -0.22221      -0.0996886      0.000337141     -0.00025862         0.961965       0.0875014
                      -0.0275841       -0.358955      0.000340793    -0.000256939         0.597119        0.282037      0.000291595     -0.00044255
                    -0.000206722     0.000262032         0.961962       0.0874895      0.000291617    -0.000442671         0.248052        0.180541
570000                 0.0555908       -0.824749       0.00017586     2.08226e-05       0.00275783       -0.370473     -0.000290038     0.000298918
                     0.000176616     1.92284e-05        -0.214454       -0.074651      0.000399951    -0.000187245          0.99486        -0.10126
                      0.00275781       -0.370473      0.000406658     -0.00018233         0.463836       0.0472236      0.000294066     -0.00043669
