! TOUCHSTONE file generated by CST MICROWAVE STUDIO
! Date and time: Mon Oct 20 08:27:36 2025
! Project name: Teste_Macro_Metasurface_Nanopilar.cst
! Parameters = {H=600; L_x=145; L_y=115; Lambda=1064; Max_L=200; Min_L=70; PathPara=1; Phi=0; Step_L=10; Theta=0; p=520; phaseX=180; phaseY=0}
! Header version: 2018
! Port assignment regex: !\s*Touchstone port\s*([0-9]+)\s*=\s*(CST MWS port|CST DS port)\s*([0-9]+|Zmin|Zmax)\s*\(\"(.*)\"\)(\s*mode\s*([0-9]+))?.*
! Touchstone port assignment:
! Touchstone port 1 = CST MWS port Zmax ("") mode 1
! Touchstone port 2 = CST MWS port Zmax ("") mode 2
! Touchstone port 3 = CST MWS port Zmin ("") mode 1
! Touchstone port 4 = CST MWS port Zmin ("") mode 2
! S-Parameters are not renormalized. Each port impedance will be approximated by the real part at minimum frequency. The values are described via the [Reference] keyword.
! Default impedance is overridden by [Reference]
[Version] 2.0
# GHz S RI R 376.73
[Number of Ports] 4
[Reference]
376.73 376.73 259.888 259.888 
[Number of Frequencies] 52
[Network Data]
474000                  0.406919       -0.475781     -4.16152e-05    -5.05983e-05        -0.498567        0.500704      3.32259e-05     6.58717e-05
                    -4.16889e-05     -5.0903e-05         0.206696     -0.00918635      3.72394e-05     4.10805e-05        -0.914141        0.333859
                       -0.498567        0.500703      3.69826e-05     4.12552e-05        -0.412475        0.509376       6.4982e-06    -1.06494e-06
                     3.31458e-05     6.58863e-05        -0.914141        0.333859       6.2413e-06    -1.44335e-06        -0.162225        0.123246
477200                  0.391576       -0.471523     -4.16889e-05    -5.15313e-05        -0.652627        0.431746      3.11439e-05     6.81787e-05
                    -4.21999e-05     -5.0015e-05         0.212136      -0.0100184      3.51706e-05     4.06726e-05        -0.888037        0.337696
                       -0.652676         0.43175      3.49053e-05     4.07726e-05        -0.418512        0.486111      5.37182e-06    -3.47878e-06
                     3.08739e-05     6.75984e-05        -0.888037        0.337696      5.16181e-06    -4.05366e-06        -0.162537        0.123889
480400                  0.375982        -0.46636     -4.17389e-05    -5.25136e-05        -0.804788        0.320708      2.89118e-05     7.06054e-05
                    -4.27149e-05    -4.90621e-05         0.217957      -0.0109825       3.3012e-05     4.02769e-05        -0.861144        0.340816
                       -0.804894        0.320694      3.27361e-05     4.03022e-05         -0.42304        0.461268      4.19522e-06    -6.07041e-06
                     2.84539e-05      6.9381e-05        -0.861143        0.340817      4.03934e-06    -6.85241e-06        -0.162872        0.124583
483600                  0.360196       -0.460232     -4.17609e-05     -5.3548e-05        -0.939005        0.164175      2.65137e-05     7.31605e-05
                    -4.32315e-05    -4.80386e-05           0.2242      -0.0121014      3.07581e-05     3.98962e-05        -0.833466        0.343155
                       -0.939164        0.164115      3.04695e-05      3.9847e-05        -0.425764        0.434921      2.96627e-06    -8.85964e-06
                     2.58716e-05     7.12375e-05        -0.833464        0.343157      2.87287e-06    -9.86012e-06        -0.163234        0.125333
486800                  0.344288       -0.453082     -4.17503e-05    -5.46371e-05        -0.999493      -0.0318439      2.39312e-05     7.58536e-05
                    -4.37462e-05     -4.6938e-05         0.230909      -0.0134031      2.84034e-05     3.95337e-05        -0.805011        0.344645
                       -0.999489      -0.0319694      2.80999e-05     3.94104e-05        -0.426376        0.407201        1.683e-06    -1.18692e-05
                     2.31111e-05     7.31713e-05        -0.805009        0.344646      1.66175e-06    -1.31003e-05        -0.163626        0.126147
490000                  0.328336       -0.444858     -4.17016e-05    -5.57836e-05        -0.973085       -0.230447      2.11433e-05     7.86953e-05
                    -4.42552e-05    -4.57534e-05         0.238137      -0.0149211      2.59417e-05     3.91927e-05        -0.775795        0.345213
                       -0.973048       -0.230603       2.5621e-05     3.89963e-05        -0.424566        0.378305      3.43809e-07    -1.51253e-05
                     2.01543e-05      7.5186e-05        -0.775792        0.345214      4.05906e-07    -1.65999e-05        -0.164051        0.127032
493200                  0.312432       -0.435515     -4.16086e-05    -5.69901e-05        -0.910943       -0.412533      1.81258e-05     8.16969e-05
                    -4.47533e-05    -4.44775e-05         0.245943      -0.0166967      2.33666e-05     3.88775e-05        -0.745835        0.344786
                       -0.910864       -0.412707      2.30263e-05     3.86091e-05        -0.420036          0.3485     -1.05241e-06    -1.86585e-05
                     1.69809e-05     7.72849e-05        -0.745832        0.344788     -8.93928e-07    -2.03902e-05        -0.164514        0.127999
496400                  0.296673       -0.425013     -4.14642e-05    -5.82589e-05         -0.82177        -0.56982      1.48508e-05     8.48706e-05
                    -4.52344e-05     -4.3102e-05         0.254395      -0.0187806      2.06711e-05     3.85926e-05        -0.715159        0.343289
                       -0.821646       -0.569998      2.03088e-05     3.82539e-05         -0.41252        0.318128     -2.50593e-06    -2.25042e-05
                     1.35676e-05      7.9471e-05        -0.715155        0.343291     -2.23586e-06    -2.45074e-05         -0.16502         0.12906
499600                  0.281169       -0.413326     -4.12603e-05    -5.95921e-05        -0.715869       -0.698234      1.12857e-05     8.82299e-05
                    -4.56907e-05    -4.16186e-05         0.263571      -0.0212357      1.78478e-05     3.83434e-05        -0.683797        0.340644
                       -0.715706       -0.698402      1.74612e-05     3.79366e-05        -0.401805        0.287605     -4.01584e-06    -2.67039e-05
                     9.88812e-06     8.17473e-05        -0.683793        0.340646     -3.61638e-06    -2.89938e-05        -0.165576        0.130229
502800                  0.266036       -0.400437     -4.09879e-05    -6.09912e-05        -0.602873       -0.797837      7.39274e-06     9.17889e-05
                    -4.61128e-05    -4.00181e-05         0.273562      -0.0241407      1.48889e-05     3.81361e-05         -0.65179        0.336771
                       -0.602679       -0.797983      1.44757e-05     3.76638e-05        -0.387748        0.257408     -5.57947e-06    -3.13067e-05
                     5.91217e-06      8.4116e-05        -0.651785        0.336773     -5.02972e-06    -3.38988e-05        -0.166189        0.131524
506000                  0.251398       -0.386345     -4.06367e-05    -6.24572e-05        -0.490251       -0.871582      3.12749e-06      9.5563e-05
                    -4.64892e-05    -3.82912e-05         0.284471      -0.0275943       1.1786e-05     3.79775e-05        -0.619185        0.331591
                       -0.490037       -0.871702      1.13438e-05     3.74431e-05        -0.370301        0.228065     -7.19157e-06    -3.63703e-05
                      1.6052e-06     8.65785e-05         -0.61918        0.331593     -6.46695e-06    -3.92806e-05        -0.166868        0.132966
509200                  0.237384       -0.371063     -4.01949e-05    -6.39903e-05          -0.3829        -0.92379     -1.56239e-06     9.95682e-05
                    -4.68058e-05    -3.64284e-05         0.296418       -0.031722      8.53021e-06     3.78758e-05        -0.586037        0.325024
                       -0.382676       -0.923882      8.05708e-06     3.72834e-05        -0.349524        0.200125     -8.84321e-06    -4.19638e-05
                    -3.07258e-06      8.9135e-05        -0.586032        0.325026      -7.9147e-06    -4.52082e-05        -0.167625         0.13458
512400                  0.224123       -0.354622     -3.96498e-05    -6.55891e-05        -0.283495       -0.958974     -6.73891e-06     0.000103821
                    -4.70457e-05    -3.44203e-05         0.309542      -0.0366845      5.11206e-06     3.78401e-05        -0.552412        0.316993
                        -0.28327        -0.95904      4.60621e-06     3.71946e-05        -0.325597        0.174139     -1.05201e-05    -4.81695e-05
                    -8.16709e-06      9.1784e-05        -0.552407        0.316995     -9.35338e-06    -5.17634e-05        -0.168473        0.136402
515600                  0.211747       -0.337071     -3.89869e-05    -6.72512e-05        -0.193111       -0.981177     -1.24759e-05     0.000108338
                    -4.71884e-05    -3.22584e-05         0.324001      -0.0426894      1.52163e-06     3.78809e-05        -0.518384        0.307419
                        -0.19289        -0.98122      9.81686e-07     3.71883e-05        -0.298816         0.15062     -1.22002e-05     -5.5087e-05
                    -1.37315e-05     9.45214e-05        -0.518378         0.30742     -1.07546e-05    -5.90442e-05        -0.169432        0.138472
518800                  0.200382       -0.318477     -3.81907e-05    -6.89719e-05        -0.111817       -0.993729      -1.8862e-05     0.000113137
                    -4.72096e-05    -2.99352e-05         0.339976      -0.0500075     -2.25153e-06     3.80104e-05        -0.484035        0.296228
                       -0.111604       -0.993753      -2.8264e-06     3.72775e-05        -0.269586        0.130017     -1.38503e-05    -6.28365e-05
                    -1.98276e-05     9.73399e-05        -0.484029         0.29623     -1.20776e-05     -6.7168e-05        -0.170522        0.140846
522000                  0.190151       -0.298925     -3.72443e-05    -7.07443e-05       -0.0391281       -0.999234      -2.6004e-05     0.000118231
                    -4.70806e-05    -2.74453e-05         0.357668      -0.0589958     -6.21835e-06     3.82425e-05        -0.449459        0.283352
                      -0.0389259       -0.999242     -6.82824e-06     3.74773e-05        -0.238403        0.112685     -1.54206e-05    -7.15645e-05
                    -2.65272e-05     0.000100227        -0.449452        0.283353     -1.32636e-05    -7.62769e-05        -0.171775        0.143596
525200                  0.181163       -0.278521     -3.61295e-05    -7.25584e-05        0.0257034        -0.99967     -3.40314e-05     0.000123632
                    -4.67677e-05    -2.47867e-05         0.377297      -0.0701293     -1.03902e-05     3.85932e-05        -0.414758        0.268725
                        0.025894       -0.999665     -1.10342e-05      3.7805e-05         -0.20582       0.0988661      -1.6837e-05    -8.14504e-05
                    -3.39145e-05     0.000103164        -0.414752        0.268726     -1.42285e-05    -8.65422e-05        -0.173227        0.146818
528400                  0.173518       -0.257383     -3.48278e-05    -7.44005e-05        0.0835099       -0.996507     -4.31023e-05     0.000129344
                    -4.62323e-05    -2.19622e-05         0.399089      -0.0840465     -1.47787e-05     3.90807e-05        -0.380045        0.252289
                       0.0836883       -0.996492     -1.54548e-05     3.82802e-05        -0.172424       0.0886769     -1.79896e-05    -9.27144e-05
                    -4.20878e-05     0.000106124        -0.380039         0.25229     -1.48505e-05    -9.81723e-05        -0.174932        0.150645
531600                  0.167298       -0.235646     -3.33204e-05     -7.6253e-05         0.135112        -0.99083     -5.34111e-05     0.000135364
                    -4.54305e-05    -1.89811e-05         0.423251       -0.101613     -1.93957e-05     3.97262e-05        -0.345442        0.233994
                        0.135279       -0.990808     -2.01002e-05     3.89256e-05        -0.138793       0.0821114     -1.87142e-05    -0.000105627
                    -5.11623e-05     0.000109064        -0.345435        0.233995     -1.49534e-05    -0.000111419         -0.17696        0.155266
534800                  0.162568       -0.213457     -3.15889e-05    -7.80933e-05         0.181272       -0.983433     -6.51977e-05     0.000141666
                    -4.43141e-05    -1.58618e-05         0.449915        -0.12401     -2.42533e-05     4.05539e-05        -0.311078          0.2138
                        0.181427       -0.983404     -2.49803e-05     3.97668e-05        -0.105474       0.0790492     -1.87644e-05    -0.000120521
                    -6.12732e-05     0.000111926        -0.311072          0.2138     -1.42796e-05    -0.000126587        -0.179412        0.160956
538000                   0.15937       -0.190969     -2.96168e-05    -7.98933e-05         0.222674       -0.974893     -7.87599e-05     0.000148199
                    -4.28318e-05     -1.2634e-05         0.479031       -0.152853     -2.93629e-05     4.15915e-05        -0.277093        0.191677
                        0.222818        -0.97486     -3.01042e-05     4.08333e-05       -0.0729546       0.0792734     -1.77682e-05    -0.000137798
                    -7.25788e-05     0.000114628        -0.277088        0.191676     -1.24504e-05    -0.000144037        -0.182436        0.168133
541200                  0.157729       -0.168343     -2.73907e-05    -8.16194e-05         0.259919       -0.965631     -9.44691e-05     0.000154866
                    -4.09313e-05    -9.34154e-06         0.510159       -0.190338     -3.47357e-05      4.2871e-05        -0.243632        0.167606
                        0.260052       -0.965595     -3.54798e-05     4.21583e-05       -0.0416455       0.0824929     -1.51595e-05    -0.000157938
                    -8.52636e-05     0.000117051        -0.243627        0.167606     -8.90469e-06    -0.000164188        -0.186253        0.177465
544400                  0.157643       -0.145739     -2.49016e-05    -8.32324e-05         0.293529        -0.95595     -0.000112788     0.000161495
                    -3.85632e-05    -6.04491e-06         0.542079       -0.239386     -4.03815e-05     4.44288e-05        -0.210847        0.141585
                        0.293652       -0.955912     -4.11131e-05     4.37799e-05       -0.0118738       0.0883666     -1.00707e-05    -0.000181481
                    -9.95411e-05     0.000119029        -0.210842        0.141584     -2.80599e-06    -0.000187496        -0.191215        0.190093
547600                  0.159092       -0.123315     -2.21472e-05    -8.46875e-05         0.323957       -0.946072     -0.000134293       0.0001678
                    -3.56858e-05     -2.8227e-06         0.572089       -0.303675     -4.63088e-05     4.63067e-05        -0.178893        0.113623
                         0.32407       -0.946033     -4.70075e-05      4.5741e-05          0.01612       0.0965272     -1.16883e-06    -0.000208968
                    -0.000115655     0.000120331        -0.178888        0.113622      7.09461e-06     -0.00021439        -0.197902        0.208125
550800                  0.162033       -0.101224     -1.91335e-05    -8.59358e-05         0.351454       -0.935789     -0.000159691     0.000173307
                    -3.22719e-05     2.28232e-07         0.594867       -0.387261     -5.25231e-05     4.85523e-05        -0.147928       0.0837467
                        0.351571       -0.935782     -5.31631e-05     4.80899e-05        0.0421771        0.106601      1.35824e-05    -0.000240768
                    -0.000133875     0.000120629        -0.147924       0.0837459      2.26499e-05    -0.000245123        -0.207324        0.235941
554000                  0.166405      -0.0796066     -1.58773e-05     -8.6926e-05         0.372446       -0.915685     -0.000189835     0.000177247
                    -2.83158e-05     2.99507e-06         0.600932       -0.493093     -5.90267e-05     5.12197e-05        -0.118113       0.0519984
                        0.372554       -0.915675     -5.95751e-05     5.08808e-05        0.0662118        0.118226      3.72208e-05    -0.000276675
                    -0.000154489     0.000119469         -0.11811       0.0519977      4.65448e-05    -0.000279418        -0.221227        0.284325
557200                   0.17213      -0.0585945      -1.2407e-05    -8.76067e-05         0.391066        -0.89665     -0.000225693     0.000178387
                     -2.3841e-05      5.3546e-06         0.575671       -0.619357     -6.58169e-05     5.43703e-05       -0.0896055       0.0184376
                        0.391165       -0.896638     -6.62323e-05      5.4174e-05        0.0882008        0.131063      7.40012e-05     -0.00031503
                    -0.000177775     0.000116218       -0.0896035       0.0184369      8.24488e-05    -0.000315774        -0.241019        0.388327
560400                  0.179114      -0.0383031     -8.76393e-06    -8.79297e-05         0.407647       -0.878651     -0.000268247     0.000174777
                    -1.89057e-05     7.18216e-06         0.501901       -0.753303     -7.28841e-05     5.80728e-05       -0.0625607      -0.0168594
                        0.407739       -0.878638      -7.3116e-05      5.8036e-05         0.108171        0.144802      0.000129021    -0.000351133
                    -0.000203956     0.000110008       -0.0625596      -0.0168598      0.000134726    -0.000350224        -0.211395        0.741483
563600                  0.187256      -0.0188319     -5.00194e-06     -8.7854e-05         0.422469       -0.861645     -0.000318201     0.000163403
                    -1.36055e-05     8.36377e-06         0.370258       -0.866898     -8.02103e-05     6.24041e-05        -0.037128       -0.053799
                        0.422554       -0.861631     -8.01968e-05      6.2539e-05         0.126189        0.159171      0.000206035    -0.000375166
                      -0.0002331     9.96692e-05       -0.0371278       -0.053799      0.000206849    -0.000374717         0.996187      -0.0872453
564000                  0.188349        -0.01646     -4.52646e-06    -8.78148e-05          0.42421       -0.859587     -0.000324971     0.000161232
                    -1.29235e-05     8.46123e-06         0.350097       -0.877857     -8.11429e-05     6.29939e-05       -0.0340694      -0.0585266
                        0.424294       -0.859573     -8.10939e-05     6.31508e-05         0.128308        0.160999      0.000217183    -0.000376599
                    -0.000236944     9.80144e-05       -0.0340694      -0.0585266      0.000217283    -0.000376485         0.899684       -0.303561
566800                  0.196441    -0.000263764     -1.18608e-06    -8.73493e-05         0.435767       -0.845581      -0.00037531     0.000139833
                    -8.07078e-06     8.80961e-06         0.194433       -0.925336     -8.77658e-05     6.74491e-05       -0.0134488      -0.0922712
                        0.435845       -0.845567     -8.74332e-05     6.77609e-05         0.142346        0.173934      0.000302019    -0.000371935
                    -0.000264961     8.36727e-05       -0.0134497      -0.0922707       0.00029743     -0.00037655         0.124418       -0.208663
570000                  0.206555       0.0173358       2.6103e-06    -8.63998e-05          0.44774       -0.830404     -0.000437093     9.81389e-05
                    -2.45807e-06      8.4666e-06        0.0123562       -0.910764     -9.55066e-05        7.33e-05       0.00834526        -0.13215
                        0.447812        -0.83039      -9.4768e-05     7.37833e-05         0.156756         0.18889        0.0004007     -0.00032754
