! TOUCHSTONE file generated by CST MICROWAVE STUDIO
! Date and time: Mon Oct 20 08:27:26 2025
! Project name: Teste_Macro_Metasurface_Nanopilar.cst
! Parameters = {H=600; L_x=115; L_y=85; Lambda=1064; Max_L=200; Min_L=70; PathPara=1; Phi=0; Step_L=10; Theta=0; p=520; phaseX=180; phaseY=0}
! Header version: 2018
! Port assignment regex: !\s*Touchstone port\s*([0-9]+)\s*=\s*(CST MWS port|CST DS port)\s*([0-9]+|Zmin|Zmax)\s*\(\"(.*)\"\)(\s*mode\s*([0-9]+))?.*
! Touchstone port assignment:
! Touchstone port 1 = CST MWS port Zmax ("") mode 1
! Touchstone port 2 = CST MWS port Zmax ("") mode 2
! Touchstone port 3 = CST MWS port Zmin ("") mode 1
! Touchstone port 4 = CST MWS port Zmin ("") mode 2
! S-Parameters are not renormalized. Each port impedance will be approximated by the real part at minimum frequency. The values are described via the [Reference] keyword.
! Default impedance is overridden by [Reference]
[Version] 2.0
# GHz S RI R 376.73
[Number of Ports] 4
[Reference]
376.73 376.73 259.888 259.888 
[Number of Frequencies] 52
[Network Data]
474000                 -0.500094       -0.029749      4.97708e-06     1.02006e-05        -0.533745       -0.659187     -4.01617e-06      4.0388e-06
                     4.66362e-06     1.05934e-05        0.0918049        0.231632     -4.91432e-07     3.03515e-06        -0.945617       -0.183605
                       -0.533744       -0.659187      5.99354e-07     2.22262e-06        -0.101681        0.499499     -6.63303e-06     2.40634e-06
                     -3.5787e-06     5.61708e-06        -0.945619       -0.183605      -6.3275e-06     2.56092e-06        -0.177415        0.183604
477200                 -0.512669      -0.0194494       5.8642e-07      1.0173e-05        -0.527106       -0.661898     -7.09569e-06     4.10132e-06
                     5.20939e-07     1.02311e-05        0.0627429        0.198991      9.59816e-09     4.21825e-06        -0.959839       -0.209119
                       -0.527105       -0.661898      1.06128e-06     3.38563e-06        -0.107142        0.503722     -9.10552e-06     3.37988e-07
                    -6.62834e-06       5.722e-06        -0.959841       -0.209119     -8.72323e-06     4.51626e-07         -0.17644        0.178198
480400                 -0.526015     -0.00790273     -4.17108e-06     1.01822e-05        -0.519981       -0.664723     -1.03739e-05     4.15116e-06
                    -3.97173e-06     9.87103e-06        0.0359217        0.165667      5.43756e-07     5.48006e-06        -0.971553       -0.236821
                       -0.519979       -0.664723      1.55409e-06     4.62624e-06        -0.112976        0.508082     -1.17314e-05    -1.77587e-06
                    -9.87561e-06     5.81674e-06        -0.971554        -0.23682     -1.12728e-05    -1.70706e-06        -0.175403        0.172462
483600                 -0.540176      0.00509381     -9.34282e-06     1.02383e-05        -0.512315       -0.667666     -1.38704e-05     4.18532e-06
                    -8.86024e-06     9.51786e-06        0.0113115        0.131844      1.11444e-06     6.82869e-06        -0.964898       -0.262625
                       -0.512313       -0.667666      2.08097e-06     5.95249e-06        -0.119217        0.512583     -1.45226e-05    -3.93367e-06
                    -1.33402e-05     5.89853e-06        -0.964898       -0.262624     -1.39888e-05    -3.91375e-06        -0.174297        0.166365
486800                 -0.555186       0.0197833     -1.49846e-05     1.03541e-05        -0.504046       -0.670729     -1.76078e-05     4.20016e-06
                    -1.41988e-05     9.17813e-06       -0.0111328        0.097694      1.72553e-06     8.27343e-06        -0.956876       -0.290497
                       -0.504045       -0.670729      2.64559e-06     7.37355e-06        -0.125906        0.517223     -1.74925e-05    -6.13316e-06
                    -1.70446e-05     5.96396e-06        -0.956876       -0.290496     -1.68848e-05    -6.16636e-06        -0.173116        0.159873
490000                 -0.571072       0.0364583     -2.11625e-05     1.05464e-05        -0.495104       -0.673914     -2.16114e-05     4.19121e-06
                    -2.00517e-05     8.86071e-06         -0.03147       0.0633765      2.38147e-06     9.82493e-06        -0.947191       -0.320671
                       -0.495103       -0.673915      3.25216e-06     8.89998e-06        -0.133085        0.522002     -2.06552e-05    -8.37128e-06
                    -2.10142e-05     6.00881e-06        -0.947191        -0.32067     -1.99757e-05    -8.46196e-06        -0.171851        0.152945
493200                 -0.587838       0.0554719     -2.79555e-05     1.08369e-05        -0.485405       -0.677222     -2.59106e-05     4.15298e-06
                    -2.64962e-05     8.57771e-06       -0.0497697       0.0290376      3.08739e-06     1.14955e-05        -0.935468        -0.35341
                       -0.485403       -0.677222      3.90552e-06     1.05439e-05        -0.140806        0.526917     -2.40265e-05     -1.0644e-05
                    -2.52783e-05     6.02789e-06        -0.935469        -0.35341     -2.32776e-05    -1.07966e-05        -0.170494        0.145535
496400                 -0.605457       0.0772511     -3.54584e-05     1.12543e-05        -0.474852       -0.680649     -3.05389e-05     4.07869e-06
                    -3.36253e-05     8.34571e-06       -0.0661107     -0.00518996      3.84922e-06     1.32993e-05        -0.921235       -0.389006
                        -0.47485       -0.680649      4.61131e-06     1.23195e-05        -0.149122        0.531961     -2.76232e-05    -1.29461e-05
                    -2.98706e-05     6.01473e-06        -0.921236       -0.389005     -2.68083e-05    -1.31651e-05        -0.169035        0.137593
499600                  -0.62385        0.102313     -4.37864e-05     1.18365e-05        -0.463333       -0.684187     -3.55353e-05     3.95993e-06
                    -4.15525e-05     8.18762e-06       -0.0805786      -0.0391875      4.67389e-06     1.52531e-05        -0.903886       -0.427772
                       -0.463331       -0.684188      5.37611e-06     1.42433e-05        -0.158097        0.537125     -3.14637e-05    -1.52709e-05
                    -3.48301e-05     5.96125e-06        -0.903887       -0.427772      -3.0587e-05    -1.55608e-05         -0.16746        0.129057
502800                 -0.642864        0.131282       -5.308e-05     1.26343e-05        -0.450713       -0.687826     -4.09449e-05     3.78616e-06
                    -5.04173e-05     8.13532e-06        -0.093264      -0.0728497       5.5695e-06     1.73763e-05        -0.882646       -0.470039
                       -0.450711       -0.687826      6.20764e-06     1.63345e-05          -0.1678        0.542396     -3.55679e-05      -1.761e-05
                    -4.02021e-05     5.85731e-06        -0.882646       -0.470039     -3.46346e-05    -1.79752e-05        -0.165756         0.11986
506000                 -0.662223        0.164909     -6.35129e-05     1.37168e-05        -0.436835       -0.691545     -4.68205e-05     3.54416e-06
                     -6.0393e-05     8.23359e-06        -0.104261       -0.106084      6.54562e-06     1.96919e-05        -0.856512       -0.516127
                       -0.436833       -0.691545      7.11502e-06      1.8616e-05         -0.17831        0.547753     -3.99574e-05    -1.99531e-05
                    -4.60395e-05     5.69008e-06        -0.856512       -0.516127     -3.89736e-05    -2.03975e-05        -0.163906        0.109921
509200                 -0.681475        0.204091     -7.53014e-05     1.51793e-05        -0.421512       -0.695312     -5.32242e-05     3.21717e-06
                    -7.16971e-05     8.54616e-06        -0.113665       -0.138811      7.61361e-06     2.22273e-05        -0.824194       -0.566307
                        -0.42151       -0.695312      8.10915e-06     2.11151e-05        -0.189715        0.553169     -4.46554e-05    -2.22874e-05
                    -5.24046e-05     5.44325e-06        -0.824194       -0.566307     -4.36285e-05    -2.28146e-05        -0.161891       0.0991468
512400                 -0.699904        0.249877     -8.87181e-05     1.71554e-05        -0.404519       -0.699081     -6.02292e-05     2.78381e-06
                    -8.46067e-05     9.16504e-06        -0.121573       -0.170963      8.78708e-06     2.50155e-05        -0.784031       -0.620722
                       -0.404516       -0.699081      9.20307e-06     2.38644e-05        -0.202115        0.558607      -4.9687e-05    -2.45969e-05
                    -5.93711e-05     5.09589e-06        -0.784031       -0.620722     -4.86256e-05    -2.52099e-05        -0.159688       0.0874274
515600                 -0.716403        0.303453      -0.00010411     1.98353e-05        -0.385584       -0.702782      -6.7923e-05     2.21656e-06
                    -9.94784e-05     1.02253e-05         -0.12808       -0.202481      1.00825e-05     2.80962e-05        -0.733908       -0.679249
                       -0.385581       -0.702782      1.04126e-05     2.69035e-05        -0.215621        0.564019     -5.50786e-05    -2.68626e-05
                    -6.70269e-05     4.62094e-06        -0.733908       -0.679249     -5.39929e-05    -2.75633e-05        -0.157269       0.0746327
518800                 -0.729309        0.366089     -0.000121925     2.34964e-05         -0.36438       -0.706312     -7.64103e-05     1.47964e-06
                    -0.000116779     1.19291e-05        -0.133282       -0.233319      1.15198e-05      3.1518e-05          -0.6712       -0.741276
                       -0.364377       -0.706312      1.17571e-05     3.02808e-05        -0.230359        0.569338     -6.08586e-05     -2.9061e-05
                    -7.54774e-05     3.98307e-06          -0.6712       -0.741276     -5.97603e-05    -2.98502e-05        -0.154601       0.0606076
522000                 -0.736179        0.438992     -0.000142746     2.85515e-05        -0.340508        -0.70952     -8.58177e-05     5.26062e-07
                    -0.000137126     1.45864e-05        -0.137269        -0.26344      1.31238e-05     3.53407e-05        -0.592801       -0.805349
                       -0.340504        -0.70952      1.32605e-05     3.40559e-05        -0.246468        0.574481     -6.70567e-05    -3.11639e-05
                    -8.48503e-05     3.13569e-06        -0.592801       -0.805349     -6.59591e-05    -3.20405e-05        -0.151644       0.0451658
525200                 -0.733549           0.523     -0.000167339     3.56318e-05        -0.313478       -0.712187     -9.62996e-05    -7.06577e-07
                    -0.000161356     1.86847e-05        -0.140132       -0.292814      1.49252e-05     3.96394e-05        -0.495362       -0.868686
                       -0.313474       -0.712187      1.49528e-05     3.83038e-05        -0.264102        0.579334     -7.37039e-05    -3.31373e-05
                     -9.5301e-05     2.01661e-06        -0.495362       -0.868687     -7.26218e-05    -3.40982e-05        -0.148348       0.0280812
528400                 -0.716732         0.61804     -0.000196719     4.57313e-05         -0.28269       -0.713989     -0.000108046    -2.30228e-06
                     -0.00019061     2.50157e-05        -0.141957       -0.321418      1.69628e-05     4.45087e-05        -0.375939       -0.926644
                       -0.282686       -0.713989      1.68718e-05     4.31189e-05        -0.283431        0.583755     -8.08317e-05    -3.49406e-05
                    -0.000107021     5.41817e-07        -0.375939       -0.926645     -7.97817e-05    -3.59798e-05        -0.144652      0.00907702
531600                 -0.679852         0.72226     -0.000232224      6.0467e-05        -0.247405       -0.714447     -0.000121291    -4.37569e-06
                    -0.000226471     3.49116e-05        -0.142824       -0.349238      1.92864e-05     5.00704e-05        -0.233232       -0.972421
                       -0.247401       -0.714447      1.90665e-05     4.86232e-05        -0.304637        0.587555      -8.8472e-05    -3.65252e-05
                    -0.000120249    -1.40389e-06        -0.233231       -0.972421     -8.74718e-05     -3.7633e-05        -0.140479      -0.0121895
534800                 -0.595841        0.803102     -0.000275575     8.25679e-05        -0.206718       -0.712848     -0.000136332    -7.08585e-06
                    -0.000271136       5.071e-05        -0.142814       -0.376264      2.19607e-05     5.64835e-05       -0.0693212       -0.997594
                       -0.206714       -0.712847      2.16009e-05      5.4976e-05        -0.327917        0.590497     -9.66556e-05    -3.78337e-05
                    -0.000135282    -3.98094e-06       -0.0693203       -0.997594     -9.57243e-05    -3.89962e-05         -0.13573      -0.0361476
538000                 -0.486758        0.873537     -0.000328791     0.000116815        -0.159529       -0.708116     -0.000153542    -1.06573e-05
                    -0.000327588     7.67078e-05           -0.142       -0.402493      2.50715e-05     6.39596e-05         0.108892       -0.994054
                       -0.159525       -0.708115      2.45603e-05     6.23898e-05         -0.35347        0.592271     -0.000105411    -3.87982e-05
                      -0.0001525    -7.41683e-06         0.108893       -0.994053     -0.000104568     -3.9996e-05        -0.130278      -0.0633429
541200                 -0.358105        0.933681     -0.000393529     0.000171877        -0.104535       -0.698622       -0.0001734    -1.54133e-05
                     -0.00039947     0.000121203        -0.140453       -0.427924      2.87352e-05     7.27869e-05         0.290004       -0.957025
                       -0.104531       -0.698621      2.80617e-05     7.11547e-05        -0.381491        0.592489     -0.000114764    -3.93393e-05
                    -0.000172387    -1.20406e-05         0.290005       -0.957025     -0.000114028    -4.05469e-05        -0.123957      -0.0944785
544400                 -0.212723        0.977112     -0.000468287     0.000263667       -0.0402765        -0.68187     -0.000196525    -2.18304e-05
                    -0.000489313     0.000200893        -0.138237       -0.452563      3.31134e-05     8.33681e-05         0.460994       -0.887403
                      -0.0402719       -0.681868      3.22687e-05     8.16771e-05        -0.412156        0.590656     -0.000124732    -3.93649e-05
                     -0.00019557    -1.83389e-05         0.460995       -0.887403      -0.00012412     -4.0549e-05        -0.116543       -0.130477
547600                -0.0567541        0.998388     -0.000538543      0.00041959        0.0346822       -0.654019     -0.000223723    -3.06279e-05
                    -0.000589552     0.000349165        -0.135416       -0.476416      3.84379e-05     9.62836e-05         0.611275       -0.791419
                       0.0346866       -0.654017      3.74187e-05     9.45444e-05        -0.445593         0.58616     -0.000135324    -3.87688e-05
                    -0.000222865    -2.70503e-05         0.611275       -0.791418     -0.000134852    -3.98881e-05        -0.107728       -0.172575
550800                   0.10127        0.994859     -0.000549074     0.000671231         0.121237       -0.609193     -0.000256048     -4.2924e-05
                    -0.000647469     0.000619558        -0.132047       -0.499495      4.50524e-05     0.000112402         0.735216       -0.677833
                        0.121241        -0.60919      4.38686e-05     0.000110639        -0.481843        0.578243     -0.000146538    -3.74306e-05
                    -0.000255337     -3.9327e-05         0.735217       -0.677832     -0.000146212    -3.84343e-05       -0.0970802       -0.222462
554000                  0.252546        0.967585     -0.000375761     0.000981256         0.218514       -0.538609     -0.000294868    -6.05116e-05
                    -0.000495595      0.00100466        -0.128183       -0.521812      5.34898e-05     0.000133081         0.831963       -0.554831
                        0.218518       -0.538606      5.21817e-05     0.000131348         -0.52081        0.565996     -0.000158352    -3.52152e-05
                    -0.000294362    -5.70245e-05         0.831963       -0.554831     -0.000158173    -3.60433e-05       -0.0839693       -0.282522
557200                  0.368755        0.870105      2.29544e-05       0.0011256         0.321215       -0.429978     -0.000341904    -8.63663e-05
                    -2.48101e-05      0.00120383        -0.123876       -0.543382      6.46235e-05     0.000160579         0.897161       -0.425295
                        0.321218       -0.429974      6.33017e-05      0.00015899        -0.562179        0.548356     -0.000170722    -3.19745e-05
                    -0.000341647    -8.32325e-05         0.897161       -0.425294     -0.000170676    -3.25575e-05       -0.0674457       -0.356214
560400                  0.447592        0.753978      0.000381972     0.000974191         0.414751       -0.268797       -0.0003991    -0.000125603
                     0.000389547      0.00101238        -0.119171       -0.564222      7.99898e-05     0.000198929         0.839607       -0.265914
                        0.414752       -0.268795      7.89385e-05     0.000197745        -0.605325        0.524136     -0.000183574    -2.75492e-05
                    -0.000399064    -0.000123275         0.839607       -0.265914     -0.000183634    -2.78102e-05       -0.0460081       -0.448768
563600                   0.49447        0.638279      0.000533837     0.000728082         0.469064      -0.0454599     -0.000467889    -0.000187292
                     0.000535571     0.000730354        -0.114112       -0.584348      0.000102563     0.000256138         0.769564       -0.138656
                        0.469064      -0.0454597      0.000102545     0.000256001          -0.6492        0.492096     -0.000196801    -2.17742e-05
                     -0.00046777    -0.000186584         0.769564       -0.138656     -0.000196915    -2.16313e-05        -0.017144       -0.568474
564000                  0.498403         0.62428      0.000541494     0.000699808         0.470916      -0.0133975     -0.000477283    -0.000197284
                     0.000541219     0.000699853        -0.113456       -0.586815      0.000106151     0.000265329         0.760388       -0.124762
                        0.470917      -0.0133977       0.00010637     0.000265411        -0.654663        0.487482     -0.000198474    -2.09492e-05
                    -0.000477102     -0.00019686         0.760388       -0.124762      -0.00019859    -2.07499e-05       -0.0128219       -0.585951
566800                  0.516049        0.530745      0.000556077     0.000531935         0.438871        0.227459     -0.000546333    -0.000287679
                     0.000543084     0.000525269        -0.108737       -0.603781      0.000138944     0.000350636         0.695368      -0.0384689
                        0.438872        0.227455      0.000142297     0.000353423        -0.692223        0.451088     -0.000210252    -1.44853e-05
                    -0.000544968    -0.000289912         0.695368       -0.038469     -0.000210344    -1.38565e-05        0.0236707       -0.729301
570000                  0.519338        0.435074       0.00053103     0.000399098          0.28689        0.496448       -0.0006196    -0.000454105
                     0.000509566     0.000393734        -0.103085       -0.622538      0.000207232     0.000536451         0.621948       0.0398916
                        0.286896        0.496442      0.000223349     0.000549508        -0.732217        0.400274     -0.000223729    -5.52923e-06
