! TOUCHSTONE file generated by CST MICROWAVE STUDIO
! Date and time: Mon Oct 20 08:27:37 2025
! Project name: Teste_Macro_Metasurface_Nanopilar.cst
! Parameters = {H=600; L_x=145; L_y=160; Lambda=1064; Max_L=200; Min_L=70; PathPara=1; Phi=0; Step_L=10; Theta=0; p=520; phaseX=180; phaseY=0}
! Header version: 2018
! Port assignment regex: !\s*Touchstone port\s*([0-9]+)\s*=\s*(CST MWS port|CST DS port)\s*([0-9]+|Zmin|Zmax)\s*\(\"(.*)\"\)(\s*mode\s*([0-9]+))?.*
! Touchstone port assignment:
! Touchstone port 1 = CST MWS port Zmax ("") mode 1
! Touchstone port 2 = CST MWS port Zmax ("") mode 2
! Touchstone port 3 = CST MWS port Zmin ("") mode 1
! Touchstone port 4 = CST MWS port Zmin ("") mode 2
! S-Parameters are not renormalized. Each port impedance will be approximated by the real part at minimum frequency. The values are described via the [Reference] keyword.
! Default impedance is overridden by [Reference]
[Version] 2.0
# GHz S RI R 376.73
[Number of Ports] 4
[Reference]
376.73 376.73 259.888 259.888 
[Number of Frequencies] 52
[Network Data]
474000                 -0.159693      -0.0582615     -4.07934e-06     -2.7043e-05          0.29498        0.912712     -9.29039e-05    -2.85754e-05
                    -1.17041e-06     -5.6312e-05         0.101134       0.0048541     -8.39187e-05    -5.17977e-06        -0.543421        0.820419
                         0.29498        0.912712     -0.000106946      2.4817e-05       -0.0999883        0.150408     -2.67713e-05     4.36294e-05
                    -9.29388e-05    -2.85638e-05        -0.543451        0.820406     -2.67675e-05     4.36342e-05        0.0406947       0.0845385
477200                 -0.158467      -0.0597812     -4.94542e-06    -2.83887e-05         0.318244        0.904883     -9.17373e-05    -2.57446e-05
                    -1.49451e-06    -5.66952e-05         0.104453       0.0129624     -8.33254e-05    -7.44465e-06        -0.520564        0.818962
                        0.318244        0.904883     -0.000106753     2.18161e-05       -0.0985495        0.148865     -2.76651e-05     4.52534e-05
                     -9.1775e-05    -2.57335e-05        -0.520595         0.81895     -2.76605e-05     4.52606e-05        0.0432303       0.0909189
480400                 -0.157169      -0.0613774     -5.84275e-06    -2.97953e-05         0.342373        0.896033     -9.04952e-05    -2.27886e-05
                    -1.83178e-06    -5.70951e-05         0.108188       0.0215823     -8.27021e-05    -9.79426e-06        -0.496861        0.816484
                        0.342373        0.896033     -0.000106539     1.87014e-05       -0.0970332        0.147217     -2.86035e-05     4.69557e-05
                     -9.0536e-05    -2.27779e-05        -0.496893        0.816472     -2.85983e-05     4.69654e-05        0.0459763       0.0976705
483600                 -0.155793      -0.0630562     -6.77298e-06    -3.12668e-05         0.367382        0.886054     -8.91709e-05    -1.96994e-05
                    -2.18305e-06    -5.75126e-05         0.112406       0.0307563     -8.20467e-05    -1.22334e-05        -0.472329        0.812867
                        0.367382        0.886054     -0.000106301     1.54665e-05       -0.0954333        0.145451       -2.959e-05     4.87421e-05
                    -8.92149e-05    -1.96891e-05        -0.472361        0.812856      -2.9584e-05     4.87546e-05        0.0489578        0.104826
486800                 -0.154332      -0.0648239     -7.73784e-06    -3.28079e-05         0.393283        0.874823     -8.77565e-05    -1.64678e-05
                    -2.54921e-06    -5.79489e-05         0.117181       0.0405298     -8.13567e-05    -1.47672e-05        -0.446996        0.807988
                        0.393283        0.874823     -0.000106037     1.21045e-05       -0.0937429        0.143556     -3.06284e-05     5.06191e-05
                     -8.7804e-05    -1.64579e-05        -0.447029        0.807978     -3.06217e-05     5.06344e-05        0.0522039        0.112421
490000                 -0.152778      -0.0666878     -8.73922e-06    -3.44235e-05         0.420079        0.862205     -8.62436e-05    -1.30843e-05
                    -2.93122e-06    -5.84054e-05         0.122607       0.0509518     -8.06295e-05    -1.74014e-05        -0.420906        0.801717
                        0.420079        0.862205     -0.000105744      8.6077e-06       -0.0919546        0.141518     -3.17229e-05     5.25936e-05
                    -8.62946e-05    -1.30748e-05        -0.420939        0.801707     -3.17153e-05     5.26119e-05        0.0557482        0.120498
493200                 -0.151122      -0.0686558     -9.77909e-06    -3.61191e-05         0.447767        0.848051     -8.46223e-05    -9.53836e-06
                    -3.33013e-06    -5.88835e-05         0.128792       0.0620733     -7.98623e-05    -2.01418e-05        -0.394118        0.793915
                        0.447767        0.848051     -0.000105421     4.96808e-06       -0.0900601        0.139319     -3.28782e-05     5.46735e-05
                    -8.46772e-05    -9.52916e-06        -0.394151        0.793906     -3.28697e-05      5.4695e-05        0.0596301          0.1291
496400                 -0.149354      -0.0707368     -1.08596e-05    -3.79007e-05          0.47633        0.832199     -8.28819e-05    -5.81842e-06
                    -3.74708e-06    -5.93848e-05         0.135869       0.0739476     -7.90519e-05     -2.2995e-05        -0.366709        0.784443
                         0.47633        0.832199     -0.000105062     1.17687e-06       -0.0880503         0.13694     -3.40994e-05     5.68674e-05
                    -8.29408e-05    -5.80951e-06        -0.366743        0.784435     -3.40899e-05     5.68924e-05        0.0638955         0.13828
499600                 -0.147461      -0.0729406      -1.1983e-05    -3.97749e-05         0.505738        0.814471     -8.10099e-05    -1.91199e-06
                    -4.18332e-06    -5.99109e-05         0.143996       0.0866275     -7.81948e-05     -2.5968e-05        -0.338778        0.773157
                        0.505738        0.814471     -0.000104666    -2.77541e-06       -0.0859151        0.134361     -3.53924e-05     5.91851e-05
                    -8.10731e-05    -1.90332e-06        -0.338813        0.773149     -3.53819e-05     5.92137e-05        0.0685988        0.148094
502800                 -0.145432      -0.0752784     -1.31516e-05    -4.17489e-05         0.535946        0.794673     -7.89924e-05     2.19461e-06
                    -4.64022e-06    -6.04638e-05         0.153366        0.100164     -7.72872e-05    -2.90685e-05        -0.310447        0.759913
                        0.535946        0.794673     -0.000104228    -6.89904e-06       -0.0836434        0.131553     -3.67637e-05     6.16371e-05
                    -7.90602e-05     2.20311e-06        -0.310482        0.759907     -3.67521e-05     6.16697e-05        0.0738043        0.158609
506000                  -0.14325      -0.0777624     -1.43682e-05     -4.3831e-05         0.566885        0.772595     -7.68135e-05     6.51636e-06
                    -5.11927e-06    -6.10455e-05         0.164213          0.1146     -7.63247e-05    -3.23047e-05        -0.281863        0.744573
                        0.566885        0.772595     -0.000103743    -1.12051e-05       -0.0812228        0.128488     -3.82205e-05     6.42357e-05
                    -7.68862e-05     6.52476e-06        -0.281898        0.744567     -3.82077e-05     6.42724e-05        0.0795889        0.169898
509200                 -0.140898      -0.0804066     -1.56353e-05    -4.60299e-05         0.598462         0.74801      -7.4455e-05     1.10696e-05
                    -5.62212e-06    -6.16585e-05          0.17682        0.129967     -7.53027e-05    -3.56857e-05        -0.253198        0.727005
                        0.598462         0.74801     -0.000103206    -1.57058e-05       -0.0786399        0.125129     -3.97712e-05     6.69942e-05
                     -7.4533e-05      1.1078e-05        -0.253234           0.727     -3.97572e-05     6.70355e-05        0.0860446        0.182045
512400                 -0.138355      -0.0832266     -1.69559e-05    -4.83558e-05         0.630554        0.720678     -7.18964e-05     1.58723e-05
                    -6.15059e-06    -6.23051e-05         0.191536        0.146271     -7.42158e-05    -3.92212e-05        -0.224655        0.707089
                        0.630554        0.720678     -0.000102611    -2.04143e-05       -0.0758799        0.121433     -4.14252e-05      6.9928e-05
                    -7.19799e-05     1.58808e-05        -0.224692        0.707086     -4.14097e-05     6.99741e-05        0.0932825        0.195145
515600                 -0.135599      -0.0862402     -1.83332e-05    -5.08195e-05         0.662999        0.690345     -6.91136e-05      2.0944e-05
                    -6.70666e-06    -6.29884e-05         0.208781        0.163483     -7.30581e-05     -4.2922e-05        -0.196463        0.684726
                        0.662999        0.690345     -0.000101953    -2.53448e-05       -0.0729267        0.117349     -4.31929e-05     7.30543e-05
                    -6.92031e-05     2.09527e-05        -0.196499        0.684724     -4.31759e-05     7.31056e-05         0.101438        0.209306
518800                 -0.132601      -0.0894675     -1.97704e-05    -5.34336e-05         0.695594        0.656746     -6.60793e-05     2.63063e-05
                    -7.29256e-06    -6.37115e-05          0.22907        0.181508      -7.1823e-05    -4.67998e-05        -0.168878        0.659837
                        0.695594        0.656746     -0.000101224    -3.05131e-05       -0.0697629        0.112816     -4.50867e-05     7.63926e-05
                    -6.61751e-05     2.63154e-05        -0.168914        0.659837     -4.50681e-05     7.64496e-05         0.110677        0.224653
522000                 -0.129328      -0.0929314     -2.12709e-05     -5.6212e-05         0.728087        0.619611     -6.27616e-05     3.19828e-05
                    -7.91074e-06    -6.44779e-05         0.253021        0.200159     -7.05032e-05    -5.08673e-05         -0.14218        0.632376
                        0.728087        0.619611     -0.000100414    -3.59363e-05       -0.0663701        0.107759     -4.71204e-05     7.99653e-05
                    -6.28644e-05     3.19925e-05        -0.142217        0.632377        -4.71e-05     8.00285e-05         0.121205        0.241325
525200                 -0.125744      -0.0966582     -2.28385e-05    -5.91702e-05         0.760165         0.57867     -5.91237e-05     3.79992e-05
                    -8.56392e-06    -6.52917e-05          0.28137        0.219101     -6.90903e-05    -5.51386e-05        -0.116675        0.602331
                        0.760165         0.57867     -9.95158e-05    -4.16331e-05       -0.0627296        0.102086     -4.93101e-05     8.37979e-05
                    -5.92338e-05     3.80098e-05        -0.116711        0.602334     -4.92878e-05     8.38678e-05         0.133277        0.259482
528400                   -0.1218       -0.100678     -2.44769e-05     -6.2326e-05         0.791453        0.533663     -5.51223e-05      4.4384e-05
                    -9.25515e-06    -6.61574e-05         0.314974         0.23778      -6.7575e-05    -5.96292e-05       -0.0926797        0.569736
                        0.791453        0.533663     -9.85173e-05    -4.76241e-05       -0.0588227       0.0956837     -5.16745e-05     8.79199e-05
                    -5.52405e-05     4.43957e-05       -0.0927152        0.569741       -5.165e-05     8.79972e-05         0.147216        0.279304
531600                 -0.117443       -0.105025     -2.61901e-05    -6.56992e-05         0.821503         0.48435      -5.0707e-05     5.11679e-05
                    -9.98784e-06    -6.70801e-05         0.354795        0.255323     -6.59465e-05     -6.4356e-05       -0.0705244         0.53467
                        0.821503         0.48435     -9.74062e-05    -5.39318e-05        -0.054633        0.088412     -5.42352e-05     9.23652e-05
                    -5.08338e-05     5.11811e-05       -0.0705593        0.534676     -5.42084e-05     9.24506e-05         0.163428        0.300992
534800                 -0.112606       -0.109739     -2.79823e-05    -6.93126e-05          0.84979        0.430528     -4.58182e-05     5.83846e-05
                    -1.07658e-05    -6.80656e-05         0.401831        0.270406     -6.41929e-05     -6.9338e-05       -0.0505386        0.497265
                         0.84979        0.430528     -9.61683e-05    -6.05812e-05       -0.0501486       0.0800929     -5.70177e-05     9.71735e-05
                    -4.59543e-05     5.83997e-05       -0.0505728        0.497272     -5.69884e-05     9.72678e-05         0.182439        0.324768
538000                 -0.107206       -0.114866     -2.98576e-05    -7.31921e-05         0.875707        0.372044     -4.03855e-05     6.60704e-05
                    -1.15933e-05    -6.91205e-05         0.456985         0.28109     -6.23003e-05    -7.45958e-05       -0.0330439        0.457707
                        0.875707        0.372044      -9.4787e-05    -6.75996e-05       -0.0453676       0.0705007     -6.00521e-05     0.000102391
                    -4.05318e-05     6.60879e-05       -0.0330771        0.457716     -6.00199e-05     0.000102495         0.204929        0.350866
541200                 -0.101144        -0.12046     -3.18202e-05    -7.73672e-05         0.898569        0.308822     -3.43251e-05     7.42645e-05
                    -1.24753e-05    -7.02524e-05         0.520792        0.284666     -6.02531e-05    -8.01526e-05       -0.0183418        0.416238
                        0.898569        0.308822     -9.32432e-05    -7.50173e-05       -0.0403063       0.0593454      -6.3374e-05     0.000108072
                    -3.44823e-05     7.42851e-05        -0.018374        0.416248     -6.33387e-05     0.000108187          0.23179        0.379524
544400                -0.0942937       -0.126583     -3.38741e-05     -8.1872e-05         0.917612        0.240887     -2.75368e-05     8.30084e-05
                    -1.34172e-05    -7.14701e-05         0.592975        0.277583     -5.80332e-05    -8.60339e-05      -0.00670351        0.373151
                        0.917612        0.240887     -9.15149e-05    -8.28678e-05        -0.035014       0.0462502     -6.70263e-05     0.000114282
                     -2.7706e-05     8.30328e-05      -0.00673441        0.373163     -6.69875e-05     0.000114409         0.264202        0.410948
547600                -0.0864975       -0.133306      -3.6023e-05    -8.67459e-05         0.932008        0.168385     -1.99004e-05     9.23457e-05
                    -1.44254e-05    -7.27835e-05         0.671809        0.255605     -5.56198e-05    -9.22683e-05       0.00164164        0.328788
                        0.932008        0.168385     -8.95762e-05    -9.11883e-05       -0.0295984       0.0307212     -7.10606e-05     0.000121097
                    -2.00826e-05     9.23749e-05       0.00161217        0.328802     -7.10178e-05     0.000121238         0.303749        0.445262
550800                -0.0775538       -0.140713     -3.82701e-05    -9.20344e-05         0.940887       0.0916184     -1.12704e-05     0.000102321
                    -1.55069e-05    -7.42044e-05           0.7534        0.214438     -5.29889e-05    -9.88877e-05       0.00651596         0.28353
                        0.940887       0.0916184     -8.73968e-05     -0.00010002       -0.0242713       0.0121056       -7.554e-05     0.000128611
                    -1.14669e-05     0.000102356       0.00648808        0.283545     -7.54926e-05     0.000128768         0.352563        0.482391
554000                -0.0672018       -0.148899     -4.06177e-05    -9.77907e-05         0.943361       0.0110634     -1.47041e-06     0.000112976
                      -1.667e-05    -7.57465e-05          0.83126        0.150993     -5.01125e-05    -0.000105928       0.00780165        0.237789
                        0.943361       0.0110634     -8.49415e-05    -0.000109408       -0.0194294      -0.0104627     -8.05419e-05     0.000136936
                    -1.68227e-06     0.000113019       0.00777547        0.237805     -8.04895e-05     0.000137111         0.413539         0.52185
557200                -0.0550989       -0.157972     -4.30665e-05    -0.000104077         0.938567      -0.0726062      9.71521e-06     0.000124352
                    -1.79242e-05     -7.7426e-05          0.89676       0.0651557      -4.6958e-05    -0.000113429       0.00544656        0.191993
                        0.938567      -0.0726062     -8.21685e-05    -0.000119405       -0.0158013      -0.0381273     -8.61632e-05     0.000146211
                     9.48652e-06     0.000124404        0.0054222        0.192009     -8.61049e-05     0.000146407         0.490584        0.562339
560400                -0.0407881        -0.16805     -4.56152e-05    -0.000110967         0.925713        -0.15851      2.25508e-05     0.000136477
                    -1.92805e-05    -7.92618e-05         0.940981      -0.0387399      -4.3487e-05    -0.000121436     -0.000532883        0.146576
                        0.925713        -0.15851     -7.90283e-05    -0.000130066       -0.0147149      -0.0723622     -9.25259e-05     0.000156609
                     2.23038e-05      0.00013654     -0.000555367        0.146593     -9.24608e-05     0.000156829         0.588873        0.600989
563600                -0.0236479       -0.179255     -4.82591e-05    -0.000118548         0.904136       -0.245565      3.73621e-05     0.000149363
                    -2.07518e-05    -8.12767e-05         0.957591       -0.151942     -3.96543e-05    -0.000129999       -0.0100521        0.101962
                        0.904136       -0.245565     -7.54622e-05    -0.000141456       -0.0185819       -0.114941     -9.97859e-05     0.000168346
                     3.70953e-05     0.000149441       -0.0100727         0.10198      -9.9713e-05     0.000168593         0.714899         0.63199
564000                -0.0212669       -0.180741     -4.85959e-05    -0.000119549         0.900799       -0.256467      3.93715e-05     0.000151027
                    -2.09445e-05    -8.15425e-05         0.957597         -0.1662     -3.91472e-05    -0.000131112       -0.0114841       0.0964627
                        0.900799       -0.256467     -7.49832e-05    -0.000142934       -0.0196005       -0.120942     -0.000100766      0.00016992
                     3.91022e-05     0.000151107       -0.0115044       0.0964801     -0.000100692     0.000170171         0.732961        0.634854
566800               -0.00281672       -0.191692     -5.09888e-05    -0.000126922         0.873355       -0.332504      5.45518e-05     0.000162993
                    -2.23529e-05    -8.34982e-05         0.945252       -0.263453     -3.54064e-05    -0.000139178       -0.0229618       0.0585557
                        0.873355       -0.332504        -7.14e-05    -0.000153644       -0.0317324       -0.167601     -0.000108146     0.000181697
                     5.42638e-05      0.00016309       -0.0229804       0.0585733     -0.000108064     0.000181978         0.805499        0.592597
570000                 0.0229255       -0.205409     -5.37878e-05    -0.000136215         0.833132       -0.417916      7.46188e-05     0.000177297
                    -2.41015e-05    -8.59594e-05         0.907948       -0.363376      -3.0679e-05    -0.000149036       -0.0390543       0.0167245
                        0.833132       -0.417916     -6.67572e-05    -0.000166711       -0.0616552       -0.230804     -0.000117876     0.000197019
