! TOUCHSTONE file generated by CST MICROWAVE STUDIO
! Date and time: Mon Oct 20 08:27:34 2025
! Project name: Teste_Macro_Metasurface_Nanopilar.cst
! Parameters = {H=600; L_x=145; L_y=70; Lambda=1064; Max_L=200; Min_L=70; PathPara=1; Phi=0; Step_L=10; Theta=0; p=520; phaseX=180; phaseY=0}
! Header version: 2018
! Port assignment regex: !\s*Touchstone port\s*([0-9]+)\s*=\s*(CST MWS port|CST DS port)\s*([0-9]+|Zmin|Zmax)\s*\(\"(.*)\"\)(\s*mode\s*([0-9]+))?.*
! Touchstone port assignment:
! Touchstone port 1 = CST MWS port Zmax ("") mode 1
! Touchstone port 2 = CST MWS port Zmax ("") mode 2
! Touchstone port 3 = CST MWS port Zmin ("") mode 1
! Touchstone port 4 = CST MWS port Zmin ("") mode 2
! S-Parameters are not renormalized. Each port impedance will be approximated by the real part at minimum frequency. The values are described via the [Reference] keyword.
! Default impedance is overridden by [Reference]
[Version] 2.0
# GHz S RI R 376.73
[Number of Ports] 4
[Reference]
376.73 376.73 259.888 259.888 
[Number of Frequencies] 52
[Network Data]
474000                  0.235439      -0.0639845     -4.42946e-06     9.32842e-06        -0.868138       -0.409839     -5.27099e-05     2.43658e-05
                    -1.37573e-05     9.23992e-06         0.304647       0.0611671      4.46125e-05     1.80332e-05        -0.895215        0.302939
                       -0.868157       -0.409846      4.97513e-05      2.9606e-05          -0.1002       -0.205047      5.51664e-06      1.0253e-05
                    -4.78371e-05     2.15002e-05        -0.895216        0.302946      1.30974e-05      7.7167e-06        -0.206855        0.238424
477200                  0.235871      -0.0632873      -4.7063e-06     9.56222e-06        -0.868895       -0.407658     -5.22691e-05     2.28153e-05
                    -1.42812e-05     9.05423e-06         0.275494       0.0175609        4.424e-05     1.76415e-05        -0.892055        0.313909
                       -0.868914       -0.407665      4.92877e-05      2.8789e-05        -0.102157       -0.204524      4.30935e-06     1.14035e-05
                    -4.67536e-05     2.01899e-05        -0.892055        0.313916      1.31277e-05      8.8103e-06        -0.203927        0.233936
480400                  0.236322      -0.0625449     -4.99504e-06     9.80624e-06        -0.869704       -0.405306     -5.17919e-05        2.12e-05
                    -1.48274e-05     8.85949e-06         0.239178      -0.0246481      4.38519e-05     1.72347e-05        -0.888468        0.325398
                       -0.869724       -0.405314      4.88028e-05     2.79412e-05        -0.104249       -0.203943      3.06655e-06     1.25746e-05
                    -4.56109e-05     1.88394e-05        -0.888468        0.325405      1.31481e-05      9.9446e-06        -0.200836        0.229138
483600                  0.236796      -0.0617529     -5.29649e-06     1.00612e-05        -0.870572       -0.402762     -5.12747e-05      1.9516e-05
                    -1.53975e-05     8.65503e-06         0.195486      -0.0639135      4.34471e-05     1.68119e-05        -0.884401        0.337435
                       -0.870591        -0.40277      4.82952e-05     2.70607e-05         -0.10649       -0.203296      1.78676e-06      1.3767e-05
                    -4.44045e-05     1.74473e-05        -0.884401        0.337442      1.31575e-05     1.11218e-05        -0.197571        0.223996
486800                  0.237292      -0.0609064      -5.6115e-06     1.03277e-05        -0.871504       -0.400002     -5.07135e-05     1.77591e-05
                     -1.5993e-05     8.44013e-06         0.144622      -0.0985118      4.30247e-05     1.63722e-05        -0.879791        0.350048
                       -0.871523       -0.400011      4.77633e-05     2.61457e-05        -0.108897       -0.202572      4.68451e-07     1.49809e-05
                    -4.31297e-05     1.60122e-05        -0.879791        0.350055      1.31545e-05      1.2344e-05        -0.194115        0.218471
490000                  0.237813      -0.0599995     -5.94101e-06     1.06068e-05        -0.872508       -0.396997     -5.01039e-05     1.59249e-05
                    -1.66157e-05     8.21397e-06        0.0873005       -0.126682      4.25833e-05     1.59145e-05        -0.874568        0.363263
                       -0.872526       -0.397006      4.72054e-05      2.5194e-05        -0.111487       -0.201759     -8.90029e-07      1.6217e-05
                    -4.17811e-05     1.45328e-05        -0.874568         0.36327      1.31377e-05     1.36139e-05        -0.190453        0.212522
493200                  0.238361      -0.0590258     -6.28603e-06     1.08992e-05        -0.873591       -0.393713     -4.94406e-05     1.40086e-05
                    -1.72674e-05     7.97565e-06        0.0247889       -0.146816      4.21218e-05     1.54377e-05         -0.86865        0.377107
                        -0.87361       -0.393723      4.66195e-05     2.42036e-05        -0.114282       -0.200842      -2.2904e-06     1.74755e-05
                    -4.03531e-05     1.30077e-05        -0.868651        0.377114      1.31055e-05     1.49338e-05        -0.186568        0.206096
496400                  0.238936      -0.0579778      -6.6477e-06      1.1206e-05        -0.874765       -0.390109     -4.87181e-05     1.20053e-05
                    -1.79502e-05     7.72419e-06       -0.0411474       -0.157665      4.16386e-05     1.49407e-05        -0.861947        0.391606
                       -0.874784        -0.39012      4.60035e-05     2.31719e-05        -0.117306       -0.199803     -3.73446e-06      1.8757e-05
                    -3.88394e-05     1.14356e-05        -0.861947        0.391613      1.30559e-05     1.63067e-05         -0.18244        0.199136
499600                   0.23954       -0.056847     -7.02724e-06     1.15282e-05         -0.87604       -0.386137     -4.79299e-05     9.90943e-06
                    -1.86665e-05     7.45849e-06        -0.108384       -0.158526      4.11323e-05      1.4422e-05        -0.854352        0.406781
                       -0.876058       -0.386148      4.53552e-05     2.20964e-05        -0.120587       -0.198619     -5.22415e-06     2.00619e-05
                    -3.72329e-05      9.8152e-06        -0.854352        0.406788      1.29868e-05     1.77353e-05        -0.178047        0.191573
502800                  0.240176      -0.0556234     -7.42601e-06     1.18671e-05        -0.877429       -0.381736     -4.70687e-05     7.71518e-06
                    -1.94187e-05     7.17731e-06        -0.174657       -0.149351      4.06012e-05     1.38803e-05        -0.845745        0.422649
                       -0.877447       -0.381749      4.46719e-05     2.09743e-05        -0.124159       -0.197263     -6.76147e-06     2.13907e-05
                    -3.55262e-05     8.14543e-06        -0.845745        0.422657      1.28961e-05      1.9223e-05        -0.173365        0.183327
506000                  0.240845      -0.0542954     -7.84552e-06     1.22239e-05        -0.878948       -0.376835     -4.61262e-05     5.41636e-06
                    -2.02096e-05     6.87931e-06        -0.237808       -0.130757      4.00434e-05     1.33139e-05         -0.83599        0.439222
                       -0.878966       -0.376848      4.39509e-05     1.98025e-05        -0.128058         -0.1957     -8.34855e-06     2.27438e-05
                    -3.37109e-05     6.42529e-06         -0.83599        0.439229       1.2781e-05     2.07729e-05        -0.168369        0.174303
509200                  0.241549      -0.0528497     -8.28743e-06     1.26001e-05        -0.880615       -0.371342     -4.50933e-05     3.00633e-06
                    -2.10422e-05     6.56294e-06        -0.296014       -0.103923      3.94568e-05     1.27213e-05        -0.824931          0.4565
                       -0.880633       -0.371356      4.31891e-05     1.85778e-05         -0.13233       -0.193887     -9.98766e-06     2.41217e-05
                    -3.17778e-05     4.65399e-06         -0.82493        0.456507      1.26386e-05     2.23886e-05         -0.16303        0.164388
512400                   0.24229      -0.0512705     -8.75357e-06     1.29974e-05        -0.882452       -0.365144     -4.39591e-05     4.78049e-07
                    -2.19199e-05     6.22649e-06        -0.347936      -0.0704173      3.88392e-05     1.21004e-05         -0.81239         0.47447
                       -0.882469        -0.36516       4.2383e-05     1.72965e-05        -0.137027       -0.191769     -1.16812e-05     2.55247e-05
                    -2.97167e-05     2.83101e-06         -0.81239        0.474478      1.24657e-05     2.40739e-05        -0.157318        0.153447
515600                  0.243068      -0.0495391     -9.24599e-06     1.34175e-05        -0.884483       -0.358097     -4.27115e-05    -2.17594e-06
                    -2.28465e-05     5.86802e-06        -0.392783      -0.0319866       3.8188e-05     1.14493e-05        -0.798168        0.493104
                         -0.8845       -0.358114      4.15287e-05     1.59547e-05         -0.14221       -0.189275     -1.34316e-05     2.69534e-05
                    -2.75165e-05     9.56153e-07        -0.798168        0.493112      1.22585e-05     2.58328e-05          -0.1512        0.141316
518800                  0.243886      -0.0476334     -9.76699e-06     1.38625e-05        -0.886738       -0.350014     -4.13366e-05    -4.96352e-06
                    -2.38262e-05     5.48535e-06        -0.430281      0.00963628      3.75005e-05     1.07658e-05         -0.78204        0.512348
                       -0.886755       -0.350032      4.06219e-05     1.45482e-05        -0.147951       -0.186312     -1.52416e-05      2.8408e-05
                    -2.51649e-05    -9.70323e-07        -0.782039        0.512356      1.20128e-05     2.76695e-05        -0.144642        0.127796
522000                  0.244742      -0.0455272     -1.03191e-05     1.43348e-05        -0.889253       -0.340649     -3.98186e-05    -7.89294e-06
                    -2.48635e-05     5.07598e-06        -0.460593       0.0528792      3.67736e-05     1.00473e-05        -0.763753        0.532116
                       -0.889269        -0.34067      3.96579e-05     1.30721e-05        -0.154334       -0.182761      -1.7114e-05     2.98891e-05
                    -2.26483e-05    -2.94762e-06        -0.763753        0.532124      1.17239e-05     2.95886e-05        -0.137611        0.112641
525200                  0.245636      -0.0431885     -1.09053e-05     1.48367e-05        -0.892066       -0.329676      -3.8139e-05    -1.09728e-05
                    -2.59638e-05      4.6371e-06        -0.484193       0.0964194      3.60037e-05     9.29105e-06        -0.743031        0.552284
                       -0.892083       -0.329698      3.86312e-05     1.15213e-05        -0.161455        -0.17846     -1.90518e-05     3.13968e-05
                    -1.99516e-05    -4.97422e-06         -0.74303        0.552292      1.13864e-05     3.15948e-05        -0.130074       0.0955462
528400                  0.246565       -0.040579     -1.15287e-05     1.53713e-05        -0.895222       -0.316641     -3.62767e-05    -1.42118e-05
                     -2.7133e-05     4.16547e-06        -0.501755        0.139218      3.51871e-05     8.49414e-06        -0.719567        0.572673
                       -0.895239       -0.316667      3.75357e-05     9.89021e-06        -0.169427        -0.17319     -2.10581e-05     3.29317e-05
                    -1.70582e-05    -7.04774e-06        -0.719566        0.572681      1.09944e-05     3.36932e-05        -0.122008         0.07613
531600                  0.247523       -0.037652      -1.2193e-05     1.59419e-05        -0.898766       -0.300912     -3.42075e-05    -1.76189e-05
                    -2.83776e-05     3.65736e-06        -0.514046        0.180513      3.43192e-05     7.65318e-06        -0.693037         0.59304
                       -0.898782       -0.300941      3.63646e-05     8.17258e-06        -0.178371       -0.166652     -2.31364e-05     3.44939e-05
                    -1.39498e-05    -9.16467e-06        -0.693036        0.593048      1.05408e-05      3.5889e-05        -0.113403       0.0539065
534800                    0.2485      -0.0343499     -1.29024e-05     1.65521e-05        -0.902732       -0.281567      -3.1903e-05    -2.12029e-05
                    -2.97052e-05      3.1085e-06        -0.521852         0.21979      3.33952e-05     6.76445e-06          -0.6631        0.613059
                       -0.902749       -0.281599        3.511e-05     6.36153e-06        -0.188413       -0.158431     -2.52901e-05     3.60838e-05
                    -1.06061e-05    -1.13201e-05        -0.663099        0.613068       1.0018e-05     3.81879e-05        -0.104277       0.0282515
538000                  0.249479      -0.0306018     -1.36616e-05     1.72063e-05        -0.907118       -0.257216     -2.93306e-05    -2.49721e-05
                    -3.11243e-05      2.5139e-06         -0.52592        0.256737      3.24095e-05     5.82381e-06        -0.629415        0.632306
                       -0.907134       -0.257254      3.37632e-05     4.44948e-06         -0.19966       -0.147939     -2.75231e-05     3.77014e-05
                    -7.00466e-06    -1.35075e-05        -0.629413        0.632314      9.41707e-06     4.05957e-05       -0.0946999     -0.00164813
541200                  0.250435      -0.0263193     -1.44761e-05     1.79094e-05        -0.911806        -0.22567     -2.64524e-05    -2.89341e-05
                    -3.26446e-05     1.86776e-06        -0.526934        0.291201      3.13558e-05     4.82661e-06        -0.591658        0.650233
                       -0.911823       -0.225714      3.23138e-05     2.42805e-06        -0.212154       -0.134336     -2.98393e-05      3.9347e-05
                    -3.12081e-06    -1.57181e-05        -0.591656        0.650242      8.72796e-06     4.31182e-05       -0.0848326      -0.0368667
544400                  0.251322      -0.0213917     -1.53521e-05     1.86671e-05         -0.91637        -0.18328     -2.32241e-05     -3.3095e-05
                    -3.42773e-05     1.16328e-06        -0.525494        0.323145      3.02268e-05     3.76767e-06        -0.549556        0.666162
                       -0.916389       -0.183332      3.07504e-05     2.87957e-07        -0.225761       -0.116417      -3.2243e-05     4.10206e-05
                      1.0726e-06    -1.79404e-05        -0.549554         0.66617      7.93919e-06     4.57618e-05       -0.0750043      -0.0788437
547600                  0.252075      -0.0156801      -1.6297e-05      1.9486e-05        -0.919471        -0.12354     -1.95944e-05    -3.74583e-05
                    -3.60352e-05     3.92444e-07        -0.522118        0.352616      2.90142e-05     2.64116e-06        -0.502922        0.679259
                       -0.919493       -0.123604      2.90596e-05    -1.98112e-06        -0.239948      -0.0924607     -3.47387e-05     4.27223e-05
                     5.60539e-06    -2.01597e-05        -0.502919        0.679268       7.0377e-06     4.85327e-05       -0.0658472       -0.129534
550800                  0.252585      -0.0090097      -1.7319e-05     2.03739e-05        -0.916866       -0.033816     -1.55034e-05    -4.20246e-05
                    -3.79331e-05    -4.54291e-07        -0.517239        0.379714      2.77086e-05     1.44047e-06        -0.451714         0.68854
                       -0.916895      -0.0338976      2.72258e-05    -4.39065e-06        -0.253299      -0.0600951     -3.73313e-05     4.44518e-05
                     1.05101e-05    -2.23574e-05        -0.451711        0.688549      6.00859e-06     5.14371e-05       -0.0585534       -0.191626
554000                  0.252685     -0.00116204     -1.84281e-05     2.13397e-05        -0.893486        0.112928     -1.08812e-05    -4.67888e-05
                    -3.99883e-05    -1.38832e-06        -0.511218        0.404574      2.62987e-05     1.58173e-07        -0.396097        0.692882
                       -0.893536        0.112821      2.52311e-05     -6.9534e-06        -0.262581      -0.0163936     -4.00259e-05      4.6209e-05
                     1.58222e-05    -2.45097e-05        -0.396094        0.692891      4.83485e-06     5.44812e-05       -0.0553726       -0.268833
557200                  0.252102       0.0081311     -1.96358e-05     2.23944e-05        -0.783557        0.377427     -5.64702e-06    -5.17389e-05
                    -4.22211e-05    -2.42337e-06         -0.50435        0.427348      2.47719e-05    -1.21421e-06        -0.336518        0.691056
                       -0.783666        0.377291      2.30546e-05     -9.6836e-06        -0.261185        0.041124     -4.28279e-05     4.79935e-05
                     2.15798e-05    -2.65867e-05        -0.336514        0.691065      3.49705e-06     5.76708e-05        -0.060596       -0.366238
560400                  0.250403       0.0191849     -2.09561e-05     2.35506e-05        -0.232635        0.788272      2.93135e-07    -5.68525e-05
                    -4.46551e-05    -3.57614e-06        -0.496874        0.448194      2.31131e-05    -2.68631e-06        -0.273775        0.681808
                       -0.232889        0.788213      2.06714e-05    -1.25971e-05        -0.237645        0.111034     -4.57431e-05     4.98049e-05
                     2.78238e-05    -2.85511e-05         -0.27377        0.681817      1.97302e-06      6.1011e-05       -0.0825409       -0.490465
563600                  0.246888       0.0323319     -2.24052e-05     2.48238e-05         0.930092       -0.110023      7.04733e-06    -6.20924e-05
                    -4.73184e-05    -4.86708e-06        -0.488981         0.46727      2.13046e-05    -4.26919e-06        -0.209072        0.663961
                        0.930069       -0.109971      1.80525e-05    -1.57117e-05        -0.178263        0.180912     -4.87777e-05     5.16424e-05
                      3.4597e-05    -3.03566e-05        -0.209066         0.66397      2.37478e-07     6.45064e-05        -0.137497       -0.648761
564000                  0.246271       0.0341371     -2.25964e-05      2.4992e-05          0.90035       -0.338196      7.95482e-06    -6.27537e-05
                    -4.76691e-05    -5.03937e-06        -0.487974        0.469538       2.1067e-05    -4.47544e-06        -0.200923        0.661075
                        0.900328       -0.338189       1.7707e-05    -1.61162e-05        -0.167939        0.188388     -4.91658e-05     5.18739e-05
                      3.5483e-05    -3.05684e-05        -0.200917        0.661083      4.26654e-09     6.49544e-05        -0.148022       -0.671205
566800                  0.240437        0.047823     -2.40032e-05     2.62327e-05         0.146309       -0.989239       1.4739e-05     -6.7402e-05
                    -5.02446e-05    -6.32154e-06        -0.480826        0.484731      1.93254e-05    -5.97549e-06        -0.144035        0.636566
                        0.146172       -0.989259      1.51634e-05    -1.90472e-05       -0.0808873        0.223373     -5.19383e-05     5.35052e-05
                     4.19437e-05    -3.19458e-05        -0.144029        0.636574     -1.73844e-06     6.81598e-05        -0.256811        -0.84371
570000                  0.229309       0.0655639      -2.5774e-05     2.78001e-05         -0.31771       -0.948188      2.35072e-05    -7.26972e-05
                    -5.34739e-05    -7.97121e-06        -0.472527         0.50072      1.71507e-05    -7.81986e-06       -0.0806687         0.59907
                       -0.317828       -0.948148      1.19626e-05    -2.26256e-05        0.0290332        0.213707     -5.52319e-05     5.53922e-05
