! TOUCHSTONE file generated by CST MICROWAVE STUDIO
! Date and time: Mon Oct 20 08:27:41 2025
! Project name: Teste_Macro_Metasurface_Nanopilar.cst
! Parameters = {H=600; L_x=160; L_y=130; Lambda=1064; Max_L=200; Min_L=70; PathPara=1; Phi=0; Step_L=10; Theta=0; p=520; phaseX=180; phaseY=0}
! Header version: 2018
! Port assignment regex: !\s*Touchstone port\s*([0-9]+)\s*=\s*(CST MWS port|CST DS port)\s*([0-9]+|Zmin|Zmax)\s*\(\"(.*)\"\)(\s*mode\s*([0-9]+))?.*
! Touchstone port assignment:
! Touchstone port 1 = CST MWS port Zmax ("") mode 1
! Touchstone port 2 = CST MWS port Zmax ("") mode 2
! Touchstone port 3 = CST MWS port Zmin ("") mode 1
! Touchstone port 4 = CST MWS port Zmin ("") mode 2
! S-Parameters are not renormalized. Each port impedance will be approximated by the real part at minimum frequency. The values are described via the [Reference] keyword.
! Default impedance is overridden by [Reference]
[Version] 2.0
# GHz S RI R 376.73
[Number of Ports] 4
[Reference]
376.73 376.73 259.888 259.888 
[Number of Frequencies] 52
[Network Data]
474000                 0.0785828        0.107839     -2.13695e-05     1.62681e-05        -0.899844        0.369963      4.89394e-05     3.66205e-05
                     1.01002e-07     2.63462e-05         0.407415        0.260693      4.64779e-05     2.61075e-05        -0.206134        0.793133
                       -0.899821        0.369958      6.25522e-05    -1.23619e-05        0.0356115         0.10588      3.73798e-05    -5.49395e-05
                     6.29766e-05     9.80808e-06        -0.206176        0.793137      5.64877e-05    -6.76449e-05         0.434917       -0.104884
477200                 0.0773763        0.108766     -1.86124e-05     1.35474e-05        -0.894572        0.380978      4.72904e-05     3.89159e-05
                     2.84577e-06       2.378e-05         0.414656        0.261759      5.14197e-05     2.49577e-05        -0.108921        0.743902
                       -0.894549        0.380972       6.6852e-05    -1.34851e-05        0.0342108        0.107631      3.53163e-05    -5.55848e-05
                     6.15701e-05     1.26045e-05        -0.108993        0.743852       5.4121e-05    -6.83423e-05         0.439792      -0.0934923
480400                 0.0760713        0.109754     -1.56716e-05     1.06886e-05        -0.888869        0.392491      4.55304e-05     4.12916e-05
                     5.76983e-06     2.10835e-05         0.422257         0.26281      5.66135e-05     2.36638e-05       -0.0366909        0.679042
                       -0.888846        0.392485      7.13689e-05    -1.47293e-05        0.0327028        0.109484      3.31472e-05    -5.62423e-05
                     6.00486e-05     1.55112e-05       -0.0368056         0.67897      5.16322e-05    -6.90478e-05         0.444769      -0.0813917
483600                 0.0746554         0.11081     -1.25286e-05     7.68152e-06        -0.882689        0.404535      4.36498e-05     4.37506e-05
                     8.89092e-06      1.8247e-05         0.430247        0.263838      6.20767e-05      2.2207e-05        0.0115746        0.609614
                       -0.882667        0.404529      7.61181e-05    -1.61094e-05        0.0310752        0.111445      3.08645e-05    -5.69114e-05
                     5.84005e-05     1.85331e-05        0.0114221        0.609546      4.90122e-05    -6.97601e-05          0.44984      -0.0685193
486800                 0.0731141         0.11194     -9.16249e-06     4.51489e-06        -0.875982        0.417142      4.16377e-05     4.62958e-05
                     1.22291e-05     1.52599e-05         0.438654        0.264835      6.78281e-05     2.05657e-05        0.0403599        0.542851
                        -0.87596        0.417135      8.11163e-05    -1.76424e-05        0.0293137        0.113525      2.84594e-05    -5.75913e-05
                     5.66131e-05     2.16754e-05        0.0401822        0.542801      4.62508e-05    -7.04772e-05         0.454993      -0.0548043
490000                 0.0714302        0.113152      -5.5495e-06     1.17654e-06        -0.868687        0.430344      3.94822e-05       4.893e-05
                     1.58072e-05     1.21105e-05          0.44751        0.265794       7.3888e-05     1.87153e-05        0.0548511        0.482394
                       -0.868666        0.430337      8.63817e-05     -1.9348e-05         0.027402        0.115735      2.59223e-05    -5.82809e-05
                     5.46722e-05      2.4943e-05        0.0546615        0.482367       4.3337e-05    -7.11969e-05         0.460213      -0.0401684
493200                 0.0695834        0.114455     -1.66238e-06    -2.34687e-06         -0.86074         0.44418      3.71701e-05     5.16559e-05
                     1.96513e-05     8.78608e-06         0.456852        0.266702      8.02778e-05     1.66271e-05        0.0595434        0.429464
                       -0.860719        0.444173      9.19337e-05    -2.12487e-05        0.0253208        0.118086      2.32422e-05    -5.89786e-05
                     5.25617e-05     2.83412e-05         0.059352         0.42946      4.02586e-05    -7.19163e-05          0.46548      -0.0245236
496400                 0.0675492        0.115859      2.53016e-06    -6.06994e-06        -0.852064        0.458686      3.46867e-05     5.44761e-05
                     2.37913e-05     5.27271e-06         0.466717        0.267548      8.70208e-05     1.42678e-05        0.0578488         0.38395
                       -0.852043        0.458678      9.77935e-05    -2.33708e-05        0.0230478         0.12059      2.04076e-05    -5.96827e-05
                     5.02639e-05     3.18748e-05        0.0576624        0.383966       3.7002e-05     -7.2632e-05         0.470769     -0.00777167
499600                 0.0652982        0.117375      7.06416e-06    -1.00086e-05        -0.842572        0.473902      3.20156e-05     5.73925e-05
                     2.82616e-05     1.55503e-06         0.477149        0.268315      9.41413e-05     1.15991e-05        0.0521769        0.345141
                       -0.842552        0.473894      0.000103984    -2.57446e-05        0.0205564        0.123264      1.74051e-05    -6.03906e-05
                     4.77586e-05     3.55483e-05        0.0519997        0.345172      3.35524e-05    -7.33397e-05         0.476046       0.0101974
502800                 0.0627947        0.119016      1.19814e-05    -1.41802e-05        -0.832167        0.489869      2.91387e-05     6.04068e-05
                      3.3102e-05    -2.38371e-06         0.488196        0.268985      0.000101665     8.57595e-06        0.0441593        0.312131
                       -0.832147         0.48986      0.000110529    -2.84052e-05        0.0178156        0.126121      1.42203e-05    -6.10996e-05
                     4.50233e-05     3.93659e-05        0.0439934        0.312174      2.98932e-05    -7.40342e-05         0.481268       0.0295071
506000                 0.0599948        0.120797      1.73305e-05    -1.86036e-05        -0.820734        0.506628      2.60358e-05       6.352e-05
                     3.83588e-05    -6.56184e-06          0.49991        0.269536      0.000109619     5.14621e-06        0.0348714        0.284026
                       -0.820714        0.506619      0.000117455    -3.13938e-05        0.0147879        0.129181      1.08369e-05    -6.18056e-05
                     4.20326e-05      4.3331e-05        0.0347176        0.284078      2.60064e-05    -7.47091e-05         0.486379        0.050296
509200                 0.0568439        0.122733      2.31683e-05    -2.32994e-05        -0.808143        0.524221      2.26844e-05     6.67322e-05
                     4.40861e-05    -1.09993e-05          0.51235        0.269943      0.000118031      1.2487e-06        0.0250076        0.260021
                       -0.808124        0.524212      0.000124791    -3.47586e-05        0.0114288        0.132463      7.23683e-06    -6.25042e-05
                     3.87581e-05      4.7446e-05        0.0248659        0.260078      2.18715e-05    -7.53567e-05         0.491308       0.0727198
512400                 0.0532738        0.124843      2.95618e-05    -2.82894e-05        -0.794243        0.542688      1.90593e-05     7.00423e-05
                     5.03473e-05    -1.57179e-05         0.525581        0.270174      0.000126929    -3.18824e-06        0.0150082        0.239427
                       -0.794225        0.542679      0.000132564    -3.85558e-05       0.00768429        0.135988      3.39988e-06    -6.31893e-05
                     3.51677e-05     5.17121e-05        0.0148782        0.239488      1.74662e-05    -7.59674e-05         0.495966       0.0969534
515600                 0.0491977        0.127148        3.659e-05    -3.35973e-05        -0.778862        0.562068      1.51326e-05     7.34478e-05
                     5.72175e-05     -2.0741e-05         0.539676        0.270191       0.00013634    -8.24873e-06       0.00514591        0.221671
                       -0.778844        0.562059      0.000140806     -4.2852e-05       0.00348878         0.13978     -6.96563e-07    -6.38537e-05
                     3.12255e-05     5.61284e-05       0.00502691        0.221734      1.27654e-05    -7.65295e-05         0.500238        0.123193
518800                 0.0445042        0.129667      4.43471e-05    -3.92477e-05        -0.761797        0.582394      1.08731e-05     7.69442e-05
                     6.47859e-05    -2.60935e-05         0.554716        0.269949      0.000146289    -1.40317e-05      -0.00441607        0.206279
                        -0.76178        0.582385      0.000149548    -4.77256e-05      -0.00123819        0.143863     -5.07785e-06    -6.44883e-05
                     2.68908e-05     6.06916e-05      -0.00452487        0.206343      7.74139e-06    -7.70289e-05         0.503978        0.151658
522000                 0.0390476        0.132422       5.2946e-05    -4.52661e-05        -0.742817        0.603692      6.24609e-06     8.05247e-05
                     7.31593e-05    -3.18018e-05          0.57079        0.269393      0.000156798    -2.06535e-05       -0.0135856        0.192866
                       -0.742801        0.603681       0.00015882    -5.32694e-05      -0.00659612        0.148264     -9.77248e-06    -6.50817e-05
                     2.21184e-05     6.53954e-05        -0.013685        0.192929       2.3632e-06    -7.74481e-05            0.507        0.182594
525200                 0.0326349        0.135431      6.25227e-05    -5.16777e-05         -0.72165        0.625973       1.2129e-06     8.41793e-05
                     8.24663e-05    -3.78929e-05         0.588001        0.268456      0.000167883    -2.82515e-05       -0.0223163        0.181113
                       -0.721635        0.625963      0.000168652    -5.95936e-05       -0.0127091        0.153008     -1.48125e-05    -6.56197e-05
                     1.68571e-05     7.02288e-05       -0.0224072        0.181176     -3.40361e-06    -7.77655e-05         0.509067        0.216273
528400                 0.0250056        0.138701      7.32423e-05    -5.85063e-05        -0.697983        0.649235     -4.26936e-06      8.7894e-05
                      9.2863e-05    -4.43934e-05          0.60646        0.267057      0.000179549     -3.6987e-05       -0.0305911        0.170763
                       -0.697968        0.649225       0.00017907    -6.68292e-05       -0.0197333        0.158119     -2.02341e-05    -6.60848e-05
                     1.10502e-05     7.51756e-05       -0.0306741        0.170824     -9.59738e-06     -7.7955e-05          0.50988        0.252995
531600                 0.0158012        0.142221      8.53071e-05    -6.57714e-05         -0.67145        0.673447     -1.02482e-05     9.16499e-05
                     0.000104541    -5.13277e-05         0.626293        0.265098      0.000191788      -4.705e-05       -0.0384109        0.161603
                       -0.671436        0.673436      0.000190092     -7.5132e-05       -0.0278672        0.163615      -2.6078e-05    -6.64548e-05
                     4.63435e-06     8.02125e-05       -0.0384868        0.161662     -1.62607e-05     -7.7984e-05         0.509053        0.293086
534800                0.00451894        0.145931      9.89662e-05    -7.34843e-05        -0.641626         0.69854     -1.67759e-05     9.54217e-05
                     0.000117734     -5.8715e-05          0.64764        0.262457      0.000204568    -5.86628e-05       -0.0457881        0.153457
                       -0.641614         0.69853      0.000201728    -8.46881e-05       -0.0373654          0.1695     -3.23902e-05    -6.67022e-05
                    -2.46041e-06     8.53071e-05       -0.0458575        0.153514     -2.34407e-05    -7.78125e-05         0.506099        0.336896
538000               -0.00956202        0.149673      0.000114529    -8.16417e-05        -0.608021        0.724397       -2.391e-05     9.91763e-05
                     0.000132738     -6.6564e-05          0.67066        0.258985      0.000217825    -7.20847e-05       -0.0527415         0.14618
                        -0.60801        0.724386      0.000213968    -9.57186e-05       -0.0485571        0.175752     -3.92228e-05    -6.67923e-05
                    -1.03108e-05     9.04152e-05        -0.052805        0.146235     -3.11896e-05    -7.73909e-05         0.500393        0.384783
541200                -0.0274936        0.153082      0.000132384    -9.02148e-05        -0.570067        0.750824     -3.17128e-05     0.000102871
                     0.000149918    -7.48645e-05         0.695524        0.254498      0.000231452    -8.76152e-05       -0.0592933        0.139653
                       -0.570058        0.750814      0.000226778    -0.000108487       -0.0618721        0.182305     -4.66342e-05    -6.66812e-05
                    -1.90001e-05     9.54787e-05       -0.0593515        0.139706     -3.95645e-05    -7.66577e-05         0.491144        0.437105
544400                -0.0508296        0.155343      0.000153018    -9.91324e-05        -0.527116        0.777531     -4.02515e-05      0.00010645
                     0.000169741    -8.35735e-05         0.722425        0.248767      0.000245277    -0.000105595       -0.0654674        0.133774
                       -0.527107        0.777521      0.000240084    -0.000123303        -0.077874        0.189009     -5.46905e-05    -6.63137e-05
                    -2.86171e-05     0.000100421       -0.0655207        0.133824     -4.86277e-05    -7.55365e-05         0.477347        0.494181
547600                -0.0818412        0.154637      0.000177055    -0.000108252        -0.478429        0.804088     -4.95974e-05     0.000109844
                       0.0001928    -9.25918e-05         0.751573        0.241509       0.00025904    -0.000126406       -0.0712879        0.128459
                       -0.478422        0.804079      0.000253756    -0.000140534       -0.0973027        0.195565     -6.34656e-05    -6.56196e-05
                    -3.92546e-05     0.000105143       -0.0713367        0.128507     -5.84459e-05    -7.39318e-05         0.457736        0.556244
550800                 -0.123598        0.146873      0.000205284    -0.000117314        -0.423188        0.829885     -5.98242e-05     0.000112963
                      0.00021986    -0.000101726         0.783194        0.232365      0.000272367    -0.000150458       -0.0767784        0.123636
                       -0.423182        0.829877      0.000267581    -0.000160599        -0.121121        0.201408     -7.30416e-05    -6.45096e-05
                    -5.10061e-05     0.000109519       -0.0768231        0.123682     -6.90892e-05    -7.17248e-05          0.43073        0.623366
554000                  -0.17893        0.122863       0.00023872    -0.000125862          -0.3605        0.854063     -7.10061e-05     0.000115699
                     0.000251908     -0.00011062         0.817527        0.220891       0.00028473    -0.000178173       -0.0819614        0.119246
                       -0.360496        0.854057       0.00028123    -0.000183979        -0.150549        0.205506     -8.35093e-05    -6.28697e-05
                    -6.39618e-05     0.000113391       -0.0820024         0.11929      -8.0629e-05    -6.87668e-05          0.39439        0.695331
557200                 -0.244227       0.0637289      0.000278649    -0.000133117        -0.289437        0.875441     -8.32141e-05     0.000117912
                     0.000290224    -0.000118647         0.854816        0.206522      0.000295407    -0.000209946       -0.0868586        0.115237
                       -0.289434        0.875436      0.000294215    -0.000211194         -0.18702        0.206003     -9.49665e-05    -6.05537e-05
                    -7.82008e-05     0.000116562        -0.086896        0.115278     -9.31339e-05    -6.48721e-05         0.346384        0.771469
560400                 -0.288862      -0.0553086      0.000326678    -0.000137752          -0.2091        0.892423     -9.65108e-05     0.000119435
                     0.000336455    -0.000124712         0.895294        0.188551      0.000303441    -0.000246081       -0.0914898        0.111564
                       -0.209099         0.89242      0.000305827    -0.000242783        -0.231916        0.199647     -0.000107516    -5.73737e-05
                     -9.3782e-05     0.000118793       -0.0915241        0.111602     -0.000106663    -5.98088e-05         0.284025        0.850406
563600                 -0.241768       -0.212577      0.000384732    -0.000137536        -0.118732        0.902898     -0.000110943     0.000120065
                     0.000392668    -0.000126917         0.939158        0.166079      0.000307618    -0.000286694       -0.0958739         0.10819
                       -0.118732        0.902897      0.000315079    -0.000279238        -0.285695        0.181013     -0.000121262     -5.3088e-05
                     -0.00011073     0.000119799       -0.0959053        0.108226     -0.000121258    -5.32883e-05         0.204397        0.929755
564000                 -0.227266       -0.229536      0.000392797    -0.000137004        -0.106704        0.903621     -0.000112828      0.00012007
                     0.000400516    -0.000126779         0.944887          0.1629      0.000307798    -0.000292081       -0.0964054        0.107787
                       -0.106704        0.903621      0.000316008    -0.000284157        -0.292968        0.177443     -0.000123069    -5.24599e-05
                    -0.000112944     0.000119822       -0.0964364        0.107823     -0.000123158    -5.23539e-05         0.193085        0.939534
566800                -0.0970351       -0.298352      0.000454881    -0.000128737       -0.0179015        0.904151      -0.00012653      0.00011956
                     0.000461312    -0.000121984         0.986527        0.137977      0.000306467    -0.000331585        -0.100028        0.105082
                      -0.0179021        0.904154      0.000320637    -0.000320906        -0.345734        0.141999     -0.000136298    -4.73855e-05
                    -0.000129019     0.000119246        -0.100057        0.105116     -0.000136921    -4.49543e-05         0.103511        0.994628
570000                 0.0365409       -0.279239      0.000538741    -0.000105238        0.0932243        0.892813     -0.000143254     0.000117636
                     0.000544845    -0.000104306         0.995123       0.0986375      0.000298334    -0.000380064        -0.103969        0.102212
                       0.0932239        0.892819      0.000320782    -0.000367824        -0.402423       0.0734443     -0.000152694    -3.98666e-05
