! TOUCHSTONE file generated by CST MICROWAVE STUDIO
! Date and time: Mon Oct 20 08:27:48 2025
! Project name: Teste_Macro_Metasurface_Nanopilar.cst
! Parameters = {H=600; L_x=190; L_y=70; Lambda=1064; Max_L=200; Min_L=70; PathPara=1; Phi=0; Step_L=10; Theta=0; p=520; phaseX=180; phaseY=0}
! Header version: 2018
! Port assignment regex: !\s*Touchstone port\s*([0-9]+)\s*=\s*(CST MWS port|CST DS port)\s*([0-9]+|Zmin|Zmax)\s*\(\"(.*)\"\)(\s*mode\s*([0-9]+))?.*
! Touchstone port assignment:
! Touchstone port 1 = CST MWS port Zmax ("") mode 1
! Touchstone port 2 = CST MWS port Zmax ("") mode 2
! Touchstone port 3 = CST MWS port Zmin ("") mode 1
! Touchstone port 4 = CST MWS port Zmin ("") mode 2
! S-Parameters are not renormalized. Each port impedance will be approximated by the real part at minimum frequency. The values are described via the [Reference] keyword.
! Default impedance is overridden by [Reference]
[Version] 2.0
# GHz S RI R 376.73
[Number of Ports] 4
[Reference]
376.73 376.73 259.888 259.888 
[Number of Frequencies] 52
[Network Data]
474000                  0.946787      -0.0548362     -0.000152183     0.000260366        -0.205435      -0.0505079      0.000280053    -0.000159665
                     -0.00022509     0.000293671        0.0836473       0.0133392      8.85111e-05    -2.78381e-06         0.145269       -0.956047
                       -0.205444      -0.0505162      8.80485e-05    -4.56349e-05        -0.742317       -0.577842      2.97198e-05     -4.2835e-05
                      0.00029878    -0.000198876         0.145175       -0.956065       1.2304e-05    -2.85034e-05        0.0556745      -0.0220557
477200                  0.953914      -0.0450392     -0.000151196     0.000259658        -0.200059      -0.0497604      0.000275603    -0.000162631
                    -0.000224883     0.000293587        0.0894221       0.0136768      8.95705e-05    -2.70205e-06         0.144647       -0.976924
                       -0.200067      -0.0497686      8.87799e-05    -4.45497e-05        -0.751077       -0.568432       2.8423e-05    -4.02522e-05
                     0.000293162    -0.000201745          0.14455       -0.976943       1.0805e-05    -2.44775e-05        0.0528924      -0.0260849
480400                   0.96134      -0.0343426     -0.000150146     0.000258895         -0.19439      -0.0490366      0.000270877     -0.00016562
                    -0.000224661     0.000293497        0.0954471       0.0141092      9.06639e-05    -2.62206e-06         0.142623       -0.989777
                       -0.194398      -0.0490447      8.95508e-05     -4.3435e-05        -0.760092       -0.558298      2.71226e-05    -3.73682e-05
                     0.000287227    -0.000204584         0.142521       -0.989792      9.40215e-06    -1.99643e-05        0.0499889      -0.0303483
483600                  0.969066       -0.022631     -0.000149028     0.000258073        -0.188404      -0.0483441      0.000265857    -0.000168623
                    -0.000224421     0.000293399         0.101737        0.014648       9.1793e-05    -2.54412e-06         0.138705       -0.990334
                       -0.188413       -0.048352      9.03638e-05      -4.229e-05        -0.769358       -0.547371      2.58407e-05    -3.41389e-05
                     0.000280958    -0.000207377         0.138601       -0.990348      8.15893e-06    -1.48991e-05        0.0469567      -0.0348666
486800                  0.977087      -0.0097701     -0.000147835     0.000257184        -0.182077      -0.0476915       0.00026052    -0.000171629
                    -0.000224162     0.000293293         0.108308       0.0153066      9.29596e-05    -2.46857e-06         0.134734       -0.990882
                       -0.182086      -0.0476993       9.1222e-05    -4.11137e-05        -0.778865       -0.535573      2.46087e-05    -3.05138e-05
                     0.000274333    -0.000210106         0.134628       -0.990896      7.16171e-06    -9.21344e-06        0.0437876      -0.0396628
490000                  0.985386      0.00439595     -0.000146559     0.000256218         -0.17538      -0.0470894      0.000254846    -0.000174626
                    -0.000223881     0.000293177         0.115177       0.0161001      9.41656e-05    -2.39579e-06         0.130744       -0.991416
                       -0.175389       -0.047097      9.21284e-05    -3.99055e-05        -0.788596       -0.522818      2.34709e-05    -2.64355e-05
                     0.000267333    -0.000212751         0.130634       -0.991431      6.52664e-06    -2.83831e-06        0.0404733      -0.0447627
493200                  0.993936       0.0200489     -0.000145192     0.000255167        -0.168281      -0.0465504      0.000248808    -0.000177596
                    -0.000223576     0.000293051         0.122362       0.0170458       9.5413e-05     -2.3262e-06         0.126778       -0.991931
                        -0.16829      -0.0465579      9.30864e-05    -3.86645e-05         -0.79853       -0.509009      2.24889e-05    -2.18407e-05
                     0.000259937    -0.000215288         0.126666       -0.991945      6.40779e-06     4.28896e-06        0.0370045      -0.0501952
496400                  0.999305       0.0372746     -0.000143723      0.00025402        -0.160746      -0.0460897      0.000242383    -0.000180521
                    -0.000223242     0.000292913         0.129882       0.0181628      9.67038e-05    -2.26026e-06         0.122903       -0.992419
                       -0.160755      -0.0460969         9.41e-05      -3.739e-05        -0.808635        -0.49404      2.17475e-05     -1.6661e-05
                     0.000252122     -0.00021769         0.122787       -0.992433      7.00601e-06     1.22133e-05        0.0333715      -0.0559934
499600                  0.998433       0.0559628     -0.000142141     0.000252761        -0.152735      -0.0457253      0.000235544    -0.000183378
                    -0.000222876     0.000292761         0.137757       0.0194734      9.80403e-05     -2.1985e-06         0.119212       -0.992869
                       -0.152744      -0.0457323      9.51729e-05    -3.60813e-05        -0.818868       -0.477793      2.13627e-05    -1.08271e-05
                     0.000243868    -0.000219925         0.119092       -0.992883      8.57677e-06     2.09436e-05        0.0295639      -0.0621942
502800                  0.997074       0.0764391     -0.000140434     0.000251375        -0.144206      -0.0454791      0.000228263    -0.000186141
                    -0.000222473     0.000292593          0.14601       0.0210027       9.9425e-05     -2.1415e-06          0.11584       -0.993268
                       -0.144215      -0.0454859      9.63097e-05    -3.47378e-05        -0.829172       -0.460138      2.14908e-05    -4.27565e-06
                     0.000235155    -0.000221958         0.115716       -0.993282      1.14335e-05     3.04255e-05        0.0255709      -0.0688399
506000                  0.995093       0.0989434     -0.000138585     0.000249842        -0.135111      -0.0453775      0.000220511    -0.000188778
                    -0.000222027     0.000292405         0.154662       0.0227791       0.00010086     -2.0899e-06         0.112983       -0.993597
                        -0.13512       -0.045384      9.75151e-05     -3.3359e-05        -0.839475       -0.440934      2.23387e-05     3.03821e-06
                     0.000225961    -0.000223748         0.112854       -0.993612      1.59405e-05     4.05038e-05        0.0213809      -0.0759787
509200                  0.992313        0.123753     -0.000136577     0.000248138        -0.125396      -0.0454521      0.000212261    -0.000191253
                    -0.000221531     0.000292196         0.163739       0.0248355      0.000102349    -2.04443e-06         0.110933       -0.993828
                       -0.125405      -0.0454583      9.87942e-05    -3.19445e-05         -0.84968       -0.420026      2.41732e-05     1.11198e-05
                     0.000216269    -0.000225249         0.110798       -0.993843      2.24859e-05     5.08778e-05         0.016982      -0.0836658
512400                  0.988505        0.151186      -0.00013439     0.000246234        -0.115003      -0.0457417      0.000203482    -0.000193522
                    -0.000220975      0.00029196         0.173266        0.027209      0.000103895    -2.00591e-06         0.110127       -0.993918
                       -0.115012      -0.0457476      0.000100153    -3.04941e-05        -0.859666       -0.397245      2.73258e-05     1.99028e-05
                     0.000206062    -0.000226408         0.109986       -0.993933      3.14237e-05     6.10574e-05        0.0123619      -0.0919645
515600                  0.983371        0.181609     -0.000131999     0.000244093        -0.103865       -0.046293      0.000194146    -0.000195535
                    -0.000220349     0.000291692         0.183268       0.0299424        0.0001055    -1.97525e-06         0.111244       -0.993793
                       -0.103874      -0.0462986      0.000101597    -2.90078e-05        -0.869277       -0.372411       3.2183e-05     2.92046e-05
                     0.000195326    -0.000227169         0.111094        -0.99381      4.29785e-05     7.03427e-05       0.00750824       -0.100948
518800                  0.976518        0.215434     -0.000129377     0.000241672       -0.0919081      -0.0471634      0.000184227    -0.000197236
                    -0.000219638     0.000291385         0.193774       0.0330845      0.000107168    -1.95348e-06         0.115368       -0.993323
                      -0.0919172      -0.0471687      0.000103133    -2.74858e-05        -0.878321       -0.345335      3.91517e-05     3.86708e-05
                     0.000184052    -0.000227466         0.115209       -0.993341      5.71185e-05     7.78572e-05       0.00240881       -0.110702
522000                  0.967434        0.253122      -0.00012649     0.000238912       -0.0790508      -0.0484228        0.0001737    -0.000198556
                    -0.000218823     0.000291031          0.20481       0.0366914      0.000108903    -1.94175e-06         0.124313       -0.992243
                      -0.0790598      -0.0484278      0.000104768    -2.59285e-05        -0.886552        -0.31582      4.85824e-05     4.77251e-05
                     0.000172237    -0.000227227         0.124141       -0.992265      7.34364e-05     8.26667e-05      -0.00294785       -0.121325
525200                  0.955445        0.295168     -0.000123299     0.000235742       -0.0652018      -0.0501573      0.000162545    -0.000199421
                     -0.00021788     0.000290616         0.216405       0.0408274      0.000110709    -1.94136e-06         0.141278        -0.98997
                      -0.0652108      -0.0501619       0.00010651    -2.43369e-05        -0.893671        -0.28367      6.06434e-05     5.55535e-05
                     0.000159883    -0.000226372         0.141092       -0.989997      9.11003e-05      8.3982e-05      -0.00857168       -0.132934
528400                  0.939673        0.342075     -0.000119759     0.000232068       -0.0502605      -0.0524729      0.000150748    -0.000199744
                    -0.000216776     0.000290126         0.228587       0.0455665       0.00011259    -1.95376e-06         0.172344       -0.985037
                      -0.0502693       -0.052477      0.000108368    -2.27122e-05        -0.899306       -0.248697      7.51616e-05     6.11705e-05
                     0.000147003    -0.000224817         0.172139       -0.985073      0.000108941     8.13914e-05         -0.01447       -0.145665
531600                  0.918978        0.394308     -0.000115815     0.000227765       -0.0341162      -0.0555006      0.000138302    -0.000199429
                    -0.000215467     0.000289536         0.241381       0.0509937      0.000114551    -1.98061e-06         0.230188       -0.973146
                      -0.0341248      -0.0555043      0.000110351    -2.10562e-05        -0.903005       -0.210734      9.14929e-05     6.36022e-05
                      0.00013362    -0.000222469          0.22996         -0.9732       0.00012568     7.50149e-05       -0.0206459       -0.159681
534800                  0.891917          0.4522     -0.000111406      0.00022267       -0.0166482      -0.0594033      0.000125213    -0.000198366
                    -0.000213888     0.000288812         0.254811       0.0572066      0.000116597    -2.02376e-06         0.344207       -0.938894
                      -0.0166566      -0.0594065      0.000112468    -1.93715e-05        -0.904226       -0.169657       0.00010852     6.21675e-05
                     0.000119768    -0.000219229         0.343962       -0.938983      0.000140225     6.54905e-05       -0.0270956       -0.175176
538000                  0.856707        0.515803     -0.000106461     0.000216557       0.00227298      -0.0643837      0.000111497    -0.000196437
                     -0.00021195     0.000287906         0.268897       0.0643175      0.000118732    -2.08533e-06         0.583132       -0.812377
                      0.00226483      -0.0643864      0.000114731    -1.76611e-05        -0.902325       -0.125406      0.000124853      5.6741e-05
                     0.000105499    -0.000214995         0.582941       -0.812514      0.000151884     5.37944e-05        -0.033805       -0.192381
541200                   0.81127        0.584672     -0.000100906     0.000209114        0.0227833      -0.0706951      9.71907e-05    -0.000193514
                    -0.000209511     0.000286738         0.283652       0.0724552      0.000120964    -2.16771e-06         0.948808       -0.315854
                       0.0227755      -0.0706972      0.000117152    -1.59293e-05        -0.896551      -0.0780211      0.000139173     4.78445e-05
                     9.08821e-05    -0.000209662         0.948838       -0.315763      0.000160436     4.09863e-05       -0.0407443       -0.211577
544400                  0.753386        0.657578     -9.46727e-05     0.000199898        0.0450206      -0.0786548      8.23515e-05    -0.000189457
                     -0.00020635     0.000285176         0.299082       0.0817674      0.000123299    -2.27362e-06         0.919772        0.392454
                       0.0450133      -0.0786562      0.000119743    -1.41811e-05        -0.886052      -0.0276856      0.000150573      3.6493e-05
                     7.60044e-05    -0.000203125         0.919638        0.392766      0.000166053     2.79954e-05       -0.0478599       -0.233103
547600                  0.681064        0.732224     -8.77216e-05     0.000188263        0.0691165      -0.0886606      6.70618e-05    -0.000184126
                    -0.000202094     0.000282987         0.315178        0.092423      0.000125742    -2.40614e-06         0.736857        0.676049
                       0.0691098      -0.0886615      0.000122517    -1.24232e-05        -0.869889       0.0252254      0.000158709     2.38823e-05
                     6.09762e-05    -0.000195284         0.736701        0.676218       0.00016915     1.55076e-05       -0.0550623       -0.257376
550800                  0.593148        0.805093     -8.01069e-05     0.000173253        0.0951819       -0.101212       5.1434e-05    -0.000177375
                    -0.000196058     0.000279707         0.331916        0.104614      0.000128303     -2.5688e-06         0.641427        0.767184
                       0.0951759       -0.101212      0.000125489    -1.06635e-05        -0.847072       0.0800885       0.00016374     1.10885e-05
                     4.59309e-05    -0.000186045         0.641321        0.767272      0.000170235     3.94955e-06       -0.0622079       -0.284905
554000                  0.481495        0.856423      -7.2123e-05     0.000153407         0.123284       -0.116934      3.56138e-05    -0.000169065
                    -0.000186848     0.000274287         0.349246        0.118559      0.000130989    -2.76564e-06         0.603759        0.797167
                        0.123279       -0.116934      0.000128675    -8.91176e-06        -0.816621        0.135977      0.000166138    -1.10243e-06
                     3.10256e-05     -0.00017533         0.603695        0.797216      0.000169808    -6.46835e-06       -0.0690711        -0.31632
557200                  0.337631        0.836068     -6.46656e-05     0.000126488         0.153411       -0.136606      1.97834e-05    -0.000159068
                    -0.000171158     0.000263789         0.367089        0.134502      0.000133809    -3.00126e-06         0.598424        0.801179
                        0.153407       -0.136605      0.000132092    -7.18006e-06        -0.777661        0.191618      0.000166493    -1.22237e-05
                     1.64408e-05    -0.000163078         0.598389        0.801206      0.000168304    -1.56902e-05       -0.0753008       -0.352402
560400                  0.202067        0.779175     -6.01232e-05     8.91264e-05         0.185413       -0.161189      4.16216e-06    -0.000147276
                      -0.0001392     0.000236397         0.385323        0.152715      0.000136773    -3.28097e-06         0.613228        0.789906
                         0.18541       -0.161187      0.000135756    -5.48285e-06        -0.729539        0.245379      0.000165374    -2.20713e-05
                     2.37827e-06    -0.000149253         0.613213        0.789918      0.000166073    -2.37563e-05       -0.0803529        -0.39412
563600                 0.0877208        0.691708     -6.45401e-05      3.6855e-05         0.218919       -0.191848      -1.0994e-05    -0.000133615
                    -6.72504e-05     8.94619e-05         0.403774        0.173496      0.000139892    -3.61085e-06         0.573274        0.684648
                        0.218918       -0.191847      0.000139686    -3.83756e-06        -0.671977        0.295297      0.000163263    -3.06199e-05
                    -1.09425e-05    -0.000133852         0.573271        0.684647      0.000163383    -3.07591e-05       -0.0833836       -0.442669
564000                 0.0753919        0.679144     -6.62996e-05     2.90623e-05         0.223182       -0.196174     -1.28418e-05    -0.000131774
                    -6.62776e-05     3.11148e-05         0.406084         0.17629      0.000140293    -3.65596e-06         0.562925         0.66452
                        0.223181       -0.196172      0.000140197    -3.63655e-06        -0.664123        0.301159      0.000162949    -3.16003e-05
                    -1.25439e-05    -0.000131818         0.562923        0.664519      0.000163025    -3.15653e-05       -0.0835616       -0.449288
566800                0.00269645        0.584675     -9.21686e-05    -3.31508e-05         0.253212       -0.229956     -2.53972e-05    -0.000118052
                    -0.000536177     0.000196336         0.422197        0.197165      0.000143177    -3.99796e-06         0.502094        0.539834
                        0.253212       -0.229955        0.0001439    -2.26503e-06        -0.605219        0.339179      0.000160533    -3.79478e-05
                    -2.32899e-05     -0.00011691         0.502101        0.539831      0.000160432    -3.68134e-05       -0.0830801       -0.499512
570000                -0.0511792        0.470317     -0.000169451    -0.000108761         0.287054       -0.277049     -3.87354e-05    -0.000100608
                    -0.000349731      0.00031093         0.440263        0.224054      0.000146642     -4.4504e-06         0.450924        0.425086
                        0.287057       -0.277048      0.000148418    -7.90087e-07        -0.530156        0.374771      0.000157456    -4.41827e-05
