! TOUCHSTONE file generated by CST MICROWAVE STUDIO
! Date and time: Mon Oct 20 08:27:42 2025
! Project name: Teste_Macro_Metasurface_Nanopilar.cst
! Parameters = {H=600; L_x=160; L_y=175; Lambda=1064; Max_L=200; Min_L=70; PathPara=1; Phi=0; Step_L=10; Theta=0; p=520; phaseX=180; phaseY=0}
! Header version: 2018
! Port assignment regex: !\s*Touchstone port\s*([0-9]+)\s*=\s*(CST MWS port|CST DS port)\s*([0-9]+|Zmin|Zmax)\s*\(\"(.*)\"\)(\s*mode\s*([0-9]+))?.*
! Touchstone port assignment:
! Touchstone port 1 = CST MWS port Zmax ("") mode 1
! Touchstone port 2 = CST MWS port Zmax ("") mode 2
! Touchstone port 3 = CST MWS port Zmin ("") mode 1
! Touchstone port 4 = CST MWS port Zmin ("") mode 2
! S-Parameters are not renormalized. Each port impedance will be approximated by the real part at minimum frequency. The values are described via the [Reference] keyword.
! Default impedance is overridden by [Reference]
[Version] 2.0
# GHz S RI R 376.73
[Number of Ports] 4
[Reference]
376.73 376.73 259.888 259.888 
[Number of Frequencies] 52
[Network Data]
474000                  0.516708        0.630264      7.01791e-05    -4.53393e-05        -0.216139       -0.510023     -4.36667e-06     1.58414e-05
                     7.02128e-05    -4.53484e-05        -0.195062        0.158232      0.000126516    -4.36377e-05         0.917354        -0.06631
                       -0.216113       -0.510047      0.000118004    -8.87822e-05       -0.0833213       -0.799044     -1.72692e-05     0.000155986
                    -4.39853e-06      1.5825e-05         0.917354        -0.06631     -1.48743e-05      0.00013501         0.253207       0.0939829
477200                   0.51067        0.635905      6.64718e-05    -4.45477e-05        -0.202018       -0.520751      -4.3014e-06     1.55772e-05
                     6.65057e-05     -4.4586e-05        -0.196531        0.153651      0.000126137    -4.23588e-05         0.890261      -0.0615794
                        -0.20199       -0.520774      0.000117912    -8.68334e-05       -0.0560657       -0.782613     -1.75644e-05      0.00015234
                    -4.32495e-06     1.55661e-05         0.890265      -0.0615812      -1.4747e-05     0.000131812          0.26414        0.102408
480400                  0.504064        0.641912      6.26392e-05    -4.37316e-05        -0.186552       -0.531854     -4.23357e-06     1.53024e-05
                     6.26733e-05     -4.3799e-05        -0.198069        0.148715      0.000125737    -4.10281e-05         0.862903       -0.057078
                       -0.186522       -0.531876      0.000117805    -8.48021e-05       -0.0291289       -0.765362     -1.78339e-05     0.000148594
                    -4.24847e-06     1.52969e-05         0.862911      -0.0570815     -1.46067e-05     0.000128533         0.275563        0.111766
483600                   0.49681        0.648318      5.86751e-05    -4.28897e-05        -0.169573       -0.543309     -4.16302e-06     1.50164e-05
                     5.87091e-05    -4.29862e-05         -0.19968        0.143383      0.000125315    -3.96425e-05         0.835279      -0.0528126
                       -0.169541       -0.543331      0.000117684     -8.2683e-05      -0.00254648         -0.7473     -1.80753e-05     0.000144746
                    -4.16892e-06     1.50167e-05          0.83529      -0.0528174     -1.44526e-05     0.000125172          0.28748        0.122183
486800                  0.488812        0.655158      5.45724e-05    -4.20209e-05        -0.150885       -0.555083     -4.08958e-06     1.47184e-05
                     5.46062e-05    -4.21463e-05        -0.201366        0.137606      0.000124868    -3.81986e-05         0.807389      -0.0487899
                       -0.150851       -0.555104      0.000117545    -8.04704e-05        0.0236459       -0.728435      -1.8286e-05     0.000140792
                    -4.08612e-06     1.47248e-05         0.807403       -0.048796     -1.42836e-05     0.000121723         0.299887        0.133802
490000                  0.479957        0.662471      5.03238e-05    -4.11237e-05        -0.130265       -0.567119     -4.01306e-06     1.44078e-05
                     5.03572e-05     -4.1278e-05        -0.203129        0.131325      0.000124396    -3.66927e-05         0.779234      -0.0450169
                       -0.130229       -0.567139      0.000117387    -7.81581e-05        0.0494131        -0.70878     -1.84631e-05     0.000136728
                    -3.99985e-06     1.44204e-05         0.779251      -0.0450241     -1.40987e-05     0.000118185         0.312769        0.146789
493200                  0.470107        0.670298      4.59214e-05    -4.01969e-05        -0.107458       -0.579336     -3.93328e-06     1.40836e-05
                     4.59542e-05    -4.03798e-05        -0.204971        0.124475      0.000123895    -3.51206e-05         0.750814      -0.0415007
                       -0.107419       -0.579355      0.000117207    -7.57392e-05          0.07472       -0.688348     -1.86035e-05      0.00013255
                    -3.90991e-06     1.41027e-05         0.750834      -0.0415089      -1.3897e-05     0.000114554         0.326091        0.161332
496400                  0.459096         0.67868      4.13567e-05     -3.9239e-05       -0.0821697       -0.591614     -3.85002e-06      1.3745e-05
                     4.13885e-05    -3.94502e-05        -0.206889        0.116975      0.000123363    -3.34781e-05         0.722131      -0.0382485
                      -0.0821279       -0.591631      0.000117004    -7.32064e-05        0.0995325       -0.667156      -1.8704e-05     0.000128254
                    -3.81605e-06     1.37708e-05         0.722153      -0.0382574     -1.36771e-05     0.000110825         0.339799        0.177648
499600                  0.446721        0.687663      3.66206e-05    -3.82482e-05       -0.0540678       -0.603787     -3.76304e-06     1.33911e-05
                     3.66511e-05    -3.84873e-05        -0.208882        0.108731      0.000122798    -3.17604e-05         0.693185      -0.0352675
                      -0.0540233       -0.603802      0.000116774    -7.05517e-05         0.123817       -0.645221     -1.87608e-05     0.000123835
                      -3.718e-06     1.34238e-05         0.693209      -0.0352771     -1.34379e-05     0.000106996         0.353806        0.195983
502800                   0.43273        0.697287      3.17031e-05    -3.72231e-05       -0.0227751       -0.615623      -3.6721e-06     1.30206e-05
                      3.1732e-05    -3.74895e-05        -0.210942       0.0996297      0.000122196    -2.99622e-05         0.663977      -0.0325651
                      -0.0227278       -0.615636      0.000116514     -6.7766e-05         0.147541       -0.622562     -1.87701e-05     0.000119289
                    -3.61549e-06     1.30607e-05         0.664004      -0.0325751      -1.3178e-05     0.000103061         0.367986        0.216613
506000                  0.416814        0.707588      2.65937e-05    -3.61617e-05          0.01213       -0.626804     -3.57691e-06     1.26325e-05
                     2.66206e-05    -3.64549e-05        -0.213058       0.0895327      0.000121554    -2.80778e-05         0.634509      -0.0301487
                       0.0121802       -0.626814       0.00011622    -6.48398e-05         0.170672       -0.599202     -1.87276e-05     0.000114611
                    -3.50819e-06     1.26801e-05         0.634537       -0.030159      -1.2896e-05     9.90178e-05         0.382156        0.239851
509200                   0.39858        0.718588      2.12809e-05    -3.50622e-05        0.0511114       -0.636898     -3.47717e-06     1.22254e-05
                     2.13055e-05    -3.53812e-05        -0.215209       0.0782732      0.000120868    -2.61009e-05         0.604782      -0.0280259
                       0.0511643       -0.636904      0.000115888    -6.17624e-05          0.19318       -0.575164     -1.86288e-05     0.000109796
                    -3.39577e-06      1.2281e-05         0.604811      -0.0280364     -1.25901e-05     9.48602e-05         0.396061        0.266035
512400                  0.377536        0.730283      1.57524e-05    -3.39224e-05        0.0946658       -0.645323     -3.37254e-06      1.1798e-05
                     1.57741e-05    -3.42663e-05        -0.217363       0.0656454      0.000120133    -2.40248e-05         0.574797      -0.0262042
                       0.0947212       -0.645325      0.000115513     -5.8522e-05         0.215035       -0.550472     -1.84685e-05      0.00010484
                    -3.27785e-06     1.18618e-05         0.574828      -0.0262148     -1.22588e-05     9.05841e-05         0.409354        0.295532
515600                  0.353052        0.742624       9.9947e-06    -3.27401e-05         0.143303       -0.651303     -3.26267e-06     1.13486e-05
                     1.00131e-05    -3.31079e-05        -0.219468       0.0513943      0.000119346    -2.18419e-05         0.544558      -0.0246915
                        0.143361         -0.6513       0.00011509    -5.51057e-05          0.23621       -0.525155     -1.82415e-05     9.97362e-05
                    -3.15402e-06      1.1421e-05         0.544589       -0.024702     -1.19002e-05     8.61844e-05         0.421569        0.328718
518800                   0.32432        0.755479      3.99329e-06     -3.1513e-05         0.197509       -0.653815     -3.14713e-06     1.08756e-05
                     4.00769e-06    -3.19032e-05        -0.221447          0.0352        0.0001185    -1.95439e-05         0.514064      -0.0234955
                        0.197569       -0.653807      0.000114611    -5.14991e-05         0.256678       -0.499241     -1.79417e-05     9.44801e-05
                    -3.02382e-06      1.0957e-05         0.514096      -0.0235059     -1.15122e-05     8.16556e-05          0.43209        0.365963
522000                  0.290294        0.768577     -2.26762e-06    -3.02384e-05         0.257681        -0.65153      -3.0255e-06      1.0377e-05
                    -2.25785e-06    -3.06495e-05        -0.223176       0.0166577       0.00011759    -1.71216e-05          0.48332      -0.0226241
                        0.257742       -0.651515      0.000114069    -4.76864e-05         0.276414       -0.472759     -1.75628e-05     8.90658e-05
                    -2.88675e-06     1.04677e-05         0.483352      -0.0226341     -1.10927e-05     7.69923e-05          0.44012        0.407586
525200                  0.249616        0.781401     -8.80524e-06    -2.89137e-05         0.324025       -0.642749     -2.89725e-06      9.8506e-06
                    -8.80084e-06    -2.93437e-05        -0.224468     -0.00475032      0.000116607     -1.4565e-05         0.452326      -0.0220853
                        0.324085       -0.642727      0.000113455      -4.365e-05         0.295396       -0.445741     -1.70978e-05     8.34877e-05
                    -2.74225e-06     9.95118e-06         0.452359      -0.0220948     -1.06394e-05     7.21885e-05         0.444654        0.453805
528400                  0.200532        0.793018     -1.56383e-05    -2.75358e-05         0.396397       -0.625371     -2.76186e-06     9.29413e-06
                    -1.56401e-05    -2.79826e-05        -0.225026      -0.0296936      0.000115544    -1.18627e-05         0.421087      -0.0218869
                        0.396455        -0.62534      0.000112759    -3.93701e-05         0.313601       -0.418219     -1.65391e-05     7.77397e-05
                    -2.58969e-06     9.40501e-06         0.421119       -0.021896     -1.01497e-05     6.72377e-05         0.444457        0.504652
531600                  0.140805         0.80177     -2.27873e-05    -2.61015e-05         0.474084       -0.596888     -2.61869e-06     8.70489e-06
                    -2.27963e-05    -2.65625e-05        -0.224379      -0.0590459      0.000114392    -9.00227e-06         0.389604      -0.0220372
                        0.474139       -0.596849       0.00011197     -3.4825e-05          0.33101       -0.390227     -1.58786e-05     7.18158e-05
                    -2.42839e-06     8.82657e-06         0.389635      -0.0220457     -9.62078e-06     6.21335e-05         0.438074        0.559866
534800                 0.0677007        0.804752     -3.02747e-05    -2.46073e-05         0.555518       -0.554494     -2.46707e-06     8.07991e-06
                    -3.02919e-05    -2.50796e-05        -0.221768      -0.0939548       0.00011314    -5.96987e-06         0.357881      -0.0225442
                        0.555566       -0.554448      0.000111071    -2.99902e-05         0.347605         -0.3618     -1.51073e-05     6.57096e-05
                    -2.25758e-06     8.21292e-06         0.357911       -0.022552     -9.04966e-06     5.68686e-05         0.423882        0.618759
538000                -0.0217967        0.796935      -3.8125e-05    -2.30495e-05         0.637954       -0.495349     -2.30622e-06     7.41582e-06
                    -3.81517e-05    -2.35296e-05        -0.215942        -0.13593      0.000111775    -2.74993e-06         0.325922      -0.0234162
                        0.637993       -0.495296      0.000110048    -2.48382e-05         0.363372       -0.332973     -1.42155e-05     5.94149e-05
                    -2.07638e-06     7.56074e-06          0.32595      -0.0234233     -8.43305e-06     5.14357e-05         0.400208        0.680073
541200                 -0.130106        0.769825     -4.63653e-05    -2.14241e-05          0.71721       -0.417072     -2.13527e-06     6.70884e-06
                    -4.64028e-05    -2.19079e-05        -0.204793       -0.186932      0.000110283     6.74906e-07         0.293729      -0.0246614
                        0.717238       -0.417015      0.000108879    -1.93382e-05         0.378297       -0.303782     -1.31926e-05     5.29251e-05
                    -1.88382e-06     6.86629e-06         0.293755      -0.0246676     -7.76736e-06     4.58267e-05         0.365538        0.741873
544400                 -0.256575        0.709842     -5.50254e-05    -1.97265e-05         0.787624       -0.318494     -1.95324e-06     5.95468e-06
                    -5.50753e-05    -2.02095e-05        -0.184677       -0.249396      0.000108646     4.32413e-06         0.261307       -0.026288
                        0.787639       -0.318436      0.000107541    -1.34556e-05         0.392368       -0.274264      -1.2027e-05     4.62336e-05
                    -1.67881e-06     6.12531e-06         0.261331      -0.0262935     -7.04867e-06     4.00331e-05         0.318822        0.801506
547600                 -0.391901         0.59794     -6.41381e-05    -1.79521e-05         0.842443       -0.200553     -1.75902e-06     5.14845e-06
                    -6.42022e-05    -1.84287e-05        -0.149171       -0.325956      0.000106846     8.21968e-06          0.22866      -0.0283045
                        0.842445       -0.200499      0.000106005    -7.15122e-06         0.405575       -0.244456     -1.07064e-05     3.93338e-05
                    -1.46009e-06     5.33298e-06         0.228681       -0.028309     -6.27272e-06     3.40461e-05         0.259829         0.85573
550800                  -0.50916        0.415307     -7.37399e-05    -1.60955e-05         0.874821      -0.0670509     -1.55134e-06     4.28456e-06
                    -7.38201e-05    -1.65594e-05       -0.0868718       -0.418137      0.000104858     1.23862e-05         0.195791      -0.0307191
                        0.874813      -0.0670061      0.000104238    -3.80816e-07         0.417913       -0.214396     -9.21698e-06      3.2219e-05
                    -1.22623e-06     4.48376e-06         0.195809      -0.0307227     -5.43481e-06      2.7856e-05         0.189465        0.901029
554000                 -0.559432        0.162563     -8.38711e-05    -1.41511e-05         0.879333       0.0752001     -1.32876e-06      3.3566e-06
                      -8.397e-05    -1.45951e-05        0.0217834       -0.521891      0.000102655     1.68518e-05         0.162706      -0.0335401
                        0.879319       0.0752328      0.000102197      6.9057e-06         0.429376       -0.184119     -7.54404e-06     2.48827e-05
                    -9.75632e-07     3.57129e-06          0.16272      -0.0335429     -4.52984e-06     2.14527e-05         0.109943        0.934128
557200                  -0.49382       -0.114697     -9.45769e-05    -1.21128e-05         0.853543        0.217195     -1.08961e-06     2.35717e-06
                     -9.4697e-05    -1.25282e-05         0.205401       -0.615187      0.000100203     2.16479e-05          0.12941      -0.0367761
                        0.853528        0.217215      9.98305e-05     1.47652e-05          0.43996       -0.153665     -5.67143e-06     1.73182e-05
                    -7.06413e-07     2.58825e-06          0.12942       -0.036778     -3.55217e-06     1.48252e-05        0.0246541         0.95258
560400                 -0.312794       -0.336671     -0.000105907    -9.97362e-06         0.798924        0.349466     -8.31969e-07     1.27767e-06
                    -0.000106052    -1.03507e-05         0.483574       -0.634983       9.7463e-05     2.68105e-05        0.0959071      -0.0404353
                        0.798913        0.349474      9.70775e-05     2.32621e-05         0.449666       -0.123069     -3.58161e-06     9.51934e-06
                    -4.16428e-07     1.52611e-06        0.0959126      -0.0404364     -2.49564e-06     7.96211e-06       -0.0622618        0.955263
563600                -0.0777846       -0.451272     -0.000117919     -7.7263e-06         0.720588        0.464091     -5.53621e-07     1.08101e-07
                    -0.000118091    -8.05342e-06         0.800307       -0.481764      9.43855e-05     3.23803e-05        0.0622033      -0.0445262
                        0.720586        0.464091      9.38603e-05     3.24697e-05         0.458493      -0.0923696     -1.25551e-06     1.47992e-06
                    -1.03183e-07     3.74922e-07        0.0622038      -0.0445265     -1.35347e-06     8.50992e-07        -0.146564        0.942588
564000                 -0.048338       -0.457968     -0.000119471    -7.43738e-06         0.709485        0.476896     -5.17246e-07    -4.49939e-08
                    -0.000119647    -7.75735e-06         0.834601       -0.447721      9.39744e-05     3.31075e-05        0.0579765      -0.0450684
                        0.709484        0.476895       9.3421e-05     3.36746e-05         0.459535      -0.0885266     -9.47118e-07      4.5779e-07
                    -6.22516e-08     2.24203e-07        0.0579763      -0.0450685     -1.20431e-06    -5.59814e-08        -0.156725        0.940001
566800                  0.143175       -0.467361     -0.000130675    -5.36269e-06         0.625944        0.556157     -2.51962e-07    -1.16332e-06
                    -0.000130879    -5.62632e-06         0.987397       -0.147287      9.09121e-05     3.84039e-05        0.0283041      -0.0490572
                        0.625952        0.556153      9.00832e-05      4.2471e-05         0.466446      -0.0616018      1.32761e-06    -6.80575e-06
                     2.36233e-07    -8.76991e-07        0.0282992      -0.0490567     -1.18175e-07    -6.52131e-06         -0.22457        0.916352
570000                  0.317645       -0.424055     -0.000144246     -2.8739e-06         0.522912        0.624144      7.60582e-08    -2.55049e-06
                    -0.000144488    -3.05822e-06         0.953896        0.198605      8.69703e-05     4.49339e-05      -0.00578433      -0.0540365
                        0.522929        0.624141      8.56262e-05     5.33599e-05         0.473528      -0.0308018      4.19028e-06    -1.53429e-05
