! TOUCHSTONE file generated by CST MICROWAVE STUDIO
! Date and time: Mon Oct 20 08:27:27 2025
! Project name: Teste_Macro_Metasurface_Nanopilar.cst
! Parameters = {H=600; L_x=115; L_y=145; Lambda=1064; Max_L=200; Min_L=70; PathPara=1; Phi=0; Step_L=10; Theta=0; p=520; phaseX=180; phaseY=0}
! Header version: 2018
! Port assignment regex: !\s*Touchstone port\s*([0-9]+)\s*=\s*(CST MWS port|CST DS port)\s*([0-9]+|Zmin|Zmax)\s*\(\"(.*)\"\)(\s*mode\s*([0-9]+))?.*
! Touchstone port assignment:
! Touchstone port 1 = CST MWS port Zmax ("") mode 1
! Touchstone port 2 = CST MWS port Zmax ("") mode 2
! Touchstone port 3 = CST MWS port Zmin ("") mode 1
! Touchstone port 4 = CST MWS port Zmin ("") mode 2
! S-Parameters are not renormalized. Each port impedance will be approximated by the real part at minimum frequency. The values are described via the [Reference] keyword.
! Default impedance is overridden by [Reference]
[Version] 2.0
# GHz S RI R 376.73
[Number of Ports] 4
[Reference]
376.73 376.73 259.888 259.888 
[Number of Frequencies] 52
[Network Data]
474000                  0.206678     -0.00892242      4.70671e-05     0.000107153        -0.914152        0.333851     -5.49776e-05     0.000108325
                     3.90126e-05     9.69244e-05         0.406173       -0.479077      4.01741e-05     -7.4443e-05        -0.495253        0.500585
                       -0.914165        0.333827      3.01233e-05    -5.49902e-05        -0.162028        0.123452      0.000127798     8.07342e-05
                     -3.1203e-05     0.000105015        -0.495258        0.500575      0.000167885     5.62784e-05        -0.412011        0.512603
477200                  0.212139     -0.00975778      4.77593e-05     0.000109953        -0.888073        0.337741     -5.72932e-05     0.000110282
                     3.97046e-05     9.97263e-05         0.390843       -0.474635      4.28522e-05    -7.41906e-05        -0.648391         0.43258
                       -0.888085        0.337714      3.22874e-05    -5.43659e-05        -0.162326        0.124092      0.000128052     7.83762e-05
                    -3.29572e-05     0.000106803        -0.648394        0.432583      0.000167348     5.32722e-05        -0.418097        0.489291
480400                  0.217982      -0.0107259      4.84907e-05      0.00011293        -0.861202        0.340916      -5.9811e-05     0.000112411
                     4.04372e-05     0.000102707         0.375276        -0.46929      4.57424e-05    -7.38302e-05        -0.799881        0.322999
                       -0.861213        0.340887      3.46018e-05    -5.36159e-05        -0.162648        0.124781      0.000128277     7.59073e-05
                    -3.48606e-05     0.000108745        -0.799889        0.323018       0.00016673     5.01527e-05        -0.422668        0.464399
483600                  0.224249        -0.01185      4.92647e-05     0.000116099        -0.833543        0.343311     -6.25585e-05     0.000114738
                      4.1214e-05     0.000105884         0.359533       -0.462982      4.88662e-05    -7.33364e-05         -0.93398         0.16835
                       -0.833552        0.343279       3.7078e-05    -5.27161e-05        -0.162994        0.125527      0.000128467     7.33208e-05
                    -3.69331e-05     0.000110862           -0.934        0.168383      0.000166023     4.69154e-05         -0.42543        0.438002
486800                  0.230984      -0.0131579      5.00851e-05     0.000119482        -0.805104        0.344858     -6.55688e-05      0.00011729
                     4.20392e-05     0.000109277         0.343683       -0.455657      5.22467e-05    -7.26783e-05        -0.999662      -0.0259839
                       -0.805112        0.344823      3.97272e-05    -5.16374e-05        -0.163369        0.126336      0.000128618     7.06093e-05
                    -3.91984e-05     0.000113179        -0.999663      -0.0259433      0.000165216     4.35554e-05        -0.426072        0.410234
490000                   0.23824      -0.0146836      5.09562e-05       0.0001231        -0.775899        0.345485     -6.88813e-05     0.000120102
                     4.29172e-05      0.00011291         0.327806       -0.447266      5.59087e-05    -7.18167e-05        -0.974531       -0.224252
                       -0.775906        0.345446      4.25601e-05    -5.03444e-05        -0.163775        0.127216      0.000128722     6.77649e-05
                    -4.16845e-05     0.000115725        -0.974542       -0.224206        0.0001643     4.00682e-05        -0.424287        0.381293
493200                  0.246076      -0.0164686      5.18826e-05     0.000126978        -0.745947        0.345118     -7.25442e-05     0.000123215
                     4.38534e-05     0.000116808          0.31199       -0.437764      5.98781e-05    -7.07034e-05        -0.913681       -0.406431
                       -0.745954        0.345076      4.55858e-05    -4.87946e-05        -0.164218        0.128177      0.000128772     6.47795e-05
                    -4.44256e-05     0.000118537        -0.913702       -0.406386      0.000163263     3.64493e-05        -0.419778        0.351447
496400                  0.254562       -0.018564      5.28699e-05     0.000131145        -0.715274         0.34368     -7.66159e-05     0.000126682
                     4.48537e-05     0.000121002         0.296335       -0.427117       6.4181e-05    -6.92773e-05        -0.825633       -0.564207
                        -0.71528        0.343636      4.88105e-05    -4.69363e-05        -0.164702        0.129232      0.000128759     6.16442e-05
                    -4.74629e-05     0.000121657        -0.825661       -0.564167      0.000162091     3.26941e-05         -0.41228        0.321042
499600                  0.263774      -0.0210333      5.39239e-05     0.000135635        -0.683911        0.341095      -8.1169e-05     0.000130565
                     4.59248e-05     0.000125526         0.280947       -0.415298      6.88418e-05    -6.74625e-05        -0.720565       -0.693387
                       -0.683916        0.341047      5.22354e-05     -4.4707e-05        -0.165233        0.130394      0.000128674     5.83498e-05
                    -5.08471e-05     0.000125141        -0.720597       -0.693354      0.000160772     2.87986e-05        -0.401581        0.290492
502800                  0.273804      -0.0239556      5.50517e-05     0.000140488        -0.651897        0.337282     -8.62943e-05     0.000134945
                     4.70743e-05     0.000130422          0.26594       -0.402293      7.38806e-05    -6.51638e-05        -0.608073       -0.793881
                       -0.651903         0.33723      5.58538e-05    -4.20319e-05        -0.165819         0.13168      0.000128504     5.48865e-05
                    -5.46413e-05     0.000129054        -0.608105       -0.793856      0.000159288      2.4759e-05        -0.387543        0.260277
506000                  0.284756      -0.0274304       5.6261e-05     0.000145748        -0.619281         0.33216     -9.21068e-05     0.000139923
                     4.83111e-05     0.000135737         0.251437       -0.388103      7.93084e-05    -6.22623e-05        -0.495659       -0.868517
                       -0.619287        0.332106      5.96468e-05    -3.88218e-05        -0.166468        0.133113      0.000128238     5.12441e-05
                    -5.89249e-05     0.000133483         -0.49569       -0.868499      0.000157622     2.05721e-05         -0.37012        0.230921
509200                   0.29675      -0.0315844      5.75608e-05     0.000151469        -0.586118        0.325651     -9.87546e-05     0.000145632
                     4.96454e-05     0.000141526         0.237563       -0.372743      8.51204e-05    -5.86108e-05        -0.388292       -0.921536
                       -0.586125        0.325593      6.35771e-05     -3.4972e-05        -0.167191        0.134717      0.000127859     4.74121e-05
                    -6.37988e-05     0.000138535        -0.388321       -0.921524      0.000155755     1.62353e-05        -0.349376        0.202975
512400                  0.309925      -0.0365793      5.89612e-05     0.000157715        -0.552472        0.317675     -0.000106432     0.000152243
                     5.10888e-05     0.000147858         0.224445       -0.356244      9.12848e-05    -5.40288e-05         -0.28872       -0.957414
                        -0.55248        0.317614      6.75809e-05    -3.03621e-05        -0.168001        0.136527       0.00012735     4.33794e-05
                    -6.93942e-05     0.000144353        -0.288745       -0.957406      0.000153666     1.17471e-05         -0.32549        0.176986
515600                   0.32444      -0.0426244       6.0474e-05     0.000164561        -0.518418        0.308153     -0.000115397      0.00015999
                     5.26552e-05     0.000154811          0.21221       -0.338656      9.77269e-05    -4.82996e-05        -0.198077       -0.980187
                       -0.518427        0.308089      7.15568e-05    -2.48587e-05        -0.168917        0.138584      0.000126692     3.91351e-05
                     -7.5884e-05     0.000151125        -0.198099       -0.980182      0.000151331     7.10699e-06        -0.298763        0.153464
518800                  0.340475      -0.0499928      6.21128e-05     0.000172098        -0.484039        0.297013     -0.000126005     0.000169193
                     5.43604e-05     0.000162481         0.200984       -0.320046      0.000104306    -4.11709e-05        -0.116479       -0.993193
                        -0.48405        0.296946      7.53517e-05     -1.8322e-05        -0.169958        0.140942      0.000125861      3.4668e-05
                    -8.35013e-05     0.000159106        -0.116498       -0.993191      0.000148724     2.31628e-06        -0.269599        0.132854
522000                  0.358233      -0.0590442      6.38931e-05     0.000180435        -0.449428        0.284182     -0.000138751     0.000180304
                     5.62233e-05     0.000170986         0.190882       -0.300498      0.000110784    -3.23651e-05       -0.0434705       -0.999055
                       -0.449441        0.284112      7.87456e-05    -1.06201e-05        -0.171152        0.143672      0.000124832     2.99672e-05
                    -9.25676e-05     0.000168651       -0.0434866       -0.999054      0.000145817    -2.62191e-06        -0.238493        0.115506
525200                  0.377932      -0.0702573       6.5833e-05     0.000189708        -0.414688        0.269596     -0.000154355     0.000193986
                      5.8266e-05     0.000180469         0.182014       -0.280115       0.00011679    -2.16059e-05        0.0216777       -0.999765
                       -0.414703        0.269524      8.14368e-05    -1.65386e-06        -0.172538        0.146872      0.000123572     2.50226e-05
                     -0.00010354     0.000180271        0.0216639       -0.999765      0.000142578      -7.702e-06        -0.205997         0.10166
528400                  0.399797      -0.0842756      6.79536e-05     0.000200083        -0.379932        0.253197     -0.000173899     0.000211246
                     6.05147e-05      0.00019111         0.174474       -0.259016      0.000121779    -8.67131e-06        0.0797873       -0.996812
                        -0.37995        0.253122      8.30337e-05     8.60357e-06        -0.174162        0.150672      0.000122049     1.98248e-05
                    -0.000117088     0.000194723        0.0797754       -0.996813      0.000138974    -1.29154e-05        -0.172693       0.0914297
531600                  0.424032       -0.101971       7.0279e-05     0.000211768        -0.345282        0.234933     -0.000199088     0.000233698
                     6.30009e-05     0.000203132         0.168342       -0.237331      0.000125015     6.51554e-06         0.131674       -0.991293
                       -0.345303        0.234856      8.30654e-05     2.00537e-05        -0.176094        0.155258      0.000120222     1.43663e-05
                    -0.000134241     0.000213187         0.131663       -0.991294      0.000134968    -1.82498e-05        -0.139157       0.0848068
534800                  0.450764       -0.124533      7.28372e-05     0.000225027         -0.31087        0.214763      -0.00023278     0.000264097
                     6.57618e-05     0.000216825         0.163681       -0.215204      0.000125591     2.37582e-05         0.178097       -0.984013
                       -0.310893        0.214685      8.10225e-05     3.24114e-05        -0.178428        0.160903      0.000118045      8.6421e-06
                    -0.000156654     0.000237598         0.178088       -0.984015       0.00013052    -2.36885e-05        -0.105933       0.0816705
538000                  0.479933       -0.153586      7.56603e-05       0.0002402        -0.276833        0.192657     -0.000280146     0.000307559
                     6.88421e-05     0.000232562         0.160534       -0.192786      0.000122545     4.24449e-05         0.219739       -0.975559
                        -0.27686        0.192578      7.64416e-05      4.5157e-05        -0.181302        0.168021      0.000115466     2.65059e-06
                    -0.000187179     0.000271379         0.219732        -0.97556      0.000125589    -2.92094e-05       -0.0735013       0.0818044
541200                  0.511082       -0.191338      7.87839e-05     0.000257733         -0.24332        0.168598     -0.000351601      0.00037478
                     7.22951e-05     0.000250835         0.158921       -0.170233       0.00011509     6.14604e-05         0.257204       -0.966357
                        -0.24335        0.168518       6.9032e-05     5.75332e-05        -0.184926        0.177273      0.000112428    -3.60493e-06
                     -0.00023118     0.000321188         0.257197       -0.966359      0.000120131    -3.47839e-05       -0.0422717        0.084919
544400                   0.54296       -0.240719      8.22467e-05      0.00027822        -0.210481         0.14258     -0.000471678     0.000492438
                     7.61838e-05     0.000272309         0.158844       -0.147701       0.00010292     7.92525e-05         0.291014       -0.956719
                       -0.210515          0.1425      5.88114e-05     6.86232e-05        -0.189626        0.189784      0.000108863    -1.01146e-05
                    -0.000300045     0.000401926         0.291009        -0.95672      0.000114099     -4.0376e-05       -0.0125677       0.0906757
547600                   0.57282       -0.305404      8.60865e-05     0.000302474        -0.178474        0.114613     -0.000714688      0.00075038
                     8.05809e-05     0.000297904         0.160281       -0.125345      8.64749e-05     9.41222e-05         0.321625       -0.946867
                       -0.178512        0.114534      4.61931e-05     7.75167e-05        -0.195942        0.207633      0.000104698    -1.68599e-05
                    -0.000422827     0.000555074         0.321619       -0.946869      0.000107447    -4.59408e-05        0.0153721         0.09871
550800                  0.595269        -0.38942      9.03321e-05      0.00033163        -0.147459       0.0847251      -0.00144194      0.00173841
                     8.55653e-05     0.000328928         0.163191       -0.103314      6.69755e-05     0.000104675         0.349284       -0.936585
                         -0.1475       0.0846458      3.19603e-05     8.35202e-05          -0.2048        0.235132      9.98508e-05    -2.38109e-05
                    -0.000699731      0.00095362         0.349291       -0.936619      0.000100126    -5.14234e-05        0.0413901        0.108651
554000                  0.600751       -0.495625      9.49833e-05     0.000367331        -0.117595       0.0529571        0.0072835     -0.00064205
                     9.12104e-05     0.000367301         0.167517      -0.0817473      4.61418e-05     0.000110225         0.370444       -0.916466
                       -0.117639        0.052879      1.71133e-05     8.63244e-05        -0.217748        0.282862      9.42331e-05    -3.09235e-05
                     -0.00144689      0.00386872         0.370451       -0.916496      9.20924e-05    -5.67574e-05         0.065401        0.120141
557200                  0.574628       -0.622016      9.99634e-05      0.00041204       -0.0890418        0.019369       0.00123917    -0.000744298
                     9.75477e-05     0.000415968          0.17318      -0.0607723      2.57234e-05     0.000110919         0.389212       -0.897409
                        -0.08909       0.0192926      2.64838e-06     8.60498e-05        -0.235657         0.38504        8.775e-05    -3.81351e-05
                      0.00197243     -0.00113795          0.38922       -0.897437      8.33038e-05    -6.18639e-05        0.0873812         0.13284
560400                  0.499865       -0.755591      0.000105003     0.000469611       -0.0619561      -0.0159623      0.000656273    -0.000414416
                     0.000104464     0.000479673         0.180093      -0.0405032      7.08326e-06     0.000107562         0.405926       -0.879384
                      -0.0620075      -0.0160366     -1.06379e-05     8.31611e-05        -0.202792         0.72827      8.03027e-05    -4.53613e-05
                         0.00073    -0.000529459         0.405934        -0.87941      7.37246e-05    -6.66503e-05         0.107357        0.146445
563600                  0.367512       -0.868212      0.000109335      0.00054643       -0.0364879       -0.052943      0.000445508     -0.00027464
                     0.000111397     0.000566565         0.188153      -0.0210383     -8.98822e-06     0.000101269         0.420867       -0.862348
                      -0.0365422      -0.0530145     -2.22475e-05     7.83066e-05         0.996751      -0.0805474      7.17927e-05    -5.24906e-05
                     0.000447328    -0.000323267         0.420875       -0.862372      6.33286e-05    -7.10096e-05         0.125392        0.160683
564000                  0.347307       -0.879017      0.000109747     0.000557869       -0.0334253      -0.0576762      0.000428296    -0.000262699
                     0.000112195     0.000579695         0.189236       -0.018666     -1.07989e-05     0.000100333         0.422622       -0.860286
                        -0.03348      -0.0577474     -2.35679e-05     7.75957e-05         0.899699       -0.303816      7.06495e-05    -5.33682e-05
                     0.000426834    -0.000307096          0.42263       -0.860309      6.19709e-05    -7.15185e-05         0.127515        0.162495
566800                    0.1917       -0.925407      0.000110834     0.000653833       -0.0127797      -0.0914622      0.000337101    -0.000198049
                     0.000116351     0.000691857         0.197253     -0.00245979     -2.22337e-05     9.31523e-05         0.434271       -0.846252
                      -0.0128366      -0.0915307     -3.19778e-05     7.21589e-05          0.11885       -0.209954      6.21269e-05    -5.93805e-05
                     0.000323879    -0.000223153         0.434279       -0.846274      5.21027e-05    -7.48204e-05          0.14158         0.17532
570000                 0.0103378       -0.909942      0.000103216      0.00081384       0.00903629       -0.131394      0.000271114    -0.000149786
                     0.000112244     0.000887304         0.207278        0.015167     -3.27693e-05     8.41309e-05         0.446339       -0.831043
                      0.00897707       -0.131459     -3.98535e-05     6.53074e-05       -0.0214215      -0.0871412      5.12259e-05    -6.58536e-05
