! TOUCHSTONE file generated by CST MICROWAVE STUDIO
! Date and time: Mon Oct 20 08:27:47 2025
! Project name: Teste_Macro_Metasurface_Nanopilar.cst
! Parameters = {H=600; L_x=175; L_y=175; Lambda=1064; Max_L=200; Min_L=70; PathPara=1; Phi=0; Step_L=10; Theta=0; p=520; phaseX=180; phaseY=0}
! Header version: 2018
! Port assignment regex: !\s*Touchstone port\s*([0-9]+)\s*=\s*(CST MWS port|CST DS port)\s*([0-9]+|Zmin|Zmax)\s*\(\"(.*)\"\)(\s*mode\s*([0-9]+))?.*
! Touchstone port assignment:
! Touchstone port 1 = CST MWS port Zmax ("") mode 1
! Touchstone port 2 = CST MWS port Zmax ("") mode 2
! Touchstone port 3 = CST MWS port Zmin ("") mode 1
! Touchstone port 4 = CST MWS port Zmin ("") mode 2
! S-Parameters are not renormalized. Each port impedance will be approximated by the real part at minimum frequency. The values are described via the [Reference] keyword.
! Default impedance is overridden by [Reference]
[Version] 2.0
# GHz S RI R 376.73
[Number of Ports] 4
[Reference]
376.73 376.73 259.888 259.888 
[Number of Frequencies] 52
[Network Data]
474000                  0.694026        0.354757      2.63089e-05    -2.32014e-05        -0.421005       -0.439457      4.16235e-05    -2.29347e-05
                       2.629e-05    -2.30494e-05         0.693922        0.354721      4.74297e-05    -1.60671e-05        -0.421237       -0.439429
                       -0.421004       -0.439457      4.72064e-05    -1.61899e-05        -0.318349       -0.709154      0.000129134    -7.30718e-05
                      4.1647e-05    -2.27609e-05        -0.421236       -0.439429      0.000129132    -7.31154e-05        -0.318762        -0.70885
477200                  0.702936        0.335813      2.24256e-05    -1.59769e-05         -0.40016       -0.422978      4.00745e-05    -2.93035e-05
                     2.25108e-05    -1.57785e-05         0.702841        0.335884      4.87594e-05    -1.46741e-05        -0.400484       -0.423198
                       -0.400161       -0.422979      4.85569e-05    -1.47929e-05        -0.350055       -0.697594      0.000127172    -7.18905e-05
                     4.01132e-05    -2.91509e-05        -0.400484       -0.423198      0.000127196    -7.19514e-05        -0.350322       -0.697293
480400                  0.711614        0.315839      1.83493e-05    -8.64919e-06        -0.379523       -0.407016      3.83885e-05    -3.58963e-05
                     1.85358e-05    -8.40375e-06         0.711536        0.316019      5.01485e-05    -1.32065e-05        -0.379938       -0.407464
                       -0.379525       -0.407016      4.99675e-05    -1.33207e-05        -0.384151       -0.683611      0.000125097    -7.06319e-05
                     3.84422e-05    -3.57658e-05        -0.379938       -0.407464      0.000125147    -7.07109e-05        -0.384256       -0.683326
483600                  0.719997        0.294782      1.40713e-05    -1.21916e-06        -0.359096       -0.391551      3.65532e-05    -4.27232e-05
                     1.43557e-05    -9.26086e-07         0.719944        0.295076      5.16009e-05    -1.16582e-05        -0.359599        -0.39221
                       -0.359099       -0.391552      5.14423e-05    -1.17671e-05        -0.420802       -0.666693      0.000122899    -6.92882e-05
                     3.66216e-05    -4.26157e-05        -0.359599        -0.39221      0.000122977    -6.93862e-05        -0.420729       -0.666441
486800                  0.728012        0.272593      9.58248e-06     6.31197e-06        -0.338881       -0.376569      3.45552e-05    -4.97953e-05
                     9.96128e-06     6.65297e-06         0.727994        0.273003       5.3121e-05    -1.00223e-05         -0.33947        -0.37742
                       -0.338884       -0.376569      5.29856e-05    -1.01255e-05        -0.460155       -0.646208      0.000120567    -6.78506e-05
                     3.46379e-05    -4.97118e-05        -0.339469        -0.37742      0.000120674    -6.79686e-05        -0.459886       -0.646013
490000                  0.735579        0.249222      4.87322e-06     1.39426e-05        -0.318879       -0.362052      3.23796e-05    -5.71239e-05
                     5.34268e-06     1.43316e-05         0.735604         0.24975      5.47134e-05    -8.29142e-06        -0.319551        -0.36308
                       -0.318882       -0.362052      5.46022e-05    -8.38806e-06        -0.502311       -0.621382      0.000118088    -6.63089e-05
                      3.2476e-05    -5.70654e-05        -0.319551        -0.36308      0.000118225     -6.6448e-05         -0.50183       -0.621274
493200                  0.742604         0.22462     -6.64083e-08     2.16709e-05         -0.29909       -0.347985      3.00098e-05    -6.47209e-05
                     4.89741e-07     2.21075e-05         0.742685        0.225269      5.63834e-05    -6.45711e-06        -0.299843       -0.349174
                       -0.299094       -0.347986      5.62972e-05    -6.54643e-06        -0.547294       -0.591264      0.000115449    -6.46516e-05
                     3.01196e-05    -6.46885e-05        -0.299843       -0.349175      0.000115616     -6.4813e-05        -0.546586       -0.591282
496400                  0.748985        0.198743     -5.24672e-06     2.94944e-05        -0.279517       -0.334354      2.74279e-05    -7.25988e-05
                    -4.60811e-06      2.9978e-05         0.749132        0.199512      5.81365e-05       -4.51e-06        -0.280348       -0.335689
                       -0.279521       -0.334354      5.80764e-05     -4.5911e-06        -0.594999       -0.554696      0.000112632    -6.28655e-05
                     2.75504e-05    -7.25934e-05        -0.280347        -0.33569      0.000112831    -6.30503e-05        -0.594052       -0.554888
499600                  0.754606         0.17155     -1.06784e-05     3.74103e-05        -0.260159       -0.321144      2.46138e-05    -8.07705e-05
                    -9.96181e-06       3.794e-05         0.754833         0.17244      5.99789e-05    -2.43952e-06        -0.261064       -0.322611
                       -0.260164       -0.321144      5.99459e-05    -2.51138e-06        -0.645113       -0.510277       0.00010962     -6.0935e-05
                     2.47482e-05    -8.07932e-05        -0.261063       -0.322612      0.000109852    -6.11445e-05        -0.643922       -0.510704
502800                  0.759339        0.143007     -1.63727e-05     4.54153e-05        -0.241017       -0.308341      2.15452e-05    -8.92493e-05
                    -1.55827e-05     4.59896e-05         0.759659        0.144015      6.19173e-05    -2.33794e-07        -0.241992       -0.309927
                       -0.241022       -0.308341      6.19125e-05    -2.95273e-07        -0.697003       -0.456342      0.000106392    -5.88423e-05
                     2.16907e-05    -8.93012e-05        -0.241991       -0.309927      0.000106658    -5.90779e-05        -0.695576       -0.457079
506000                  0.763042        0.113087     -2.23409e-05     5.35056e-05        -0.222089       -0.295931      1.81976e-05     -9.8049e-05
                    -2.14826e-05     5.41225e-05         0.763471        0.114211      6.39593e-05     2.12062e-06        -0.223132       -0.297623
                       -0.222095       -0.295931      6.39837e-05     2.07082e-06        -0.749558       -0.390967      0.000102923    -5.65662e-05
                      1.8353e-05    -9.81311e-05        -0.223131       -0.297624      0.000103224    -5.68295e-05        -0.747922       -0.392103
509200                  0.765561       0.0817761     -2.85951e-05     6.16766e-05        -0.203377       -0.283902      1.45435e-05    -0.000107184
                    -2.76734e-05     6.23338e-05         0.766113       0.0830102      6.61129e-05     4.63896e-06        -0.204483       -0.285688
                       -0.203383       -0.283902      6.61677e-05     4.60231e-06        -0.800973       -0.312022      9.91871e-05    -5.40822e-05
                     1.47079e-05    -0.000107297        -0.204482       -0.285689      9.95236e-05    -5.43745e-05        -0.799185       -0.313658
512400                  0.766725       0.0490707     -3.51476e-05     6.99233e-05         -0.18488       -0.272241      1.05527e-05    -0.000116668
                    -3.41679e-05     7.06177e-05         0.767416       0.0504077      6.83871e-05      7.3386e-06        -0.186045        -0.27411
                       -0.184885       -0.272241      6.84735e-05     7.31677e-06        -0.848485       -0.217332      9.51515e-05    -5.13608e-05
                     1.07246e-05    -0.000116814        -0.186045       -0.274111      9.55243e-05    -5.16838e-05        -0.846643       -0.219573
515600                   0.76635       0.0149848      -4.2011e-05     7.82398e-05        -0.166596       -0.260936      6.19147e-06    -0.000126516
                    -4.09787e-05     7.89678e-05         0.767197       0.0164152      7.07919e-05     1.02394e-05        -0.167817       -0.262877
                       -0.166602       -0.260935       7.0911e-05     1.02343e-05        -0.888078       -0.105001      9.07793e-05     -4.8367e-05
                     6.36943e-06    -0.000126695        -0.167817       -0.262878      9.11889e-05    -4.87222e-05        -0.886335       -0.107943
518800                   0.76424      -0.0204479     -4.91985e-05     8.66196e-05        -0.148526       -0.249974      1.42224e-06    -0.000136743
                    -4.81191e-05      8.7377e-05         0.765259      -0.0189365      7.33381e-05     1.33641e-05        -0.149799       -0.251978
                       -0.148531       -0.249974      7.34912e-05     1.33779e-05        -0.914246       0.0260092      8.60272e-05    -4.50587e-05
                      1.6045e-06    -0.000136956        -0.149798       -0.251979      8.64738e-05    -4.54478e-05         -0.91282       0.0223091
522000                  0.760186      -0.0571707     -5.67234e-05     9.50552e-05        -0.130667       -0.239346     -3.79676e-06    -0.000147363
                    -5.56026e-05     9.58369e-05         0.761392      -0.0555936      7.60379e-05     1.67392e-05        -0.131987       -0.241403
                       -0.130672       -0.239346       7.6226e-05     1.67744e-05        -0.919995        0.175013      8.08441e-05    -4.13848e-05
                    -3.61214e-06    -0.000147612        -0.131987       -0.241404      8.13275e-05    -4.18091e-05        -0.919163        0.170573
525200                  0.753968      -0.0950995     -6.45995e-05     0.000103538        -0.113019        -0.22904     -9.51208e-06     -0.00015839
                    -6.34431e-05     0.000104338         0.755377      -0.0934751      7.89045e-05     2.03949e-05        -0.114383        -0.23114
                       -0.113024        -0.22904      7.91288e-05     2.04544e-05        -0.897342        0.338483      7.51698e-05    -3.72825e-05
                    -9.32732e-06    -0.000158674        -0.114382       -0.231141      7.56891e-05    -3.77435e-05        -0.897415        0.333446
528400                  0.745361       -0.134119     -7.28409e-05      0.00011206       -0.0955796       -0.219046     -1.57756e-05    -0.000169837
                    -7.16545e-05     0.000112872         0.746986       -0.132469      8.19527e-05      2.4367e-05       -0.0969837        -0.22118
                      -0.0955844       -0.219045      8.22141e-05     2.44541e-05        -0.838633        0.509023      6.89324e-05    -3.26745e-05
                    -1.55932e-05    -0.000170158       -0.0969831       -0.221181       6.9486e-05    -3.31731e-05        -0.839887        0.503691
531600                  0.734135       -0.174078      -8.1462e-05     0.000120609       -0.0783484       -0.209352     -2.26453e-05    -0.000181717
                    -8.02513e-05     0.000121425         0.735988       -0.172428      8.51986e-05     2.86971e-05       -0.0797883       -0.211514
                      -0.0783529       -0.209352       8.5498e-05     2.88155e-05        -0.738215        0.674566      6.20456e-05    -2.74637e-05
                    -2.24679e-05    -0.000182074       -0.0797877       -0.211515      6.26308e-05    -2.80005e-05        -0.741332        0.669882
534800                  0.720062       -0.214789     -9.04772e-05     0.000129174       -0.0613233       -0.199951     -3.01857e-05    -0.000194038
                    -8.92478e-05     0.000129986         0.722152       -0.213166      8.86602e-05     3.34341e-05        -0.062795       -0.202132
                      -0.0613275        -0.19995      8.89982e-05     3.35883e-05        -0.588084          0.8088      5.44053e-05    -2.15277e-05
                    -3.00164e-05    -0.000194432       -0.0627945       -0.202133      5.50176e-05    -2.21019e-05        -0.592643        0.805465
538000                  0.702924       -0.256018     -9.99015e-05     0.000137744       -0.0445028       -0.190831     -3.84687e-05    -0.000206809
                    -9.86586e-05     0.000138542         0.705256       -0.254455      9.23569e-05     3.86364e-05       -0.0460023       -0.193025
                      -0.0445067       -0.190831      9.27337e-05     3.88315e-05        -0.411496        0.911412      4.58846e-05    -1.47088e-05
                    -3.83111e-05    -0.000207239       -0.0460018       -0.193025      4.65174e-05    -1.53185e-05        -0.416544        0.909116
541200                  0.682517       -0.297491      -0.00010975     0.000146303        -0.027885       -0.181985     -4.75749e-05    -0.000220035
                    -0.000108498     0.000147076         0.685091       -0.296021        9.631e-05     4.43732e-05       -0.0294083       -0.184184
                      -0.0278885       -0.181984      9.67254e-05     4.46153e-05        -0.219304        0.975657       3.6328e-05    -6.80208e-06
                    -4.74324e-05    -0.000220501       -0.0294079       -0.184184      3.69714e-05    -7.44252e-06        -0.224428        0.974491
544400                  0.658661       -0.338888     -0.000120037     0.000154836        -0.011468       -0.173402     -5.75935e-05    -0.000233714
                    -0.000118782     0.000155573         0.661473       -0.337548      0.000100543     5.07283e-05       -0.0130113         -0.1756
                      -0.0114711       -0.173402      0.000100996     5.10243e-05       -0.0240065        0.999712       2.5543e-05     2.46413e-06
                    -5.74704e-05    -0.000234214       -0.0130109       -0.175601      2.61829e-05     1.80171e-06        -0.028808        0.999585
547600                  0.631213       -0.379844     -0.000130777     0.000163327       0.00474994       -0.165076     -6.86243e-05    -0.000247842
                    -0.000129523     0.000164014         0.634252       -0.378671      0.000105079     5.78026e-05       0.00319058       -0.167267
                      0.00474731       -0.165075      0.000105568     5.81607e-05         0.162862        0.986649      1.32903e-05     1.34566e-05
                    -6.85249e-05    -0.000248374       0.00319087       -0.167267      1.39059e-05     1.27877e-05         0.158684        0.987329
550800                  0.600071       -0.419954     -0.000141987     0.000171757        0.0207709       -0.156997      -8.0778e-05    -0.000262403
                    -0.000140736     0.000172381         0.603319       -0.418985      0.000109944     6.57199e-05        0.0191993       -0.159175
                       0.0207688       -0.156996      0.000110465     6.61497e-05         0.332699        0.943033     -7.29706e-07      2.6681e-05
                    -8.07069e-05    -0.000262966        0.0191995       -0.159176     -1.68198e-07     2.60323e-05         0.329306        0.944223
554000                   0.56519       -0.458779      -0.00015368     0.000180107         0.036597       -0.149157     -9.41772e-05    -0.000277376
                    -0.000152436     0.000180651         0.568623        -0.45805      0.000115164     7.46322e-05        0.0350168       -0.151318
                       0.0365953       -0.149157      0.000115712     7.51449e-05         0.476825        0.870139     -1.68927e-05     4.28519e-05
                    -9.41393e-05    -0.000277965         0.035017       -0.151318     -1.64281e-05     4.22691e-05         0.474368        0.871721
557200                  0.526588        -0.49585      -0.00016587     0.000188354        0.0522301        -0.14155     -0.000108958    -0.000292725
                    -0.000164634     0.000188801         0.530175       -0.495396       0.00012076     8.47289e-05        0.0506452       -0.143688
                        0.052229        -0.14155      0.000121327     8.53376e-05         0.590446        0.777421      -3.5667e-05     6.30074e-05
                    -0.000108958    -0.000293335        0.0506453       -0.143688     -3.53605e-05      6.2569e-05          0.58885        0.779026
560400                  0.484356       -0.530686     -0.000178571     0.000196475        0.0676725       -0.134167     -0.000125268    -0.000308398
                    -0.000177345     0.000196807         0.488058       -0.530534      0.000126751     9.62476e-05        0.0660865       -0.136277
                        0.067672       -0.134167      0.000127323     9.69677e-05         0.678025         0.67965     -5.76231e-05     8.87038e-05
                    -0.000125312    -0.000309023        0.0660865       -0.136278     -5.75617e-05     8.85474e-05         0.677144        0.681064
563600                  0.438665       -0.562801     -0.000191797     0.000204445        0.0829264       -0.127002     -0.000143272    -0.000324325
                    -0.000190579     0.000204642         0.442437       -0.562975      0.000133141      0.00010949        0.0813427        -0.12908
                       0.0829264       -0.127002      0.000133702     0.000110339          0.74322        0.582545     -8.34125e-05      0.00012236
                    -0.000143364    -0.000324957        0.0813426        -0.12908      -8.3715e-05     0.000122734         0.742883        0.583647
564000                  0.432722         -0.5666     -0.000193488     0.000205429        0.0848199       -0.126121      -0.00014565    -0.000326329
                    -0.000192271     0.000205608         0.436499       -0.566816      0.000133968     0.000111285        0.0832368       -0.128195
                       0.0848201       -0.126121      0.000134525     0.000112151         0.749998        0.570652     -8.69381e-05     0.000127299
                    -0.000145749    -0.000326962        0.0832367       -0.128195     -8.72962e-05     0.000127765         0.749718        0.571709
566800                  0.389767       -0.591723     -0.000205561     0.000212236        0.0979937       -0.120047     -0.000163146    -0.000340412
                    -0.000204349     0.000212278         0.393558       -0.592238      0.000139915     0.000124843         0.096416       -0.122089
                       0.0979944       -0.120047      0.000140437      0.00012584         0.790084         0.48968     -0.000113636     0.000167893
                    -0.000163291    -0.000341042        0.0964158       -0.122089      -0.00011445     0.000169258         0.790136        0.490414
570000                  0.337996       -0.617012     -0.000219872     0.000219819         0.112877       -0.113296      -0.00018508    -0.000356534
                    -0.000218663     0.000219683         0.341754       -0.617875      0.000147017     0.000142808         0.111309       -0.115299
                        0.112878       -0.113296      0.000147462     0.000143975         0.822428        0.403007      -0.00014836     0.000231926
