! TOUCHSTONE file generated by CST MICROWAVE STUDIO
! Date and time: Mon Oct 20 08:27:39 2025
! Project name: Teste_Macro_Metasurface_Nanopilar.cst
! Parameters = {H=600; L_x=160; L_y=70; Lambda=1064; Max_L=200; Min_L=70; PathPara=1; Phi=0; Step_L=10; Theta=0; p=520; phaseX=180; phaseY=0}
! Header version: 2018
! Port assignment regex: !\s*Touchstone port\s*([0-9]+)\s*=\s*(CST MWS port|CST DS port)\s*([0-9]+|Zmin|Zmax)\s*\(\"(.*)\"\)(\s*mode\s*([0-9]+))?.*
! Touchstone port assignment:
! Touchstone port 1 = CST MWS port Zmax ("") mode 1
! Touchstone port 2 = CST MWS port Zmax ("") mode 2
! Touchstone port 3 = CST MWS port Zmin ("") mode 1
! Touchstone port 4 = CST MWS port Zmin ("") mode 2
! S-Parameters are not renormalized. Each port impedance will be approximated by the real part at minimum frequency. The values are described via the [Reference] keyword.
! Default impedance is overridden by [Reference]
[Version] 2.0
# GHz S RI R 376.73
[Number of Ports] 4
[Reference]
376.73 376.73 259.888 259.888 
[Number of Frequencies] 52
[Network Data]
474000                   0.40093      -0.0788345     -5.88712e-05    -1.00517e-05        -0.903082      -0.0828396      2.55364e-05    -3.39072e-05
                    -5.88188e-05    -1.01587e-05         0.245798       -0.185498     -0.000124014     4.15231e-05         -0.41061         0.84991
                       -0.903074      -0.0828484     -8.31921e-05     7.30545e-06        -0.383595       -0.146964       2.5903e-05    -6.17103e-05
                     2.54811e-05    -3.39022e-05         -0.41061         0.84991      6.18103e-05    -7.16833e-05       0.00775936        0.309635
477200                  0.388109       -0.090743     -5.84287e-05    -1.03618e-05        -0.905571      -0.0718093      2.57646e-05     -3.4071e-05
                    -5.75983e-05    -1.06504e-05          0.25046       -0.184793     -0.000123135     4.14391e-05        -0.383091        0.855606
                       -0.905563      -0.0718184     -8.30264e-05     7.69434e-06        -0.382393       -0.135807      2.63632e-05    -6.13309e-05
                     2.59042e-05    -3.39604e-05        -0.383091        0.855607      6.24075e-05    -7.07355e-05        0.0112936        0.314604
480400                  0.374617       -0.100603     -5.79516e-05    -1.06909e-05        -0.908126      -0.0598327      2.60024e-05    -3.42425e-05
                    -5.62926e-05    -1.11528e-05         0.255394       -0.184002     -0.000122218     4.13624e-05        -0.354143        0.860644
                       -0.908118      -0.0598421     -8.28561e-05     8.09759e-06        -0.380762       -0.124456      2.68532e-05     -6.0921e-05
                      2.6346e-05     -3.4022e-05        -0.354143        0.860645      6.30301e-05    -6.97161e-05        0.0150996        0.320072
483600                  0.360837       -0.108481     -5.74357e-05    -1.10409e-05        -0.910736      -0.0467858      2.62504e-05     -3.4422e-05
                     -5.4893e-05    -1.16647e-05         0.260626       -0.183115     -0.000121261     4.12943e-05        -0.323705        0.864902
                       -0.910728      -0.0467955     -8.26811e-05     8.51601e-06        -0.378679       -0.112929      2.73761e-05    -6.04768e-05
                     2.68079e-05    -3.40873e-05        -0.323705        0.864905      6.36791e-05     -6.8617e-05        0.0192077        0.326117
486800                  0.347091       -0.114511     -5.68762e-05    -1.14136e-05        -0.913385      -0.0325225      2.65091e-05    -3.46102e-05
                    -5.33897e-05    -1.21844e-05         0.266181       -0.182117     -0.000120262      4.1236e-05        -0.291715        0.868246
                       -0.913377      -0.0325326     -8.25011e-05     8.95047e-06         -0.37612       -0.101247      2.79352e-05    -5.99941e-05
                     2.72912e-05    -3.41566e-05        -0.291715         0.86825       6.4355e-05    -6.74291e-05        0.0236524        0.332833
490000                  0.333638       -0.118871     -5.62673e-05    -1.18111e-05        -0.916047      -0.0168698      2.67795e-05    -3.48078e-05
                    -5.17719e-05    -1.27096e-05         0.272091       -0.180992     -0.000119217     4.11892e-05         -0.25812        0.870524
                       -0.916039      -0.0168803     -8.23161e-05     9.40189e-06        -0.373061      -0.0894314      2.85343e-05    -5.94677e-05
                     2.77974e-05    -3.42302e-05        -0.258118        0.870529      6.50585e-05    -6.61421e-05        0.0284727        0.340335
493200                   0.32067       -0.121762     -5.56024e-05    -1.22359e-05        -0.918686       0.0003788      2.70621e-05    -3.50154e-05
                    -5.00269e-05    -1.32371e-05         0.278388        -0.17972     -0.000118125     4.11556e-05        -0.222869        0.871565
                       -0.918678     0.000367811     -8.21258e-05     9.87126e-06         -0.36948      -0.0775089      2.91775e-05    -5.88916e-05
                     2.83282e-05    -3.43086e-05        -0.222867        0.871571      6.57898e-05    -6.47437e-05        0.0337126        0.348766
496400                   0.30832       -0.123389     -5.48736e-05    -1.26905e-05        -0.921252        0.019471       2.7358e-05    -3.52338e-05
                    -4.81406e-05    -1.37627e-05          0.28511        -0.17828     -0.000116981     4.11372e-05        -0.185926        0.871179
                       -0.921243       0.0194595       -8.193e-05     1.03597e-05        -0.365357      -0.0655073        2.987e-05    -5.82585e-05
                     2.88854e-05    -3.43923e-05        -0.185923        0.871186      6.65484e-05    -6.32199e-05        0.0394213        0.358305
499600                  0.296675       -0.123952     -5.40713e-05    -1.31778e-05        -0.923668       0.0407065       2.7668e-05    -3.54639e-05
                     -4.6097e-05    -1.42808e-05         0.292301       -0.176644     -0.000115783     4.11364e-05        -0.147264        0.869152
                       -0.923659       0.0406944     -8.17285e-05     1.08683e-05        -0.360672      -0.0534575      3.06172e-05      -5.756e-05
                     2.94711e-05    -3.44816e-05        -0.147261         0.86916      6.73335e-05    -6.15547e-05        0.0456526        0.369179
502800                  0.285776       -0.123635     -5.31842e-05    -1.37012e-05         -0.92583       0.0644501      2.79932e-05    -3.57067e-05
                    -4.38776e-05    -1.47841e-05          0.30001       -0.174779     -0.000114527     4.11557e-05        -0.106875        0.865251
                       -0.925821       0.0644373     -8.15211e-05     1.13984e-05        -0.355408      -0.0413933      3.14257e-05    -5.67855e-05
                     3.00875e-05    -3.45772e-05        -0.106872         0.86526       6.8143e-05     -5.9729e-05        0.0524644        0.381676
506000                  0.275638       -0.122603     -5.21985e-05     -1.4264e-05        -0.927583       0.0911496      2.83347e-05    -3.59631e-05
                    -4.14615e-05     -1.5263e-05          0.30829       -0.172647      -0.00011321     4.11983e-05       -0.0647746        0.859219
                       -0.927574        0.091136     -8.13076e-05     1.19514e-05        -0.349548      -0.0293507      3.23027e-05    -5.59226e-05
                      3.0737e-05    -3.46797e-05         -0.06477        0.859229      6.89735e-05    -5.77206e-05        0.0599148        0.396175
509200                   0.26625       -0.121001     -5.10973e-05      -1.487e-05        -0.928707        0.121359      2.86937e-05    -3.62344e-05
                    -3.88248e-05    -1.57048e-05         0.317206         -0.1702     -0.000111827     4.12676e-05       -0.0210019        0.850776
                       -0.928697        0.121345     -8.10877e-05     1.25287e-05        -0.343081      -0.0173686       3.3257e-05    -5.49557e-05
                     3.14224e-05    -3.47899e-05       -0.0209962        0.850787      6.98196e-05    -5.55035e-05        0.0680558        0.413174
512400                  0.257589       -0.118953     -4.98597e-05    -1.55234e-05        -0.928877        0.155769      2.90717e-05    -3.65219e-05
                    -3.59404e-05    -1.60931e-05         0.326828       -0.167381     -0.000110375     4.13675e-05         0.024368        0.839619
                       -0.928867        0.155753     -8.08613e-05     1.31319e-05        -0.335997      -0.0054879      3.42983e-05    -5.38657e-05
                     3.21467e-05    -3.49085e-05        0.0243749        0.839631      7.06734e-05    -5.30472e-05        0.0769186        0.433344
515600                  0.249618       -0.116563     -4.84597e-05     -1.6228e-05        -0.927619        0.195244      2.94702e-05    -3.68271e-05
                    -3.27773e-05    -1.64063e-05         0.337238       -0.164119     -0.000108848     4.15027e-05        0.0712203        0.825428
                       -0.927609        0.195227     -8.06281e-05     1.37629e-05        -0.328289      0.00624853       3.5438e-05    -5.26285e-05
                     3.29134e-05    -3.50366e-05        0.0712285         0.82544      7.15228e-05    -5.03155e-05         0.086485        0.457604
518800                  0.242295       -0.113919     -4.68643e-05    -1.69878e-05         -0.92422        0.240877      2.98908e-05    -3.71516e-05
                    -2.93006e-05    -1.66161e-05         0.348531       -0.160328     -0.000107242     4.16784e-05         0.119392        0.807865
                       -0.924209        0.240859     -8.03878e-05     1.44235e-05        -0.319955        0.017796      3.66892e-05    -5.12138e-05
                     3.37262e-05    -3.51751e-05         0.119402        0.807878      7.23507e-05    -4.72658e-05        0.0966286        0.487237
522000                  0.235575       -0.111093     -4.50317e-05    -1.78055e-05        -0.917601        0.294047      3.03355e-05    -3.74974e-05
                    -2.54711e-05    -1.66853e-05         0.360813       -0.155897     -0.000105552     4.19007e-05         0.168665        0.786581
                        -0.91759        0.294027     -8.01403e-05     1.51159e-05        -0.310995       0.0291085      3.80667e-05    -4.95826e-05
                     3.45895e-05    -3.53254e-05         0.168676        0.786595      7.31321e-05    -4.38476e-05         0.106993        0.524075
525200                  0.229414       -0.108142     -4.29075e-05    -1.86824e-05        -0.906096        0.356489      3.08064e-05    -3.78665e-05
                    -2.12452e-05    -1.65653e-05         0.374208       -0.150693     -0.000103772     4.21767e-05         0.218758        0.761226
                       -0.906085        0.356466     -7.98853e-05     1.58423e-05        -0.301416       0.0401391      3.95873e-05    -4.76842e-05
                      3.5508e-05    -3.54889e-05          0.21877         0.76124      7.38315e-05    -4.00016e-05         0.116735         0.57078
528400                  0.223766       -0.105115     -4.04205e-05    -1.96158e-05        -0.887091        0.430348      3.13058e-05    -3.82614e-05
                    -1.65758e-05    -1.61918e-05         0.388856       -0.144543     -0.000101896     4.25143e-05         0.269316        0.731456
                        -0.88708        0.430322     -7.96226e-05     1.66054e-05        -0.291227       0.0508403      4.12693e-05    -4.54516e-05
                     3.64873e-05    -3.56672e-05         0.269331         0.73147      7.43982e-05    -3.56582e-05         0.123964        0.631281
531600                  0.218589       -0.102049     -3.74757e-05    -2.05958e-05        -0.855587        0.517658      3.18363e-05    -3.86849e-05
                    -1.14134e-05    -1.54805e-05         0.404919       -0.137227     -9.99197e-05      4.2923e-05         0.319911        0.696948
                       -0.855598        0.517641      -7.9352e-05     1.74077e-05        -0.280443       0.0611649      4.31313e-05     -4.2795e-05
                     3.75334e-05    -3.58624e-05         0.319928        0.696961        7.476e-05    -3.07371e-05         0.124471        0.711346
534800                  0.213841      -0.0989745     -3.39448e-05    -2.15993e-05        -0.791873        0.610686      3.24011e-05    -3.91401e-05
                    -5.70912e-06    -1.43209e-05         0.422577       -0.128465     -9.78356e-05     4.34136e-05         0.370032        0.657413
                       -0.791886        0.610669     -7.90732e-05     1.82526e-05        -0.269083       0.0710661      4.51901e-05     -3.9592e-05
                     3.86535e-05    -3.60767e-05          0.37005        0.657427      7.48144e-05    -2.51471e-05         0.108806        0.818987
538000                  0.209485      -0.0959151     -2.96517e-05    -2.25772e-05        -0.699035        0.715087      3.30033e-05    -3.96306e-05
                     5.79833e-07    -1.25681e-05         0.442035       -0.117889      -9.5638e-05     4.39986e-05         0.419087        0.612621
                       -0.699052        0.715071     -7.87862e-05     1.91432e-05        -0.257171       0.0804982      4.74551e-05     -3.5672e-05
                     3.98557e-05    -3.63128e-05         0.419107        0.612634      7.44156e-05    -1.87893e-05        0.0556777        0.962736
541200                  0.205486      -0.0928889     -2.43514e-05    -2.34322e-05        -0.563046        0.826425      3.36469e-05    -4.01608e-05
                     7.48066e-06    -1.00342e-05         0.463511       -0.105019     -9.33208e-05     4.46925e-05         0.466404        0.562414
                       -0.563067        0.826411     -7.84909e-05     2.00835e-05        -0.244737       0.0894175      4.99158e-05    -3.07934e-05
                     4.11493e-05     -3.6574e-05         0.466425        0.562426      7.33579e-05     -1.1564e-05        -0.070132        0.997538
544400                  0.201811      -0.0899101     -1.77011e-05    -2.39722e-05        -0.365077        0.930977      3.43361e-05    -4.07355e-05
                     1.49891e-05    -6.47868e-06         0.487236       -0.089219      -9.0878e-05     4.55123e-05         0.511243        0.506734
                       -0.365102        0.930967      -7.8187e-05     2.10774e-05        -0.231812       0.0977824      5.25166e-05    -2.46077e-05
                      4.2545e-05    -3.68642e-05         0.511266        0.506744      7.13528e-05    -3.38729e-06        -0.274989        0.961447
547600                  0.198431       -0.086989     -9.22515e-06     -2.3817e-05       -0.0862087        0.996277       3.5076e-05    -4.13605e-05
                     2.30439e-05    -1.60043e-06         0.513424      -0.0696388     -8.83043e-05     4.64773e-05         0.552809        0.445641
                      -0.0862385        0.996275     -7.78746e-05     2.21298e-05        -0.218434        0.105554      5.50986e-05    -1.66049e-05
                     4.40553e-05    -3.71879e-05         0.552833         0.44565      6.80027e-05     5.77686e-06        -0.544547         0.83873
550800                   0.19532      -0.0841334      1.70402e-06    -2.22062e-05         0.273263        0.961939      3.58723e-05    -4.20426e-05
                     3.14893e-05     4.96262e-06         0.542236      -0.0451345      -8.5595e-05     4.76102e-05         0.590274        0.379335
                        0.273232        0.961948     -7.75538e-05     2.32457e-05        -0.204646        0.112698      5.72735e-05    -6.03867e-06
                     4.56949e-05    -3.75508e-05           0.5903        0.379342      6.27767e-05     1.58578e-05        -0.784466        0.620172
554000                  0.192452      -0.0813488      1.57721e-05    -1.76078e-05         0.654978        0.755648      3.67316e-05    -4.27899e-05
                     4.00216e-05     1.36175e-05         0.573688      -0.0141602     -8.27469e-05      4.8937e-05         0.622806        0.308171
                        0.654953         0.75567     -7.72247e-05     2.44309e-05        -0.190491        0.119182       5.8138e-05     8.14609e-06
                     4.74809e-05    -3.79599e-05         0.622833        0.308176      5.50058e-05     2.65793e-05        -0.917676         0.39733
557200                  0.189806      -0.0786388      3.31652e-05    -7.01825e-06         0.930457          0.3664      3.76614e-05    -4.36119e-05
                     4.81256e-05     2.47674e-05         0.607491       0.0253716     -7.97585e-05     5.04878e-05         0.649604        0.232667
                        0.930447        0.366427     -7.68877e-05     2.56919e-05        -0.176017         0.12498      5.56511e-05     2.72386e-05
                     4.94338e-05    -3.84237e-05         0.649631         0.23267      4.39351e-05     3.73151e-05        -0.946622        0.234747
560400                  0.187362      -0.0760055      5.15416e-05     1.46823e-05         0.995255      -0.0972964      3.86706e-05    -4.45204e-05
                     5.50173e-05     3.87098e-05         0.642748       0.0762467     -7.66313e-05     5.22971e-05         0.669935        0.153505
                        0.995257      -0.0972755     -7.65432e-05     2.70359e-05        -0.161276        0.130069      4.54551e-05     5.19389e-05
                     5.15777e-05    -3.89527e-05         0.669962        0.153506      2.88981e-05     4.69214e-05        -0.792308        0.120509
563600                  0.185103        -0.07345      6.14469e-05     5.22491e-05         0.856211       -0.485585      3.97696e-05    -4.55292e-05
                     5.96338e-05     5.54689e-05         0.677403        0.142064     -7.33704e-05     5.44044e-05         0.683175       0.0715175
                        0.856183       -0.485556     -7.61919e-05     2.84713e-05        -0.146319        0.134432      1.98584e-05      7.9024e-05
                     5.39418e-05    -3.95604e-05         0.683202       0.0715161      9.67995e-06     5.36521e-05        -0.668194       0.0714073
564000                  0.184832      -0.0731361      6.12372e-05     5.79318e-05         0.825899       -0.521495      3.99139e-05    -4.56631e-05
                     5.99896e-05     5.77456e-05         0.681517        0.151551     -7.29539e-05     5.46909e-05         0.684306       0.0611171
                        0.825873       -0.521466     -7.61476e-05     2.86576e-05        -0.144437        0.134926       1.5148e-05     8.20338e-05
                     5.42545e-05    -3.96427e-05         0.684333       0.0611155      7.00729e-06     5.41853e-05         -0.65491        0.067887
566800                  0.183011      -0.0709726      4.62501e-05     9.79761e-05         0.606496       -0.707257      4.09705e-05    -4.66556e-05
                     6.07376e-05      7.4582e-05         0.707308        0.227128     -6.99864e-05     5.68543e-05         0.688847      -0.0123328
                        0.606481       -0.707233     -7.58349e-05     3.00074e-05          -0.1312        0.138058     -2.73247e-05     9.43792e-05
                     5.65614e-05    -4.02639e-05         0.688873      -0.0123362     -1.29616e-05     5.53677e-05        -0.573883       0.0529513
570000                  0.181072      -0.0685727       4.9694e-06     0.000125962         0.375525       -0.813677      4.22878e-05    -4.79209e-05
                     5.71942e-05     9.49308e-05         0.724793        0.335673     -6.64968e-05     5.96971e-05         0.686652      -0.0969872
                        0.375516       -0.813659     -7.54736e-05     3.16546e-05        -0.115974        0.140938     -8.25007e-05     7.69483e-05
