! TOUCHSTONE file generated by CST MICROWAVE STUDIO
! Date and time: Mon Oct 20 08:27:47 2025
! Project name: Teste_Macro_Metasurface_Nanopilar.cst
! Parameters = {H=600; L_x=175; L_y=190; Lambda=1064; Max_L=200; Min_L=70; PathPara=1; Phi=0; Step_L=10; Theta=0; p=520; phaseX=180; phaseY=0}
! Header version: 2018
! Port assignment regex: !\s*Touchstone port\s*([0-9]+)\s*=\s*(CST MWS port|CST DS port)\s*([0-9]+|Zmin|Zmax)\s*\(\"(.*)\"\)(\s*mode\s*([0-9]+))?.*
! Touchstone port assignment:
! Touchstone port 1 = CST MWS port Zmax ("") mode 1
! Touchstone port 2 = CST MWS port Zmax ("") mode 2
! Touchstone port 3 = CST MWS port Zmin ("") mode 1
! Touchstone port 4 = CST MWS port Zmin ("") mode 2
! S-Parameters are not renormalized. Each port impedance will be approximated by the real part at minimum frequency. The values are described via the [Reference] keyword.
! Default impedance is overridden by [Reference]
[Version] 2.0
# GHz S RI R 376.73
[Number of Ports] 4
[Reference]
376.73 376.73 259.888 259.888 
[Number of Frequencies] 52
[Network Data]
474000                 -0.773614        0.228924     -0.000416149    -0.000132262        0.0609928        0.296267      0.000200821     -0.00024881
                    -0.000416923     -0.00013256         0.798044        0.175486      0.000251996     5.65605e-05        -0.495425       -0.237878
                       0.0609922        0.296268      0.000252007     5.69911e-05        -0.781004        0.349271     -0.000128812     2.90187e-05
                     0.000200663    -0.000248436        -0.495425       -0.237877     -0.000128669     2.83077e-05        -0.638073       -0.512861
477200                 -0.782589        0.186621     -0.000409852    -0.000143794        0.0595151         0.29441      0.000196505    -0.000247511
                    -0.000410077    -0.000143401         0.791055         0.18696      0.000251816     5.35709e-05        -0.495429       -0.302436
                       0.0595146        0.294411      0.000252281     5.36172e-05        -0.770028        0.363972       -0.0001344     3.08384e-05
                     0.000196588    -0.000246802        -0.495426       -0.302433     -0.000131925      3.0701e-05        -0.772686       -0.399948
480400                 -0.789414        0.142469     -0.000402619    -0.000155929        0.0579377        0.292415      0.000192059    -0.000246142
                    -0.000402298    -0.000154728         0.783122         0.19943      0.000251598     5.04296e-05        -0.479247       -0.377791
                       0.0579372        0.292416      0.000252538     5.00583e-05        -0.758246        0.378991     -0.000140007     3.28734e-05
                     0.000192393    -0.000245093        -0.479241        -0.37778     -0.000135196     3.31878e-05        -0.902995       -0.240257
483600                 -0.793827       0.0965771     -0.000394305    -0.000168675        0.0562501        0.290265      0.000187476    -0.000244698
                    -0.000393451    -0.000166531          0.77406        0.213018      0.000251336     4.71252e-05        -0.438673       -0.459128
                       0.0562496        0.290265      0.000252774     4.62992e-05        -0.745598        0.394318     -0.000145622      3.5129e-05
                      0.00018807    -0.000243304        -0.438669       -0.459108      -0.00013848     3.57708e-05         -0.99967      -0.0257022
486800                 -0.795564       0.0490901     -0.000384739    -0.000182028        0.0544405        0.287941       0.00018275    -0.000243173
                    -0.000383383    -0.000178787         0.763638        0.227865      0.000251024     4.36452e-05        -0.367041       -0.535226
                         0.05444        0.287942      0.000252984     4.23232e-05        -0.732017        0.409936     -0.000151234     3.76103e-05
                     0.000183616     -0.00024143        -0.367044       -0.535197     -0.000141775     3.84527e-05        -0.975326        0.220771
490000                 -0.794364     0.000194867     -0.000373723    -0.000195965        0.0524952        0.285423      0.000177876    -0.000241563
                    -0.000371921    -0.000191453         0.751562         0.24413      0.000250654     3.99759e-05        -0.265103       -0.589117
                       0.0524946        0.285423      0.000253161     3.81116e-05        -0.717434        0.425824     -0.000156831     4.03213e-05
                     0.000179023    -0.000239466        -0.265119       -0.589081     -0.000145079     4.12363e-05        -0.886892        0.461976
493200                 -0.789979      -0.0498785     -0.000361031    -0.000210438        0.0503986        0.282684      0.000172846    -0.000239861
                    -0.000358868     -0.00020446         0.737456        0.261992      0.000250219     3.61021e-05        -0.145832       -0.605082
                        0.050398        0.282684      0.000253299     3.36436e-05        -0.701772        0.441956       -0.0001624     4.32655e-05
                     0.000174287    -0.000237406        -0.145865       -0.605049      -0.00014839     4.41245e-05        -0.738325        0.674445
496400                 -0.782177       -0.100856     -0.000346404    -0.000225363        0.0481324        0.279694      0.000167653     -0.00023806
                    -0.000344005    -0.000217705         0.720832        0.281646      0.000249708     3.20073e-05       -0.0308518       -0.578867
                       0.0481318        0.279695      0.000253389     2.88962e-05        -0.684951        0.458298     -0.000167927     4.64455e-05
                       0.0001694    -0.000235243       -0.0308974       -0.578846     -0.000151704     4.71199e-05        -0.545386        0.838185
499600                 -0.770754       -0.152421     -0.000329547    -0.000240607        0.0456755        0.276418       0.00016229    -0.000236153
                    -0.000327094    -0.000231039          0.70105        0.303302       0.00024911     2.76729e-05        0.0611878       -0.520636
                       0.0456749        0.276419       0.00025342     2.38433e-05        -0.666888        0.474808     -0.000173401     4.98629e-05
                     0.000164355    -0.000232971        0.0611377       -0.520631     -0.000155019     5.02254e-05        -0.331505        0.943454
502800                 -0.755543       -0.204215     -0.000310137    -0.000255976        0.0430031        0.272813      0.000156749    -0.000234132
                    -0.000307877    -0.000244257         0.677258        0.327166      0.000248412     2.30786e-05         0.123011       -0.447227
                       0.0430024        0.272813      0.000253382      1.8456e-05        -0.647492        0.491436     -0.000178805     5.35186e-05
                     0.000159146    -0.000230581         0.122964       -0.447236     -0.000158332     5.34437e-05        -0.119768        0.992802
506000                  -0.73642       -0.255845     -0.000287822    -0.000271185        0.0400859        0.268826      0.000151022    -0.000231989
                    -0.000286085    -0.000257079         0.648313        0.353408      0.000247599     1.82019e-05         0.157469       -0.372828
                       0.0400853        0.268826      0.000253258     1.27017e-05        -0.626671        0.508119     -0.000184127     5.74122e-05
                     0.000153764    -0.000228067         0.157429       -0.372846      -0.00016164     5.67776e-05        0.0735562        0.997291
509200                 -0.713314       -0.306886     -0.000262235    -0.000285844        0.0368894        0.264394      0.000145099    -0.000229714
                    -0.000261454    -0.000269137         0.612662        0.382102      0.000246651     1.30178e-05         0.171711       -0.305421
                       0.0368888        0.264394       0.00025303     6.54362e-06        -0.604326        0.524784     -0.000189352     6.15423e-05
                     0.000148201    -0.000225418         0.171679       -0.305444     -0.000164938     6.02298e-05         0.240653        0.970611
512400                 -0.686213       -0.356894      -0.00023302    -0.000299423        0.0333723        0.259439      0.000138972    -0.000227297
                    -0.000233741    -0.000279954         0.568172        0.413091      0.000245547      7.4984e-06         0.172825       -0.247878
                       0.0333716        0.259439      0.000252676    -5.96132e-08        -0.580357        0.541343     -0.000194463     6.59064e-05
                     0.000142448    -0.000222625         0.172801       -0.247903     -0.000168225      6.3803e-05         0.380175        0.924915
515600                 -0.655171       -0.405414     -0.000199862    -0.000311227        0.0294849        0.253863       0.00013263    -0.000224727
                    -0.000202758     -0.00028893         0.511909        0.445735      0.000244261       1.613e-06         0.166185        -0.20021
                       0.0294842        0.253863       0.00025217    -7.15486e-06        -0.554662        0.557692     -0.000199448     7.05008e-05
                     0.000136497    -0.000219677         0.166167       -0.200235     -0.000171495     6.74998e-05         0.494378        0.869247
518800                 -0.620311       -0.451992     -0.000162549    -0.000320373        0.0251673        0.247543      0.000126064    -0.000221991
                    -0.000168416    -0.000295333         0.439861        0.478413      0.000242763    -4.67265e-06         0.155373       -0.161234
                       0.0251665        0.247544      0.000251479    -1.47952e-05        -0.527138        0.573711     -0.000204291     7.53206e-05
                     0.000130338    -0.000216563          0.15536       -0.161258     -0.000174744     7.13227e-05         0.586928        0.809639
522000                 -0.581822       -0.496187     -0.000121045     -0.00032578        0.0203461        0.240321      0.000119261    -0.000219076
                    -0.000130778    -0.000298299           0.3467        0.507566      0.000241014    -1.13966e-05          0.14261       -0.129467
                       0.0203453        0.240322      0.000250561    -2.30408e-05        -0.497682        0.589258     -0.000208978     8.03598e-05
                      0.00012396    -0.000213269         0.142601       -0.129489     -0.000177969     7.52742e-05         0.661658        0.749806
525200                 -0.539962       -0.537588     -7.55911e-05    -0.000326188        0.0149316        0.231992      0.000112212    -0.000215968
                    -9.01279e-05    -0.000296861         0.225928        0.525924      0.000238971    -1.86009e-05         0.129209       -0.103516
                       0.0149308        0.231993      0.000249365    -3.19601e-05        -0.466196         0.60417     -0.000213495      8.5611e-05
                     0.000117352    -0.000209783         0.129202       -0.103536     -0.000181164     7.93568e-05         0.722016        0.691877
528400                  -0.49505       -0.575821     -2.68189e-05    -0.000320225       0.00881268        0.222284      0.000104903    -0.000212648
                    -4.70408e-05    -0.000289998        0.0714091        0.519546       0.00023658    -2.63323e-05         0.115913      -0.0822017
                      0.00881183        0.222284      0.000247829    -4.16309e-05        -0.432589         0.61826     -0.000217827     9.10657e-05
                     0.000110504    -0.000206089         0.115909      -0.0822201     -0.000184325     8.35725e-05         0.770891        0.636967
531600                 -0.447456       -0.610561      2.41478e-05    -0.000306535       0.00185141        0.210829       9.7321e-05      -0.0002091
                    -2.44136e-06    -0.000276735          -0.1173        0.464198      0.000233774    -3.46421e-05         0.103124      -0.0645749
                      0.00185052        0.210829      0.000245874    -5.21414e-05         -0.39678        0.631314     -0.000221961     9.67143e-05
                     0.000103402    -0.000202169         0.103121      -0.0645917     -0.000187447     8.79236e-05          0.81062        0.585572
534800                 -0.397595       -0.641544      7.56321e-05    -0.000283977      -0.00612404        0.197119      8.94534e-05    -0.000205303
                     4.23689e-05    -0.000256273        -0.322279        0.325691      0.000230474    -4.35868e-05        0.0910372      -0.0498863
                     -0.00612498         0.19712      0.000243399    -6.35917e-05        -0.358701        0.643094     -0.000225886     0.000102546
                     9.60342e-05    -0.000198005        0.0910353      -0.0499015     -0.000190524     9.24119e-05         0.843056        0.537826
538000                 -0.345913       -0.668573      0.000125439    -0.000251879       -0.0153266        0.180432      8.12857e-05    -0.000201236
                     8.57443e-05    -0.000228152        -0.490304       0.0774883      0.000226582    -5.32276e-05        0.0797313      -0.0375505
                      -0.0153276        0.180432      0.000240277    -7.60949e-05        -0.318307        0.653329     -0.000229589     0.000108549
                     8.83866e-05    -0.000193577        0.0797303      -0.0375642      -0.00019355     9.70394e-05         0.869659        0.493653
541200                 -0.292876       -0.691518      0.000171021    -0.000210293       -0.0260152        0.159708      7.28028e-05    -0.000196874
                     0.000125806     -0.00019241          -0.5407       -0.256191      0.000221977    -6.36301e-05        0.0692181       -0.027111
                      -0.0260162        0.159709      0.000236348    -8.97777e-05        -0.275578        0.661724     -0.000233059     0.000114711
                     8.04448e-05    -0.000188861        0.0692177      -0.0271234     -0.000196521     0.000101807         0.891577         0.45287
544400                 -0.238951       -0.710322      0.000209791    -0.000160171        -0.038487        0.133337      6.39893e-05    -0.000192189
                     0.000160637    -0.000149694        -0.431027       -0.580815      0.000216509    -7.48631e-05        0.0594725      -0.0182107
                      -0.0384882        0.133338      0.000231402    -0.000104781        -0.230527        0.667952     -0.000236287     0.000121017
                     7.21938e-05    -0.000183834        0.0594727      -0.0182219     -0.000199429     0.000106718         0.909711        0.415242
547600                 -0.184602       -0.724994      0.000239521    -0.000103377       -0.0530275        0.098755      5.48289e-05    -0.000187151
                     0.000188526    -0.000101277        -0.210504       -0.802092      0.000209992    -8.69961e-05        0.0504512      -0.0105691
                      -0.0530287       0.0987557       0.00022517    -0.000121256        -0.183209        0.671663     -0.000239264     0.000127454
                     6.36175e-05    -0.000178467        0.0504516      -0.0105793     -0.000202268     0.000111771         0.924773        0.380519
550800                  -0.13027       -0.735609      0.000258722    -4.24807e-05       -0.0697185        0.051667      4.53047e-05    -0.000181727
                     0.000208221    -4.89531e-05        0.0322994       -0.900848      0.000202193    -0.000100095        0.0421022     -0.00396451
                      -0.0697199       0.0516677      0.000217303    -0.000139363        -0.133728        0.672486     -0.000241981     0.000134005
                     5.46992e-05    -0.000172728        0.0421029     -0.00397366     -0.000205032     0.000116968         0.937328        0.348448
554000                -0.0763704       -0.742298      0.000266882     1.96138e-05       -0.0877676      -0.0155866      3.53993e-05    -0.000175879
                     0.000219101     5.17589e-06         0.241811       -0.912959      0.000192822    -0.000114216        0.0343717      0.00177963
                      -0.0877691       -0.015586      0.000207344     -0.00015926       -0.0822462        0.670033     -0.000244434     0.000140657
                     4.54213e-05    -0.000166585        0.0343726      0.00177134     -0.000207714      0.00012231         0.947825        0.318791
557200                -0.0232797       -0.745241      0.000264489     8.01102e-05        -0.103064       -0.117636      2.50947e-05    -0.000169566
                     0.000221239     5.89726e-05         0.403622        -0.87967      0.000181515    -0.000129391        0.0272067      0.00680468
                       -0.103066       -0.117636      0.000194694    -0.000181081        -0.028992         0.66391     -0.000246616     0.000147391
                     3.57655e-05    -0.000159997        0.0272077      0.00679717     -0.000210307     0.000127797         0.956624        0.291325
560400                 0.0286671       -0.744658      0.000252844     0.000136691       -0.0983595       -0.283962      1.43728e-05    -0.000162739
                     0.000215334     0.000110525         0.523141       -0.828014      0.000167814    -0.000145612        0.0205572       0.0112248
                      -0.0983608       -0.283962      0.000178567    -0.000204902        0.0257335        0.653728     -0.000248525     0.000154193
                     2.57128e-05    -0.000152923        0.0205582        0.011218     -0.000212803     0.000133428          0.95754        0.264062
563600                 0.0791811         -0.7408      0.000233744     0.000187733      0.000741432         -0.5677      3.21512e-06    -0.000155347
                     0.000202539     0.000158333         0.610414       -0.772052      0.000151151    -0.000162796        0.0143769       0.0151328
                     0.000741189         -0.5677      0.000157938     -0.00023068        0.0815502        0.639116     -0.000250157     0.000161044
                     1.52434e-05    -0.000145313         0.014378       0.0151266     -0.000215195     0.000139204          0.95586        0.238585
564000                 0.0853821       -0.740101       0.00023093     0.000193672        0.0301989       -0.613635      1.78887e-06    -0.000154381
                     0.000200524      0.00016399         0.619527       -0.765124      0.000148826    -0.000165003        0.0136352       0.0155892
                       0.0301989       -0.613635       0.00015498     -0.00023403        0.0885819         0.63696     -0.000250341     0.000161904
                     1.39045e-05    -0.000144322        0.0136363       0.0155831     -0.000215486     0.000139936         0.955617        0.235555
566800                  0.128021        -0.73394      0.000209157     0.000232344         0.465314       -0.885146     -8.39646e-06    -0.000147331
                     0.000184257     0.000201393         0.674418       -0.718132      0.000130824     -0.00018074       0.00862332       0.0186045
                        0.465316       -0.885145      0.000131481    -0.000258139         0.137997        0.619738     -0.000251511      0.00016793
                     4.33728e-06    -0.000137115       0.00862443       0.0185989     -0.000217475     0.000145123         0.953752        0.215233
570000                  0.174992       -0.724361      0.000180959     0.000270271         0.942406        -0.33447     -2.04797e-05    -0.000138624
                     0.000161943     0.000239187         0.721895       -0.668695      0.000105986    -0.000199046       0.00325812       0.0217025
                        0.942407       -0.334469      9.75317e-05    -0.000286589         0.194533        0.595313     -0.000252588     0.000174832
