! TOUCHSTONE file generated by CST MICROWAVE STUDIO
! Date and time: Mon Oct 20 08:27:54 2025
! Project name: Teste_Macro_Metasurface_Nanopilar.cst
! Parameters = {H=600; L_x=200; L_y=115; Lambda=1064; Max_L=200; Min_L=70; PathPara=1; Phi=0; Step_L=10; Theta=0; p=520; phaseX=180; phaseY=0}
! Header version: 2018
! Port assignment regex: !\s*Touchstone port\s*([0-9]+)\s*=\s*(CST MWS port|CST DS port)\s*([0-9]+|Zmin|Zmax)\s*\(\"(.*)\"\)(\s*mode\s*([0-9]+))?.*
! Touchstone port assignment:
! Touchstone port 1 = CST MWS port Zmax ("") mode 1
! Touchstone port 2 = CST MWS port Zmax ("") mode 2
! Touchstone port 3 = CST MWS port Zmin ("") mode 1
! Touchstone port 4 = CST MWS port Zmin ("") mode 2
! S-Parameters are not renormalized. Each port impedance will be approximated by the real part at minimum frequency. The values are described via the [Reference] keyword.
! Default impedance is overridden by [Reference]
[Version] 2.0
# GHz S RI R 376.73
[Number of Ports] 4
[Reference]
376.73 376.73 259.888 259.888 
[Number of Frequencies] 52
[Network Data]
474000                 -0.091109        0.264942      6.66083e-06     7.71131e-06        -0.865679       -0.349614      2.77803e-05     1.45992e-05
                     6.60518e-06     7.80435e-06         0.336273       -0.282652     -2.21804e-05     7.26172e-06         -0.79845          0.3866
                        -0.86568       -0.349614      -2.2225e-05     7.24209e-06        -0.151723        0.268264     -1.52606e-05     6.23322e-07
                     2.76938e-05     1.46284e-05         -0.79845          0.3866     -1.53174e-05     6.79199e-07        -0.432996       0.0862038
477200                  -0.10013        0.267092      8.08661e-06     7.18421e-06        -0.857111       -0.348068      2.77551e-05     1.56423e-05
                     8.02843e-06     7.27367e-06          0.33182       -0.280061     -2.35921e-05     7.55053e-06        -0.804666        0.416704
                       -0.857111       -0.348068     -2.36365e-05     7.53059e-06        -0.160218        0.269405     -1.44147e-05    -1.15798e-06
                     2.76688e-05     1.56712e-05        -0.804666        0.416704     -1.44713e-05    -1.10233e-06        -0.432952        0.108833
480400                 -0.109928        0.269244       9.5886e-06      6.6621e-06        -0.848274       -0.346545       2.7725e-05     1.67348e-05
                      9.5279e-06     6.74769e-06         0.327068       -0.277311     -2.50899e-05     7.84314e-06        -0.810168        0.449917
                       -0.848274       -0.346545     -2.51339e-05     7.82288e-06         -0.16952        0.270594     -1.35134e-05    -3.02732e-06
                     2.76389e-05     1.67632e-05        -0.810168        0.449917     -1.35699e-05    -2.97191e-06         -0.43188        0.133109
483600                 -0.120603        0.271374       1.1172e-05     6.14776e-06        -0.839156       -0.345048      2.76894e-05     1.78801e-05
                     1.11088e-05     6.22922e-06         0.321984       -0.274386     -2.66815e-05     8.13861e-06         -0.81463        0.486646
                       -0.839156       -0.345048     -2.67252e-05     8.11802e-06         -0.17975        0.271829     -1.25513e-05    -4.99124e-06
                     2.76036e-05     1.79081e-05         -0.81463        0.486646     -1.26076e-05    -4.93608e-06        -0.429543        0.159143
486800                 -0.132271        0.273449      1.28423e-05     5.64451e-06        -0.829745       -0.343582      2.76476e-05     1.90823e-05
                     1.27767e-05     5.72152e-06         0.316532       -0.271269      -2.8376e-05     8.43572e-06        -0.817616        0.527345
                       -0.829745       -0.343582     -2.84193e-05     8.41478e-06        -0.191052        0.273106     -1.15224e-05    -7.05695e-06
                      2.7562e-05     1.91098e-05        -0.817616        0.527345     -1.15785e-05    -7.00205e-06        -0.425659        0.187034
490000                 -0.145065        0.275426      1.46055e-05     5.15622e-06        -0.820027       -0.342152      2.75988e-05     2.03455e-05
                     1.45375e-05     5.22846e-06         0.310672       -0.267941     -3.01832e-05     8.73289e-06        -0.818546        0.572514
                       -0.820027       -0.342152     -3.02262e-05     8.71159e-06        -0.203603        0.274416     -1.04199e-05    -9.23238e-06
                     2.75134e-05     2.03726e-05        -0.818546        0.572514     -1.04759e-05    -9.17776e-06        -0.419889        0.216866
493200                 -0.159146        0.277243      1.64678e-05     4.68745e-06        -0.809987       -0.340765      2.75419e-05     2.16747e-05
                     1.63976e-05     4.75456e-06         0.304355       -0.264379     -3.21145e-05     9.02807e-06        -0.795207        0.606339
                       -0.809987       -0.340765     -3.21571e-05     9.00641e-06         -0.21762        0.275745     -9.23616e-06    -1.15263e-05
                     2.74569e-05     2.17013e-05        -0.795207        0.606338     -9.29182e-06    -1.14719e-05        -0.411833        0.248696
496400                   -0.1747        0.278818      1.84361e-05     4.24355e-06        -0.799612       -0.339426       2.7476e-05     2.30749e-05
                     1.83638e-05     4.30515e-06         0.297527       -0.260559     -3.41826e-05     9.31867e-06        -0.766982        0.641668
                       -0.799612       -0.339426     -3.42247e-05     9.29664e-06        -0.233373        0.277071     -7.96225e-06    -1.39484e-05
                     2.73913e-05      2.3101e-05        -0.766982        0.641668     -8.01763e-06    -1.38943e-05        -0.401015        0.282535
499600                 -0.191948        0.280039      2.05175e-05     3.83077e-06        -0.788885       -0.338143      2.73998e-05     2.45521e-05
                     2.04432e-05     3.88646e-06         0.290123       -0.256451     -3.64021e-05     9.60136e-06        -0.733993        0.679157
                       -0.788885       -0.338143     -3.64437e-05     9.57894e-06        -0.251202        0.278358     -6.58815e-06    -1.65093e-05
                     2.73154e-05     2.45776e-05        -0.733993        0.679157     -6.64321e-06    -1.64556e-05        -0.386886        0.318327
502800                 -0.211152        0.280753      2.27194e-05     3.45644e-06         -0.77779       -0.336924      2.73117e-05     2.61127e-05
                     2.26433e-05     3.50581e-06         0.282066       -0.252021     -3.87896e-05     9.87188e-06        -0.695288        0.718731
                        -0.77779       -0.336924     -3.88305e-05     9.84906e-06        -0.271542        0.279549     -5.10231e-06     -1.9221e-05
                     2.72277e-05     2.61377e-05        -0.695288        0.718731     -5.15702e-06    -1.91676e-05        -0.368811        0.355924
506000                 -0.232622        0.280747      2.50497e-05     3.12911e-06        -0.766308       -0.335778      2.72101e-05     2.77639e-05
                     2.49722e-05     3.17172e-06         0.273267       -0.247233     -4.13639e-05     1.01248e-05        -0.649736         0.76016
                       -0.766308       -0.335778     -4.14042e-05     1.01016e-05        -0.294956        0.280556     -3.49143e-06    -2.20968e-05
                     2.71265e-05     2.77882e-05        -0.649736         0.76016     -3.54572e-06    -2.20437e-05        -0.346081        0.395042
509200                 -0.256723         0.27973      2.75166e-05      2.8588e-06        -0.754423       -0.334715       2.7093e-05     2.95138e-05
                     2.74379e-05     2.89417e-06         0.263619        -0.24204      -4.4147e-05     1.03531e-05        -0.596011        0.802976
                       -0.754423       -0.334715     -4.41865e-05     1.03295e-05        -0.322184        0.281239     -1.74008e-06    -2.51513e-05
                     2.70098e-05     2.95375e-05        -0.596011        0.802976     -1.79392e-06    -2.50986e-05        -0.317924        0.435223
512400                 -0.283886        0.277295      3.01285e-05     2.65712e-06        -0.742112       -0.333746       2.6958e-05     3.13714e-05
                     3.00489e-05     2.68478e-06         0.252993        -0.23639     -4.71638e-05      1.0548e-05        -0.532617        0.846356
                       -0.742112       -0.333746     -4.72026e-05      1.0524e-05        -0.354223         0.28137      1.69638e-07    -2.84011e-05
                     2.68753e-05     3.13943e-05        -0.532617        0.846356      1.16316e-07    -2.83488e-05        -0.283534        0.475785
515600                 -0.314606        0.272873      3.28937e-05     2.53764e-06        -0.729357       -0.332882      2.68025e-05     3.33468e-05
                     3.28139e-05      2.5571e-06         0.241233       -0.230221     -5.04436e-05     1.06979e-05        -0.457966         0.88897
                       -0.729357       -0.332882     -5.04815e-05     1.06735e-05        -0.392435        0.280575      2.25867e-06    -3.18647e-05
                     2.67202e-05      3.3369e-05        -0.457966         0.88897      2.20594e-06    -3.18127e-05        -0.242133        0.515764
518800                 -0.349444        0.265659      3.58209e-05     2.51608e-06        -0.716135       -0.332138      2.66231e-05     3.54515e-05
                     3.57413e-05     2.52685e-06         0.228149        -0.22346     -5.40201e-05      1.0788e-05        -0.370548        0.928813
                       -0.716135       -0.332138     -5.40569e-05     1.07632e-05        -0.438742        0.278224      4.55161e-06    -3.55627e-05
                     2.65414e-05     3.54729e-05        -0.370548        0.928813      4.49955e-06    -3.55111e-05        -0.193049        0.553875
522000                 -0.388999        0.254512      3.89181e-05     2.61066e-06        -0.702422       -0.331529       2.6416e-05     3.76985e-05
                     3.88393e-05     2.61225e-06         0.213505        -0.21602     -5.79326e-05      1.0799e-05        -0.269245        0.963072
                       -0.702422       -0.331529     -5.79682e-05     1.07739e-05         -0.49591        0.273212      7.07751e-06    -3.95185e-05
                     2.63349e-05      3.7719e-05        -0.269245        0.963072      7.02623e-06    -3.94673e-05        -0.135838        0.588489
525200                 -0.433848        0.237814      4.21928e-05     2.84245e-06        -0.688194       -0.331071      2.61765e-05     4.01025e-05
                     4.21157e-05     2.83438e-06         0.197005       -0.207796     -6.22271e-05     1.07058e-05        -0.153812          0.9881
                       -0.688194       -0.331071     -6.22614e-05     1.06805e-05        -0.568063        0.263519      9.87088e-06    -4.37581e-05
                     2.60961e-05     4.01221e-05        -0.153812          0.9881      9.82049e-06    -4.37073e-05       -0.0704347        0.617654
528400                 -0.484397        0.213266      4.56516e-05     3.23569e-06        -0.673425       -0.330784      2.58992e-05     4.26804e-05
                     4.55771e-05     3.21752e-06         0.178276       -0.198662     -6.69574e-05     1.04754e-05       -0.0254564        0.999676
                       -0.673425       -0.330784     -6.69902e-05     1.04499e-05        -0.661526        0.245251       1.2973e-05     -4.8311e-05
                     2.58195e-05     4.26989e-05       -0.0254564        0.999676      1.29236e-05    -4.82606e-05       0.00268124        0.639185
531600                 -0.540585        0.177655      4.92996e-05     3.81814e-06        -0.658088       -0.330687      2.55772e-05     4.54513e-05
                     4.92286e-05     3.78951e-06         0.156837       -0.188467     -7.21869e-05     1.00643e-05         0.112655        0.993634
                       -0.658088       -0.330687     -7.22179e-05     1.00386e-05        -0.786291        0.210371      1.64335e-05    -5.32103e-05
                     2.54984e-05     4.54687e-05         0.112655        0.993634      1.63853e-05    -5.31603e-05        0.0823386        0.650841
534800                   -0.6013        0.126617      5.31394e-05     4.62146e-06        -0.642152       -0.330805      2.52026e-05     4.84375e-05
                     5.30732e-05     4.58208e-06         0.132058       -0.177023     -7.79897e-05     9.41414e-06         0.255323        0.966856
                       -0.642152       -0.330805     -7.80188e-05     9.38858e-06        -0.958229        0.140864      2.03126e-05    -5.84933e-05
                     2.51246e-05     4.84537e-05         0.255323        0.966856      2.02657e-05    -5.84437e-05          0.16659        0.650586
538000                 -0.663358       0.0546184      5.71709e-05     5.68151e-06        -0.625588       -0.331163      2.47654e-05     5.16646e-05
                     5.71108e-05      5.6312e-06         0.103103       -0.164105      -8.4453e-05     8.44708e-06         0.395944        0.918274
                       -0.625588       -0.331163     -8.44799e-05     8.42182e-06        -0.999979      -0.0064329      2.46836e-05    -6.42018e-05
                     2.46884e-05     5.16794e-05         0.395944        0.918275      2.46384e-05    -6.41525e-05         0.252749        0.636908
541200                 -0.719905       -0.044377      6.13895e-05     7.03848e-06        -0.608363        -0.33179      2.42532e-05     5.51623e-05
                      6.1337e-05     6.97725e-06        0.0688308       -0.149436     -9.16783e-05     7.05747e-06         0.527793        0.849373
                       -0.608363        -0.33179     -9.17026e-05     7.03283e-06        -0.974005       -0.226527      2.96372e-05    -7.03826e-05
                     2.41774e-05     5.51758e-05         0.527793        0.849373      2.95938e-05    -7.03336e-05         0.337586        0.609135
544400                 -0.758606       -0.174614      6.57854e-05     8.73702e-06        -0.590443       -0.332719      2.36511e-05     5.89656e-05
                     6.57422e-05     8.66508e-06        0.0276519       -0.132682     -9.97825e-05     5.10103e-06         0.645432        0.763818
                       -0.590443       -0.332719      -9.9804e-05     5.07745e-06        -0.829432       -0.558608      3.52853e-05    -7.70874e-05
                     2.35766e-05     5.89775e-05         0.645432        0.763818      3.52441e-05    -7.70385e-05         0.417669        0.567649
547600                 -0.761308       -0.333666      7.03416e-05      1.0826e-05        -0.571791       -0.333985      2.29399e-05     6.31152e-05
                     7.03095e-05     1.07438e-05       -0.0227176       -0.113452     -0.000108898     2.37904e-06         0.745586         0.66641
                       -0.571792       -0.333985     -0.000108916     2.35715e-06        -0.372311       -0.928108      4.17684e-05    -8.43728e-05
                     2.28669e-05     6.31254e-05         0.745586         0.66641      4.17298e-05     -8.4324e-05         0.489799        0.513927
550800                 -0.708716       -0.506059      7.50323e-05     1.33578e-05        -0.552372       -0.335631      2.20958e-05     6.76594e-05
                     7.50132e-05     1.32663e-05        -0.085671      -0.0913169     -0.000119168    -1.38445e-06         0.814151        0.553032
                       -0.552372       -0.335631     -0.000119183    -1.40378e-06           0.2654       -0.964138      4.92641e-05    -9.22994e-05
                     2.20246e-05     6.76678e-05         0.814151        0.553032      4.92285e-05    -9.22503e-05         0.551422        0.450366
554000                 -0.592293        -0.66175      7.98211e-05     1.63876e-05        -0.532144         -0.3377      2.10884e-05     7.26556e-05
                     7.98169e-05     1.62879e-05        -0.166459      -0.0659079     -0.000130735    -6.57505e-06         0.798506        0.407074
                       -0.532144         -0.3377     -0.000130746    -6.59061e-06         0.641054       -0.767496      5.79985e-05    -0.000100929
                     2.10191e-05     7.26619e-05         0.798506        0.407074      5.79666e-05    -0.000100879          0.60092        0.379953
557200                 -0.425949       -0.767647      8.46583e-05     1.99712e-05        -0.511067       -0.340244      1.98784e-05     7.81724e-05
                      8.4671e-05     1.98651e-05        -0.273615      -0.0372206     -0.000143716    -1.37333e-05         0.762741        0.281274
                       -0.511067       -0.340244     -0.000143724    -1.37434e-05         0.814966       -0.579509      6.82636e-05    -0.000110321
                     1.98115e-05     7.81764e-05         0.762741        0.281274       6.8236e-05     -0.00011027         0.637704        0.305847
560400                 -0.242505       -0.807022      8.94794e-05     2.41628e-05        -0.489099       -0.343321      1.84149e-05     8.42923e-05
                     8.95107e-05     2.40526e-05        -0.421858     -0.00659339     -0.000158145    -2.36144e-05         0.714644        0.175894
                       -0.489099       -0.343321     -0.000158149    -2.36169e-05         0.874947       -0.417259      8.04386e-05     -0.00012052
                     1.83507e-05     8.42937e-05         0.714644        0.175894      8.04161e-05    -0.000120468         0.662123           0.231
563600                -0.0747894       -0.787199      9.42031e-05     2.90114e-05        -0.466194       -0.346993      1.66307e-05     9.11155e-05
                     9.42545e-05     2.88998e-05         -0.63845       0.0200099     -0.000173863    -3.72583e-05         0.660127       0.0893006
                       -0.466194       -0.346993     -0.000173865    -3.72504e-05         0.756979       -0.246114      9.50219e-05    -0.000131544
                     1.65697e-05     9.11141e-05         0.660127       0.0893006      9.50056e-05    -0.000131489         0.675249        0.157888
564000                -0.0560149       -0.781566       9.4782e-05     2.96658e-05        -0.463262       -0.347498       1.6381e-05     9.20237e-05
                      9.4836e-05     2.95542e-05         -0.67258       0.0222842     -0.000175897    -3.92933e-05         0.653083       0.0796783
                       -0.463262       -0.347498     -0.000175899    -3.92838e-05         0.743886        -0.23007      9.70448e-05    -0.000132979
                     1.63204e-05     9.20219e-05         0.653083       0.0796783      9.70294e-05    -0.000132923         0.676168        0.148971
566800                 0.0592571       -0.729247      9.87306e-05     3.45561e-05        -0.442306       -0.351334      1.44361e-05     9.87641e-05
                     9.88031e-05     3.44463e-05         -0.97806       0.0197131      -0.00019031    -5.60451e-05         0.603304        0.019029
                       -0.442307       -0.351334     -0.000190313    -5.60233e-05         0.662067       -0.139558      0.000112673    -0.000143347
                      1.4379e-05     9.87596e-05         0.603304        0.019029      0.000112664    -0.000143287         0.678597       0.0883763
570000                  0.156946       -0.654024      0.000102945     4.08206e-05        -0.417391       -0.356423      1.17095e-05     0.000107388
                     0.000103039     4.07166e-05        -0.997889      -0.0649352     -0.000206168     -8.1658e-05         0.546849      -0.0375492
                       -0.417391       -0.356423     -0.000206179    -8.16196e-05         0.586741      -0.0685425      0.000134269    -0.000155763
