! TOUCHSTONE file generated by CST MICROWAVE STUDIO
! Date and time: Mon Oct 20 08:27:52 2025
! Project name: Teste_Macro_Metasurface_Nanopilar.cst
! Parameters = {H=600; L_x=190; L_y=200; Lambda=1064; Max_L=200; Min_L=70; PathPara=1; Phi=0; Step_L=10; Theta=0; p=520; phaseX=180; phaseY=0}
! Header version: 2018
! Port assignment regex: !\s*Touchstone port\s*([0-9]+)\s*=\s*(CST MWS port|CST DS port)\s*([0-9]+|Zmin|Zmax)\s*\(\"(.*)\"\)(\s*mode\s*([0-9]+))?.*
! Touchstone port assignment:
! Touchstone port 1 = CST MWS port Zmax ("") mode 1
! Touchstone port 2 = CST MWS port Zmax ("") mode 2
! Touchstone port 3 = CST MWS port Zmin ("") mode 1
! Touchstone port 4 = CST MWS port Zmin ("") mode 2
! S-Parameters are not renormalized. Each port impedance will be approximated by the real part at minimum frequency. The values are described via the [Reference] keyword.
! Default impedance is overridden by [Reference]
[Version] 2.0
# GHz S RI R 376.73
[Number of Ports] 4
[Reference]
376.73 376.73 259.888 259.888 
[Number of Frequencies] 52
[Network Data]
474000                   0.79877       0.0482724      7.28289e-05    -7.95713e-05        -0.278165        0.110688     -0.000340894     6.94189e-05
                     7.28323e-05    -7.95414e-05         0.494656       -0.743237     -0.000506032     0.000120204         0.160801       -0.270933
                       -0.278165        0.110688      -0.00050599     0.000120253        -0.829016      -0.0595339     -2.12891e-05      0.00028618
                    -0.000340939     6.94816e-05         0.160801       -0.270933     -2.12401e-05     0.000286187        -0.609072        0.648913
477200                  0.795173       0.0641241      7.41644e-05    -7.93084e-05        -0.280146        0.114137     -0.000342273     7.08627e-05
                      7.4233e-05    -7.92172e-05         0.494478       -0.754609     -0.000497065     0.000114532         0.156035        -0.26512
                       -0.280146        0.114137     -0.000496593     0.000115118        -0.707799        0.010837     -2.93133e-05     0.000281375
                    -0.000342637     7.09349e-05         0.156035        -0.26512     -2.81638e-05     0.000281323        -0.645901        0.667441
480400                  0.790923        0.080997      7.55791e-05    -7.90267e-05        -0.282287        0.117769     -0.000343745     7.23765e-05
                     7.57178e-05    -7.88689e-05          0.49399       -0.766842     -0.000487693     0.000108866         0.150901       -0.259115
                       -0.282287        0.117769     -0.000486804     0.000110017        -0.588078       0.0590644     -3.75597e-05     0.000276171
                    -0.000344454     7.24515e-05         0.150901       -0.259114      -3.5262e-05      0.00027611        -0.687805        0.688287
483600                  0.785906       0.0989752      7.70803e-05    -7.87242e-05        -0.284607        0.121597     -0.000345322      7.3965e-05
                     7.72946e-05     -7.8494e-05          0.49312       -0.780023     -0.000477896     0.000103218         0.145362       -0.252914
                       -0.284607        0.121597     -0.000476606     0.000104964        -0.473629       0.0884839     -4.60273e-05     0.000270534
                    -0.000346402     7.40346e-05         0.145362       -0.252914     -4.25335e-05      0.00027052        -0.718727        0.695293
486800                  0.779989        0.118149      7.86762e-05    -7.83984e-05        -0.287126        0.125637     -0.000347014     7.56335e-05
                      7.8972e-05    -7.80893e-05         0.491778       -0.794251     -0.000467655     9.76034e-05          0.13938       -0.246517
                       -0.287125        0.125637     -0.000465981     9.99745e-05        -0.366783        0.102625     -5.47134e-05     0.000264428
                    -0.000348495     7.56878e-05          0.13938       -0.246516     -4.99755e-05     0.000264521        -0.731057        0.682316
490000                   0.77301        0.138614       8.0376e-05    -7.80467e-05        -0.289868        0.129904     -0.000348833     7.73874e-05
                       8.076e-05    -7.76513e-05         0.489851       -0.809635     -0.000456948     9.20396e-05         0.132911       -0.239924
                       -0.289868        0.129904     -0.000454911     9.50658e-05        -0.268729        0.104809     -6.36129e-05     0.000257812
                    -0.000350747     7.74141e-05         0.132911       -0.239924     -5.75837e-05     0.000258083        -0.743897        0.668294
493200                  0.764776         0.16047      8.21903e-05     -7.7666e-05        -0.292862        0.134417     -0.000350793     7.92326e-05
                     8.26699e-05    -7.71759e-05         0.487201       -0.826295     -0.000445754     8.65455e-05         0.125908        -0.23314
                       -0.292862        0.134417     -0.000443378     9.02571e-05        -0.179829       0.0979337     -7.27179e-05     0.000250643
                    -0.000353178      7.9217e-05         0.125908        -0.23314     -6.53516e-05      0.00025117        -0.757311        0.653055
496400                  0.755057        0.183819      8.41308e-05    -7.72527e-05         -0.29614        0.139196     -0.000352912     8.11755e-05
                     8.47145e-05    -7.66582e-05         0.483654       -0.844362     -0.000434051     8.11424e-05         0.118315        -0.22617
                       -0.296139        0.139195     -0.000431363     8.55698e-05       -0.0998979       0.0844125     -8.20173e-05     0.000242875
                    -0.000355806     8.10995e-05         0.118315        -0.22617     -7.32704e-05     0.000243745        -0.771383        0.636371
499600                  0.743571        0.208762      8.62114e-05    -7.68026e-05        -0.299739         0.14426     -0.000355206     8.32228e-05
                     8.69086e-05    -7.60927e-05         0.478992       -0.863976     -0.000421818     7.58544e-05         0.110075       -0.219025
                       -0.299739        0.144259     -0.000418848     8.10273e-05       -0.0284278       0.0661795     -9.14957e-05     0.000234456
                    -0.000358656     8.30643e-05         0.110074       -0.219025     -8.13282e-05     0.000235768        -0.786237        0.617925
502800                  0.729981        0.235391      8.84476e-05    -7.63106e-05        -0.303704        0.149633     -0.000357699     8.53817e-05
                      8.9269e-05    -7.54726e-05         0.471199       -0.882027     -0.000409031     7.07081e-05          0.10112       -0.211721
                       -0.303704        0.149632     -0.000405814     7.66558e-05        0.0352612       0.0447459     -0.000101133     0.000225333
                    -0.000361754     8.51136e-05          0.10112       -0.211721     -8.95098e-05     0.000227194        -0.802051        0.597255
506000                   0.71388        0.263787      9.08575e-05     -7.5771e-05        -0.308088         0.15534     -0.000360414     8.76596e-05
                     9.18153e-05    -7.47902e-05         0.455765         -0.8901     -0.000395668     6.57334e-05        0.0913793       -0.204279
                       -0.308087        0.155339     -0.000392242     7.24839e-05        0.0919153       0.0212678     -0.000110905     0.000215448
                    -0.000365131     8.72486e-05        0.0913792       -0.204278     -9.77959e-05     0.000217979        -0.819105        0.573644
509200                  0.694775        0.293998      9.34621e-05    -7.51767e-05        -0.312951        0.161406     -0.000363382     9.00643e-05
                     9.45704e-05    -7.40358e-05         0.438267       -0.898845     -0.000381707     6.09634e-05        0.0807721       -0.196728
                        -0.31295        0.161405     -0.000378114     6.85434e-05         0.142282     -0.00338588     -0.000120777     0.000204739
                    -0.000368822     8.94694e-05         0.080772       -0.196728     -0.000106162     0.000208072        -0.837848        0.545904
512400                  0.672071        0.326028       9.6286e-05    -7.45195e-05        -0.318366         0.16786     -0.000366636     9.26035e-05
                     9.75607e-05    -7.31983e-05         0.418342        -0.90829     -0.000367125     5.64347e-05        0.0692106       -0.189108
                       -0.318366        0.167858     -0.000363412     6.48688e-05         0.187071      -0.0285721     -0.000130711     0.000193142
                     -0.00037287     9.17741e-05        0.0692105       -0.189108      -0.00011458     0.000197422        -0.859057         0.51188
515600                  0.645056        0.359804      9.93579e-05     -7.3789e-05        -0.324422        0.174728     -0.000370217     9.52848e-05
                     0.000100818    -7.22636e-05         0.395554       -0.918443     -0.000351902      5.2188e-05         0.056599       -0.181472
                       -0.324421        0.174726     -0.000348121     6.14983e-05         0.226939      -0.0538228     -0.000140658      0.00018059
                    -0.000377322     9.41584e-05        0.0565989       -0.181472     -0.000123011     0.000185973        -0.884166        0.467173
518800                  0.612881        0.395138      0.000102712    -7.29731e-05        -0.331221         0.18204     -0.000374171     9.81153e-05
                     0.000104378     -7.1215e-05         0.369382       -0.929278     -0.000336016     4.82678e-05        0.0428335       -0.173885
                        -0.33122        0.182037     -0.000332223     5.84733e-05         0.262476      -0.0788034     -0.000150558     0.000167011
                    -0.000382235     9.66139e-05        0.0428334       -0.173885     -0.000131414     0.000173669        -0.916012         0.40115
522000                  0.574548        0.431669      0.000106388    -7.20565e-05         -0.33889        0.189822     -0.000378557     0.000101101
                     0.000108286    -7.00313e-05         0.339211        -0.94071      -0.00031945     4.47235e-05        0.0278028       -0.166432
                        -0.33889         0.18982     -0.000315705     5.58391e-05         0.294207        -0.10328     -0.000160339     0.000152335
                    -0.000387676     9.91272e-05        0.0278027       -0.166432     -0.000139735     0.000160449        -0.959893        0.280367
525200                  0.528907        0.468784      0.000110436    -7.10204e-05        -0.347582        0.198099      -0.00038344     0.000104245
                     0.000112595    -6.86865e-05         0.304323       -0.952569     -0.000302186     4.16087e-05        0.0113887       -0.159222
                       -0.347581        0.198096     -0.000298555     5.36448e-05         0.322596       -0.127094     -0.000169917     0.000136489
                    -0.000393721     0.000101677        0.0113886       -0.159222     -0.000147912     0.000146254        -0.998225      -0.0595492
528400                  0.474677        0.505514      0.000114914    -6.98412e-05        -0.357482        0.206887     -0.000388904     0.000107549
                     0.000117369    -6.71474e-05         0.263905       -0.964549      -0.00028421     3.89824e-05      -0.00653144        -0.15239
                       -0.357481        0.206883     -0.000280763     5.19436e-05         0.348049       -0.150143     -0.000179191     0.000119402
                    -0.000400463     0.000104233      -0.00653155       -0.152389     -0.000155872     0.000131021        -0.144808        -0.98946
531600                  0.410504        0.540398      0.000119894    -6.84887e-05        -0.368815        0.216189     -0.000395044     0.000111007
                     0.000122688    -6.53715e-05         0.217077       -0.976155      -0.00026551     3.69083e-05        -0.026082       -0.146102
                       -0.368814        0.216185     -0.000262323     5.07929e-05         0.370919       -0.172365     -0.000188044     0.000101007
                    -0.000408009     0.000106749       -0.0260821       -0.146102     -0.000163529      0.00011469         0.592825       -0.805332
534800                  0.335093        0.571327      0.000125466    -6.69241e-05        -0.381861         0.22599     -0.000401981     0.000114606
                     0.000128647    -6.33038e-05          0.16296       -0.986633      -0.00024608     3.54558e-05       -0.0473845       -0.140565
                       -0.381859        0.225985      -0.00024323     5.02545e-05         0.391515       -0.193731     -0.000196339     8.12426e-05
                    -0.000416483     0.000109158       -0.0473846       -0.140565     -0.000170782     9.72035e-05         0.745112        -0.66694
538000                  0.247441        0.595393      0.000131739    -6.50968e-05        -0.396958         0.23624     -0.000409859     0.000118318
                     0.000135369    -6.08716e-05         0.100814       -0.994905     -0.000225918     3.46994e-05       -0.0705504       -0.136031
                       -0.396956        0.236234     -0.000223487     5.03943e-05         0.410105       -0.214229     -0.000203921     6.00561e-05
                    -0.000426032     0.000111365       -0.0705505       -0.136031     -0.000177515     7.85061e-05         0.808642       -0.588301
541200                   0.14721        0.608791      0.000138854    -6.29392e-05        -0.414526        0.246835     -0.000418854     0.000122098
                     0.000143007    -5.79772e-05        0.0302603       -0.999542     -0.000205026      3.4719e-05       -0.0956716       -0.132802
                       -0.414523        0.246829       -0.0002031     5.12825e-05         0.426923       -0.233866     -0.000210613     3.74092e-05
                    -0.000436824     0.000113236       -0.0956717       -0.132803     -0.000183596     5.85513e-05         0.846841       -0.531847
544400                 0.0352578        0.606884      0.000146991    -6.03599e-05        -0.435075        0.257588     -0.000429183     0.000125866
                     0.000151759    -5.44872e-05       -0.0484041       -0.998828     -0.000183414     3.55999e-05        -0.122808       -0.131237
                       -0.435071        0.257581      -0.00018208     5.29935e-05         0.442172        -0.25266     -0.000216215     1.32817e-05
                    -0.000449048      0.00011458        -0.122808       -0.131237     -0.000188875      3.7302e-05         0.874444       -0.485127
547600                -0.0857376        0.584564      0.000156385     -5.7232e-05        -0.459226        0.268183     -0.000441108     0.000129497
                      0.00016188    -5.02143e-05        -0.133852       -0.991001     -0.000161102     3.74322e-05        -0.151969       -0.131755
                       -0.459221        0.268175     -0.000160447     5.56056e-05         0.456028       -0.270633     -0.000220508    -1.23227e-05
                    -0.000462912     0.000115128        -0.151969       -0.131755     -0.000193181      1.4735e-05         0.896471       -0.443102
550800                 -0.210733        0.537068      0.000167345    -5.33755e-05        -0.487715        0.278101     -0.000454949     0.000132796
                     0.000173709    -4.48898e-05        -0.223473        -0.97471     -0.000138117     4.03104e-05        -0.183093       -0.134833
                       -0.487708        0.278092     -0.000138227     5.92004e-05         0.468645       -0.287816     -0.000223253    -3.93701e-05
                    -0.000478628     0.000114504        -0.183093       -0.134833     -0.000196326    -9.15485e-06         0.915033        -0.40338
554000                 -0.332196        0.461241      0.000180292    -4.85274e-05        -0.521386        0.286522     -0.000471086     0.000135456
                     0.000187698    -3.81158e-05        -0.313422       -0.949614     -0.000114496     4.43331e-05        -0.216023       -0.141002
                       -0.521378        0.286513     -0.000115456     6.38624e-05         0.480159        -0.30424     -0.000224195    -6.77897e-05
                     -0.00049639     0.000112188        -0.216023       -0.141002     -0.000198106    -3.43491e-05         0.931128       -0.364694
557200                 -0.440801        0.356998      0.000195804    -4.22903e-05        -0.561144        0.292176     -0.000489959     0.000137003
                     0.000204467    -2.92831e-05        -0.399131       -0.916894     -9.02886e-05     4.96014e-05        -0.250474       -0.150832
                       -0.561132        0.292166     -9.21776e-05     6.96785e-05         0.490687       -0.319939     -0.000223069    -9.74669e-05
                    -0.000516321     0.000107471        -0.250474       -0.150832     -0.000198296    -6.08004e-05         0.939778       -0.324437
560400                 -0.527082        0.228351      0.000214703    -3.40399e-05        -0.607812        0.293148     -0.000512047     0.000136717
                     0.000224875    -1.74203e-05        -0.466687       -0.861846     -6.55581e-05     5.62185e-05        -0.286008         -0.1649
                       -0.607798        0.293138     -6.84484e-05     7.67365e-05         0.500333       -0.334947     -0.000219605    -0.000128237
                     -0.00053839     9.94141e-05        -0.286008         -0.1649     -0.000196663    -8.84266e-05          0.84791       -0.254873
563600                 -0.583681       0.0832894      0.000238184    -2.27478e-05         -0.66185        0.286663     -0.000537798     0.000133508
                     0.000250123    -9.03325e-07        -0.481749       -0.748798     -4.03813e-05     6.42876e-05        -0.322006       -0.183754
                       -0.661832        0.286655     -4.43355e-05     8.51247e-05         0.509187       -0.349298      -0.00021354     -0.00015988
                    -0.000562265     8.68281e-05        -0.322006       -0.183754     -0.000192962    -0.000117104         0.771755       -0.198472
564000                  -0.58845       0.0645118      0.000241521    -2.10455e-05        -0.669115        0.285151     -0.000541292     0.000132828
                     0.000253697     1.61145e-06        -0.481767       -0.735002     -3.72072e-05     6.54034e-05          -0.3265       -0.186471
                       -0.669097        0.285143     -4.12982e-05     8.62711e-05         0.510242       -0.351047     -0.000212587    -0.000163883
                    -0.000565341     8.48685e-05          -0.3265       -0.186471     -0.000192342    -0.000120755         0.763142       -0.192165
566800                 -0.607232      -0.0677415      0.000268031    -6.62118e-06        -0.722797        0.268939     -0.000567483     0.000125775
                     0.000281882     2.31397e-05        -0.471762       -0.642757     -1.48506e-05     7.39101e-05        -0.357655        -0.20785
                       -0.722775        0.268933     -1.99187e-05     9.49297e-05         0.517329       -0.363025     -0.000204631    -0.000192116
                    -0.000587103     6.83236e-05        -0.357655        -0.20785      -0.00018695    -0.000146664         0.707611       -0.151838
570000                 -0.598979       -0.214228      0.000306983     1.76942e-05        -0.788403        0.235328     -0.000600874     0.000111266
                     0.000322325     6.01325e-05        -0.442673       -0.549758      1.09252e-05     8.51838e-05        -0.391956       -0.237486
                       -0.788377        0.235327        4.709e-06     0.000106235         0.524831        -0.37616     -0.000192665    -0.000224606
