! TOUCHSTONE file generated by CST MICROWAVE STUDIO
! Date and time: Mon Oct 20 08:27:18 2025
! Project name: Teste_Macro_Metasurface_Nanopilar.cst
! Parameters = {H=600; L_x=85; L_y=160; Lambda=1064; Max_L=200; Min_L=70; PathPara=1; Phi=0; Step_L=10; Theta=0; p=520; phaseX=180; phaseY=0}
! Header version: 2018
! Port assignment regex: !\s*Touchstone port\s*([0-9]+)\s*=\s*(CST MWS port|CST DS port)\s*([0-9]+|Zmin|Zmax)\s*\(\"(.*)\"\)(\s*mode\s*([0-9]+))?.*
! Touchstone port assignment:
! Touchstone port 1 = CST MWS port Zmax ("") mode 1
! Touchstone port 2 = CST MWS port Zmax ("") mode 2
! Touchstone port 3 = CST MWS port Zmin ("") mode 1
! Touchstone port 4 = CST MWS port Zmin ("") mode 2
! S-Parameters are not renormalized. Each port impedance will be approximated by the real part at minimum frequency. The values are described via the [Reference] keyword.
! Default impedance is overridden by [Reference]
[Version] 2.0
# GHz S RI R 376.73
[Number of Ports] 4
[Reference]
376.73 376.73 259.888 259.888 
[Number of Frequencies] 52
[Network Data]
474000                 0.0891099       -0.300793      0.000107013     5.02062e-05         0.788961        0.495146      5.07327e-05      -2.025e-05
                      5.9825e-05      5.6792e-05       -0.0485325        0.158306      3.61234e-05     2.66966e-05        -0.895575        -0.40083
                        0.788997        0.495194        4.558e-05     1.27423e-05         0.218721       -0.212026      0.000103799     3.59635e-05
                     4.24816e-05    -1.04866e-05        -0.895575       -0.400833      8.03433e-05     7.54772e-06       -0.0893397        0.146004
477200                  0.093221       -0.350701      0.000102895      5.4108e-05         0.755754        0.490967      4.83595e-05     -2.1192e-05
                     5.51597e-05     6.03048e-05       -0.0439813        0.158394      3.67545e-05     2.78477e-05        -0.900528       -0.381061
                        0.755788        0.491016      4.63553e-05     1.41831e-05         0.225011       -0.202498      0.000104604     1.69126e-05
                     4.02162e-05    -1.17906e-05        -0.900528       -0.381064       8.5075e-05     5.26319e-06       -0.0848344        0.149065
480400                 0.0917083       -0.399908       9.8443e-05     5.82068e-05           0.7234        0.486284      4.58334e-05    -2.22176e-05
                     5.01395e-05     6.39696e-05       -0.0391259        0.158468      3.74032e-05     2.90667e-05        -0.905156       -0.359473
                        0.723432        0.486333      4.71467e-05     1.57092e-05         0.231533       -0.192304      0.000100572    -5.35787e-06
                     3.78094e-05    -1.31981e-05        -0.905154       -0.359476      9.05618e-05     2.68726e-06       -0.0800626        0.152432
483600                 0.0849285       -0.447534      9.36182e-05     6.25147e-05         0.691884        0.481136      4.31394e-05    -2.33375e-05
                     4.47255e-05     6.77924e-05       -0.0339349        0.158524      3.80696e-05     3.03593e-05        -0.909305       -0.335854
                        0.691913        0.481185      4.79531e-05     1.73276e-05         0.238293       -0.181373      8.93137e-05    -2.92862e-05
                     3.52475e-05    -1.47214e-05        -0.909303       -0.335857      9.69987e-05    -2.36011e-07       -0.0750041        0.156148
486800                  0.073398       -0.492833      8.83752e-05     6.70441e-05         0.661188        0.475561      4.02606e-05    -2.45645e-05
                      3.8873e-05     7.17789e-05       -0.0283725        0.158558      3.87536e-05     3.17319e-05        -0.912778       -0.309965
                        0.661215         0.47561      4.87734e-05     1.90462e-05         0.245293       -0.169631      6.90861e-05    -5.14457e-05
                     3.25154e-05    -1.63749e-05        -0.912775       -0.309968      0.000104653    -3.57606e-06       -0.0696372        0.160264
490000                 0.0577437       -0.535221      8.26617e-05     7.18078e-05         0.631296        0.469595      3.71778e-05    -2.59134e-05
                     3.25308e-05     7.59336e-05       -0.0223975        0.158565      3.94548e-05     3.31916e-05        -0.915318       -0.281545
                         0.63132        0.469644      4.96057e-05     2.08734e-05         0.252537       -0.156992      4.04867e-05    -6.69986e-05
                     2.95962e-05    -1.81754e-05        -0.915315       -0.281549        0.0001139     -7.4186e-06       -0.0639393        0.164838
493200                 0.0386524       -0.574285      7.64169e-05      7.6818e-05         0.602188        0.463271      3.38692e-05     -2.7402e-05
                     2.56403e-05     8.02598e-05       -0.0159626        0.158537      4.01726e-05     3.47464e-05        -0.916593        -0.25031
                         0.60221        0.463319       5.0448e-05     2.28186e-05         0.260021       -0.143356      7.47798e-06    -7.18912e-05
                     2.64702e-05    -2.01424e-05        -0.916588       -0.250314      0.000125289    -1.18675e-05       -0.0578869        0.169941
496400                 0.0168237       -0.609778      6.95699e-05     8.20865e-05         0.573846        0.456621      3.03097e-05    -2.90514e-05
                     1.81337e-05     8.47585e-05      -0.00901279        0.158465       4.0906e-05     3.64051e-05        -0.916169        -0.21596
                        0.573867        0.456669      5.12972e-05     2.48923e-05         0.267739       -0.128612     -2.40481e-05    -6.54426e-05
                     2.31154e-05    -2.22992e-05        -0.916164       -0.215964      0.000139644    -1.70421e-05       -0.0514567        0.175656
499600               -0.00706764       -0.641601      6.20374e-05     8.76236e-05         0.546253        0.449674      2.64706e-05    -3.08869e-05
                     9.93247e-06     8.94276e-05      -0.00148422        0.158341      4.16535e-05     3.81774e-05        -0.913493       -0.178188
                        0.546272        0.449721      5.21497e-05     2.71059e-05          0.27568       -0.112633     -4.93999e-05    -5.06158e-05
                     1.95065e-05    -2.46734e-05        -0.913486       -0.178193      0.000158264    -2.30578e-05       -0.0446262        0.182082
502800                -0.0323998       -0.669777      5.37217e-05      9.3437e-05          0.51939        0.442457      2.23189e-05     -3.2939e-05
                     9.45751e-07     9.42606e-05       0.00669801        0.158148      4.24133e-05     4.00745e-05        -0.907848       -0.136707
                        0.519407        0.442503      5.30009e-05     2.94721e-05         0.283822      -0.0952734     -6.69022e-05     -3.1785e-05
                     1.56146e-05    -2.72978e-05         -0.90784       -0.136713      0.000183312    -2.99545e-05       -0.0373755        0.189341
506000                -0.0586212       -0.694426      4.45073e-05     9.95302e-05         0.493239        0.434997      1.78166e-05    -3.52452e-05
                    -8.93239e-06     9.92449e-05        0.0156222        0.157872      4.31825e-05     4.21087e-05        -0.898322      -0.0912796
                        0.493254         0.43504      5.38448e-05     3.20048e-05         0.292134       -0.076365     -7.73306e-05    -1.25105e-05
                     1.14063e-05    -3.02122e-05        -0.898313      -0.0912863      0.000218631    -3.74442e-05       -0.0296899        0.197577
509200                -0.0852593        -0.71574      3.42571e-05       0.0001059          0.46778        0.427316      1.29193e-05    -3.78511e-05
                    -1.98255e-05     0.000104359         0.025393        0.157489      4.39576e-05     4.42939e-05        -0.883765      -0.0417775
                        0.467794        0.427358      5.46741e-05     3.47196e-05         0.300572      -0.0557161     -8.24569e-05     5.19299e-06
                     6.84329e-06    -3.34648e-05        -0.883756      -0.0417857      0.000271629    -4.39886e-05       -0.0215635        0.206965
512400                 -0.111922       -0.733955      2.28082e-05     0.000112535         0.442997        0.419437      7.57551e-06    -4.08135e-05
                    -3.18782e-05     0.000109569        0.0361357        0.156971      4.47339e-05     4.66456e-05        -0.862749       0.0117284
                        0.443009        0.419477      5.54796e-05     3.76333e-05          0.30907      -0.0331059     -8.40325e-05     2.05499e-05
                     1.88104e-06    -3.71145e-05        -0.862738       0.0117186       0.00035798    -4.29815e-05       -0.0130052        0.217719
515600                 -0.138293       -0.749333      9.96563e-06     0.000119406          0.41887        0.411381      1.72533e-06    -4.42034e-05
                    -4.52596e-05     0.000114824        0.0480014         0.15628      4.55052e-05     4.91814e-05        -0.833543       0.0688391
                        0.418881         0.41142      5.62499e-05     4.07649e-05         0.317537     -0.00827998     -8.34074e-05     3.34896e-05
                    -3.53204e-06    -4.12343e-05        -0.833532        0.068827      0.000512536    -3.71887e-06      -0.00404783        0.230099
518800                 -0.164128       -0.762147     -4.50377e-06     0.000126465         0.395382        0.403168     -4.70146e-06    -4.81105e-05
                    -6.01681e-05      0.00012005        0.0611733        0.155368      4.62635e-05     5.19209e-05        -0.794138        0.128644
                        0.395391        0.403205      5.69707e-05     4.41346e-05         0.325849       0.0190545     -8.15062e-05     4.42519e-05
                    -9.45591e-06    -4.59152e-05        -0.794127        0.128629      0.000770632     0.000235877       0.00523879        0.244421
522000                  -0.18924       -0.772667     -2.08797e-05      0.00013363         0.372515        0.394815     -1.17869e-05    -5.26493e-05
                    -7.68359e-05     0.000125139        0.0758767        0.154169      4.69984e-05     5.48863e-05         -0.74234        0.189488
                        0.372523         0.39485      5.76243e-05      4.7765e-05         0.333833        0.049234     -7.89229e-05     5.31702e-05
                    -1.59603e-05    -5.12718e-05        -0.742329        0.189471      0.000549073     0.000935644        0.0147273        0.261068
525200                 -0.213498       -0.781155     -3.94976e-05     0.000140771         0.350253         0.38634      -1.9627e-05    -5.79683e-05
                     -9.5534e-05     0.000129938        0.0923906        0.152593      4.76966e-05     5.81026e-05        -0.676007        0.248713
                        0.350259        0.386373      5.81889e-05     5.16803e-05         0.341255       0.0826445     -7.60241e-05     6.05723e-05
                    -2.31264e-05    -5.74508e-05        -0.675998        0.248693      -0.00012239      0.00076515        0.0242027        0.280502
528400                 -0.236812       -0.787853      -6.0758e-05     0.000147692         0.328577        0.377757      -2.8333e-05    -6.42618e-05
                    -0.000116576     0.000134227         0.111065        0.150518       4.8341e-05     6.15977e-05        -0.593484        0.302439
                        0.328582        0.377788      5.86376e-05     5.59067e-05         0.347798        0.119726     -7.30297e-05      6.6744e-05
                    -3.10477e-05    -6.46412e-05        -0.593477        0.302416     -0.000210974      0.00046095        0.0333171        0.303269
531600                 -0.259128       -0.792989     -8.51363e-05     0.000154089         0.307471        0.369083      -3.8033e-05    -7.17879e-05
                    -0.000140322     0.000137701         0.132344        0.147773      4.89095e-05      6.5403e-05        -0.494256        0.345534
                        0.307476        0.369111      5.89368e-05     6.04717e-05         0.353031        0.160973     -7.00678e-05     7.19214e-05
                    -3.98316e-05    -7.30913e-05        -0.494253        0.345509     -0.000186509     0.000316425        0.0415246        0.330001
534800                 -0.280418       -0.796766     -0.000113188     0.000159515         0.286919        0.360329     -4.88709e-05    -8.08951e-05
                    -0.000167175     0.000139925           0.1568        0.144114      4.93739e-05     6.95532e-05         -0.37977        0.371967
                        0.286923        0.360356      5.90454e-05     6.54043e-05         0.356373        0.206939     -6.72095e-05     7.62944e-05
                    -4.95982e-05    -8.31308e-05        -0.379772        0.371941     -0.000155966     0.000241489        0.0479889        0.361387
538000                 -0.300678       -0.799369     -0.000145542     0.000163299         0.266905         0.35151     -6.10006e-05    -9.20607e-05
                    -0.000197569     0.000140296         0.185177        0.139183       4.9698e-05     7.40869e-05        -0.254138        0.375718
                        0.266908        0.351534      5.89129e-05     7.07336e-05         0.357041        0.258219     -6.44918e-05     8.00143e-05
                    -6.04768e-05    -9.52056e-05        -0.254145        0.375693     -0.000131057     0.000197342        0.0514598        0.398106
541200                 -0.319919       -0.800963     -0.000182881      0.00016446         0.247414        0.342636     -7.45713e-05    -0.000105949
                    -0.000231944     0.000137972         0.218466        0.132451      4.98352e-05      7.9046e-05        -0.124313        0.352237
                        0.247416        0.342657      5.84773e-05     7.64883e-05         0.353985        0.315429     -6.19306e-05     8.32007e-05
                    -7.25944e-05    -0.000109928        -0.124324        0.352214     -0.000111657     0.000168723        0.0501267        0.440674
544400                 -0.338164       -0.801692     -0.000225862     0.000161573         0.228429        0.333718     -8.96891e-05    -0.000123502
                    -0.000270684     0.000131799         0.258003        0.123099      4.97262e-05     8.44756e-05      0.000702069        0.300014
                        0.228431        0.333737      5.76628e-05     8.26941e-05         0.345801        0.379159     -5.95298e-05      8.5949e-05
                    -8.60485e-05    -0.000128156      0.000688085        0.299996     -9.64432e-05     0.000148837        0.0414847        0.489151
547600                 -0.355444       -0.801684      -0.00027497     0.000152608         0.209936        0.324767     -0.000106332    -0.000146067
                    -0.000314005     0.000120212         0.305619         0.10983      4.92946e-05     9.04223e-05         0.111627        0.221549
                        0.209937        0.324783      5.63777e-05     8.93713e-05         0.330635        0.449875     -5.72863e-05     8.83347e-05
                    -0.000100846     -0.00015111         0.111612        0.221536     -8.43037e-05     0.000134288        0.0223158        0.542647
550800                 -0.371797       -0.801051     -0.000330215     0.000134766         0.191921        0.315791     -0.000124164    -0.000175596
                    -0.000361759     0.000101157         0.363872       0.0905025      4.84433e-05     9.69327e-05         0.201056        0.123047
                        0.191922        0.315805      5.45115e-05     9.65308e-05         0.306073        0.527767      -5.5193e-05     9.04185e-05
                    -0.000116765    -0.000180551         0.201042         0.12304     -7.44378e-05     0.000123216        -0.011014        0.598634
554000                 -0.387265        -0.79989     -0.000390617       0.0001044         0.174369        0.306799     -0.000142122    -0.000214897
                    -0.000413121     7.20581e-05         0.436367       0.0614173      4.70486e-05     0.000104049          0.26502       0.0128958
                         0.17437        0.306811      5.19328e-05     0.000104168         0.269048        0.612491     -5.32408e-05     9.22492e-05
                    -0.000133061     -0.00021905         0.265008       0.0128923     -6.62828e-05     0.000114525       -0.0616527        0.652263
557200                 -0.401891       -0.798285     -0.000453408     5.72225e-05         0.157267          0.2978      -0.00015755    -0.000267868
                    -0.000466128      2.9952e-05         0.528161       0.0158506      4.49545e-05     0.000111803         0.303312        -0.10038
                        0.157268        0.297809      4.84883e-05     0.000112257         0.215818         0.70278       -5.142e-05     9.38664e-05
                      -0.0001478    -0.000270315         0.303304       -0.100381     -5.94399e-05      0.00010753        -0.130601         0.69625
560400                 -0.415718       -0.796311     -0.000513084    -1.08417e-05         0.140602          0.2888     -0.000164426    -0.000339278
                    -0.000517136     -2.8062e-05         0.645958      -0.0591575      4.19658e-05     0.000120207         0.318684       -0.209758
                        0.140602        0.288806      4.40024e-05     0.000120738         0.142117        0.795899     -4.97207e-05     9.53022e-05
                    -0.000156426    -0.000339425          0.31868       -0.209758     -5.36222e-05     0.000101786        -0.214769        0.722184
563600                 -0.428791       -0.794028     -0.000560841    -0.000101787          0.12436        0.279807     -0.000150335    -0.000432686
                    -0.000560404    -0.000103846         0.796509       -0.190115      3.78425e-05     0.000129238         0.315514       -0.310486
                         0.12436         0.27981      3.82812e-05     0.000129504        0.0436383        0.886994     -4.81333e-05     9.65831e-05
                    -0.000148815     -0.00043208         0.315514       -0.310486     -4.86187e-05     9.69866e-05        -0.306188        0.723513
564000                 -0.430374       -0.793724     -0.000565424    -0.000114695         0.122359        0.278683     -0.000146123    -0.000445842
                    -0.000564902    -0.000114574         0.817728       -0.212724      3.72336e-05     0.000130407         0.314054       -0.322323
                        0.122359        0.278686      3.74691e-05     0.000130613        0.0294002        0.897894     -4.79423e-05     9.67335e-05
                    -0.000145849    -0.000445515         0.314054       -0.322323     -4.80422e-05     9.64418e-05        -0.317586        0.721807
566800                 -0.441152       -0.791494     -0.000585515    -0.000212779         0.108528        0.270826     -9.38253e-05    -0.000543027
                    -0.000588314    -0.000196703         0.913912       -0.405913      3.22974e-05     0.000138815         0.298578       -0.400052
                        0.108528        0.270826      3.11209e-05     0.000138392        -0.082938         0.96851     -4.66488e-05      9.7731e-05
                    -0.000104487    -0.000549908          0.29858       -0.400053     -4.42718e-05     9.29195e-05        -0.393881        0.698802
570000                 -0.452845       -0.788753     -0.000577102    -0.000334058        0.0930957        0.261863      2.80709e-05    -0.000641668
                    -0.000592837     -0.00030179         0.778542       -0.627592      2.49993e-05     0.000148773         0.272238       -0.477691
                       0.0930956        0.261861      2.23233e-05      0.00014716        -0.225364        0.974275     -4.52589e-05      9.8764e-05
