! TOUCHSTONE file generated by CST MICROWAVE STUDIO
! Date and time: Mon Oct 20 08:27:51 2025
! Project name: Teste_Macro_Metasurface_Nanopilar.cst
! Parameters = {H=600; L_x=190; L_y=160; Lambda=1064; Max_L=200; Min_L=70; PathPara=1; Phi=0; Step_L=10; Theta=0; p=520; phaseX=180; phaseY=0}
! Header version: 2018
! Port assignment regex: !\s*Touchstone port\s*([0-9]+)\s*=\s*(CST MWS port|CST DS port)\s*([0-9]+|Zmin|Zmax)\s*\(\"(.*)\"\)(\s*mode\s*([0-9]+))?.*
! Touchstone port assignment:
! Touchstone port 1 = CST MWS port Zmax ("") mode 1
! Touchstone port 2 = CST MWS port Zmax ("") mode 2
! Touchstone port 3 = CST MWS port Zmin ("") mode 1
! Touchstone port 4 = CST MWS port Zmin ("") mode 2
! S-Parameters are not renormalized. Each port impedance will be approximated by the real part at minimum frequency. The values are described via the [Reference] keyword.
! Default impedance is overridden by [Reference]
[Version] 2.0
# GHz S RI R 376.73
[Number of Ports] 4
[Reference]
376.73 376.73 259.888 259.888 
[Number of Frequencies] 52
[Network Data]
474000                 -0.234343        0.526398     -5.44084e-05     5.72328e-05         0.570012       -0.531674     -5.71001e-05     0.000116627
                    -8.58663e-05     8.27925e-05         0.752971       -0.126223     -5.92388e-05    -5.83517e-05        -0.559637       -0.207395
                        0.569995       -0.531674     -5.92431e-05    -5.83517e-05         0.536555       -0.222539     -0.000166348    -7.76612e-05
                    -5.87626e-05     0.000175368        -0.559637       -0.207395     -0.000166369    -7.76556e-05        -0.452923        -0.62773
477200                 -0.282385        0.520277     -5.17796e-05     5.81928e-05         0.551751       -0.508115     -5.59361e-05     0.000119408
                    -8.26101e-05     8.32383e-05         0.719901       -0.177075     -6.04087e-05    -6.03049e-05         -0.56522       -0.220775
                        0.551736       -0.508116     -6.03992e-05    -6.03299e-05          0.56402       -0.214493     -0.000162939      -8.001e-05
                    -5.80663e-05     0.000176932         -0.56522       -0.220775     -0.000162956    -8.00086e-05        -0.249089       -0.666343
480400                 -0.337095        0.510944     -4.90525e-05     5.91876e-05         0.533276       -0.484808     -5.47621e-05     0.000122299
                    -7.92349e-05     8.37022e-05         0.681789       -0.226472     -6.16277e-05    -6.23451e-05        -0.570987       -0.235483
                        0.533261       -0.484809     -6.16038e-05    -6.23962e-05          0.59242       -0.204404     -0.000159341    -8.24669e-05
                    -5.73547e-05     0.000178561        -0.570987       -0.235483     -0.000159352      -8.247e-05       -0.0767117       -0.659914
483600                 -0.399754        0.497094     -4.62214e-05     6.02192e-05          0.51459       -0.461756     -5.35797e-05     0.000125308
                    -7.57341e-05     8.41852e-05         0.638654       -0.273723      -6.2899e-05    -6.44783e-05        -0.576912       -0.251712
                        0.514577       -0.461757       -6.286e-05    -6.45567e-05         0.621636        -0.19203     -0.000155536    -8.50393e-05
                     -5.6628e-05     0.000180259        -0.576912       -0.251712     -0.000155541    -8.50471e-05         0.062622       -0.628245
486800                 -0.471889        0.476815     -4.32803e-05     6.12896e-05           0.4957        -0.43896     -5.23903e-05     0.000128439
                    -7.21006e-05     8.46886e-05         0.590635       -0.318119      -6.4226e-05     -6.6711e-05        -0.582952       -0.269691
                        0.495687       -0.438961      -6.4171e-05     -6.6818e-05         0.651504       -0.177116     -0.000151507    -8.77353e-05
                    -5.58858e-05      0.00018203        -0.582952       -0.269691     -0.000151506    -8.77481e-05         0.172954       -0.584449
490000                 -0.555278        0.447278     -4.02226e-05      6.2401e-05         0.476608       -0.416424     -5.11958e-05     0.000131701
                    -6.83266e-05     8.52137e-05         0.537999        -0.35895     -6.56125e-05    -6.90503e-05        -0.589042       -0.289693
                        0.476596       -0.416425     -6.55407e-05    -6.91872e-05         0.681809       -0.159409     -0.000147233    -9.05637e-05
                    -5.51283e-05     0.000183879        -0.589042       -0.289694     -0.000147226    -9.05816e-05         0.259757       -0.536296
493200                 -0.651843        0.404236     -3.70412e-05     6.35558e-05         0.457322       -0.394149     -4.99986e-05       0.0001351
                    -6.44038e-05     8.57619e-05         0.481146       -0.395543     -6.70625e-05     -7.1504e-05        -0.595086       -0.312046
                        0.457311        -0.39415     -6.69729e-05    -7.16723e-05         0.712279       -0.138662     -0.000142691     -9.3534e-05
                    -5.43554e-05     0.000185812        -0.595086       -0.312046     -0.000142677    -9.35575e-05         0.328148       -0.488048
496400                 -0.763321        0.341255     -3.37286e-05     6.47567e-05         0.437845       -0.372138     -4.88013e-05     0.000138645
                    -6.03233e-05     8.63347e-05         0.420605       -0.427282     -6.85804e-05    -7.40807e-05        -0.600937        -0.33714
                        0.437835       -0.372139      -6.8472e-05     -7.4282e-05         0.742579       -0.114645     -0.000137857    -9.66567e-05
                    -5.35673e-05     0.000187832        -0.600937       -0.337141     -0.000137836     -9.6686e-05         0.382337        -0.44187
499600                 -0.890385        0.248572     -3.02764e-05     6.60065e-05         0.418183       -0.350393     -4.76067e-05     0.000142344
                    -5.60754e-05     8.69339e-05         0.357015       -0.453648     -7.01712e-05    -7.67898e-05        -0.606382       -0.365451
                        0.418173       -0.350394     -7.00429e-05    -7.70259e-05         0.772308      -0.0871621     -0.000132702    -9.99432e-05
                    -5.27643e-05     0.000189947        -0.606382       -0.365451     -0.000132672    -9.99788e-05          0.42561       -0.398739
502800                 -0.994184        0.107697     -2.66756e-05     6.73081e-05          0.39834       -0.328915     -4.64185e-05     0.000146206
                    -5.16495e-05     8.75612e-05         0.291111       -0.474234     -7.18402e-05     -7.9642e-05        -0.611107       -0.397545
                        0.398331       -0.328916     -7.16908e-05    -7.99146e-05            0.801      -0.0560672     -0.000127191    -0.000103406
                    -5.19468e-05     0.000192163        -0.611108       -0.397545     -0.000127152    -0.000103448         0.460468       -0.358981
506000                 -0.997072      -0.0764623     -2.29164e-05      6.8665e-05         0.378322       -0.307706     -4.52407e-05      0.00015024
                    -4.70342e-05     8.82187e-05         0.223692       -0.488773     -7.35933e-05    -8.26486e-05        -0.614654       -0.434106
                        0.378313       -0.307708     -7.34215e-05    -8.29598e-05         0.828126      -0.0212836     -0.000121289    -0.000107059
                    -5.11154e-05     0.000194486        -0.614654       -0.434106      -0.00012124    -0.000107108           0.4888       -0.322587
509200                 -0.959282       -0.282449     -1.89881e-05     7.00806e-05         0.358133       -0.286769     -4.40779e-05     0.000154458
                    -4.22171e-05     8.89086e-05          0.15559       -0.497145     -7.54369e-05    -8.58227e-05        -0.616349       -0.475947
                        0.358125        -0.28677     -7.52413e-05    -8.61746e-05         0.853107       0.0171766     -0.000114952    -0.000110917
                    -5.02708e-05     0.000196925        -0.616349       -0.475948     -0.000114893    -0.000110974         0.512029       -0.289376
512400                 -0.864271       -0.503027      -1.4879e-05     7.15588e-05         0.337779       -0.266105     -4.29357e-05     0.000158869
                    -3.71847e-05     8.96333e-05        0.0876384       -0.499381     -7.73782e-05    -8.91787e-05        -0.615201       -0.524018
                        0.337772       -0.266106     -7.71572e-05    -8.95736e-05         0.875327       0.0591926     -0.000108132    -0.000114997
                     -4.9414e-05     0.000199487        -0.615201       -0.524019     -0.000108061    -0.000115062         0.531237         -0.2591
515600                 -0.695819       -0.718217     -1.05764e-05      7.3104e-05         0.317264       -0.245714     -4.18202e-05     0.000163486
                    -3.19223e-05     9.03954e-05        0.0206353       -0.495654     -7.94253e-05    -9.27325e-05        -0.609753       -0.579393
                        0.317258       -0.245715     -7.91771e-05    -9.31731e-05         0.894159         0.10452     -0.000100772    -0.000119316
                    -4.85464e-05     0.000202182        -0.609753       -0.579393     -0.000100687    -0.000119389         0.547245       -0.231486
518800                 -0.451969       -0.892034     -6.06631e-06     7.47207e-05         0.296594       -0.225599     -4.07386e-05     0.000168322
                    -2.64136e-05     9.11979e-05       -0.0446829       -0.486269     -8.15868e-05    -9.65022e-05        -0.597857       -0.643198
                        0.296589       -0.225601     -8.13096e-05    -9.69911e-05         0.908995        0.152778     -9.28068e-05    -0.000123895
                    -4.76697e-05      0.00020502        -0.597857       -0.643199     -9.27074e-05    -0.000123977         0.560687       -0.206267
522000                 -0.161388       -0.986891     -1.33329e-06     7.64141e-05         0.275774       -0.205761     -3.96993e-05     0.000173389
                     -2.0641e-05      9.2044e-05        -0.107666       -0.471639     -8.38727e-05    -0.000100508         -0.57637       -0.716437
                        0.275769       -0.205762     -8.35643e-05    -0.000101048         0.919279         0.20345     -8.41596e-05    -0.000128753
                    -4.67859e-05     0.000208012         -0.57637       -0.716438      -8.4044e-05    -0.000128845         0.572052       -0.183193
525200                   0.12476       -0.992187      3.63957e-06     7.81896e-05         0.254809       -0.186201     -3.87118e-05     0.000178703
                    -1.45851e-05     9.29374e-05        -0.167765        -0.45226     -8.62939e-05    -0.000104773        -0.540753       -0.799579
                        0.254804       -0.186202      -8.5952e-05    -0.000105368         0.924545        0.255894     -7.47411e-05    -0.000133916
                    -4.58976e-05     0.000211169        -0.540754        -0.79958     -7.46074e-05    -0.000134018         0.581724       -0.162038
528400                  0.366211       -0.930532      8.87097e-06     8.00535e-05         0.233703       -0.166919     -3.77871e-05     0.000184277
                    -8.22443e-06     9.38821e-05        -0.224543       -0.428688     -8.88626e-05    -0.000109323        -0.477542       -0.878609
                        0.233699        -0.16692     -8.84846e-05    -0.000109976          0.92445        0.309355      -6.4446e-05    -0.000139408
                    -4.50081e-05     0.000214505        -0.477541       -0.878609      -6.4292e-05    -0.000139521         0.590004       -0.142596
531600                  0.550804       -0.834635      1.43816e-05     8.20125e-05         0.212462       -0.147918     -3.69378e-05     0.000190129
                     -1.5355e-06     9.48825e-05        -0.277678       -0.401508     -9.15928e-05    -0.000114187        -0.374807       -0.927103
                        0.212459       -0.147918     -9.11757e-05    -0.000114903         0.918805        0.363005     -5.31491e-05    -0.000145254
                    -4.41214e-05     0.000218035        -0.374806       -0.927103      -5.2972e-05    -0.000145379         0.597133       -0.124687
534800                  0.685062       -0.728485      2.01945e-05      8.4074e-05         0.191091       -0.129196     -3.61785e-05     0.000196275
                     5.50779e-06     9.59436e-05        -0.326955       -0.371314        -9.45e-05    -0.000119399        -0.247955       -0.968771
                        0.191088       -0.129197     -9.40404e-05    -0.000120182         0.907597         0.41598     -4.07008e-05    -0.000151484
                    -4.32423e-05     0.000221773        -0.247954       -0.968772     -4.04976e-05    -0.000151622         0.603301       -0.108151
538000                   0.78083       -0.624743      2.63351e-05     8.62462e-05         0.169594       -0.110756     -3.55261e-05     0.000202733
                     1.29344e-05     9.70711e-05        -0.372262       -0.338687     -9.76018e-05    -0.000124998       -0.0943372        -0.99554
                        0.169592       -0.110757     -9.70961e-05    -0.000125853         0.885539        0.464564     -2.69213e-05    -0.000158126
                    -4.23767e-05     0.000225739       -0.0943357        -0.99554     -2.66882e-05    -0.000158277         0.608665       -0.092846
541200                  0.848824       -0.528676       3.2832e-05     8.85384e-05         0.147978      -0.0925979     -3.49997e-05     0.000209523
                     2.07763e-05     9.82712e-05        -0.413574       -0.304178     -0.000100918    -0.000131028        0.0846491       -0.996411
                        0.147975      -0.0925985     -0.000100362    -0.000131961         0.859691        0.510814      -1.1592e-05    -0.000165208
                    -4.15321e-05     0.000229951         0.084651       -0.996411     -1.13246e-05    -0.000165373         0.613349      -0.0786489
544400                  0.897112       -0.441803      3.97172e-05     9.09607e-05         0.126245      -0.0747217     -3.46215e-05     0.000216664
                     2.90696e-05     9.95512e-05        -0.450943       -0.268298     -0.000104472    -0.000137542         0.280413       -0.959879
                        0.126244      -0.0747223     -0.000103861    -0.000138558         0.831794        0.555084      5.55403e-06    -0.000172755
                    -4.07173e-05      0.00023443         0.280416       -0.959879      5.86125e-06    -0.000172934         0.617457      -0.0654499
547600                  0.931399       -0.363999      4.70263e-05     9.35245e-05         0.104403      -0.0571282      -3.4417e-05     0.000224177
                     3.78542e-05     0.000100919        -0.484482       -0.231511      -0.00010829    -0.000144598         0.476374       -0.879243
                        0.104401      -0.0571286     -0.000107618    -0.000145705         0.802159        0.597111      2.48468e-05    -0.000180786
                    -3.99431e-05     0.000239201         0.476377       -0.879241      2.52005e-05    -0.000180981         0.621074      -0.0531525
550800                  0.955649       -0.294508         5.48e-05     9.62425e-05        0.0824546      -0.0398174     -3.44156e-05     0.000232084
                     4.71751e-05     0.000102384        -0.514349       -0.194225     -0.000112401    -0.000152269          0.65262       -0.757685
                       0.0824535      -0.0398178     -0.000111662    -0.000153474         0.771117        0.636694      4.66977e-05    -0.000189308
                     -3.9223e-05      0.00024429         0.652622       -0.757683       4.7106e-05    -0.000189519         0.624269      -0.0416715
554000                   0.97262       -0.232402      6.30839e-05      9.9129e-05        0.0604058      -0.0227897     -3.46509e-05     0.000240405
                     5.70829e-05     0.000103956        -0.540739       -0.156796     -0.000116841    -0.000160637           0.7733       -0.591863
                       0.0604049      -0.0227899     -0.000116027     -0.00016195         0.739007        0.673698      7.16252e-05    -0.000198306
                     -3.8573e-05     0.000249726         0.773302       -0.591861      7.20984e-05    -0.000198533         0.627102      -0.0309316
557200                  0.984253       -0.176767      7.19298e-05       0.0001022         0.038261     -0.00604492     -3.51614e-05     0.000249163
                     6.76349e-05     0.000105648        -0.563868       -0.119526     -0.000121649    -0.000169802         0.774858       -0.385171
                       0.0382605     -0.00604511     -0.000120753    -0.000171233         0.705245        0.707131       0.00010029    -0.000207728
                     -3.8013e-05     0.000255541         0.774859       -0.385169      0.000100841    -0.000207969         0.629621      -0.0208659
560400                  0.987768       -0.126241      8.13971e-05     0.000105474        0.0160252       0.0104168     -3.59916e-05     0.000258381
                     7.88959e-05     0.000107473        -0.583967      -0.0826683     -0.000126873    -0.000179883         0.727788       -0.213908
                        0.016025       0.0104167     -0.000125884    -0.000181443         0.666137        0.732303      0.000133543    -0.000217454
                    -3.75672e-05      0.00026177         0.727789       -0.213906      0.000134189    -0.000217709         0.631867      -0.0114151
563600                  0.961567      -0.0788158      9.15535e-05     0.000108972      -0.00629688       0.0265958     -3.71921e-05     0.000268078
                     9.09398e-05     0.000109448        -0.601271       -0.046428     -0.000132569    -0.000191024         0.655663      -0.0827725
                      -0.0062969       0.0265957     -0.000131474    -0.000192727         0.626503        0.753156      0.000172497    -0.000227254
                    -3.72652e-05     0.000268454         0.655664      -0.0827706      0.000173258    -0.000227517         0.633876     -0.00252631
564000                  0.958404      -0.0734078      9.28752e-05     0.000109426      -0.00909297       0.0285983      -3.7371e-05     0.000269325
                     9.25045e-05     0.000109706        -0.603249        -0.04195     -0.000133317      -0.0001925         0.645799      -0.0690186
                     -0.00909297       0.0285982     -0.000132208    -0.000194221         0.621541        0.755469      0.000177835    -0.000228466
                    -3.72393e-05     0.000269323         0.645799      -0.0690166      0.000178613    -0.000228729         0.634112     -0.00145232
566800                  0.936983      -0.0383525      0.000102477     0.000112717       -0.0287006       0.0424921     -3.88209e-05     0.000278276
                     0.000103851     0.000111591        -0.616014      -0.0109696       -0.0001388      -0.0002034         0.575098       0.0129393
                      -0.0287004       0.0424921     -0.000137586    -0.000205262           0.5869        0.769907      0.000218617    -0.000236701
                    -3.71434e-05     0.000275634         0.575098       0.0129409      0.000219522    -0.000236963         0.635677      0.00584768
570000                  0.914056     -0.00352188      0.000114258     0.000116736       -0.0511811       0.0581061     -4.09442e-05     0.000288991
                     0.000117727     0.000113924        -0.628425       0.0235792     -0.000145645    -0.000217228         0.495583       0.0808242
                      -0.0511807       0.0581063     -0.000144294    -0.000219266           0.5478        0.782838      0.000273861    -0.000245029
