! TOUCHSTONE file generated by CST MICROWAVE STUDIO
! Date and time: Mon Oct 20 08:27:52 2025
! Project name: Teste_Macro_Metasurface_Nanopilar.cst
! Parameters = {H=600; L_x=200; L_y=70; Lambda=1064; Max_L=200; Min_L=70; PathPara=1; Phi=0; Step_L=10; Theta=0; p=520; phaseX=180; phaseY=0}
! Header version: 2018
! Port assignment regex: !\s*Touchstone port\s*([0-9]+)\s*=\s*(CST MWS port|CST DS port)\s*([0-9]+|Zmin|Zmax)\s*\(\"(.*)\"\)(\s*mode\s*([0-9]+))?.*
! Touchstone port assignment:
! Touchstone port 1 = CST MWS port Zmax ("") mode 1
! Touchstone port 2 = CST MWS port Zmax ("") mode 2
! Touchstone port 3 = CST MWS port Zmin ("") mode 1
! Touchstone port 4 = CST MWS port Zmin ("") mode 2
! S-Parameters are not renormalized. Each port impedance will be approximated by the real part at minimum frequency. The values are described via the [Reference] keyword.
! Default impedance is overridden by [Reference]
[Version] 2.0
# GHz S RI R 376.73
[Number of Ports] 4
[Reference]
376.73 376.73 259.888 259.888 
[Number of Frequencies] 52
[Network Data]
474000                  0.738776       -0.527677      0.000102485     0.000122809        -0.367515       0.0752531     -1.40681e-05    -2.43661e-07
                     0.000105395       0.0001581         0.802953        -0.49296      2.91855e-05    -5.07501e-05        -0.286024      -0.0370604
                       -0.367495       0.0752388      4.06292e-05    -4.10346e-05          -0.8965       -0.145606     -1.62471e-05     2.96404e-05
                    -2.51032e-05    -2.74818e-05        -0.286015      -0.0370711     -1.81379e-05     3.43876e-05        -0.690295       -0.642405
477200                  0.741122       -0.520118      0.000101899     0.000120568        -0.362545       0.0778587     -1.30961e-05    -1.40472e-07
                     0.000104893     0.000155715         0.790329        -0.49631      2.62464e-05    -4.92379e-05        -0.288987      -0.0361763
                       -0.362526       0.0778439      3.77556e-05    -3.95314e-05        -0.894626       -0.131199     -1.72566e-05     2.84148e-05
                    -2.36176e-05    -2.74204e-05        -0.288978      -0.0361872     -1.92092e-05     3.34765e-05        -0.675349       -0.645251
480400                  0.743352       -0.512009      0.000101285     0.000118216        -0.357191       0.0806043     -1.20835e-05    -2.92601e-08
                     0.000104367      0.00015321         0.777081       -0.499518      2.31959e-05    -4.76332e-05        -0.292188      -0.0352113
                       -0.357171       0.0805891      3.47738e-05    -3.79369e-05        -0.892271       -0.116072     -1.83168e-05     2.71376e-05
                    -2.20691e-05    -2.73483e-05        -0.292179      -0.0352226     -2.03319e-05     3.25294e-05        -0.659684        -0.64786
483600                  0.745424       -0.503305       0.00010064     0.000115743        -0.351405       0.0834997     -1.10279e-05     9.07318e-08
                     0.000103816     0.000150575         0.763172       -0.502552      2.00282e-05    -4.59285e-05        -0.295657      -0.0341541
                       -0.351386        0.083484      3.16778e-05    -3.62434e-05        -0.889363       -0.100184     -1.94316e-05     2.58055e-05
                    -2.04538e-05    -2.72642e-05        -0.295648      -0.0341656     -2.15094e-05     3.15443e-05        -0.643259       -0.650191
486800                  0.747287       -0.493955      9.99622e-05     0.000113142        -0.345137       0.0865549     -9.92628e-06     2.20349e-07
                     0.000103239     0.000147799         0.748564       -0.505377      1.67369e-05    -4.41151e-05        -0.299429      -0.0329909
                       -0.345117       0.0865388      2.84618e-05    -3.44425e-05        -0.885825       -0.083497     -2.06054e-05      2.4415e-05
                    -1.87673e-05    -2.71667e-05         -0.29942      -0.0330028     -2.27461e-05     3.05188e-05        -0.626035       -0.652195
490000                   0.74888        -0.48391      9.92491e-05     0.000110401        -0.338324       0.0897806     -8.77576e-06     3.60538e-07
                     0.000102632     0.000144871         0.733218        -0.50795      1.33155e-05    -4.21838e-05        -0.303546      -0.0317052
                       -0.338304       0.0897639      2.51193e-05    -3.25249e-05        -0.881564      -0.0659723     -2.18428e-05     2.29622e-05
                    -1.70049e-05    -2.70543e-05        -0.303536      -0.0317175     -2.40463e-05     2.94506e-05         -0.60797       -0.653816
493200                  0.750128       -0.473117      9.84977e-05     0.000107508        -0.330893       0.0931874       -7.573e-06     5.12358e-07
                     0.000101995     0.000141778         0.717094       -0.510225      9.75686e-06     -4.0124e-05        -0.308057      -0.0302771
                       -0.330874         0.09317      2.16434e-05    -3.04805e-05        -0.876476       -0.047573      -2.3149e-05     2.14429e-05
                    -1.51615e-05    -2.69252e-05        -0.308047      -0.0302898      -2.5415e-05     2.83368e-05        -0.589023       -0.654991
496400                  0.750944       -0.461526      9.77049e-05     0.000104452         -0.32276       0.0967856     -6.31439e-06     6.76999e-07
                     0.000101324     0.000138505         0.700148       -0.512146      6.05343e-06    -3.79241e-05        -0.313021      -0.0286818
                       -0.322741       0.0967676      1.80269e-05    -2.82978e-05        -0.870441       -0.028265     -2.45299e-05     1.98525e-05
                    -1.32314e-05    -2.67773e-05         -0.31301      -0.0286949     -2.68576e-05     2.71748e-05        -0.569152       -0.655649
499600                  0.751219       -0.449084      9.68671e-05     0.000101217        -0.313823        0.100585     -4.99601e-06     8.55803e-07
                     0.000100617     0.000135038         0.682339       -0.513651      2.19728e-06    -3.55713e-05         -0.31851      -0.0268888
                       -0.313804        0.100566      1.42623e-05     -2.5964e-05        -0.863325     -0.00801914     -2.59919e-05     1.81862e-05
                    -1.12085e-05    -2.66083e-05        -0.318499      -0.0269025     -2.83803e-05     2.59614e-05        -0.548316       -0.655709
502800                  0.750826       -0.435748      9.59804e-05      9.7788e-05        -0.303961        0.104593     -3.61354e-06     1.05028e-06
                     9.98706e-05     0.000131357         0.663623       -0.514671     -1.81998e-06    -3.30511e-05        -0.324611      -0.0248599
                       -0.303942        0.104574      1.03413e-05    -2.34651e-05         -0.85497       0.0131866     -2.75422e-05     1.64383e-05
                     -9.0862e-06    -2.64157e-05        -0.324599      -0.0248742     -2.99897e-05     2.46932e-05        -0.526474       -0.655081
506000                  0.749613       -0.421481      9.50403e-05     9.41461e-05        -0.293028        0.108816     -2.16225e-06     1.26215e-06
                     9.90821e-05     0.000127442         0.643958       -0.515124     -6.00721e-06    -3.03474e-05        -0.331433      -0.0225463
                       -0.293009        0.108796      6.25561e-06    -2.07853e-05        -0.845201       0.0353639     -2.91888e-05     1.46029e-05
                     -6.8571e-06    -2.61964e-05        -0.331421      -0.0225613     -3.16934e-05     2.33666e-05         -0.50359        -0.65366
509200                  0.747404        -0.40626       9.4042e-05     9.02713e-05        -0.280847        0.113252     -6.36934e-07     1.49336e-06
                     9.82476e-05     0.000123271         0.623302       -0.514919     -1.03737e-05    -2.74422e-05        -0.339111      -0.0198853
                       -0.280829        0.113231      1.99619e-06    -1.79067e-05        -0.833817         0.05851     -3.09409e-05     1.26735e-05
                    -4.51317e-06     -2.5947e-05        -0.339098       -0.019901     -3.34998e-05     2.19778e-05        -0.479628       -0.651332
512400                  0.743989       -0.390084      9.29798e-05     8.61404e-05        -0.267203        0.117893      9.68136e-07     1.74613e-06
                     9.73629e-05     0.000118817         0.601618       -0.513953     -1.49293e-05    -2.43153e-05        -0.347815      -0.0167945
                       -0.267184         0.11787     -2.44627e-06    -1.48096e-05        -0.820594       0.0826029     -3.28086e-05     1.06429e-05
                    -2.04555e-06    -2.56636e-05        -0.347801      -0.0168112     -3.54181e-05     2.05225e-05        -0.454562       -0.647966
515600                  0.739134       -0.372981      9.18475e-05     8.17271e-05        -0.251827        0.122716      2.65929e-06     2.02298e-06
                     9.64236e-05      0.00011405         0.578869       -0.512108     -1.96842e-05    -2.09439e-05        -0.357766      -0.0131642
                       -0.251809        0.122693     -7.08146e-06    -1.14716e-05        -0.805279        0.107594     -3.48036e-05     8.50312e-06
                     5.55518e-07    -2.53415e-05        -0.357751       -0.013182      -3.7459e-05     1.89959e-05        -0.428371       -0.643417
518800                  0.732569       -0.355023      9.06377e-05     7.70016e-05        -0.234388        0.127677      4.44354e-06     2.32682e-06
                     9.54244e-05     0.000108937         0.555029       -0.509254     -2.46488e-05    -1.73022e-05         -0.36925     -0.00884483
                        -0.23437        0.127653     -1.19194e-05    -7.86752e-06         -0.78759        0.133403     -3.69389e-05     6.24549e-06
                      3.3008e-06    -2.49757e-05        -0.369234     -0.00886389     -3.96343e-05     1.73932e-05        -0.401044       -0.637523
522000                  0.724003       -0.336335      8.93424e-05     7.19294e-05        -0.214468        0.132698      6.32865e-06     2.66099e-06
                     9.43597e-05     0.000103439         0.530075       -0.505241     -2.98341e-05    -1.33613e-05        -0.382648     -0.00362754
                       -0.214451        0.132672     -1.69705e-05    -3.96894e-06         -0.76722        0.159902     -3.92294e-05     3.86034e-06
                     6.20221e-06    -2.45599e-05         -0.38263     -0.00364817     -4.19574e-05     1.57089e-05        -0.372586       -0.630105
525200                  0.713123       -0.317115      8.79521e-05      6.6471e-05         -0.19154        0.137645      8.32327e-06     3.02934e-06
                     9.32228e-05     9.75088e-05         0.503999       -0.499904      -3.5251e-05    -9.08833e-06        -0.398476      0.00278723
                       -0.191524        0.137618     -2.22449e-05     2.56321e-07        -0.743833        0.186912     -4.16922e-05     1.33703e-06
                     9.27297e-06    -2.40871e-05        -0.398458      0.00276466     -4.44436e-05     1.39371e-05        -0.343016       -0.620965
528400                  0.699614        -0.29765       8.6456e-05     6.05805e-05        -0.164927        0.142297      1.04371e-05     3.43633e-06
                     9.20063e-05     9.10953e-05         0.476805       -0.493061     -4.09106e-05    -4.44589e-06        -0.417456       0.0108436
                       -0.164912        0.142268     -2.77533e-05     4.84477e-06        -0.717075        0.214183      -4.4347e-05    -1.33624e-06
                     1.25278e-05     -2.3549e-05        -0.417435       0.0108186     -4.71102e-05     1.20714e-05        -0.312377       -0.609888
531600                   0.68318       -0.278329      8.48415e-05     5.42045e-05        -0.133757        0.146287      1.26808e-05     3.88717e-06
                      9.0702e-05     8.41365e-05         0.448517        -0.48451     -4.68238e-05     6.08428e-07        -0.440615        0.021226
                       -0.133744        0.146256     -3.35055e-05      9.8379e-06        -0.686577        0.241381     -4.72164e-05    -4.17255e-06
                     1.59829e-05     -2.2936e-05        -0.440593       0.0211978      -4.9977e-05     1.01049e-05        -0.280738       -0.596641
534800                  0.663574       -0.259655      8.30942e-05     4.72804e-05       -0.0969022        0.149012      1.50665e-05     4.38791e-06
                     8.93002e-05     7.65596e-05         0.419183       -0.474028     -5.30007e-05     6.12304e-06        -0.469478       0.0350401
                      -0.0968912         0.14898      -3.9511e-05      1.5283e-05        -0.651974        0.268071     -5.03265e-05    -7.18641e-06
                     1.96566e-05    -2.22366e-05        -0.469452       0.0350077     -5.30669e-05     8.02998e-06          -0.2482       -0.580973
538000                  0.640642       -0.242249      8.11968e-05     3.97343e-05       -0.0528975        0.149474      1.76079e-05     4.94568e-06
                       8.779e-05     6.82787e-05         0.388878       -0.461377     -5.94505e-05     1.21532e-05        -0.506383       0.0541784
                      -0.0528893        0.149439     -4.57783e-05      2.1234e-05        -0.612923        0.293704      -5.3708e-05     -1.0394e-05
                     2.35693e-05    -2.14375e-05        -0.506354         0.05414     -5.64061e-05     5.83872e-06        -0.214906       -0.562621
541200                   0.61437        -0.22683      7.91292e-05     3.14785e-05      0.000135379        0.145993      2.03203e-05     5.56888e-06
                     8.61588e-05      5.9191e-05         0.357717       -0.446301     -6.61809e-05     1.87623e-05        -0.555089       0.0821251
                     0.000139819        0.145957     -5.23141e-05     2.77527e-05        -0.569131        0.317596     -5.73966e-05    -1.38131e-05
                     2.77438e-05    -2.05226e-05        -0.555057       0.0820779     -6.00252e-05     3.52245e-06        -0.181042       -0.541311
544400                  0.584929       -0.214186      7.68676e-05      2.2408e-05        0.0645268        0.135725      2.32211e-05     6.26745e-06
                     8.43924e-05     4.91725e-05         0.325853       -0.428532     -7.31969e-05     2.60229e-05        -0.621931        0.125928
                       0.0645262        0.135688     -5.91223e-05     3.49097e-05        -0.520396        0.338927     -6.14345e-05    -1.74637e-05
                     3.22056e-05    -1.94729e-05        -0.621894        0.125867     -6.39595e-05     1.07198e-06        -0.146851       -0.516768
547600                  0.552721       -0.205114      7.43833e-05      1.2396e-05         0.142913        0.113789        2.633e-05     7.05327e-06
                     8.24742e-05     3.80729e-05         0.293494       -0.407795        -8.05e-05     3.40183e-05           -0.718        0.201749
                        0.142906        0.113752     -6.62036e-05     4.27861e-05        -0.466654         0.35674     -6.58715e-05    -2.13679e-05
                     3.69836e-05    -1.82657e-05        -0.717959        0.201664     -6.82508e-05    -1.52237e-06        -0.112633        -0.48872
550800                  0.518389       -0.200338      7.16419e-05     1.28771e-06           0.2375       0.0718198      2.96694e-05     7.94053e-06
                     8.03852e-05     2.57073e-05         0.260903       -0.383813     -8.80865e-05     4.28443e-05        -0.861766        0.353514
                        0.237485       0.0717855     -7.35532e-05     5.14751e-05        -0.408031        0.369953     -7.07674e-05    -2.55501e-05
                       4.211e-05    -1.68735e-05        -0.861727        0.353381     -7.29478e-05     -4.2706e-06         -0.07876       -0.456914
554000                   0.48281       -0.200421      6.86013e-05    -1.11071e-05         0.347693     -0.00413635       3.3265e-05     8.94636e-06
                     7.81035e-05     1.18465e-05         0.228412       -0.356321     -9.59452e-05     5.26114e-05        -0.823464        0.567368
                        0.347669     -0.00416335     -8.11592e-05     6.10837e-05        -0.344907        0.377404     -7.61936e-05    -3.00371e-05
                     4.76214e-05    -1.52632e-05        -0.823555        0.567236     -7.81085e-05    -7.18286e-06       -0.0456719       -0.421125
557200                  0.447032        -0.20568      6.52102e-05    -2.50258e-05         0.463812       -0.135199      3.71464e-05     1.00916e-05
                     7.56043e-05    -3.79775e-06          0.19642       -0.325077     -0.000104055     6.34461e-05        -0.433301        0.901249
                        0.463782       -0.135211     -8.89995e-05     7.17348e-05        -0.277964        0.377906     -8.22368e-05    -3.48584e-05
                     5.35588e-05    -1.33944e-05        -0.433518        0.901145     -8.38022e-05     -1.0269e-05       -0.0138841       -0.381179
560400                  0.412186       -0.216121      6.14043e-05    -4.07676e-05         0.554403       -0.344704      4.13473e-05     1.14015e-05
                     7.28592e-05    -2.15925e-05         0.165405       -0.289881     -0.000112382     7.54944e-05         0.555787        0.831325
                        0.554377       -0.344695     -9.70388e-05     8.35695e-05        -0.208228        0.370342     -8.90025e-05    -4.00458e-05
                     5.99685e-05    -1.12176e-05         0.555693        0.831388     -9.01116e-05    -1.35379e-05        0.0160161       -0.336971
563600                  0.379371       -0.231426      5.71031e-05    -5.87158e-05         0.554971       -0.631998      4.59071e-05     1.29076e-05
                     6.98369e-05    -4.20128e-05         0.135917       -0.250593     -0.000120871     8.89232e-05          0.93313        0.359538
                        0.554969       -0.631973     -0.000105223     9.67491e-05        -0.137074        0.353776     -9.66206e-05    -4.56328e-05
                     6.69025e-05     -8.6721e-06         0.933127        0.359548      -9.7137e-05    -1.69966e-05        0.0433771       -0.288485
564000                  0.375461       -0.233653      5.65258e-05    -6.11378e-05         0.544814       -0.670797      4.65044e-05     1.31114e-05
                      6.9438e-05    -4.47791e-05         0.132368        -0.24539     -0.000121939     9.07081e-05         0.900772        0.301742
                        0.544816       -0.670772     -0.000106252        9.85e-05        -0.128161        0.351036     -9.76404e-05     -4.6361e-05
                      6.7809e-05     -8.3244e-06         0.900793        0.301756     -9.80713e-05    -1.74425e-05        0.0465841       -0.282127
566800                  0.349541        -0.25098      5.22038e-05     -7.9369e-05          0.39557       -0.918436       5.0871e-05     1.46484e-05
                     6.65039e-05    -6.56843e-05         0.108577       -0.207155     -0.000129443     0.000103923         0.593131       0.0565914
                          0.3956       -0.918423     -0.000113473     0.000111458       -0.0661901        0.327577     -0.000105252    -5.16539e-05
                     7.44193e-05    -5.68229e-06         0.593116       0.0565897        -0.000105    -2.06485e-05        0.0674967       -0.235819
570000                  0.323416       -0.273952      4.65734e-05    -0.000103388         0.098329       -0.995154      5.62917e-05     1.66726e-05
                     6.28272e-05     -9.3448e-05        0.0840628       -0.159616     -0.000137985     0.000120711         0.382861      -0.0326448
                       0.0983627       -0.995151     -0.000121677     0.000127903       0.00250576        0.291541       -0.0001151     -5.8142e-05
