! TOUCHSTONE file generated by CST MICROWAVE STUDIO
! Date and time: Mon Oct 20 08:27:35 2025
! Project name: Teste_Macro_Metasurface_Nanopilar.cst
! Parameters = {H=600; L_x=145; L_y=85; Lambda=1064; Max_L=200; Min_L=70; PathPara=1; Phi=0; Step_L=10; Theta=0; p=520; phaseX=180; phaseY=0}
! Header version: 2018
! Port assignment regex: !\s*Touchstone port\s*([0-9]+)\s*=\s*(CST MWS port|CST DS port)\s*([0-9]+|Zmin|Zmax)\s*\(\"(.*)\"\)(\s*mode\s*([0-9]+))?.*
! Touchstone port assignment:
! Touchstone port 1 = CST MWS port Zmax ("") mode 1
! Touchstone port 2 = CST MWS port Zmax ("") mode 2
! Touchstone port 3 = CST MWS port Zmin ("") mode 1
! Touchstone port 4 = CST MWS port Zmin ("") mode 2
! S-Parameters are not renormalized. Each port impedance will be approximated by the real part at minimum frequency. The values are described via the [Reference] keyword.
! Default impedance is overridden by [Reference]
[Version] 2.0
# GHz S RI R 376.73
[Number of Ports] 4
[Reference]
376.73 376.73 259.888 259.888 
[Number of Frequencies] 52
[Network Data]
474000                -0.0595532         0.42807      -3.4818e-05    -0.000118648        -0.851589       -0.228835     -8.86927e-05     1.76365e-05
                    -4.42391e-05    -0.000116193         0.309417       -0.291055      1.84153e-05     1.32846e-05        -0.542088        0.715991
                       -0.851588        -0.22882      2.02801e-05     2.80176e-05        -0.146097         0.41604     -2.03737e-05     -0.00010317
                    -9.09889e-05     4.91221e-06        -0.542085        0.715991      -1.4855e-05    -0.000103958        -0.192859        0.379817
477200                 -0.117342        0.462039     -2.96697e-05    -0.000116277        -0.857819        -0.18926     -8.80633e-05     1.18907e-05
                    -3.95614e-05    -0.000113696         0.307949        -0.28809      0.000115624    -7.81063e-06        -0.526207        0.726678
                       -0.857814       -0.189243      0.000113023     8.15698e-08        -0.136754         0.42044     -2.63045e-05    -0.000101487
                    -9.00282e-05    -9.43539e-07        -0.526203        0.726677      -2.0608e-05     -0.00010219        -0.204666        0.380424
480400                 -0.182896        0.483555     -2.41439e-05    -0.000113791        -0.862352       -0.145432     -8.73673e-05     5.82275e-06
                    -3.45318e-05    -0.000111065         0.306405       -0.284835      0.000232486     -4.3364e-05        -0.508989        0.737622
                       -0.862343       -0.145413      0.000221822    -4.41681e-05        -0.126528        0.424989     -3.25748e-05    -9.96845e-05
                    -8.89794e-05    -7.12262e-06        -0.508985        0.737621     -2.66886e-05    -0.000100301         -0.21708        0.380775
483600                 -0.251942        0.490422     -1.81985e-05    -0.000111186        -0.864517      -0.0968657     -8.65961e-05    -5.94793e-07
                    -2.91098e-05    -0.000108291         0.304781       -0.281249      0.000373482    -0.000102421        -0.490289        0.748792
                       -0.864505      -0.0968444      0.000348592    -0.000113561        -0.115297        0.429672     -3.92143e-05    -9.77478e-05
                     -8.7832e-05    -1.36522e-05        -0.490285         0.74879     -3.31255e-05    -9.82772e-05        -0.230138        0.380826
486800                 -0.319626        0.482429     -1.17848e-05    -0.000108455        -0.863438      -0.0430742     -8.57398e-05    -7.39274e-06
                    -2.32485e-05    -0.000105364         0.303077       -0.277282      0.000542525     -0.00020033        -0.469943        0.760138
                        -0.86342       -0.043051      0.000493027    -0.000221774        -0.102919        0.434466     -4.62566e-05    -9.56624e-05
                    -8.65738e-05    -2.05627e-05        -0.469938        0.760135     -3.99509e-05    -9.61049e-05        -0.243877        0.380527
490000                 -0.381599        0.461339      -4.8469e-06    -0.000105591        -0.857968       0.0163961     -8.47868e-05    -1.46056e-05
                    -1.68937e-05    -0.000102274         0.301296       -0.272872      0.000739157    -0.000362981        -0.447766        0.771597
                       -0.857943       0.0164206      0.000648509    -0.000389056       -0.0892273        0.439333     -5.37392e-05    -9.34115e-05
                    -8.51906e-05    -2.78879e-05         -0.44776        0.771593     -4.72009e-05    -9.37675e-05        -0.258338        0.379822
493200                 -0.434844        0.430271      2.68046e-06     -0.00010259        -0.846633       0.0818949     -8.37235e-05     -2.2272e-05
                    -9.98179e-06    -9.90086e-05         0.299441       -0.267946      0.000947615    -0.000631543        -0.423551        0.783079
                       -0.846601       0.0819199      0.000793554    -0.000641667       -0.0740237        0.444218     -6.17044e-05    -9.09753e-05
                    -8.36659e-05    -3.56657e-05        -0.423544        0.783074     -5.49162e-05    -9.12461e-05        -0.273559        0.378645
496400                 -0.477958        0.392823      1.08734e-05    -9.94457e-05        -0.827559        0.153558     -8.25342e-05    -3.04355e-05
                    -2.43826e-06    -9.55581e-05         0.297524       -0.262414       0.00111095     -0.00105848        -0.397068        0.794467
                       -0.827518        0.153582      0.000878305     -0.00100165       -0.0570739         0.44904     -7.02002e-05    -8.83311e-05
                    -8.19807e-05    -4.39387e-05        -0.397061         0.79446     -6.31427e-05    -8.85188e-05        -0.289583        0.376921
499600                 -0.510944        0.352323      1.98213e-05    -9.61557e-05        -0.798425        0.231136        -8.12e-05    -3.91456e-05
                     5.82507e-06    -9.19111e-05         0.295563       -0.256165       0.00109416     -0.00166163        -0.368061        0.805604
                       -0.798374        0.231158      0.000818261     -0.00145408          -0.0381         0.45368      -7.9281e-05    -8.54524e-05
                    -8.01123e-05     -5.2755e-05        -0.368054        0.805596     -7.19328e-05    -8.55601e-05        -0.306448        0.374564
502800                 -0.534745        0.311397      2.96298e-05    -9.27192e-05        -0.756452        0.313753     -7.96989e-05    -4.84581e-05
                      1.4913e-05    -8.80573e-05         0.293591       -0.249063      0.000719964     -0.00230228        -0.336249        0.816288
                       -0.756391         0.31377      0.000534856     -0.00190027       -0.0167721        0.457967     -8.90089e-05    -8.23081e-05
                    -7.80344e-05    -6.21688e-05         -0.33624        0.816279     -8.13462e-05    -8.23405e-05        -0.324194        0.371474
506000                  -0.55077        0.271869      4.04243e-05    -8.91392e-05        -0.698498        0.399572     -7.80043e-05    -5.84366e-05
                     2.49512e-05    -8.39884e-05         0.291659       -0.240938      7.91318e-06     -0.00266157        -0.301322        0.826253
                       -0.698426         0.39958      5.55408e-05     -0.00217917       0.00729979        0.461655      -9.9455e-05    -7.88617e-05
                    -7.57156e-05    -7.22418e-05        -0.301314        0.826242     -9.14509e-05    -7.88252e-05        -0.342855        0.367539
509200                 -0.560534        0.234837      5.23552e-05    -8.54243e-05        -0.621335        0.485409     -7.60848e-05     -6.9154e-05
                     3.60912e-05    -7.96991e-05          0.28985       -0.231576     -0.000717079     -0.00258698        -0.262953        0.835157
                       -0.621253        0.485404     -0.000463551      -0.0022067        0.0345736        0.464391     -0.000110701    -7.50698e-05
                    -7.31186e-05    -8.30443e-05        -0.262944        0.835144     -0.000102326    -7.49732e-05        -0.362463        0.362628
512400                 -0.565445        0.200854       6.5603e-05    -8.15917e-05        -0.522194        0.566373      -7.3902e-05     -8.0694e-05
                      4.8517e-05    -7.51894e-05         0.288297       -0.220712      -0.00120345     -0.00226009        -0.220793         0.84256
                       -0.522104        0.566352     -0.000876754     -0.00204585        0.0655799        0.465672     -0.000122842    -7.08807e-05
                    -7.01987e-05    -9.46564e-05        -0.220784        0.842545     -0.000114061    -7.07356e-05        -0.383042        0.356594
515600                  -0.56671        0.170093      8.03872e-05    -7.76712e-05        -0.399659        0.635721     -7.14098e-05    -9.31529e-05
                     6.24546e-05    -7.04682e-05         0.287208       -0.208008      -0.00145232     -0.00189474        -0.174495        0.847901
                       -0.399567        0.635679      -0.00114447     -0.00180966         0.100917        0.464773     -0.000135987    -6.62322e-05
                     -6.6902e-05     -0.00010717        -0.174486        0.847884     -0.000126763    -6.60541e-05        -0.404603        0.349268
518800                 -0.565307        0.142491      9.69757e-05    -7.37117e-05        -0.254829        0.685219     -6.85516e-05    -0.000106642
                     7.81832e-05    -6.55587e-05         0.286916       -0.193049      -0.00155359     -0.00158193        -0.123724        0.850474
                       -0.254739        0.685155       -0.0012955      -0.0015731          0.14123        0.460661     -0.000150266    -6.10492e-05
                    -6.31633e-05    -0.000120693        -0.123716        0.850455     -0.000140554    -6.08584e-05        -0.427146        0.340461
522000                 -0.562002        0.117854      0.000115698    -6.97906e-05       -0.0924113          0.7063     -6.52578e-05    -0.000121292
                     9.60513e-05     -6.0507e-05         0.287953       -0.175324      -0.00157841      -0.0013359       -0.0681972         0.84939
                      -0.0923339        0.706212      -0.00137077     -0.00136618         0.187143         0.45186     -0.000165828    -5.52398e-05
                    -5.89027e-05    -0.000135346       -0.0681897        0.849368      -0.00015558     -5.5063e-05         -0.45065        0.329959
525200                  -0.55738        0.095924      0.000136964    -6.60288e-05        0.0788536        0.692033     -6.14419e-05    -0.000137255
                     0.000116498    -5.53957e-05         0.291171       -0.154244      -0.00156691     -0.00114649      -0.00772628        0.843554
                        0.078911        0.691927      -0.00140133     -0.00119457         0.239131        0.436295     -0.000182853    -4.86908e-05
                    -5.40218e-05    -0.000151273      -0.00771984        0.843531     -0.000172012     -4.8563e-05        -0.475068        0.317524
528400                 -0.551883       0.0764233      0.000161284    -6.26129e-05         0.247104        0.639392     -5.69959e-05     -0.00015471
                     0.000140081    -5.03662e-05         0.297943       -0.129206      -0.00153947     -0.00100018        0.0577089        0.831639
                        0.247136        0.639275      -0.00140676     -0.00105478         0.297248        0.411094     -0.000201554    -4.12614e-05
                    -4.83987e-05    -0.000168641        0.0577138        0.831613     -0.000190054    -4.12285e-05        -0.500321        0.302892
531600                 -0.545834       0.0590778        0.0001893    -5.98315e-05         0.399702        0.550743     -5.17831e-05    -0.000173868
                     0.000167519    -4.56549e-05         0.310444      -0.0998071      -0.00150605    -0.000885738         0.127865         0.81207
                        0.399705        0.550626      -0.00139854    -0.000941129         0.360633        0.372451     -0.000222185    -3.27745e-05
                    -4.18803e-05    -0.000187645         0.127868        0.812042     -0.000209952    -3.28972e-05        -0.526285        0.285778
534800                 -0.539472       0.0436316      0.000221822    -5.81325e-05         0.526203        0.433636     -4.56292e-05    -0.000194981
                     0.000199738    -4.16539e-05         0.332014       -0.066384      -0.00147143    -0.000794829         0.202111        0.783048
                        0.526182        0.433528      -0.00138324    -0.000848208         0.426715        0.315678     -0.000245055    -2.30047e-05
                    -3.42733e-05    -0.000208517         0.202112        0.783019     -0.000232003    -2.33632e-05        -0.552786        0.265872
538000                 -0.532969       0.0298524      0.000259876    -5.82159e-05          0.62061        0.298826     -3.83089e-05    -0.000218351
                     0.000237945    -3.90142e-05         0.367307      -0.0311986      -0.00143783    -0.000721466         0.279273        0.742615
                         0.62057        0.298733      -0.00136458    -0.000771567         0.490077        0.235828     -0.000270539    -1.16615e-05
                    -2.53302e-05     -0.00023153         0.279271        0.742585     -0.000256569    -1.23629e-05        -0.579582        0.242854
541200                 -0.526449       0.0175335      0.000304747    -6.11876e-05         0.681945        0.157528     -2.95283e-05    -0.000244338
                     0.000283713    -3.88246e-05         0.421379    -0.000503869      -0.00140622    -0.000661374         0.357474        0.688798
                        0.681893        0.157454      -0.00134465    -0.000707723         0.541375        0.129425     -0.000299099     1.63518e-06
                    -1.47315e-05    -0.000257006          0.35747        0.688767     -0.000284097     4.46925e-07        -0.606355        0.216397
544400                 -0.519998      0.00649336      0.000358016    -6.88145e-05         0.713259       0.0191619     -1.88979e-05    -0.000273381
                     0.000339064     -4.2926e-05         0.495896       0.0135281      -0.00137695     -0.00061147         0.433998        0.619856
                        0.713203       0.0191067      -0.00132462       -0.000654         0.567391     -0.00236112     -0.000331307     1.73903e-05
                    -2.05858e-06    -0.000285332         0.433991        0.619825     -0.000315142     1.55198e-05        -0.632694        0.186183
547600                 -0.513675     -0.00342665      0.000421531    -8.39513e-05          0.71989       -0.109749     -5.89502e-06    -0.000306009
                     0.000406504    -5.44717e-05          0.58196     -0.00449115      -0.00135005    -0.000569511         0.505229        0.534637
                        0.719834       -0.109788      -0.00130512    -0.000608351         0.554068       -0.150023      -0.00036788     3.62871e-05
                     1.32432e-05    -0.000316965          0.50522        0.534608     -0.000350403     3.34659e-05        -0.658086        0.151926
550800                 -0.507522      -0.0123641      0.000497177     -0.00011124         0.707835       -0.225585      1.01934e-05    -0.000342869
                     0.000488836    -7.89162e-05         0.657267      -0.0609617       -0.0013254    -0.000533832         0.566768        0.433026
                        0.707783        -0.22561      -0.00128649    -0.000569205         0.493186       -0.294836     -0.000409721     5.92685e-05
                     3.19203e-05     -0.00035245         0.566756        0.432998     -0.000390766     5.51224e-05        -0.681906        0.113399
554000                 -0.501563      -0.0204383      0.000586127    -0.000158195         0.682661       -0.327028      3.03565e-05    -0.000384744
                     0.000588247     -0.00012568         0.699646       -0.142022      -0.00130285    -0.000503189          0.61378        0.316393
                        0.682616       -0.327043      -0.00126887    -0.000535351         0.389039       -0.414427     -0.000457979     8.76655e-05
                     5.49917e-05     -0.00039243         0.613768        0.316369     -0.000437375     8.16648e-05        -0.703419       0.0704657
557200                 -0.495813      -0.0277523        0.0006868    -0.000236593         0.648981         -0.4143      5.59925e-05    -0.000432577
                     0.000703372    -0.000210503         0.705117       -0.223118       -0.0012822    -0.000476629         0.641622        0.187903
                        0.648943       -0.414307      -0.00125231    -0.000505841         0.258442       -0.492828     -0.000514129     0.000123405
                     8.38722e-05    -0.000437643          0.64161         0.18788     -0.000491711     0.000114786        -0.721781       0.0231232
560400                  -0.49028      -0.0343955      0.000790116    -0.000363155         0.610339       -0.488494      8.91162e-05    -0.000487488
                     0.000821618      -0.0003568         0.685754         -0.2881      -0.00126327    -0.000453421         0.646655       0.0524888
                        0.610308       -0.488496       -0.0012368    -0.000479932         0.122677       -0.526906     -0.000580052     0.000169357
                     0.000120559    -0.000488915         0.646644       0.0524678     -0.000555717     0.000156997        -0.736068      -0.0284547
563600                 -0.484966      -0.0404453      0.000870807    -0.000555539         0.569304       -0.551096      0.000132692    -0.000550738
                      0.00090437    -0.000588029         0.655659        -0.33379      -0.00124588     -0.00043299         0.627049      -0.0836088
                         0.56928       -0.551095      -0.00122231    -0.000457033      -0.00160618       -0.524371     -0.000658133      0.00022994
                      0.00016792     -0.00054708         0.627041      -0.0836291     -0.000631946      0.00021215        -0.745312      -0.0838756
564000                 -0.484318      -0.0411633      0.000877101    -0.000584664         0.564102       -0.558185      0.000139075    -0.000559296
                     0.000908813     -0.00062315         0.651652       -0.338291       -0.0012438    -0.000430608         0.622864       -0.100334
                        0.564079       -0.558184      -0.00122056    -0.000454358       -0.0158311       -0.522074     -0.000668888     0.000238853
                     0.000174781    -0.000554873         0.622855       -0.100354     -0.000642491     0.000220226        -0.746065      -0.0910442
566800                  -0.47987      -0.0459688      0.000879795    -0.000814867         0.527656       -0.603685      0.000191174    -0.000623603
                     0.000878068    -0.000893852          0.62381       -0.363671      -0.00122987    -0.000414884         0.583288       -0.213715
                        0.527637       -0.603683      -0.00120877    -0.000436673        -0.106042       -0.497232     -0.000751264     0.000312204
                      0.00023014    -0.000612799         0.583282       -0.213736     -0.000723725     0.000286391        -0.748561       -0.142495
570000                 -0.474988      -0.0510241      0.000761126     -0.00109388         0.486574       -0.647767      0.000271374    -0.000706961
                     0.000681962     -0.00118232         0.594306       -0.382416       -0.0012151    -0.000398741         0.518165       -0.331774
                        0.486561       -0.647765      -0.00119611    -0.000418467         -0.18907        -0.45652     -0.000862518     0.000427855
