! TOUCHSTONE file generated by CST MICROWAVE STUDIO
! Date and time: Mon Oct 20 08:27:32 2025
! Project name: Teste_Macro_Metasurface_Nanopilar.cst
! Parameters = {H=600; L_x=130; L_y=160; Lambda=1064; Max_L=200; Min_L=70; PathPara=1; Phi=0; Step_L=10; Theta=0; p=520; phaseX=180; phaseY=0}
! Header version: 2018
! Port assignment regex: !\s*Touchstone port\s*([0-9]+)\s*=\s*(CST MWS port|CST DS port)\s*([0-9]+|Zmin|Zmax)\s*\(\"(.*)\"\)(\s*mode\s*([0-9]+))?.*
! Touchstone port assignment:
! Touchstone port 1 = CST MWS port Zmax ("") mode 1
! Touchstone port 2 = CST MWS port Zmax ("") mode 2
! Touchstone port 3 = CST MWS port Zmin ("") mode 1
! Touchstone port 4 = CST MWS port Zmin ("") mode 2
! S-Parameters are not renormalized. Each port impedance will be approximated by the real part at minimum frequency. The values are described via the [Reference] keyword.
! Default impedance is overridden by [Reference]
[Version] 2.0
# GHz S RI R 376.73
[Number of Ports] 4
[Reference]
376.73 376.73 259.888 259.888 
[Number of Frequencies] 52
[Network Data]
474000                  0.409102        0.260983      1.32567e-05    -0.000100288        -0.204129        0.792803     -3.08838e-05    -9.23406e-05
                     1.33937e-05    -0.000100322        0.0785487        0.108028     -0.000143176     4.94602e-06         -0.89977        0.370041
                       -0.204129        0.792803     -0.000143168     5.23306e-06         0.436362       -0.106313     -0.000159955     6.25598e-05
                    -3.08744e-05    -9.23798e-05         -0.89977        0.370041     -0.000159941     6.25622e-05        0.0358073        0.105979
477200                  0.416345        0.262015      1.00854e-05    -0.000101005        -0.108595        0.740152     -3.26276e-05    -9.16869e-05
                     1.02227e-05    -0.000101041        0.0773354        0.108964     -0.000142979     3.69767e-06        -0.894493        0.381054
                       -0.108596        0.740152      -0.00014297     3.98331e-06         0.441261      -0.0949082     -0.000160386     6.18181e-05
                     -3.2619e-05    -9.17268e-05        -0.894493        0.381054     -0.000160353     6.18237e-05        0.0344045        0.107729
480400                  0.423949        0.263029       6.7134e-06     -0.00010172       -0.0388864        0.673684     -3.44819e-05    -9.09775e-05
                     6.85089e-06    -0.000101758         0.076023        0.109961     -0.000142776     2.37781e-06        -0.888785        0.392567
                      -0.0388869        0.673684     -0.000142766     2.66193e-06         0.446263      -0.0827935     -0.000160842     6.10518e-05
                    -3.44743e-05    -9.10181e-05        -0.888785        0.392567      -0.00016079     6.10602e-05        0.0328943         0.10958
483600                  0.431941        0.264018      3.12207e-06    -0.000102426       0.00705283        0.604136     -3.64573e-05    -9.02053e-05
                     3.25971e-06    -0.000102468        0.0745991        0.111027     -0.000142565     9.80136e-07          -0.8826        0.404609
                      0.00705228        0.604136     -0.000142554     1.26257e-06          0.45136      -0.0699056     -0.000161324     6.02597e-05
                    -3.64507e-05    -9.02467e-05          -0.8826        0.404609     -0.000161252     6.02707e-05        0.0312643         0.11154
486800                  0.440349        0.264975     -7.09297e-07    -0.000103119        0.0341639        0.538132      -3.8566e-05    -8.93622e-05
                     -5.7158e-07    -0.000103163        0.0730489        0.112168     -0.000142347    -5.02417e-07        -0.875886        0.417214
                       0.0341634        0.538133     -0.000142336    -2.21821e-07         0.456539       -0.056174     -0.000161835     5.94408e-05
                    -3.85605e-05    -8.94045e-05        -0.875886        0.417214     -0.000161742     5.94539e-05        0.0295003        0.113619
490000                  0.449206         0.26589     -4.80394e-06     -0.00010379        0.0476819        0.478801     -4.08216e-05    -8.84387e-05
                    -4.66626e-06    -0.000103838        0.0713551        0.113391     -0.000142122    -2.07778e-06        -0.868586        0.430415
                       0.0476815        0.478802      -0.00014211    -1.79921e-06         0.461787      -0.0415199     -0.000162377     5.85939e-05
                    -4.08173e-05    -8.84819e-05        -0.868586        0.430415     -0.000162262     5.86088e-05        0.0275858        0.115828
493200                  0.458547        0.266753     -9.18795e-06     -0.00010443         0.051971        0.427042     -4.32396e-05    -8.74235e-05
                    -9.05044e-06    -0.000104481        0.0694974        0.114706      -0.00014189    -3.75491e-06        -0.860633        0.444247
                       0.0519707        0.427043     -0.000141877    -3.47858e-06         0.467082      -0.0258554     -0.000162953     5.77178e-05
                    -4.32367e-05    -8.74677e-05        -0.860633        0.444247     -0.000162814     5.77339e-05        0.0255017        0.118178
496400                  0.468411        0.267551     -1.38907e-05    -0.000105027        0.0502753        0.382586      -4.5838e-05    -8.63032e-05
                    -1.37535e-05    -0.000105082        0.0674511        0.116123     -0.000141651    -5.54394e-06         -0.85195         0.45875
                       0.0502751        0.382587     -0.000141637    -5.27008e-06         0.472401     -0.00908214     -0.000163565     5.68112e-05
                    -4.58365e-05    -8.63484e-05         -0.85195         0.45875     -0.000163402      5.6828e-05        0.0232254        0.120682
499600                  0.478841        0.268267     -1.89452e-05    -0.000105566        0.0448594         0.34466      -4.8637e-05    -8.50618e-05
                    -1.88086e-05    -0.000105625        0.0651866        0.117653     -0.000141404    -7.45638e-06        -0.842452        0.473962
                       0.0448594        0.344661      -0.00014139    -7.18528e-06         0.477707      0.00891018     -0.000164216     5.58728e-05
                    -4.86373e-05     -8.5108e-05        -0.842452        0.473962     -0.000164028     5.58897e-05        0.0207304        0.123355
502800                  0.489883        0.268883     -2.43889e-05    -0.000106028        0.0372475        0.312353     -5.16604e-05    -8.36802e-05
                     -2.4253e-05    -0.000106091        0.0626679        0.119309     -0.000141151    -9.50539e-06         -0.83204        0.489925
                       0.0372476        0.312354     -0.000141135    -9.23735e-06         0.482959       0.0282452     -0.000164909     5.49014e-05
                    -5.16624e-05    -8.37275e-05         -0.83204        0.489925     -0.000164695     5.49177e-05        0.0179856        0.126212
506000                  0.501591        0.269377     -3.02638e-05     -0.00010639        0.0284417        0.284788     -5.49352e-05     -8.2135e-05
                     -3.0129e-05    -0.000106458        0.0598507        0.121106     -0.000140891     -1.1706e-05          -0.8206        0.506679
                       0.0284417        0.284789     -0.000140875    -1.14414e-05         0.488101       0.0490616     -0.000165649     5.38956e-05
                    -5.49393e-05    -8.21836e-05          -0.8206        0.506678     -0.000165407     5.39105e-05        0.0149535        0.129272
509200                  0.514024        0.269723     -3.66176e-05    -0.000106623        0.0190892        0.261183     -5.84931e-05     -8.0398e-05
                    -3.64842e-05    -0.000106696        0.0566802        0.123059     -0.000140626    -1.40757e-05        -0.808002        0.524265
                       0.0190893        0.261184     -0.000140609    -1.38149e-05         0.493061       0.0715152     -0.000166439     5.28541e-05
                    -5.84996e-05    -8.04478e-05        -0.808002        0.524265     -0.000166169     5.28665e-05        0.0115894        0.132554
512400                  0.527245        0.269889      -4.3504e-05    -0.000106689       0.00960135        0.240877     -6.23711e-05    -7.84341e-05
                    -4.33724e-05    -0.000106768        0.0530875        0.125189     -0.000140356    -1.66344e-05        -0.794095        0.542726
                      0.00960153        0.240878     -0.000140339    -1.63779e-05         0.497751       0.0957812     -0.000167284     5.17754e-05
                    -6.23803e-05    -7.84853e-05        -0.794095        0.542725     -0.000166984     5.17845e-05       0.00783918        0.136079
515600                  0.541327        0.269837     -5.09837e-05    -0.000106542      0.000233798        0.223319     -6.66123e-05    -7.61999e-05
                    -5.08545e-05    -0.000106627        0.0489854        0.127514     -0.000140083    -1.94055e-05        -0.778707        0.562097
                     0.000234004        0.223319     -0.000140065    -1.91539e-05         0.502054        0.122056     -0.000168188     5.06583e-05
                    -6.66245e-05    -7.62526e-05        -0.778707        0.562097     -0.000167857     5.06628e-05       0.00363714        0.139872
518800                   0.55635        0.269521     -5.91249e-05    -0.000106122      -0.00885949        0.208054     -7.12677e-05     -7.3641e-05
                    -5.89986e-05    -0.000106213        0.0442614        0.130055      -0.00013981    -2.24165e-05        -0.761635        0.582413
                     -0.00885927        0.208055     -0.000139792    -2.21704e-05         0.505825        0.150559     -0.000169157     4.95015e-05
                    -7.12834e-05    -7.36951e-05        -0.761636        0.582413     -0.000168795        4.95e-05      -0.00109743        0.143956
522000                  0.572404        0.268886     -6.80038e-05    -0.000105354       -0.0175907        0.194712     -7.63974e-05    -7.06881e-05
                    -6.78812e-05    -0.000105451         0.038769        0.132834     -0.000139539    -2.56995e-05        -0.742649        0.603699
                      -0.0175905        0.194712     -0.000139521    -2.54596e-05         0.508877        0.181536     -0.000170198     4.83038e-05
                    -7.64171e-05    -7.07438e-05        -0.742649        0.603699     -0.000169802     4.82949e-05      -0.00646432        0.148359
525200                   0.58959        0.267865     -7.77051e-05     -0.00010414        -0.025915        0.182988     -8.20724e-05    -6.72524e-05
                    -7.75873e-05    -0.000104244        0.0323137        0.135868     -0.000139274    -2.92927e-05        -0.721476        0.625967
                      -0.0259147        0.182989     -0.000139256      -2.906e-05         0.510975        0.215259     -0.000171317     4.70641e-05
                    -8.20969e-05    -6.73096e-05        -0.721476        0.625967     -0.000170886      4.7046e-05        -0.012588        0.153107
528400                  0.608018        0.266377     -8.83215e-05    -0.000102358       -0.0338146        0.172635     -8.83773e-05    -6.32185e-05
                    -8.82096e-05    -0.000102469        0.0246331        0.139165     -0.000139022    -3.32417e-05        -0.697803        0.649214
                      -0.0338143        0.172635     -0.000139005    -3.30173e-05         0.511815        0.252029     -0.000172522     4.57814e-05
                    -8.84072e-05    -6.32772e-05        -0.697804        0.649214     -0.000172055     4.57522e-05       -0.0196252        0.158223
531600                  0.627813        0.264323     -9.99525e-05    -9.98481e-05       -0.0412893        0.163446     -9.54119e-05    -5.84338e-05
                    -9.98478e-05    -9.99669e-05        0.0153665        0.142711     -0.000138792    -3.76014e-05        -0.671266        0.673408
                      -0.0412891        0.163446     -0.000138776    -3.73865e-05         0.511015        0.292171     -0.000173821     4.44551e-05
                    -9.54484e-05     -5.8494e-05        -0.671266        0.673408     -0.000173316     4.44126e-05       -0.0277753        0.163724
534800                  0.649116         0.26158     -0.000112701     -9.6406e-05       -0.0483495        0.155252     -0.000103294    -5.26943e-05
                    -0.000112605    -9.65324e-05        0.0040074        0.146447     -0.000138594    -4.24383e-05         -0.64144        0.698482
                      -0.0483493        0.155253      -0.00013858    -4.22346e-05         0.508083        0.336033     -0.000175223     4.30849e-05
                    -0.000103338    -5.27558e-05        -0.641441        0.698482      -0.00017468     4.30265e-05       -0.0372937        0.169616
538000                   0.67208           0.258     -0.000126667     -9.1768e-05       -0.0550119        0.147915     -0.000112161    -4.57222e-05
                    -0.000126582    -9.19016e-05       -0.0101692         0.15021     -0.000138445    -4.78342e-05        -0.607835        0.724316
                      -0.0550116        0.147915     -0.000138434    -4.76434e-05         0.502398        0.383976     -0.000176739     4.16706e-05
                    -0.000112215    -4.57846e-05        -0.607835        0.724316     -0.000176156     4.15937e-05       -0.0485115        0.175878
541200                  0.696879        0.253398     -0.000141936    -8.55942e-05       -0.0612965        0.141316     -0.000122169    -3.71325e-05
                    -0.000141865    -8.57346e-05        -0.028221        0.153631     -0.000138367    -5.38897e-05        -0.569885        0.750718
                      -0.0612963        0.141317     -0.000138361    -5.37143e-05         0.493164        0.436354     -0.000178382      4.0213e-05
                    -0.000122234     -3.7195e-05        -0.569885        0.750718     -0.000177757     4.01143e-05       -0.0618606        0.182443
544400                    0.7237        0.247546     -0.000158561    -7.74489e-05       -0.0672252        0.135359     -0.000133482    -2.63812e-05
                    -0.000158506    -7.75948e-05       -0.0517081        0.155882     -0.000138394    -6.07311e-05         -0.52694        0.777396
                       -0.067225        0.135359     -0.000138394    -6.05739e-05         0.479378        0.493486     -0.000180163     3.87134e-05
                    -0.000133562    -2.64427e-05         -0.52694        0.777396     -0.000179496     3.85894e-05       -0.0779083         0.18916
547600                  0.752752        0.240159     -0.000176528    -6.67778e-05       -0.0728199         0.12996     -0.000146255    -1.26857e-05
                    -0.000176493    -6.69269e-05       -0.0829058        0.155123     -0.000138573    -6.85179e-05        -0.478266        0.803923
                      -0.0728197         0.12996     -0.000138581    -6.83827e-05         0.459773        0.555603     -0.000182098     3.71739e-05
                    -0.000146352    -1.27439e-05        -0.478267        0.803923     -0.000181388     3.70207e-05       -0.0973995         0.19573
550800                  0.784258        0.230881     -0.000195707    -5.28866e-05       -0.0781026         0.12505     -0.000160565     5.10195e-06
                    -0.000195694    -5.30357e-05        -0.124875        0.147223     -0.000138972    -7.74549e-05        -0.423044        0.829686
                      -0.0781023        0.125051     -0.000138993     -7.7346e-05          0.43277        0.622774     -0.000184203     3.55982e-05
                    -0.000160685     5.05084e-06        -0.423045        0.829686      -0.00018345     3.54113e-05        -0.121305        0.201586
554000                  0.818452        0.219267     -0.000215769    -3.49303e-05        -0.083094        0.120571     -0.000176276       2.869e-05
                    -0.000215782    -3.50742e-05        -0.180387        0.122942     -0.000139694     -8.7808e-05        -0.360384        0.853829
                      -0.0830938        0.120571     -0.000139733    -8.77312e-05         0.396429         0.69478     -0.000186496     3.39912e-05
                    -0.000176423     2.86526e-05        -0.360385        0.853829       -0.0001857     3.37655e-05        -0.150855        0.205688
557200                  0.855574        0.204756     -0.000236074    -1.19288e-05       -0.0878142        0.116471     -0.000192687      6.0632e-05
                    -0.000236116    -1.20602e-05        -0.245667       0.0633994     -0.000140897    -9.99281e-05        -0.289361        0.875172
                       -0.087814        0.116471     -0.000140962    -9.98909e-05         0.348424        0.770946     -0.000188998     3.23598e-05
                    -0.000192867     6.06201e-05        -0.289362        0.875172     -0.000188158     3.20899e-05        -0.187499        0.206164
560400                  0.895851        0.186643     -0.000255518      1.7158e-05       -0.0922818        0.112708     -0.000207749     0.000104661
                    -0.000255587     1.70489e-05        -0.289916      -0.0558587     -0.000142826    -0.000114286        -0.209077         0.89212
                      -0.0922817        0.112708     -0.000142928    -0.000114298         0.286073        0.849894     -0.000191731     3.07135e-05
                    -0.000207966     0.000104695        -0.209077        0.892121     -0.000190849     3.03933e-05        -0.232635        0.199729
563600                  0.939474        0.164035     -0.000272357     5.32478e-05       -0.0965144        0.109244     -0.000216304     0.000165732
                    -0.000272451     5.31726e-05        -0.242659       -0.212726     -0.000145873    -0.000131522        -0.118777        0.902569
                      -0.0965142        0.109244     -0.000146032    -0.000131595         0.206472        0.929239      -0.00019472     2.90649e-05
                    -0.000216552     0.000165846        -0.118778        0.902569     -0.000193797     2.86877e-05        -0.286724        0.180891
564000                  0.945169         0.16084     -0.000274163     5.82821e-05       -0.0970278        0.108831     -0.000216437     0.000174823
                    -0.000274259      5.8212e-05        -0.228206       -0.229629     -0.000146362     -0.00013392        -0.106759         0.90329
                      -0.0970276        0.108831     -0.000146529    -0.000134001         0.195164        0.939015     -0.000195113     2.88595e-05
                    -0.000216687      0.00017495         -0.10676        0.903291     -0.000194186     2.84746e-05         -0.29404        0.177283
566800                  0.986554        0.135809     -0.000284091     9.67894e-05        -0.100528        0.106047     -0.000206685     0.000248305
                    -0.000284199     9.67601e-05       -0.0985288        -0.29848     -0.000150695    -0.000152523       -0.0180323        0.903808
                       -0.100528        0.106048     -0.000150939    -0.000152671         0.105653        0.994403     -0.000197992     2.74306e-05
                    -0.000206927     0.000248546       -0.0180331        0.903809     -0.000197032     2.69891e-05        -0.347096        0.141443
570000                  0.995332       0.0965135     -0.000287521     0.000147232        -0.104338         0.10309     -0.000156914     0.000348611
                    -0.000287627     0.000147258        0.0348698       -0.280048     -0.000158419    -0.000178525        0.0929909        0.892475
                       -0.104338         0.10309     -0.000158799    -0.000178766       -0.0140583        0.999901     -0.000201577     2.58321e-05
