! TOUCHSTONE file generated by CST MICROWAVE STUDIO
! Date and time: Mon Oct 20 08:27:34 2025
! Project name: Teste_Macro_Metasurface_Nanopilar.cst
! Parameters = {H=600; L_x=130; L_y=200; Lambda=1064; Max_L=200; Min_L=70; PathPara=1; Phi=0; Step_L=10; Theta=0; p=520; phaseX=180; phaseY=0}
! Header version: 2018
! Port assignment regex: !\s*Touchstone port\s*([0-9]+)\s*=\s*(CST MWS port|CST DS port)\s*([0-9]+|Zmin|Zmax)\s*\(\"(.*)\"\)(\s*mode\s*([0-9]+))?.*
! Touchstone port assignment:
! Touchstone port 1 = CST MWS port Zmax ("") mode 1
! Touchstone port 2 = CST MWS port Zmax ("") mode 2
! Touchstone port 3 = CST MWS port Zmin ("") mode 1
! Touchstone port 4 = CST MWS port Zmin ("") mode 2
! S-Parameters are not renormalized. Each port impedance will be approximated by the real part at minimum frequency. The values are described via the [Reference] keyword.
! Default impedance is overridden by [Reference]
[Version] 2.0
# GHz S RI R 376.73
[Number of Ports] 4
[Reference]
376.73 376.73 259.888 259.888 
[Number of Frequencies] 52
[Network Data]
474000                  0.525075        0.677451     -3.98255e-05     2.76804e-05        -0.150139        0.445236      1.61347e-05    -2.68235e-05
                    -3.97111e-05     2.74336e-05         0.188464       0.0921841      1.11156e-05     6.89243e-05        -0.898645        0.374023
                       -0.150139        0.445236      1.19115e-05     7.03321e-05         0.806673        -0.24518      -8.1066e-06    -7.15886e-05
                     1.51281e-05    -2.64851e-05        -0.898645        0.374024     -7.34791e-06    -6.84677e-05       -0.0654214        0.198527
477200                  0.489939        0.682697     -4.11187e-05     2.48412e-05        -0.158735        0.539449      1.80099e-05    -2.20033e-05
                    -4.10022e-05     2.45974e-05          0.18315       0.0946219      1.08669e-05     6.76352e-05        -0.903888        0.400591
                       -0.158735         0.53945      1.16562e-05     6.90166e-05          0.79727       -0.249546     -8.02377e-06    -7.49995e-05
                      1.7027e-05    -2.16548e-05        -0.903888        0.400591     -7.26198e-06    -7.19393e-05       -0.0702019        0.199527
480400                  0.453981        0.686686      -4.2429e-05     2.18496e-05        -0.159928        0.657507      2.00564e-05    -1.70373e-05
                    -4.23104e-05     2.16089e-05         0.177555       0.0972638      1.06037e-05     6.62962e-05        -0.904042        0.427444
                       -0.159927        0.657508      1.13859e-05     6.76502e-05         0.787595       -0.253992     -7.95309e-06    -7.85441e-05
                     1.90984e-05    -1.66793e-05        -0.904042        0.427444     -7.18861e-06    -7.55468e-05         -0.07523         0.20061
483600                  0.417253        0.689336      -4.3754e-05     1.86943e-05        -0.146055        0.807631      2.22889e-05    -1.19225e-05
                     -4.3633e-05     1.84569e-05         0.171656        0.100134       1.0325e-05     6.49045e-05        -0.892443        0.451159
                       -0.146053        0.807631      1.10996e-05     6.62301e-05         0.777635       -0.258517     -7.89622e-06    -8.22305e-05
                      2.1357e-05    -1.15557e-05        -0.892443        0.451159     -7.12953e-06    -7.92984e-05       -0.0805252        0.201786
486800                  0.379817         0.69057     -4.50904e-05     1.53628e-05        -0.101458         0.99484      2.47233e-05     -6.6564e-06
                    -4.49672e-05     1.51289e-05         0.165432        0.103258      1.00293e-05     6.34567e-05        -0.879209        0.476436
                       -0.101454         0.99484      1.07959e-05      6.4753e-05         0.767378       -0.263125     -7.85505e-06     -8.6067e-05
                     2.38188e-05    -6.28139e-06        -0.879209        0.476436     -7.08666e-06    -8.32026e-05        -0.086109        0.203066
490000                  0.341741         0.69031     -4.64347e-05     1.18417e-05       0.00174769        0.999998      2.73769e-05    -1.23691e-06
                     -4.6309e-05     1.16115e-05         0.158856        0.106669      9.71542e-06     6.19497e-05         -0.86406        0.503389
                      0.00175234        0.999998      1.04734e-05     6.32155e-05          0.75681       -0.267814      -7.8317e-06    -9.00629e-05
                     2.65012e-05    -8.54599e-07         -0.86406        0.503389     -7.06222e-06    -8.72689e-05       -0.0920052        0.204462
493200                  0.303102        0.688483      -4.7782e-05     8.11626e-06         0.143826        0.989603      3.02686e-05     4.33729e-06
                    -4.76539e-05     7.89006e-06           0.1519        0.110401      9.38166e-06     6.03796e-05        -0.846663         0.53213
                        0.143832        0.989602      1.01305e-05     6.16138e-05         0.745918       -0.272589     -7.82858e-06    -9.42282e-05
                     2.94229e-05     4.72591e-06        -0.846663         0.53213     -7.05867e-06    -9.15073e-05       -0.0982401        0.205988
496400                  0.263987        0.685021     -4.91266e-05     4.17051e-06         0.337467        0.941337      3.34188e-05     1.00667e-05
                    -4.89959e-05     3.94853e-06         0.144533        0.114498      9.02634e-06     5.87425e-05        -0.826619        0.562762
                        0.337474        0.941335      9.76539e-06     5.99439e-05         0.734687       -0.277449      -7.8484e-06    -9.85738e-05
                     3.26046e-05     1.04605e-05        -0.826619        0.562762     -7.07882e-06    -9.59289e-05        -0.104843         0.20766
499600                  0.224489        0.679861     -5.04615e-05    -1.31177e-08         0.578806        0.815465      3.68497e-05     1.59508e-05
                    -5.03282e-05    -2.30589e-07         0.136721        0.119007      8.64755e-06     5.70341e-05        -0.803452        0.595369
                        0.578812        0.815461      9.37613e-06     5.82014e-05         0.723101       -0.282395     -7.89425e-06    -0.000103111
                     3.60684e-05     1.63485e-05        -0.803452        0.595369     -7.12586e-06    -0.000100546        -0.111847        0.209497
502800                  0.184711        0.672945     -5.17781e-05    -4.45374e-06         0.813957        0.580925      4.05853e-05     2.19878e-05
                    -5.16421e-05    -4.66639e-06         0.128428        0.123985      8.24317e-06     5.52496e-05        -0.776594        0.630001
                        0.813961         0.58092      8.96053e-06     5.63815e-05         0.711145        -0.28743     -7.96964e-06    -0.000107854
                     3.98382e-05     2.23879e-05        -0.776594        0.630001     -7.20341e-06     -0.00010537        -0.119289        0.211521
506000                  0.144761        0.664224     -5.30661e-05    -9.17222e-06         0.959366        0.282166      4.46515e-05     2.81743e-05
                    -5.29273e-05    -9.37971e-06         0.119613          0.1295      7.81082e-06     5.33839e-05        -0.745371        0.666649
                        0.959367        0.282163      8.51614e-06      5.4479e-05         0.698799       -0.292553     -8.07855e-06    -0.000112815
                       4.394e-05     2.85752e-05        -0.745372        0.666649     -7.31558e-06    -0.000110417         -0.12721        0.213758
509200                  0.104755        0.653657     -5.43128e-05    -1.41913e-05         0.999918       0.0128208      4.90763e-05     3.45054e-05
                    -5.41712e-05    -1.43933e-05         0.110233         0.13563      7.34785e-06     5.14314e-05        -0.708995        0.705213
                        0.999918       0.0128204      8.04025e-06     5.24882e-05         0.686047       -0.297767     -8.22556e-06    -0.000118009
                     4.84017e-05     3.49051e-05        -0.708995        0.705213     -7.46708e-06    -0.000115701        -0.135656        0.216237
512400                 0.0648147        0.641213     -5.55031e-05    -1.95357e-05         0.982567       -0.185906      5.38897e-05     4.09736e-05
                    -5.53585e-05    -1.97317e-05         0.100242         0.14247      6.85129e-06     4.93861e-05        -0.666554        0.745457
                        0.982568       -0.185905      7.52978e-06     5.04029e-05         0.672867       -0.303071     -8.41586e-06    -0.000123455
                     5.32533e-05     4.13701e-05        -0.666554        0.745456     -7.66328e-06     -0.00012124         -0.14468        0.218995
515600                 0.0250672         0.62687     -5.66184e-05    -2.52324e-05         0.946327       -0.323212       5.9124e-05     4.75691e-05
                    -5.64709e-05     -2.5422e-05        0.0895896         0.15013      6.31778e-06     4.72411e-05        -0.617025        0.786944
                        0.946327        -0.32321       6.9813e-06     4.82164e-05         0.659239       -0.308467     -8.65542e-06    -0.000129169
                     5.85269e-05       4.796e-05        -0.617025        0.786944     -7.91033e-06    -0.000127051         -0.15434        0.222072
518800                 -0.014357        0.610618     -5.76367e-05    -3.13103e-05         0.908262       -0.418402      6.48135e-05     5.42788e-05
                    -5.74861e-05     -3.1493e-05        0.0782233        0.158746      5.74355e-06     4.49893e-05        -0.559302        0.828964
                        0.908263         -0.4184      6.39091e-06     4.59212e-05         0.645141       -0.313954      -8.9511e-06    -0.000135171
                     6.42569e-05     5.46615e-05        -0.559302        0.828964     -8.21528e-06    -0.000133155        -0.164705         0.22552
522000                -0.0533242        0.592458      -5.8531e-05     -3.7801e-05         0.873823       -0.486245      7.09949e-05     6.10863e-05
                    -5.83774e-05    -3.79763e-05        0.0660895        0.168477      5.12434e-06     4.26226e-05        -0.492273        0.870441
                        0.873823       -0.486244      5.75425e-06     4.35092e-05         0.630548       -0.319533     -9.31079e-06    -0.000141484
                     7.04797e-05     6.14579e-05        -0.492273        0.870441     -8.58628e-06    -0.000139575         -0.17585        0.229399
525200                -0.0916994        0.572406      -5.9269e-05     -4.4738e-05         0.844091         -0.5362      7.77067e-05     6.79708e-05
                    -5.91124e-05    -4.49052e-05        0.0531349        0.179518      4.45531e-06      4.0132e-05        -0.414942        0.909848
                        0.844092       -0.536199      5.06632e-06     4.09714e-05         0.615435       -0.325203     -9.74358e-06    -0.000148131
                     7.72336e-05     6.83281e-05        -0.414942        0.909848      -9.0327e-06    -0.000146333        -0.187863         0.23378
528400                 -0.129348        0.550486     -5.98119e-05    -5.21572e-05         0.818761       -0.574135      8.49894e-05     7.49066e-05
                    -5.96522e-05    -5.23156e-05        0.0393097        0.192108      3.73094e-06     3.75078e-05        -0.326633        0.945151
                        0.818761       -0.574134      4.32148e-06     3.82979e-05         0.599774       -0.330965       -1.026e-05    -0.000155139
                     8.45589e-05     7.52461e-05        -0.326633        0.945151     -9.56539e-06    -0.000153458        -0.200843        0.238754
531600                 -0.166135        0.526739     -6.01128e-05    -6.00961e-05         0.797185       -0.603735      9.28852e-05     8.18624e-05
                    -5.99501e-05     -6.0245e-05         0.024573        0.206533      2.94495e-06     3.47392e-05        -0.227252        0.973836
                        0.797186       -0.603734      3.51325e-06     3.54777e-05         0.583538       -0.336816     -1.08724e-05    -0.000162537
                     9.24974e-05     8.21804e-05        -0.227252        0.973836      -1.0197e-05    -0.000160978        -0.214906        0.244429
534800                  -0.20193        0.501215     -6.01152e-05    -6.85941e-05         0.778715       -0.627378      0.000101437     8.88007e-05
                    -5.99497e-05    -6.87325e-05       0.00890042         0.22315      2.09013e-06     3.18142e-05        -0.117583        0.993063
                        0.778716       -0.627377      2.63424e-06     3.24988e-05         0.566694       -0.342756     -1.15948e-05    -0.000170358
                     0.000101092     8.90931e-05        -0.117583        0.993063      -1.0942e-05    -0.000168927        -0.230184        0.250937
538000                 -0.236607        0.473979     -5.97516e-05    -7.76907e-05         0.757295       -0.641986       0.00011069     9.56763e-05
                    -5.95834e-05    -7.78178e-05      -0.00770273        0.242394       1.1582e-06     2.87195e-05      0.000480382               1
                        0.757295       -0.641985      1.67594e-06     2.93476e-05         0.549209       -0.348783     -1.24441e-05    -0.000178639
                     0.000110386     9.59388e-05      0.000480471               1     -1.18178e-05    -0.000177341        -0.246827        0.258446
541200                 -0.270044        0.445107     -5.89408e-05    -8.74253e-05         0.705914       -0.624538      0.000120686     0.000102436
                    -5.87702e-05      -8.754e-05       -0.0251818        0.264802      1.39605e-07     2.54402e-05           0.1239        0.992295
                        0.705914       -0.624536      6.28531e-07     2.60093e-05         0.531048       -0.354894     -1.34396e-05    -0.000187418
                     0.000120423     0.000102664           0.1239        0.992295     -1.28442e-05    -0.000186261        -0.265012        0.267165
544400                 -0.302128        0.414687      -5.7586e-05    -9.78347e-05         0.662636       -0.607969      0.000131469     0.000109018
                    -5.74133e-05    -9.79359e-05        -0.043402        0.291035     -9.76755e-07     2.19599e-05         0.248743         0.96857
                        0.662635       -0.607968     -5.19361e-07      2.2467e-05         0.512172       -0.361085     -1.46043e-05     -0.00019674
                     0.000131245     0.000109207         0.248743        0.968569     -1.40449e-05    -0.000195732         -0.28494        0.277358
547600                 -0.332754        0.382815     -5.55718e-05    -0.000108951         0.625757       -0.592444      0.000143079     0.000115349
                    -5.53975e-05    -0.000109037       -0.0621005        0.321907     -2.20378e-06       1.826e-05          0.37073        0.928741
                        0.625757       -0.592443     -1.78098e-06     1.87022e-05         0.492541       -0.367353     -1.59653e-05    -0.000206657
                      0.00014289     0.000115494          0.37073        0.928741     -1.54477e-05    -0.000205804        -0.306841        0.289365
550800                 -0.361825        0.349598     -5.27615e-05    -0.000120798         0.594006          -0.578      0.000155551     0.000121346
                    -5.25863e-05    -0.000120868        -0.080814        0.358404     -3.55657e-06     1.43197e-05         0.485903        0.874013
                        0.594006       -0.577999     -3.17179e-06     1.46939e-05          0.47211       -0.373692     -1.75548e-05    -0.000217223
                     0.000155395     0.000121443         0.485903        0.874013     -1.70857e-05    -0.000216533        -0.330978        0.303623
554000                 -0.389257        0.315152     -4.89943e-05    -0.000133386         0.566415       -0.564609      0.000168915     0.000126915
                    -4.88192e-05    -0.000133438       -0.0987685          0.4017     -5.05285e-06     1.01158e-05         0.591186        0.806535
                        0.566415       -0.564608        -4.71e-06     1.04186e-05         0.450833       -0.380095      -1.9411e-05    -0.000228502
                     0.000168788     0.000126958         0.591186        0.806535      -1.8998e-05    -0.000227983        -0.357646        0.320704
557200                 -0.414976        0.279599      -4.4083e-05    -0.000146704          0.54224       -0.552212      0.000183194     0.000131949
                    -4.39091e-05    -0.000146737        -0.114717        0.453146     -6.71358e-06     5.62189e-06         0.630204        0.670912
                         0.54224       -0.552211     -6.41704e-06     5.84989e-06         0.428657       -0.386555     -2.15796e-05    -0.000240563
                      0.00018309     0.000131935         0.630204        0.670912     -2.12316e-05    -0.000240225        -0.387167        0.341366
560400                  -0.43892        0.243065     -3.78122e-05    -0.000160715           0.5209       -0.540736      0.000198397      0.00013633
                     -3.7641e-05    -0.000160727        -0.126712        0.514186     -8.56365e-06       8.082e-07         0.641615        0.539392
                          0.5209       -0.540736     -8.31841e-06     9.57765e-07         0.405529       -0.393062     -2.41157e-05    -0.000253488
                      0.00019831     0.000136255         0.641615        0.539392     -2.38428e-05    -0.000253338        -0.419876        0.366618
563600                 -0.461039        0.205682     -2.99385e-05    -0.000175339         0.501935       -0.530106      0.000214521     0.000139929
                     -2.9772e-05    -0.000175327        -0.131803        0.586146     -1.06328e-05    -4.35896e-06         0.632486         0.41917
                        0.501935       -0.530106     -1.04445e-05    -4.29158e-06         0.381388       -0.399605     -2.70856e-05    -0.000267365
                     0.000214443     0.000139789         0.632486         0.41917     -2.68998e-05    -0.000267413        -0.456085        0.397829
564000                 -0.463673        0.200956     -2.88285e-05    -0.000177204         0.499713       -0.528833        0.0002166     0.000140317
                    -2.86627e-05    -0.000177189        -0.131757        0.595957     -1.09085e-05    -5.03157e-06         0.630177        0.405076
                        0.499713       -0.528833     -1.07278e-05    -4.97472e-06         0.378296       -0.400425     -2.74912e-05    -0.000269172
                     0.000216523     0.000140168         0.630176        0.405076     -2.73171e-05    -0.000269245        -0.460869        0.402236
566800                 -0.481297        0.167583     -2.01937e-05    -0.000190443         0.484979       -0.520249      0.000231543     0.000142605
                    -2.00345e-05    -0.000190406        -0.125716        0.669768     -1.29567e-05    -9.91791e-06         0.608266        0.312601
                        0.484979       -0.520249     -1.28319e-05    -9.93654e-06         0.356171        -0.40617       -3.057e-05    -0.000282297
                     0.000231468     0.000142398         0.608266        0.312601     -3.04849e-05    -0.000282553         -0.49601        0.436863
570000                 -0.499669        0.128903     -8.29237e-06    -0.000205824         0.469735       -0.511095      0.000249423     0.000144211
                    -8.14348e-06     -0.00020576        -0.102648        0.764365     -1.55785e-05    -1.59122e-05         0.573813        0.220235
                        0.469735       -0.511095     -1.55246e-05    -1.60208e-05         0.329809       -0.412741     -3.46675e-05    -0.000298398
