! TOUCHSTONE file generated by CST MICROWAVE STUDIO
! Date and time: Mon Oct 20 08:27:49 2025
! Project name: Teste_Macro_Metasurface_Nanopilar.cst
! Parameters = {H=600; L_x=190; L_y=100; Lambda=1064; Max_L=200; Min_L=70; PathPara=1; Phi=0; Step_L=10; Theta=0; p=520; phaseX=180; phaseY=0}
! Header version: 2018
! Port assignment regex: !\s*Touchstone port\s*([0-9]+)\s*=\s*(CST MWS port|CST DS port)\s*([0-9]+|Zmin|Zmax)\s*\(\"(.*)\"\)(\s*mode\s*([0-9]+))?.*
! Touchstone port assignment:
! Touchstone port 1 = CST MWS port Zmax ("") mode 1
! Touchstone port 2 = CST MWS port Zmax ("") mode 2
! Touchstone port 3 = CST MWS port Zmin ("") mode 1
! Touchstone port 4 = CST MWS port Zmin ("") mode 2
! S-Parameters are not renormalized. Each port impedance will be approximated by the real part at minimum frequency. The values are described via the [Reference] keyword.
! Default impedance is overridden by [Reference]
[Version] 2.0
# GHz S RI R 376.73
[Number of Ports] 4
[Reference]
376.73 376.73 259.888 259.888 
[Number of Frequencies] 52
[Network Data]
474000                 -0.477779          0.5383      3.52195e-05    -0.000117771       -0.0277395        0.523485      8.87849e-05    -0.000207633
                     3.60843e-05    -0.000110877      -0.00557483        0.781409      0.000198343     0.000528319         -0.40062        0.156748
                      -0.0277321        0.523483       0.00019467     0.000523446        -0.616934       -0.213154      0.000561318      0.00019945
                     0.000104441    -0.000208883        -0.400621        0.156753       0.00057997     0.000188536         0.726457       0.0846525
477200                 -0.504491        0.539958      3.80561e-05    -0.000125666       -0.0146393        0.519137      8.74031e-05    -0.000210326
                     3.93387e-05    -0.000118247        -0.105324          0.8026      0.000215246     0.000528345        -0.403258        0.160448
                      -0.0146317        0.519134      0.000211067     0.000524747        -0.631419       -0.232325      0.000581912     0.000207007
                     0.000101988     -0.00021152        -0.403259        0.160453      0.000602232     0.000191896         0.567806        0.145743
480400                 -0.534239        0.541054      4.12839e-05    -0.000134215     -0.000791013         0.51424      8.59266e-05    -0.000213125
                     4.30227e-05    -0.000126211        -0.216875        0.808786      0.000233464     0.000527822        -0.406008         0.16434
                    -0.000783183        0.514237      0.000228818     0.000525632        -0.647537       -0.253963      0.000604966      0.00021585
                     9.93945e-05    -0.000214235        -0.406009        0.164345      0.000627324     0.000195836         0.428281        0.173843
483600                 -0.567536        0.541348      4.49763e-05    -0.000143499        0.0138611        0.508714      8.43468e-05    -0.000216035
                     4.72144e-05    -0.000134837         -0.33739        0.795175      0.000253124     0.000526615        -0.408878        0.168439
                       0.0138692        0.508711       0.00024807     0.000525979        -0.665576       -0.278575      0.000630938     0.000226306
                     9.66513e-05     -0.00021703        -0.408879        0.168445      0.000655823     0.000200507         0.308916        0.180681
486800                 -0.605003        0.540501      4.92245e-05     -0.00015361        0.0293765        0.502469      8.26544e-05    -0.000219062
                     5.20108e-05    -0.000144206         -0.46187        0.757545      0.000274367     0.000524555        -0.411876        0.172763
                       0.0293849        0.502466      0.000268985     0.000525635        -0.685894       -0.306812      0.000660402     0.000238815
                     9.37464e-05    -0.000219907        -0.411876        0.172769      0.000688471     0.000206116         0.208054        0.174425
490000                 -0.647402        0.538034      5.41426e-05    -0.000164656        0.0458186        0.495394      8.08385e-05    -0.000222212
                     5.75321e-05    -0.000154406        -0.583248        0.693392      0.000297343     0.000521434        -0.415009         0.17733
                       0.0458272        0.495391      0.000291742     0.000524405        -0.708944       -0.339534      0.000694089     0.000253983
                     9.06669e-05    -0.000222869         -0.41501        0.177335      0.000726238     0.000212949         0.123142         0.16046
493200                 -0.695662        0.533262      5.98749e-05    -0.000176761        0.0632536        0.487364      7.88876e-05    -0.000225492
                     6.39298e-05    -0.000165542        -0.693197        0.603063       0.00032221     0.000516993        -0.418288        0.182161
                       0.0632625        0.487361      0.000316536     0.000522045          -0.7353       -0.377889      0.000732934     0.000272656
                     8.73988e-05    -0.000225916        -0.418289        0.182166      0.000770427     0.000221416        0.0515679        0.142233
496400                 -0.750921        0.525199      6.66055e-05     -0.00019007        0.0817504        0.478228      7.67883e-05    -0.000228908
                     7.13953e-05     -0.00017773        -0.783639        0.490375      0.000349128      0.00051091        -0.421721        0.187279
                       0.0817598        0.478225      0.000343574     0.000518242        -0.765705       -0.423451      0.000778155     0.000296054
                     8.39269e-05     -0.00022905        -0.421722        0.187284      0.000822814     0.000232118      -0.00900421        0.121907
499600                 -0.814557        0.512396      7.45718e-05    -0.000204749         0.101379        0.467809      7.45259e-05    -0.000232468
                     8.01742e-05      -0.0001911        -0.848504        0.362244      0.000378253     0.000502785        -0.425321         0.19271
                        0.101389        0.467806      0.000373072     0.000512601        -0.801128       -0.478436      0.000831347     0.000325982
                     8.02342e-05    -0.000232272        -0.425321        0.192715      0.000885897     0.000245968       -0.0605464        0.100822
502800                  -0.87447         0.48508      8.40833e-05     -0.00022099         0.122209        0.455895      7.20837e-05    -0.000236179
                     9.05835e-05    -0.000205796        -0.885023        0.227335      0.000409723     0.000492121        -0.429097        0.198483
                        0.122219        0.455893       0.00040524      0.00050462        -0.839262       -0.543727      0.000894618     0.000365197
                     7.63022e-05    -0.000235581        -0.429098        0.198488      0.000963287     0.000264412        -0.104676        0.079788
506000                 -0.903151        0.429323      9.55487e-05    -0.000239011         0.144304        0.442239      6.94433e-05    -0.000240048
                     0.000103038    -0.000221972        -0.894018       0.0942355      0.000443638     0.000478305        -0.433063        0.204631
                        0.144315        0.442236      0.000440268     0.000493665        -0.816507       -0.577336      0.000970741     0.000418075
                     7.21105e-05    -0.000238978        -0.433064        0.204636        0.0010604     0.000289857        -0.142701       0.0592853
509200                 -0.931797         0.36298      0.000109514    -0.000259052         0.167721        0.426541      6.65834e-05    -0.000244083
                     0.000118084    -0.000239782        -0.879169      -0.0300853      0.000480029      0.00046058        -0.437233        0.211192
                        0.167733        0.426538      0.000478291     0.000478932        -0.789215       -0.614117       0.00106327     0.000491855
                     6.76367e-05    -0.000242461        -0.437234        0.211197       0.00118575     0.000326559        -0.175675       0.0395833
512400                 -0.959084        0.283121      0.000126719    -0.000281364         0.192499        0.408448      6.34805e-05    -0.000248292
                     0.000136451    -0.000259361        -0.845736       -0.141066      0.000518809     0.000438026        -0.441622        0.218207
                        0.192512        0.408445      0.000519345     0.000459419        -0.755702       -0.654915       0.00117637       0.0005991
                     6.28561e-05    -0.000246027        -0.441622        0.218212       0.00135337     0.000382645        -0.204448       0.0208203
515600                 -0.982563         0.18593      0.000148175    -0.000306186         0.218651        0.387538      6.01078e-05    -0.000252681
                      0.00015912    -0.000280783        -0.799307       -0.236553      0.000559708     0.000409544        -0.446245        0.225725
                        0.218664        0.387535      0.000563288     0.000433888        -0.713094       -0.701068       0.00131318     0.000762707
                     5.77416e-05    -0.000249672        -0.446246         0.22573       0.00158803     0.000475291        -0.229705      0.00305261
518800                 -0.997774       0.0666934      0.000175283    -0.000333683         0.246148        0.363309      5.64348e-05     -0.00025726
                     0.000187421    -0.000303989        -0.744915       -0.316303      0.000602174     0.000373846        -0.451121          0.2338
                        0.246162        0.363306      0.000609686     0.000400842        -0.655951       -0.754803       0.00146887      0.00102607
                     5.22632e-05    -0.000253392        -0.451122        0.233805       0.00193678     0.000646064        -0.251999      -0.0137135
522000                 -0.996827      -0.0796002      0.000210002    -0.000363824         0.274898        0.335165      5.24271e-05    -0.000262034
                     0.000223151    -0.000328635         -0.68661       -0.381326      0.000645246     0.000329492        -0.456269        0.242496
                        0.274913        0.335163      0.000657658     0.000358536        -0.572512       -0.819896       0.00160261      0.00147002
                     4.63879e-05    -0.000257178        -0.456269        0.242501       0.00249476      0.00101682        -0.271784       -0.029502
525200                  -0.96668       -0.255989      0.000255066    -0.000396125         0.304714        0.302406      4.80457e-05    -0.000267009
                     0.000268727    -0.000353817        -0.627385       -0.433293      0.000687394     0.000274971        -0.461709        0.251885
                         0.30473        0.302404      0.000705661     0.000305049        -0.432415       -0.901675       0.00153962      0.00220469
                     4.00796e-05     -0.00026102         -0.46171         0.25189        0.0034209      0.00205561        -0.289429      -0.0443539
528400                 -0.888934       -0.458035      0.000314251    -0.000429141         0.335274        0.264211      4.32458e-05     -0.00027219
                     0.000327293    -0.000377562        -0.569281       -0.474107      0.000726349     0.000208884        -0.467464        0.262052
                        0.335292        0.264209      0.000751241     0.000238481        -0.139478       -0.990225       0.00081017      0.00309512
                     3.32983e-05    -0.000264905        -0.467464        0.262056       0.00367256      0.00583836         -0.30524      -0.0583196
531600                 -0.746096       -0.665838      0.000392551    -0.000459475          0.36606        0.219642      3.79768e-05    -0.000277579
                     0.000402634    -0.000395928        -0.513588       -0.505639      0.000758962     0.000130252        -0.473558        0.273095
                         0.36608        0.219639      0.000790796     0.000157327         0.539681        -0.84187     -0.000653784      0.00315431
                     2.60004e-05    -0.000268814        -0.473558        0.273099      -0.00351972      0.00618508        -0.319471      -0.0714532
534800                  -0.53756       -0.843226      0.000495832    -0.000479963         0.396282        0.167646      3.21807e-05    -0.000283177
                     0.000498433     -0.00040158        -0.461041       -0.529583      0.000781183     3.89914e-05        -0.480015         0.28513
                        0.396305        0.167643      0.000819477     6.10989e-05         0.995975      -0.0896289      -0.00150517      0.00218264
                      1.8138e-05    -0.000272725        -0.480015        0.285133      -0.00334535      0.00190373        -0.332331      -0.0838097
538000                 -0.290943        -0.95674      0.000628764    -0.000476893         0.424775        0.107096      2.57915e-05     -0.00028898
                     0.000615885    -0.000382082        -0.411986       -0.547402      0.000788297     -6.3501e-05        -0.486863        0.298291
                          0.4248        0.107093      0.000831432    -4.88489e-05         0.938854        0.344315      -0.00153128      0.00131931
                     9.65877e-06     -0.00027661        -0.486863        0.298294      -0.00224996     0.000821909        -0.343999       -0.095443
541200                -0.0467475       -0.998907       0.00078857    -0.000427586         0.449876         0.03687      1.87337e-05    -0.000294977
                     0.000748283    -0.000319644        -0.366511       -0.560322      0.000775556    -0.000173787        -0.494128         0.31274
                        0.449906        0.036866      0.000820631     -0.00016848          0.84326        0.537507      -0.00131482     0.000825021
                     5.06122e-07    -0.000280432        -0.494128        0.312743      -0.00161696     0.000477684        -0.354622       -0.106405
544400                  0.167659       -0.985845      0.000952876      -0.0003046         0.469295      -0.0440027      1.09215e-05    -0.000301154
                     0.000873221     -0.00019716        -0.324545       -0.569351       0.00073924    -0.000286151        -0.501838         0.32867
                        0.469328      -0.0440086       0.00078236    -0.000290697         0.761291        0.648411      -0.00109185     0.000555844
                    -9.38123e-06    -0.000284147        -0.501838        0.328673      -0.00123231     0.000333828        -0.364327       -0.116743
547600                  0.344531       -0.938775       0.00107101    -9.76123e-05          0.47999       -0.136086      2.25699e-06    -0.000307484
                     0.000951457    -1.51588e-05        -0.285923       -0.575302      0.000677938    -0.000393032        -0.510019         0.34631
                        0.480028       -0.136095      0.000715055    -0.000405979         0.688911        0.724846     -0.000907948     0.000402643
                    -2.00688e-05      -0.0002877        -0.510019        0.346313      -0.00097822     0.000262316        -0.373222       -0.126504
550800                   0.48725       -0.873262       0.00108715     0.000155412         0.478134       -0.239159     -7.37062e-06    -0.000313929
                     0.000947813     0.000192123        -0.250426       -0.578832      0.000593536    -0.000486297         -0.51869        0.365943
                        0.478177       -0.239173      0.000621624    -0.000504291         0.621569         0.78336     -0.000762458     0.000310256
                    -3.16261e-05    -0.000291019         -0.51869        0.365945     -0.000799019     0.000222446        -0.381399       -0.135729
554000                   0.55454       -0.735038      0.000993442     0.000379716         0.459245       -0.351706     -1.80865e-05    -0.000320432
                     0.000863049     0.000371502        -0.217816       -0.580461      0.000491313    -0.000559041        -0.527865        0.387908
                        0.459293       -0.351727      0.000509325     -0.00057767         0.521274        0.777943     -0.000647247      0.00025153
                    -4.41254e-05    -0.000294022        -0.527865         0.38791     -0.000666253     0.000198356        -0.388937       -0.144457
557200                  0.564699       -0.583396      0.000838608     0.000525187         0.418629       -0.470354     -3.00308e-05    -0.000326918
                     0.000733412     0.000489687         -0.18785       -0.580607      0.000378902    -0.000607199        -0.537545        0.412627
                         0.41868       -0.470383      0.000387978    -0.000622266         0.400375        0.706917     -0.000554847     0.000212509
                    -5.76406e-05    -0.000296604        -0.537545        0.412629     -0.000564106     0.000182918        -0.395905       -0.152724
560400                  0.557841       -0.460094      0.000677683     0.000592741         0.352239       -0.589441     -4.33586e-05    -0.000333277
                     0.000598331     0.000547342        -0.160294         -0.5796      0.000264514    -0.000630223        -0.547703        0.440625
                        0.352292       -0.589481      0.000267381    -0.000638809         0.308471        0.648707     -0.000479587     0.000185613
                    -7.22447e-05    -0.000298638        -0.547703        0.440626     -0.000483157     0.000172574        -0.402361       -0.160563
563600                  0.542066       -0.359575      0.000539348     0.000607849         0.257935       -0.701056      -5.8239e-05    -0.000339367
                     0.000479792     0.000562393        -0.134926       -0.577702      0.000155228    -0.000630633        -0.558275        0.472557
                        0.257987        -0.70111      0.000155197    -0.000631509         0.236369        0.600338     -0.000417351     0.000166505
                    -8.80063e-05    -0.000299971        -0.558275        0.472557     -0.000417466     0.000165397        -0.408358       -0.168004
564000                  0.539723       -0.348361      0.000524111     0.000607344         0.244197       -0.714024     -6.02171e-05    -0.000340101
                     0.000466558     0.000562239        -0.131898       -0.577413      0.000142198    -0.000629302         -0.55962        0.476865
                        0.244248       -0.714079       0.00014203    -0.000629207         0.228437        0.594868     -0.000410329     0.000164522
                     -9.0061e-05     -0.00030008         -0.55962        0.476865     -0.000410116     0.000164661        -0.409078       -0.168907
566800                  0.521984       -0.277025      0.000429987     0.000594623         0.136838       -0.795889     -7.48514e-05    -0.000344995
                     0.000383937     0.000552972        -0.111541       -0.575121      5.59753e-05    -0.000612836        -0.569131        0.509257
                        0.136884       -0.795956      5.60672e-05    -0.000606245         0.178353        0.559612      -0.00036516     0.000152586
                    -0.000104985     -0.00030042        -0.569131        0.509256      -0.00036311     0.000160279        -0.413941       -0.175075
570000                  0.500194       -0.208599      0.000346273     0.000568543      -0.00585258        -0.86498     -9.33792e-05    -0.000349905
                     0.000309119     0.000531555       -0.0899511       -0.572022     -3.06321e-05    -0.000581845        -0.580032        0.551789
                      -0.0058169       -0.865059     -2.81684e-05     -0.00056897         0.130698        0.524904     -0.000320842     0.000142232
