! TOUCHSTONE file generated by CST MICROWAVE STUDIO
! Date and time: Mon Oct 20 08:27:42 2025
! Project name: Teste_Macro_Metasurface_Nanopilar.cst
! Parameters = {H=600; L_x=160; L_y=160; Lambda=1064; Max_L=200; Min_L=70; PathPara=1; Phi=0; Step_L=10; Theta=0; p=520; phaseX=180; phaseY=0}
! Header version: 2018
! Port assignment regex: !\s*Touchstone port\s*([0-9]+)\s*=\s*(CST MWS port|CST DS port)\s*([0-9]+|Zmin|Zmax)\s*\(\"(.*)\"\)(\s*mode\s*([0-9]+))?.*
! Touchstone port assignment:
! Touchstone port 1 = CST MWS port Zmax ("") mode 1
! Touchstone port 2 = CST MWS port Zmax ("") mode 2
! Touchstone port 3 = CST MWS port Zmin ("") mode 1
! Touchstone port 4 = CST MWS port Zmin ("") mode 2
! S-Parameters are not renormalized. Each port impedance will be approximated by the real part at minimum frequency. The values are described via the [Reference] keyword.
! Default impedance is overridden by [Reference]
[Version] 2.0
# GHz S RI R 376.73
[Number of Ports] 4
[Reference]
376.73 376.73 259.888 259.888 
[Number of Frequencies] 52
[Network Data]
474000                  0.252588      -0.0683273     -0.000159097     0.000537452         0.843266      -0.0687828      0.000182283     0.000432783
                    -0.000159093     0.000537458         0.252474      -0.0688141      0.000238532     0.000429945         0.843272      -0.0682621
                        0.843266      -0.0687828      0.000238532     0.000429936        -0.287968        0.123334      0.000274054     4.51382e-05
                     0.000185738     0.000469032         0.843309      -0.0682104      0.000294572     3.76014e-05        -0.288122        0.122618
477200                  0.266682      -0.0796203     -0.000160402     0.000541591         0.843601      -0.0288116      0.000173515     0.000459621
                    -0.000160553     0.000541743         0.266859      -0.0801591      0.000228033      0.00044799         0.843608      -0.0283853
                        0.843602       -0.028814      0.000227429     0.000448349        -0.294509        0.123677      0.000281383     4.50649e-05
                      0.00017718     0.000496411         0.843643      -0.0283327      0.000301765     3.76649e-05        -0.294698        0.122931
480400                  0.283107      -0.0929355     -0.000161752     0.000545973         0.842038       0.0131766      0.000163132     0.000488923
                    -0.000162063     0.000546291         0.283662      -0.0935452      0.000216175     0.000467245         0.842057       0.0135037
                         0.84204       0.0131719      0.000214893     0.000467972        -0.301711        0.123986      0.000289163     4.49777e-05
                      0.00016706     0.000526301         0.842089       0.0135572        0.0003094     3.77218e-05        -0.301938        0.123206
483600                  0.302489       -0.108867     -0.000163148     0.000550618         0.838283         0.05719      0.000150765     0.000521008
                    -0.000163626     0.000551126         0.303546       -0.109576      0.000202729     0.000487807         0.838324       0.0574142
                        0.838287        0.057183      0.000200683     0.000488893        -0.309677        0.124245      0.000297438     4.48743e-05
                     0.000155023     0.000559029         0.838354       0.0574684      0.000317521     3.77702e-05        -0.309947        0.123426
486800                  0.325704       -0.128265     -0.000164591     0.000555552         0.832011        0.103207      0.000135944     0.000556238
                    -0.000165241     0.000556276         0.327443       -0.129118      0.000187419     0.000509772         0.832087        0.103325
                        0.832017        0.103198      0.000184513     0.000511203        -0.318533        0.124431      0.000306255     4.47522e-05
                     0.000140618     0.000594972         0.832114         0.10338      0.000326174     3.78081e-05        -0.318854        0.123566
490000                  0.354006       -0.152391     -0.000166083       0.0005608         0.822866        0.151166      0.000118061     0.000595026
                    -0.000166909     0.000561771         0.356698        -0.15346       0.00016991      0.00053324          0.82299        0.151177
                        0.822874        0.151155      0.000166034     0.000534988        -0.328437        0.124511      0.000315669     4.46081e-05
                     0.000123262     0.000634561         0.823014        0.151232      0.000335414     3.78331e-05        -0.328814        0.123592
493200                  0.389262       -0.183201     -0.000167624     0.000566394         0.810465         0.20096      9.63214e-05     0.000637834
                    -0.000168631     0.000567647          0.39333       -0.184606      0.000149797     0.000558298         0.810653        0.200865
                        0.810476        0.200948      0.000144825     0.000560321        -0.339581         0.12444      0.000325744     4.44383e-05
                     0.000102194     0.000678287         0.810674         0.20092      0.000345303      3.7842e-05        -0.340024        0.123456
496400                  0.434366       -0.223883     -0.000169214     0.000572369         0.794401        0.252424      6.96806e-05     0.000685168
                    -0.000170404     0.000573944         0.440514        -0.22585      0.000126582     0.000585022         0.794669        0.252225
                        0.794415         0.25241      0.000120372     0.000587255         -0.35221        0.124153      0.000336552     4.42381e-05
                     7.64116e-05     0.000726696         0.794687        0.252279      0.000355911     3.78311e-05         -0.35273        0.123092
499600                  0.494052       -0.280019     -0.000170851     0.000578762         0.774248        0.305323      3.67493e-05     0.000737559
                    -0.000172227     0.000580707         0.503527        -0.28299      9.96586e-05     0.000613452         0.774614        0.305025
                        0.774265        0.305308      9.20502e-05     0.000615802        -0.366635        0.123557      0.000348175      4.4002e-05
                     4.45831e-05     0.000780379         0.774628        0.305079       0.00036732     3.77958e-05        -0.367244        0.122401
502800                  0.576586       -0.362283     -0.000172535     0.000585621         0.749573        0.359343     -4.33554e-06     0.000795514
                    -0.000174098     0.000587989         0.591802       -0.367253      6.82817e-05     0.000643574         0.750056        0.358956
                        0.749594        0.359328       5.9098e-05     0.000645908        -0.383257        0.122513      0.000360709     4.37232e-05
                     4.91784e-06     0.000839942         0.750066        0.359009      0.000379623     3.77302e-05        -0.383972        0.121241
506000                  0.697624       -0.493809     -0.000174262     0.000592994         0.719948        0.414082     -5.60908e-05     0.000859423
                    -0.000176009     0.000595848         0.723865        -0.50341      3.15375e-05     0.000675285         0.720564        0.413618
                        0.719972        0.414067      2.05873e-05     0.000677416        -0.402603        0.120817      0.000374265     4.33935e-05
                    -4.50102e-05     0.000905924         0.720571         0.41367      0.000392931     3.76272e-05        -0.403445        0.119397
509200                  0.770993       -0.636843     -0.000176028     0.000600942         0.684965        0.469037     -0.000121931     0.000929367
                    -0.000177953     0.000604356         0.778637       -0.627475     -1.16914e-05     0.000708333         0.685733        0.468512
                        0.684992        0.469022     -2.46068e-05     0.000710004        -0.425376        0.118151      0.000388975     4.30025e-05
                    -0.000108511     0.000978647         0.685736        0.468562      0.000407372     3.74778e-05         -0.42637        0.116539
512400                  0.685313       -0.728249     -0.000177826     0.000609533         0.644261          0.5236      -0.00020648      0.00100475
                    -0.000179919     0.000613591         0.696813       -0.717253     -6.27623e-05     0.000742236         0.645196        0.523036
                        0.644292        0.523587      -7.7835e-05     0.000743099        -0.452528        0.114015      0.000404991     4.25376e-05
                    -0.000190112      0.00105791         0.645196        0.523084      0.000423096     3.72704e-05        -0.453707        0.112149
515600                  0.396153       -0.918185     -0.000179646     0.000618843         0.597542        0.577056     -0.000315921      0.00108363
                    -0.000181889     0.000623647          0.37898       -0.925405       -0.0001233      0.00077616         0.598658        0.576478
                        0.597577        0.577046      -0.00014069     0.000775747        -0.485376        0.107594      0.000422496     4.19826e-05
                    -0.000295963      0.00114237         0.598655        0.576524      0.000440281     3.69905e-05         -0.48678        0.105382
518800                 -0.929213       -0.369544     -0.000181473     0.000628966         0.544612         0.62859     -0.000458248      0.00116144
                    -0.000183842     0.000634635        -0.993172       -0.116658       -0.0001952      0.00080873         0.545917        0.628027
                         0.54465        0.628583     -0.000214992     0.000806429         -0.52577       0.0975099      0.000441706     4.13173e-05
                     -0.00043424      0.00122847          0.54591         0.62807      0.000459142     3.66194e-05        -0.527448       0.0948082
522000                 -0.954179        0.299236     -0.000183289     0.000640009         0.485402        0.677293     -0.000642981      0.00122893
                    -0.000185744     0.000646682        -0.926526        0.376232     -0.000280573     0.000837772         0.486899        0.676779
                        0.485443         0.67729     -0.000302703     0.000832807        -0.576341       0.0813259      0.000462884     4.05154e-05
                     -0.00061521      0.00130841          0.48689        0.676819      0.000479936     3.61326e-05        -0.578342       0.0779031
525200                 -0.888105        0.459641     -0.000185065     0.000652096         0.420002        0.722191     -0.000879329      0.00126897
                    -0.000187552     0.000659943        -0.866105        0.499862     -0.000381562      0.00085997         0.421689        0.721762
                        0.420045        0.722193     -0.000405712     0.000851404         -0.64081       0.0545085      0.000486347     3.95434e-05
                     -0.00085009      0.00136687         0.421678        0.721798      0.000502975     3.54981e-05         -0.64316       0.0499741
528400                 -0.774199        0.493913     -0.000186764     0.000665378         0.348688        0.762273      -0.00117074      0.00125302
                    -0.000189206     0.000674596        -0.730924        0.500391     -0.000499937      0.00087045         0.350553        0.761965
                        0.348732         0.76228     -0.000525389     0.000857241        -0.724156      0.00813373      0.000512487     3.83568e-05
                      -0.0011467      0.00137669         0.350541        0.761996      0.000528643     3.46734e-05        -0.726766      0.00179986
531600                 -0.570051        0.416842     -0.000188334     0.000680031         0.271938        0.796533      -0.00150352      0.00114128
                     -0.00019062      0.00069086        -0.543512        0.419135      -0.00063631     0.000862402         0.273963        0.796381
                        0.271982        0.796545     -0.000661773     0.000843567        -0.831414      -0.0763648      0.000541788     3.68968e-05
                      -0.0014988      0.00129627         0.273949        0.796408      0.000557416     3.36014e-05        -0.833759      -0.0857295
534800                 -0.444854        0.362004     -0.000189703     0.000696268         0.190443        0.824019      -0.00183174     0.000895233
                    -0.000191679     0.000708994        -0.426949         0.36278     -0.000788825     0.000827016           0.1926        0.824056
                        0.190485        0.824038     -0.000812318     0.000801955        -0.959208       -0.238586       0.00057486     3.50838e-05
                     -0.00186828      0.00107752         0.192586        0.824079      0.000589891     3.22038e-05        -0.959226       -0.252956
538000                 -0.360448        0.321596     -0.000190772     0.000714343         0.105101        0.843891      -0.00207545     0.000509728
                     -0.00019222      0.00072931        -0.347583        0.321726      -0.00095135     0.000754243         0.107355        0.844143
                         0.10514        0.843915     -0.000970273     0.000723243        -0.885971       -0.463741      0.000612477     3.28086e-05
                     -0.00217366     0.000696753         0.107342        0.844162      0.000626832     3.03721e-05        -0.877218       -0.480091
541200                 -0.299767        0.290765     -0.000191401     0.000734565        0.0169929        0.855468      -0.00215698     4.32424e-05
                    -0.000192015     0.000752186        -0.290107        0.290589      -0.00111171     0.000635092        0.0193036        0.855955
                       0.0170282        0.855497      -0.00112332     0.000599879        -0.655215       -0.755443      0.000655645      2.9918e-05
                     -0.00231713     0.000198011        0.0192904         0.85597      0.000669222     2.79523e-05        -0.638155       -0.769908
544400                 -0.254072        0.266532     -0.000191397     0.000757308       -0.0726547        0.858281      -0.00205864    -0.000401724
                    -0.000190741     0.000778081        -0.246583        0.266202      -0.00125136      0.00046579       -0.0703333        0.859014
                      -0.0726248        0.858315       -0.0012538     0.000429746        -0.223371       -0.974734      0.000705686     2.61926e-05
                     -0.00225394    -0.000307656       -0.0703453        0.859026       0.00071836     2.47219e-05        -0.204614       -0.978843
547600                 -0.218435        0.247013     -0.000190482     0.000783031        -0.162523        0.852109      -0.00183387    -0.000744135
                    -0.000187935     0.000807545         -0.21249        0.246603      -0.00134854     0.000252583        -0.160238        0.853087
                       -0.162499        0.852147      -0.00134196     0.000220114         0.211633       -0.977349      0.000764376     2.13098e-05
                     -0.00202872    -0.000713281        -0.160249        0.853096      0.000775986     2.03502e-05         0.222351       -0.974967
550800                 -0.189873        0.230967     -0.000188264     0.000812291        -0.251263        0.836995       -0.0015595    -0.000962028
                    -0.000182932     0.000841241        -0.185067        0.230516       -0.0013853     1.38073e-05        -0.249062        0.838208
                       -0.251247        0.837034      -0.00137242     -1.1209e-05         0.392103       -0.699366      0.000834161      1.4781e-05
                     -0.00173029    -0.000977862         -0.24907        0.838214      0.000844496     1.43316e-05         0.389957       -0.686632
554000                 -0.166472        0.217552     -0.000184171     0.000845774        -0.337565        0.813248      -0.00129153     -0.00107608
                    -0.000174761     0.000879945        -0.162533        0.217079      -0.00135532     -0.00022409         -0.33549        0.814676
                       -0.337556        0.813289      -0.00134058    -0.000239945         0.381893       -0.448871      0.000918496     5.83919e-06
                     -0.00143057      -0.0011187        -0.335496         0.81468      0.000927271     5.86563e-06         0.378528       -0.442168
557200                 -0.146952        0.206173     -0.000177369      0.00088431        -0.420218        0.781426      -0.00105623       -0.001119
                    -0.000161992     0.000924537         -0.14369         0.20569      -0.00126682    -0.000435594        -0.418306         0.78304
                       -0.420217        0.781466      -0.00125458    -0.000443264         0.330163        -0.29548       0.00102243    -6.77082e-06
                     -0.00116538     -0.00117346         -0.41831        0.783042       0.00102924    -6.36898e-06         0.327448       -0.291824
560400                 -0.130423        0.196401     -0.000166616     0.000928889        -0.498166        0.742296     -0.000859974     -0.00111867
                    -0.000142503     0.000975935          -0.1277        0.195916       -0.0011382    -0.000604354        -0.496447         0.74406
                       -0.498173        0.742333      -0.00113122    -0.000606618         0.275947       -0.199167       0.00115363    -2.52116e-05
                    -0.000944529     -0.00117597        -0.496449        0.744061       0.00115787    -2.46661e-05         0.274011       -0.197036
563600                 -0.116247        0.187921     -0.000150054     0.000980648        -0.570551        0.696785     -0.000699954     -0.00109426
                     -0.00011314       0.0010349        -0.113962        0.187436     -0.000990175    -0.000725684        -0.569045        0.698661
                       -0.570566         0.69682     -0.000989271    -0.000725709         0.228325       -0.135641       0.00132429    -5.34536e-05
                    -0.000765404     -0.00114967        -0.569045        0.698661       0.00132501    -5.32662e-05         0.227001        -0.13432
564000                 -0.114615        0.186939     -0.000147448     0.000987682        -0.579174        0.690699      -0.00068222     -0.00109017
                    -0.000108563      0.00104282         -0.11238        0.186454     -0.000971215    -0.000737658        -0.577695        0.692585
                       -0.579189        0.690732     -0.000971047    -0.000737601         0.222918       -0.129268       0.00134929    -5.79983e-05
                    -0.000745627     -0.00114515        -0.577695        0.692585       0.00134947    -5.79145e-05         0.221658       -0.128018
566800                 -0.103955        0.180492     -0.000124855      0.00104078        -0.636732        0.645929     -0.000570389     -0.00105766
                    -6.92396e-05      0.00110159        -0.102031         0.18001     -0.000839659    -0.000803736        -0.635449        0.647874
                       -0.636753        0.645958     -0.000844212    -0.000804067          0.18829      -0.0916806       0.00155507    -9.94028e-05
                    -0.000621339     -0.00110901        -0.635448        0.647873       0.00155055     -0.00010066          0.18741       -0.090819
570000                 -0.093196        0.173932      -8.6709e-05      0.00111025         -0.69629        0.590808     -0.000465339     -0.00101585
                    -4.11069e-06      0.00117456       -0.0915738        0.173454     -0.000697541    -0.000846913        -0.695234        0.592782
                       -0.696317        0.590831     -0.000706266     -0.00084914         0.154899       -0.059969       0.00188355     -0.00018058
