! TOUCHSTONE file generated by CST MICROWAVE STUDIO
! Date and time: Mon Oct 20 08:27:56 2025
! Project name: Teste_Macro_Metasurface_Nanopilar.cst
! Parameters = {H=600; L_x=200; L_y=200; Lambda=1064; Max_L=200; Min_L=70; PathPara=1; Phi=0; Step_L=10; Theta=0; p=520; phaseX=180; phaseY=0}
! Header version: 2018
! Port assignment regex: !\s*Touchstone port\s*([0-9]+)\s*=\s*(CST MWS port|CST DS port)\s*([0-9]+|Zmin|Zmax)\s*\(\"(.*)\"\)(\s*mode\s*([0-9]+))?.*
! Touchstone port assignment:
! Touchstone port 1 = CST MWS port Zmax ("") mode 1
! Touchstone port 2 = CST MWS port Zmax ("") mode 2
! Touchstone port 3 = CST MWS port Zmin ("") mode 1
! Touchstone port 4 = CST MWS port Zmin ("") mode 2
! S-Parameters are not renormalized. Each port impedance will be approximated by the real part at minimum frequency. The values are described via the [Reference] keyword.
! Default impedance is overridden by [Reference]
[Version] 2.0
# GHz S RI R 376.73
[Number of Ports] 4
[Reference]
376.73 376.73 259.888 259.888 
[Number of Frequencies] 52
[Network Data]
474000                 -0.455104       -0.274545     -7.03752e-05    -0.000154337        -0.550113       -0.459363      0.000226191      0.00010899
                    -7.03511e-05    -0.000154435        -0.454585       -0.274949      6.42541e-06    -9.23355e-05        -0.550145        -0.45958
                       -0.550113       -0.459363      6.33127e-06    -9.23453e-05         0.298679        0.525963      3.51751e-05     0.000112232
                     0.000226261     0.000108958        -0.550145        -0.45958      3.52135e-05     0.000112285         0.298927        0.525578
477200                 -0.457123       -0.266501     -7.03044e-05    -0.000152415        -0.572849       -0.450554      0.000226273     8.61184e-05
                    -7.02817e-05    -0.000152505        -0.456608       -0.266914      2.83896e-06    -9.07643e-05        -0.572895       -0.450785
                       -0.572849       -0.450554      2.82218e-06     -9.0772e-05         0.267605        0.509765      3.09174e-05     0.000113833
                     0.000226185     8.63774e-05        -0.572895       -0.450785       3.1111e-05     0.000113851         0.267945        0.509498
480400                 -0.459131       -0.257976     -7.02244e-05    -0.000150418        -0.596547       -0.440214      0.000223447     6.19665e-05
                    -7.02032e-05    -0.000150502        -0.458621       -0.258397     -8.56787e-07     -8.9085e-05        -0.596608       -0.440457
                       -0.596547       -0.440214     -7.93714e-07    -8.90927e-05         0.236854        0.490383      2.65166e-05     0.000115376
                     0.000223265     6.25747e-05        -0.596608       -0.440458      2.68683e-05     0.000115366          0.23727        0.490247
483600                 -0.461115       -0.248928     -7.01344e-05    -0.000148343        -0.621184       -0.428136      0.000217245     3.70271e-05
                    -7.01146e-05    -0.000148419         -0.46061       -0.249359     -4.66557e-06    -8.72891e-05        -0.621263       -0.428392
                       -0.621184       -0.428136     -4.52011e-06    -8.72992e-05          0.20686        0.467714      2.19693e-05     0.000116852
                     0.000217057     3.80274e-05        -0.621263       -0.428393      2.24816e-05     0.000116822          0.20733        0.467721
486800                 -0.463058       -0.239312     -7.00333e-05    -0.000146184        -0.646716       -0.414092      0.000207299     1.19632e-05
                    -7.00149e-05    -0.000146252         -0.46256       -0.239752     -8.59115e-06    -8.53676e-05        -0.646815        -0.41436
                       -0.646716       -0.414092     -8.36071e-06    -8.53825e-05         0.178098        0.441726      1.72724e-05     0.000118255
                     0.000207213     1.33735e-05        -0.646815        -0.41436      1.79475e-05     0.000118212         0.178598        0.441883
490000                 -0.464942       -0.229077       -6.992e-05    -0.000143936        -0.673069       -0.397829      0.000193411    -1.24154e-05
                     -6.9903e-05    -0.000143997        -0.464451       -0.229527     -1.26373e-05    -8.33103e-05         -0.67319       -0.398107
                       -0.673069        -0.39783     -1.23193e-05    -8.33329e-05         0.151073        0.412475      1.24232e-05     0.000119575
                     0.000193545    -1.06113e-05         -0.67319       -0.398108      1.32627e-05     0.000119527         0.151575        0.412784
493200                 -0.466742       -0.218166     -6.97931e-05    -0.000141594        -0.700131       -0.379073      0.000175619    -3.52079e-05
                    -6.97775e-05    -0.000141647         -0.46626       -0.218626     -1.68077e-05    -8.11064e-05        -0.700276       -0.379359
                       -0.700131       -0.379073     -1.63995e-05    -8.11397e-05         0.126295        0.380114        7.419e-06     0.000120804
                     0.000176087    -3.30657e-05        -0.700276        -0.37936      8.42421e-06      0.00012076         0.126774        0.380571
496400                  -0.46843       -0.206519     -6.96512e-05    -0.000139152        -0.727741       -0.357527      0.000154231    -5.55093e-05
                    -6.96371e-05    -0.000139197        -0.467958       -0.206988      -2.1106e-05     -7.8744e-05        -0.727914        -0.35782
                       -0.727741       -0.357527      -2.0605e-05    -7.87914e-05         0.104262        0.344897      2.25766e-06     0.000121933
                     0.000155131     -5.3123e-05        -0.727914       -0.357821      3.42912e-06     0.000121902         0.104691        0.345494
499600                  -0.46997       -0.194064     -6.94927e-05    -0.000136604        -0.755685       -0.332878      0.000129829    -7.25129e-05
                      -6.948e-05    -0.000136639        -0.469508       -0.194544     -2.55358e-05      -7.621e-05        -0.755887       -0.333175
                       -0.755685       -0.332879     -2.49393e-05    -7.62754e-05        0.0854333        0.307183     -3.06264e-06     0.000122951
                     0.000131225    -7.00072e-05        -0.755887       -0.333176     -1.72499e-06     0.000122942        0.0857875        0.307903
502800                 -0.471317       -0.180726     -6.93157e-05    -0.000133942        -0.783676       -0.304808      0.000103219      -8.561e-05
                    -6.93044e-05    -0.000133968        -0.470868       -0.181216     -3.01004e-05    -7.34903e-05        -0.783909       -0.305105
                       -0.783676       -0.304808     -2.94058e-05    -7.35778e-05        0.0702003        0.267423     -8.54327e-06     0.000123847
                     0.000105132    -8.31253e-05         -0.78391       -0.305106     -7.04021e-06      0.00012387        0.0704602        0.268246
506000                 -0.472419       -0.166419     -6.91182e-05    -0.000131158        -0.811346       -0.272995      7.53474e-05    -9.44598e-05
                    -6.91083e-05    -0.000131175        -0.471982       -0.166919     -3.48028e-05    -7.05693e-05        -0.811614       -0.273288
                       -0.811347       -0.272996     -3.40077e-05    -7.06834e-05         0.058868        0.226145      -1.4185e-05     0.000124611
                     7.77518e-05    -9.21346e-05        -0.811614       -0.273289     -1.25181e-05     0.000124675        0.0590185        0.227046
509200                 -0.473207       -0.151048     -6.88979e-05    -0.000128245        -0.838236       -0.237139      4.71915e-05    -9.90161e-05
                    -6.88893e-05    -0.000128252        -0.472786       -0.151557     -3.96457e-05    -6.74302e-05        -0.838539       -0.237423
                       -0.838237        -0.23714     -3.87478e-05     -6.7576e-05        0.0516346        0.183932     -1.99881e-05      0.00012523
                     5.00217e-05    -9.69703e-05        -0.838539       -0.237425     -1.81598e-05     0.000125347        0.0516666        0.184885
512400                   -0.4736       -0.134507     -6.86521e-05    -0.000125193        -0.863781        -0.19698      1.96543e-05    -9.95047e-05
                    -6.86448e-05    -0.000125189        -0.473197       -0.135025     -4.46314e-05    -6.40544e-05        -0.864119       -0.197249
                       -0.863782       -0.196981     -4.36283e-05    -6.42373e-05        0.0485808        0.141398     -2.59519e-05     0.000125692
                     2.28153e-05    -9.78274e-05         -0.86412       -0.197251     -2.39657e-05     0.000125871        0.0484919        0.142373
515600                 -0.473497       -0.116681     -6.83779e-05    -0.000121992        -0.887309       -0.152323     -6.51413e-06    -9.63647e-05
                    -6.83717e-05    -0.000121978        -0.473113       -0.117207     -4.97614e-05    -6.04217e-05        -0.887682       -0.152571
                        -0.88731       -0.152324     -4.86512e-05    -6.06476e-05        0.0496673       0.0991525     -3.20753e-05     0.000125984
                    -3.13206e-06    -9.51088e-05        -0.887683       -0.152573     -2.99356e-05     0.000126236        0.0494611        0.100123
518800                 -0.472771      -0.0974425     -6.80717e-05    -0.000118631        -0.908036       -0.103077     -3.07603e-05    -9.01691e-05
                    -6.80667e-05    -0.000118605         -0.47241      -0.0979751     -5.50366e-05      -5.651e-05        -0.908443       -0.103297
                       -0.908038       -0.103079     -5.38174e-05    -5.67855e-05        0.0547404       0.0577767      -3.8356e-05     0.000126091
                    -2.72679e-05     -8.9352e-05        -0.908444       -0.103299     -3.60684e-05     0.000126427        0.0544265       0.0587185
522000                 -0.471268      -0.0766515     -6.77297e-05    -0.000115098        -0.925084      -0.0492933     -5.27349e-05    -8.15468e-05
                    -6.77257e-05     -0.00011506        -0.470932      -0.0771894     -6.04568e-05    -5.22951e-05        -0.925519      -0.0494782
                       -0.925085      -0.0492944     -5.91272e-05    -5.26274e-05         0.063545       0.0177971     -4.47909e-05     0.000126001
                    -4.92331e-05    -8.11558e-05        -0.925521      -0.0494801     -4.23621e-05     0.000126431        0.0631377       0.0186887
525200                 -0.468794      -0.0541584     -6.73474e-05     -0.00011138        -0.937496      0.00879617     -7.22733e-05    -7.11168e-05
                    -6.73444e-05    -0.000111329        -0.468485      -0.0546992     -6.60206e-05    -4.77508e-05        -0.937956      0.00865291
                       -0.937498      0.00879517     -6.45797e-05    -4.81474e-05        0.0757442      -0.0203336     -5.13758e-05     0.000125698
                    -6.88466e-05    -7.11176e-05        -0.937958      0.00865103     -4.88137e-05     0.000126233        0.0752613      -0.0195088
528400                 -0.465107      -0.0298039     -6.69197e-05    -0.000107461        -0.944285       0.0707346     -8.93602e-05    -5.94439e-05
                    -6.69176e-05    -0.000107397         -0.46483      -0.0303445     -7.17251e-05    -4.28482e-05        -0.944762       0.0706388
                       -0.944287       0.0707337     -7.01723e-05    -4.33176e-05        0.0909413      -0.0562493     -5.81052e-05     0.000125167
                    -8.60738e-05     -5.9788e-05        -0.944764       0.0706371      -5.5419e-05     0.000125817        0.0904027      -0.0555029
531600                  -0.45991     -0.00342314     -6.64407e-05    -0.000103325        -0.944487        0.135812     -0.000104089    -4.70124e-05
                    -6.64393e-05    -0.000103247        -0.459667     -0.00395959     -7.75656e-05     -3.7556e-05        -0.944971        0.135768
                       -0.944489        0.135811     -7.59009e-05    -3.81073e-05         0.108703      -0.0896758     -6.49725e-05     0.000124393
                    -0.000100989     -4.7645e-05        -0.944974        0.135766     -6.21729e-05     0.000125168          0.10813      -0.0890147
534800                 -0.452828       0.0251478     -6.59036e-05    -9.89547e-05        -0.937238        0.203051     -0.000116625    -3.42179e-05
                    -6.59027e-05    -9.88621e-05        -0.452623       0.0246208      -8.3535e-05    -3.18403e-05        -0.937719        0.203061
                       -0.937241         0.20305     -8.17594e-05    -3.24831e-05         0.128583        -0.12043     -7.19695e-05      0.00012336
                    -0.000113741    -3.50832e-05        -0.937723        0.203059     -6.90684e-05     0.000124269         0.127995       -0.119857
538000                 -0.443398       0.0560608     -6.53004e-05    -9.43293e-05        -0.921859        0.271218     -0.000127172    -2.13695e-05
                    -6.52998e-05    -9.42213e-05        -0.443233       0.0555501     -8.96236e-05     -2.5664e-05        -0.922325        0.271281
                       -0.921862        0.271217     -8.77389e-05    -2.64087e-05          0.15014       -0.148415     -7.90869e-05     0.000122053
                    -0.000124518    -2.24144e-05        -0.922329         0.27128     -7.60975e-05     0.000123104         0.149555       -0.147927
541200                 -0.431043       0.0894386     -6.46218e-05    -8.94263e-05        -0.897942        0.338866      -0.00013595    -8.69848e-06
                    -6.46213e-05    -8.93021e-05        -0.430922       0.0889529     -9.58183e-05    -1.89871e-05        -0.898381        0.338979
                       -0.897945        0.338866     -9.38273e-05    -1.98448e-05         0.172952       -0.173609     -8.63133e-05     0.000120456
                     -0.00013353    -9.87496e-06        -0.898386        0.338978     -8.32504e-05     0.000121656         0.172388         -0.1732
544400                 -0.415054        0.125347     -6.38571e-05    -8.42205e-05        -0.865423        0.404415     -0.000143178     3.62959e-06
                    -6.38564e-05    -8.40792e-05        -0.414977        0.124897     -0.000102102    -1.17664e-05        -0.865826         0.40457
                       -0.865426        0.404415     -0.000100009    -1.27488e-05         0.196634       -0.196051     -9.36361e-05     0.000118553
                    -0.000140988     2.36336e-06         -0.86583         0.40457     -9.05155e-05     0.000119908         0.196104       -0.195716
547600                 -0.394559        0.163753     -6.29936e-05    -7.86836e-05        -0.824632         0.46625     -0.000149064     1.55024e-05
                    -6.29923e-05    -7.85243e-05        -0.394526        0.163352     -0.000108453    -3.95563e-06        -0.824989        0.466438
                       -0.824635        0.466251     -0.000106263    -5.07487e-06         0.220837       -0.215836     -0.000101041     0.000116329
                    -0.000147095     1.41818e-05        -0.824993        0.466439     -9.78797e-05     0.000117843         0.220353       -0.215563
550800                 -0.368509        0.204464     -6.20163e-05    -7.27838e-05        -0.776294        0.522851     -0.000153798     2.68492e-05
                    -6.20141e-05    -7.26054e-05        -0.368516        0.204129     -0.000114843     4.49486e-06          -0.7766         0.52306
                       -0.776297        0.522852     -0.000112565     3.22606e-06         0.245258       -0.233092     -0.000108511      0.00011377
                    -0.000152037     2.55036e-05        -0.776604        0.523061     -0.000105328     0.000115446          0.24483       -0.232872
554000                 -0.335664        0.247042     -6.09075e-05    -6.64851e-05        -0.721496        0.572905     -0.000157551     3.76312e-05
                    -6.09039e-05    -6.62865e-05        -0.335702        0.246792     -0.000121238     1.36377e-05        -0.721747        0.573123
                       -0.721498        0.572906     -0.000118881     1.22064e-05         0.269639       -0.247976     -0.000116028     0.000110861
                    -0.000155982     3.62843e-05        -0.721751        0.573125     -0.000112842     0.000112701         0.269273       -0.247798
557200                 -0.294609        0.290683     -5.96462e-05    -5.97469e-05        -0.661601        0.615413     -0.000160473     4.78326e-05
                    -5.96405e-05    -5.95269e-05        -0.294662        0.290537     -0.000127597     2.35281e-05        -0.661801        0.615627
                       -0.661603        0.615414     -0.000125172     2.19213e-05         0.293766       -0.260662     -0.000123573     0.000107589
                     -0.00015908     4.65031e-05        -0.661804        0.615629     -0.000120405     0.000109592         0.293466       -0.260515
560400                 -0.243818        0.334065      -5.8207e-05    -5.25229e-05        -0.598146        0.649747     -0.000162694     5.74546e-05
                    -5.81986e-05    -5.22802e-05        -0.243861        0.334044     -0.000133866     3.42239e-05        -0.598297        0.649945
                       -0.598148        0.649749     -0.000131388     3.24289e-05         0.317466       -0.271332     -0.000131123     0.000103943
                    -0.000161462     5.61572e-05        -0.598301        0.649948     -0.000127993     0.000106104         0.317233       -0.271204
563600                   -0.1818        0.375175     -5.65596e-05    -4.47604e-05        -0.532715        0.675675     -0.000164326     6.65099e-05
                    -5.65477e-05    -4.44936e-05        -0.181796        0.375294     -0.000139985      4.5784e-05        -0.532824        0.675849
                       -0.532716        0.675677     -0.000137471     4.37889e-05         0.340602       -0.280167     -0.000138656     9.99118e-05
                    -0.000163239     6.52556e-05        -0.532827        0.675851     -0.000135585     0.000102226         0.340437       -0.280051
564000                 -0.173193        0.380022     -5.63373e-05    -4.37493e-05        -0.524474        0.678328     -0.000164493     6.76029e-05
                    -5.63249e-05    -4.34795e-05        -0.173181        0.380159     -0.000140735     4.72928e-05        -0.524579        0.678498
                       -0.524475         0.67833     -0.000138218     4.52718e-05         0.343448       -0.281152     -0.000139595     9.93803e-05
                    -0.000163424     6.63547e-05        -0.524581        0.678501     -0.000136533     0.000101713         0.343292       -0.281036
566800                 -0.107365        0.411147     -5.46672e-05    -3.63992e-05        -0.466824        0.693335     -0.000165465      7.5019e-05
                    -5.46509e-05    -3.61069e-05        -0.107265        0.411413     -0.000145877     5.82681e-05          -0.4669        0.693477
                       -0.466825        0.693337     -0.000143348     5.60619e-05          0.36307       -0.287349     -0.000146145     9.54866e-05
                    -0.000164509     7.38161e-05        -0.466903         0.69348     -0.000143155     9.79458e-05         0.362972       -0.287234
570000                -0.0200481        0.438188      -5.2485e-05    -2.73702e-05        -0.401833        0.703179     -0.000166193     8.30073e-05
                     -5.2463e-05    -2.70508e-05       -0.0197901        0.438589     -0.000151454     7.17344e-05        -0.401886        0.703285
                       -0.401834        0.703182     -0.000148934     6.93081e-05         0.384794       -0.293048     -0.000153563     9.06606e-05
