! TOUCHSTONE file generated by CST MICROWAVE STUDIO
! Date and time: Mon Oct 20 08:27:24 2025
! Project name: Teste_Macro_Metasurface_Nanopilar.cst
! Parameters = {H=600; L_x=100; L_y=190; Lambda=1064; Max_L=200; Min_L=70; PathPara=1; Phi=0; Step_L=10; Theta=0; p=520; phaseX=180; phaseY=0}
! Header version: 2018
! Port assignment regex: !\s*Touchstone port\s*([0-9]+)\s*=\s*(CST MWS port|CST DS port)\s*([0-9]+|Zmin|Zmax)\s*\(\"(.*)\"\)(\s*mode\s*([0-9]+))?.*
! Touchstone port assignment:
! Touchstone port 1 = CST MWS port Zmax ("") mode 1
! Touchstone port 2 = CST MWS port Zmax ("") mode 2
! Touchstone port 3 = CST MWS port Zmin ("") mode 1
! Touchstone port 4 = CST MWS port Zmin ("") mode 2
! S-Parameters are not renormalized. Each port impedance will be approximated by the real part at minimum frequency. The values are described via the [Reference] keyword.
! Default impedance is overridden by [Reference]
[Version] 2.0
# GHz S RI R 376.73
[Number of Ports] 4
[Reference]
376.73 376.73 259.888 259.888 
[Number of Frequencies] 52
[Network Data]
474000               -0.00903987        0.779811     -0.000197861    -0.000172516         -0.40418        0.157914     -0.000111824    -2.08327e-06
                     -0.00019777    -0.000172429         -0.47798        0.537085     -0.000390086     6.02025e-05         -0.02822        0.524493
                        -0.40418        0.157914     -0.000390178     6.01768e-05         0.724656       0.0877652     -1.71495e-05     0.000120525
                    -0.000111902    -2.04295e-06         -0.02822        0.524493     -1.72188e-05     0.000120689        -0.616038       -0.213507
477200                 -0.108655         0.80017      -0.00019974    -0.000175281        -0.406773        0.161634     -0.000110694    -4.89694e-07
                    -0.000199642    -0.000175187        -0.504593        0.538654     -0.000391905     6.45459e-05       -0.0151036        0.520153
                       -0.406773        0.161634     -0.000391887     6.44302e-05         0.569561        0.150409     -1.46064e-05     0.000123572
                    -0.000110794    -4.35845e-07       -0.0151037        0.520153     -1.47016e-05     0.000123708        -0.630499       -0.232739
480400                 -0.219823        0.805487     -0.000201734    -0.000178193        -0.409477        0.165547     -0.000109488     1.21991e-06
                    -0.000201629    -0.000178093        -0.534225        0.539656     -0.000393666     6.91455e-05      -0.00123785        0.515263
                       -0.409476        0.165547     -0.000393542     6.89307e-05          0.43178        0.180273     -1.18287e-05     0.000126784
                     -0.00010961     1.28808e-06      -0.00123793        0.515263     -1.19522e-05     0.000126891        -0.646588       -0.254447
483600                 -0.339665        0.791065     -0.000203853    -0.000181263        -0.412297        0.169669     -0.000108196     3.05867e-06
                     -0.00020374    -0.000181156        -0.567381        0.539848     -0.000395353     7.40162e-05        0.0134332        0.509745
                       -0.412297        0.169669     -0.000395126     7.36925e-05         0.312998        0.188568     -8.78593e-06     0.000130172
                    -0.000108343     3.14204e-06        0.0134331        0.509745     -8.94043e-06      0.00013025        -0.664591       -0.279139
486800                 -0.463183        0.752805     -0.000206111    -0.000184505        -0.415241        0.174015      -0.00010681     5.04177e-06
                    -0.000205989    -0.000184391        -0.604677        0.538891     -0.000396946     7.91729e-05        0.0289693        0.503507
                       -0.415241        0.174015     -0.000396621     7.87305e-05         0.212062        0.183323     -5.44284e-06     0.000133747
                    -0.000106983     5.14129e-06        0.0289692        0.503507     -5.63117e-06     0.000133795        -0.684866       -0.307472
490000                 -0.583376         0.68833     -0.000208519    -0.000187934        -0.418319        0.178605     -0.000105319     7.18687e-06
                     -0.00020839    -0.000187813        -0.646867         0.53631     -0.000398423     8.46304e-05        0.0454337        0.496439
                       -0.418318        0.178605     -0.000398007     8.40593e-05         0.126745        0.169952     -1.75801e-06     0.000137521
                    -0.000105521     7.30358e-06        0.0454336        0.496439     -1.98337e-06     0.000137538        -0.707862       -0.340308
493200                 -0.692053        0.598083     -0.000211095    -0.000191565        -0.421537         0.18346     -0.000103711     9.51463e-06
                    -0.000210957    -0.000191438        -0.694868        0.531423     -0.000399757     9.04032e-05        0.0628931        0.488414
                       -0.421536         0.18346     -0.000399258     8.96936e-05        0.0546309        0.151982       2.3171e-06     0.000141503
                    -0.000103943     9.64966e-06        0.0628929        0.488414      2.05119e-06     0.000141491         -0.73415         -0.3788
496400                 -0.781314        0.485898     -0.000213855    -0.000195417        -0.424906        0.188602     -0.000101971     1.20494e-05
                    -0.000213708    -0.000195283        -0.749805        0.523247     -0.000400919     9.65053e-05        0.0814164        0.479283
                       -0.424905        0.188602     -0.000400349     9.56473e-05        -0.006508        0.131664      6.83969e-06     0.000145705
                    -0.000102237      1.2204e-05        0.0814162        0.479283      6.52939e-06     0.000145663        -0.764466       -0.424531
499600                 -0.845255        0.358615      -0.00021682    -0.000199511        -0.428436        0.194058     -0.000100083     1.48199e-05
                    -0.000216664    -0.000199371        -0.813036        0.510345     -0.000401876     0.000102949         0.101074        0.468866
                       -0.428435        0.194058     -0.000401246     0.000101934       -0.0585884        0.110408      1.18775e-05     0.000150134
                    -0.000100384     1.49954e-05         0.101074        0.468866      1.15185e-05     0.000150064        -0.799771       -0.479725
502800                 -0.881213        0.224753     -0.000220013     -0.00020387        -0.432138        0.199857     -9.80263e-05     1.78607e-05
                    -0.000219848    -0.000203723        -0.874883        0.484333      -0.00040259     0.000109746         0.121935        0.456954
                       -0.432137        0.199857     -0.000401914     0.000108565        -0.103202       0.0890846      1.75107e-05     0.000154796
                     -9.8367e-05     1.80586e-05         0.121935        0.456954      1.70986e-05     0.000154699        -0.838106       -0.545507
506000                 -0.890027       0.0927326     -0.000223462     -0.00020852        -0.436024        0.206032     -9.57781e-05     2.12132e-05
                    -0.000223286    -0.000208368        -0.903453        0.428687     -0.000403019     0.000116903         0.144064        0.443295
                       -0.436024        0.206032     -0.000402314     0.000115549        -0.141648        0.068214      2.38352e-05     0.000159692
                    -9.61618e-05     2.14352e-05         0.144064        0.443295       2.3365e-05     0.000159569        -0.815151       -0.579249
509200                  -0.87532      -0.0306149     -0.000227196    -0.000213491        -0.440108        0.212619     -9.33104e-05     2.49277e-05
                    -0.000227011    -0.000213333        -0.931978        0.362514     -0.000403115     0.000124427         0.167517        0.427593
                       -0.440107        0.212619     -0.000402399     0.000122895        -0.174981       0.0480972      3.09652e-05     0.000164815
                    -9.37415e-05     2.51756e-05         0.167517        0.427593      3.04319e-05      0.00016467        -0.787607       -0.616178
512400                 -0.842255        -0.14081     -0.000231254    -0.000218817        -0.444404        0.219662     -9.05899e-05      2.9066e-05
                    -0.000231059    -0.000218654        -0.959145        0.282914     -0.000402825     0.000132316         0.192334        0.409491
                       -0.444403        0.219662      -0.00040212     0.000130604        -0.204054        0.028894      3.90377e-05     0.000170147
                    -9.10732e-05     2.93419e-05         0.192334        0.409491      3.84359e-05     0.000169984        -0.753768       -0.657141
515600                 -0.796318       -0.235726     -0.000235677    -0.000224536        -0.448926        0.227207     -8.75758e-05     3.37049e-05
                    -0.000235472    -0.000224368        -0.982528        0.186114     -0.000402093     0.000140568         0.218527        0.388567
                       -0.448925        0.227207     -0.000401421     0.000138674        -0.229558        0.010676      4.82166e-05     0.000175653
                     -8.8117e-05     3.40109e-05         0.218527        0.388568      4.75412e-05     0.000175479        -0.710714       -0.703481
518800                 -0.742457       -0.315107     -0.000240516    -0.000230694        -0.453692         0.23531     -8.42186e-05     3.89406e-05
                    -0.000240302    -0.000230522        -0.997722       0.0674543     -0.000400856     0.000149168         0.246068        0.364318
                       -0.453691         0.23531     -0.000400242     0.000147097        -0.252053     -0.00654034      5.86982e-05     0.000181274
                    -8.48245e-05     3.92791e-05         0.246067        0.364319      5.79447e-05     0.000181095        -0.652922       -0.757425
522000                 -0.684668       -0.379928     -0.000245831     -0.00023734         -0.45872        0.244034     -8.04571e-05     4.48955e-05
                    -0.000245608    -0.000237165        -0.996951      -0.0780274     -0.000399046     0.000158096         0.274862        0.336148
                       -0.458719        0.244033     -0.000398518     0.000155857           -0.272      -0.0227718      7.07167e-05     0.000186912
                    -8.11354e-05     4.52692e-05         0.274862        0.336148      6.98816e-05     0.000186739        -0.568447        -0.82272
525200                 -0.625908        -0.43182     -0.000251696    -0.000244534        -0.464029         0.25345     -7.62146e-05     5.17282e-05
                    -0.000251463    -0.000244359        -0.967365       -0.253388     -0.000396595     0.000167322         0.304724        0.303352
                       -0.464028         0.25345     -0.000396179     0.000164927        -0.289773      -0.0380551       8.4549e-05     0.000192415
                    -7.69748e-05     5.21398e-05         0.304723        0.303353       8.3631e-05      0.00019226        -0.426506       -0.904485
528400                 -0.568205        -0.47265     -0.000258195    -0.000252346         -0.46964        0.263643     -7.13946e-05     5.96467e-05
                    -0.000257955    -0.000252171         -0.89079       -0.454416     -0.000393429     0.000176801         0.335328        0.265111
                       -0.469639        0.263643     -0.000393152      0.00017427        -0.305683      -0.0524376      0.000100518     0.000197552
                    -7.22478e-05     6.00993e-05         0.335328        0.265111      9.95191e-05      0.00019743        -0.130251       -0.991481
531600                 -0.512847       -0.504257     -0.000265437    -0.000260855        -0.475576        0.274711     -6.58735e-05     6.89305e-05
                     -0.00026519    -0.000260683        -0.749724       -0.661751     -0.000389475     0.000186478         0.366155        0.220482
                       -0.475574        0.274711     -0.000389363     0.000183837        -0.319988      -0.0659718      0.000118989     0.000201976
                    -6.68333e-05     6.94271e-05         0.366155        0.220483      0.000117918     0.000201904          0.54744       -0.836845
534800                 -0.460571       -0.528311      -0.00027355    -0.000270156        -0.481859        0.286768     -5.94914e-05     7.99629e-05
                    -0.000273299    -0.000269991         -0.54296       -0.839759     -0.000384663     0.000196281         0.396411        0.168413
                       -0.481857        0.286768     -0.000384738     0.000193561        -0.332902       -0.078712      0.000140359     0.000205174
                    -6.05741e-05     8.05063e-05         0.396411        0.168414       0.00013923     0.000205172          0.99592       -0.090238
538000                  -0.41173        -0.54626     -0.000282698     -0.00028036        -0.488513         0.29995      -5.2038e-05     9.32842e-05
                    -0.000282445    -0.000280205        -0.297223       -0.954808     -0.000378927      0.00020612         0.424926        0.107776
                       -0.488511        0.299949     -0.000379206     0.000203363        -0.344605      -0.0907118      0.000165016     0.000206408
                    -5.32641e-05     9.38765e-05         0.424925        0.107777      0.000163858     0.000206491         0.939656         0.34212
541200                 -0.366423       -0.559319     -0.000293084    -0.000291599        -0.495563        0.314414     -4.32342e-05      0.00010968
                    -0.000292833    -0.000291459       -0.0527575       -0.998607     -0.000372208     0.000215891         0.450031       0.0374475
                       -0.495561        0.314414     -0.000372704     0.000213142         -0.35525       -0.102023      0.000193265     0.000204628
                    -4.46287e-05     0.000110322         0.450031       0.0374483      0.000192122     0.000204806         0.844291        0.535885
544400                 -0.324585       -0.568485     -0.000304967     -0.00030403        -0.503032        0.330353     -3.27054e-05     0.000130338
                    -0.000304725    -0.000303911         0.162607       -0.986691     -0.000364464     0.000225472         0.469427      -0.0435392
                        -0.50303        0.330353     -0.000365178     0.000222782        -0.364965       -0.112694      0.000225188     0.000198405
                    -3.42993e-05     0.000131026         0.469427      -0.0435384      0.000224118     0.000198668         0.762244         0.64729
547600                 -0.286058       -0.574569      -0.00031868    -0.000317839        -0.510942        0.347995     -1.99501e-05     0.000157132
                    -0.000318456    -0.000317749         0.340604       -0.940207     -0.000355666     0.000234725         0.480064       -0.135742
                       -0.510939        0.347995     -0.000356589     0.000232151         -0.37386       -0.122771      0.000260397     0.000185892
                    -2.17809e-05     0.000157858         0.480064       -0.135741      0.000259472     0.000186195          0.68975        0.724048
550800                 -0.250631       -0.578224     -0.000334661    -0.000333247        -0.519308        0.367616     -4.31733e-06     0.000193202
                    -0.000334468    -0.000333197         0.484342       -0.874879     -0.000345809     0.000243499         0.478108       -0.238927
                       -0.519305        0.367616      -0.00034692     0.000241098        -0.382028       -0.132297      0.000297689     0.000164919
                    -6.42752e-06     0.000193941         0.478108       -0.238926      0.000296977     0.000165165         0.622324         0.78276
554000                 -0.218069        -0.57997      -0.00035349    -0.000350521        -0.528138        0.389554       1.4927e-05     0.000244186
                    -0.000353347    -0.000350524         0.553378       -0.737474     -0.000334915     0.000251636         0.459072       -0.351562
                       -0.528134        0.389554     -0.000336178     0.000249462         -0.38955       -0.141312      0.000334629     0.000133347
                     1.25007e-05     0.000244883         0.459072       -0.351561      0.000334155     0.000133376         0.522016        0.777601
557200                 -0.188136       -0.580223     -0.000375955    -0.000369971        -0.537422        0.414225      3.80608e-05     0.000321192
                    -0.000375891    -0.000370045         0.564249       -0.585246     -0.000323035     0.000258971         0.418265       -0.470249
                       -0.537419        0.414224     -0.000324401     0.000257076        -0.396495       -0.149852      0.000367288     8.98318e-05
                     3.53353e-05      0.00032173         0.418265       -0.470248      0.000366979      8.9433e-05         0.401141        0.706907
560400                 -0.160599       -0.579313     -0.000403146    -0.000391957        -0.547128        0.442142       6.1839e-05       0.0004489
                    -0.000403203    -0.000392122         0.557792       -0.461417     -0.000310251     0.000265347         0.351658       -0.589303
                       -0.547124        0.442141     -0.000311657     0.000263772        -0.402925        -0.15795       0.00039053     3.49323e-05
                     5.90929e-05     0.000449043         0.351658       -0.589302      0.000390165     3.39168e-05          0.30924        0.648909
563600                  -0.13524       -0.577503     -0.000436605    -0.000416871        -0.557179        0.473952      6.02702e-05     0.000690459
                     -0.00043685    -0.000417154         0.542227        -0.36046     -0.000296681     0.000270614         0.257146       -0.700795
                       -0.557175        0.473951      -0.00029805     0.000269386         -0.40889       -0.165638      0.000399238    -2.79205e-05
                     5.90523e-05     0.000690098         0.257146       -0.700795       0.00039846    -2.96053e-05          0.23713        0.600681
564000                 -0.132213       -0.577225     -0.000441329     -0.00042021        -0.558454         0.47824      5.33306e-05     0.000735248
                    -0.000441605     -0.00042051         0.539901       -0.349198     -0.000294936     0.000271187         0.243385       -0.713741
                       -0.558449        0.478239     -0.000296295     0.000270004        -0.409606       -0.166572      0.000399115    -3.60489e-05
                     5.26049e-05     0.000734914         0.243384       -0.713741      0.000398257    -3.78099e-05         0.229198        0.595225
566800                 -0.111857       -0.575002     -0.000478569    -0.000445092        -0.567432        0.510468     -0.000169591      0.00120244
                    -0.000479108    -0.000445522         0.522243       -0.277559     -0.000282469     0.000274642          0.13589       -0.795418
                       -0.567427        0.510467     -0.000283717     0.000273773        -0.414439       -0.172944      0.000390324    -9.25176e-05
                    -0.000162698      0.00120814          0.13589       -0.795417      0.000388753    -9.46926e-05         0.179104         0.56005
570000                -0.0902627       -0.571976     -0.000532379    -0.000476853        -0.577631        0.552732      -0.00159692      0.00125525
                    -0.000533381    -0.000477457         0.500484       -0.208855     -0.000267788     0.000277329      -0.00686672       -0.864237
                       -0.577625         0.55273     -0.000268828      0.00027681         -0.41961       -0.179894      0.000364357    -0.000151578
