! TOUCHSTONE file generated by CST MICROWAVE STUDIO
! Date and time: Mon Oct 20 08:27:55 2025
! Project name: Teste_Macro_Metasurface_Nanopilar.cst
! Parameters = {H=600; L_x=200; L_y=160; Lambda=1064; Max_L=200; Min_L=70; PathPara=1; Phi=0; Step_L=10; Theta=0; p=520; phaseX=180; phaseY=0}
! Header version: 2018
! Port assignment regex: !\s*Touchstone port\s*([0-9]+)\s*=\s*(CST MWS port|CST DS port)\s*([0-9]+|Zmin|Zmax)\s*\(\"(.*)\"\)(\s*mode\s*([0-9]+))?.*
! Touchstone port assignment:
! Touchstone port 1 = CST MWS port Zmax ("") mode 1
! Touchstone port 2 = CST MWS port Zmax ("") mode 2
! Touchstone port 3 = CST MWS port Zmin ("") mode 1
! Touchstone port 4 = CST MWS port Zmin ("") mode 2
! S-Parameters are not renormalized. Each port impedance will be approximated by the real part at minimum frequency. The values are described via the [Reference] keyword.
! Default impedance is overridden by [Reference]
[Version] 2.0
# GHz S RI R 376.73
[Number of Ports] 4
[Reference]
376.73 376.73 259.888 259.888 
[Number of Frequencies] 52
[Network Data]
474000                -0.0199456        0.783998       2.0623e-05    -2.91416e-05         0.185386        -0.53449     -1.27534e-05    -5.02272e-05
                     2.03402e-05    -2.85119e-05         0.162045       -0.830105      0.000103488     2.38993e-05         -0.41821        0.213313
                        0.185386        -0.53449      0.000103056     2.40653e-05         0.416546       -0.655881       6.6543e-05    -3.59869e-05
                    -1.28444e-05    -5.03417e-05         -0.41821        0.213313      6.65133e-05    -3.61761e-05        -0.798765       -0.334507
477200                 -0.015931        0.858239       3.2999e-05    -2.75363e-05         0.153041       -0.478296     -1.57063e-05    -3.92158e-05
                     3.26811e-05    -2.69388e-05         0.170733       -0.824195      0.000108631     2.91999e-05        -0.420077        0.209519
                        0.153041       -0.478296      0.000108191     2.93532e-05          0.46148       -0.711512      6.35728e-05    -3.67392e-05
                    -1.58149e-05    -3.93338e-05        -0.420077         0.20952      6.35435e-05    -3.69276e-05        -0.792937       -0.337863
480400               -0.00247058          0.9443      4.56113e-05    -2.52337e-05         0.123702       -0.424857     -1.85541e-05    -2.72318e-05
                     4.52608e-05    -2.46722e-05         0.179471       -0.818253      0.000113984     3.49984e-05         -0.42197        0.205569
                        0.123702       -0.424857      0.000113536     3.51378e-05          0.51921       -0.771379      6.04127e-05    -3.75433e-05
                    -1.86824e-05    -2.73528e-05         -0.42197        0.205569      6.03839e-05    -3.77307e-05        -0.786862       -0.341302
483600                 0.0242913        0.999705      5.84121e-05    -2.21885e-05        0.0970311       -0.374014     -2.12347e-05    -1.41596e-05
                     5.80318e-05    -2.16665e-05          0.18826       -0.812278      0.000119546     4.13561e-05         -0.42389        0.201452
                       0.0970307       -0.374013      0.000119091     4.14801e-05         0.579813        -0.81475      5.70441e-05    -3.84046e-05
                    -2.13848e-05    -1.42829e-05         -0.42389        0.201452      5.70158e-05    -3.85909e-05        -0.780525       -0.344826
486800                 0.0643875        0.997925       7.1346e-05    -1.83587e-05        0.0727352       -0.325611     -2.36668e-05     1.31546e-07
                     7.09393e-05    -1.78795e-05         0.197101       -0.806269      0.000125314     4.83431e-05        -0.425834        0.197159
                       0.0727348       -0.325611      0.000124852     4.84501e-05          0.60949       -0.792794      5.34454e-05    -3.93295e-05
                    -2.38415e-05     6.92429e-09        -0.425834         0.19716      5.34179e-05    -3.95146e-05         -0.77391       -0.348437
490000                  0.120078        0.992764      8.43504e-05    -1.37067e-05        0.0505584       -0.279503     -2.57444e-05     1.57892e-05
                     8.39213e-05    -1.32733e-05         0.205993       -0.800226      0.000131281     5.60399e-05          -0.4278         0.19268
                       0.0505579       -0.279503      0.000130812     5.61282e-05          0.64835       -0.761342      4.95925e-05    -4.03252e-05
                    -2.59465e-05     1.56647e-05          -0.4278         0.19268      4.95658e-05     -4.0509e-05        -0.766998       -0.352137
493200                  0.193492        0.981102      9.73557e-05     -8.2005e-06        0.0302768       -0.235552     -2.73289e-05     3.29788e-05
                     9.69086e-05    -7.81543e-06         0.214938        -0.79415      0.000137431     6.45386e-05        -0.429787        0.188003
                       0.0302762       -0.235552      0.000136957     6.46063e-05          0.69686       -0.717207      4.54572e-05    -4.14001e-05
                    -2.75617e-05     3.28562e-05        -0.429787        0.188003      4.54316e-05    -4.15824e-05         -0.75977       -0.355926
496400                  0.285494         0.95838      0.000110286    -1.81521e-06        0.0116942       -0.193629     -2.82396e-05      5.1884e-05
                     0.000109826    -1.48055e-06         0.223936       -0.788039       0.00014374     7.39448e-05        -0.431792        0.183116
                       0.0116936       -0.193628      0.000143262     7.39898e-05         0.754395       -0.656421      4.10075e-05     -4.2564e-05
                    -2.85067e-05      5.1766e-05        -0.431792        0.183116       4.0983e-05    -4.27447e-05        -0.752206       -0.359807
499600                    0.3941        0.919067      0.000123059     5.46573e-06      -0.00536183        -0.15361     -2.82403e-05     7.27056e-05
                     0.000122591     5.74853e-06         0.232986       -0.781893      0.000150171     8.43791e-05        -0.433811        0.178006
                     -0.00536247        -0.15361      0.000149689     8.43992e-05         0.818306       -0.574783      3.62061e-05    -4.38284e-05
                     -2.8546e-05     7.25956e-05        -0.433811        0.178006       3.6183e-05    -4.40072e-05        -0.744282        -0.36378
502800                  0.512901        0.858448      0.000135589     1.36494e-05       -0.0210434       -0.115383     -2.70233e-05      9.5658e-05
                     0.000135119     1.38795e-05         0.242091       -0.775713      0.000156668     9.59789e-05        -0.435841         0.17266
                      -0.0210441       -0.115382      0.000156185     9.59719e-05         0.883022       -0.469332      3.10096e-05    -4.52067e-05
                     -2.7372e-05     9.55606e-05        -0.435841         0.17266      3.09881e-05    -4.53834e-05        -0.735973       -0.367846
506000                  0.631166        0.775648      0.000147786     2.27321e-05       -0.0354849      -0.0788397     -2.41879e-05     0.000120961
                     0.000147319     2.29097e-05         0.251249       -0.769498      0.000163154       0.0001089        -0.437877        0.167061
                      -0.0354855      -0.0788393      0.000162674     0.000108864         0.940125       -0.340831      2.53671e-05     -4.6715e-05
                    -2.45842e-05     0.000120882        -0.437877        0.167062      2.53476e-05    -4.68893e-05        -0.727253       -0.372005
509200                  0.737061        0.675826      0.000159558      3.2699e-05        -0.048805      -0.0438819     -1.92138e-05     0.000148824
                       0.0001591     3.28247e-05         0.260462       -0.763247      0.000169523     0.000123318        -0.439914        0.161195
                      -0.0488057      -0.0438815      0.000169047      0.00012325         0.980615       -0.195946      1.92187e-05    -4.83723e-05
                    -1.96625e-05     0.000148773        -0.439914        0.161196      1.92015e-05    -4.85439e-05        -0.718091       -0.376257
512400                  0.822429        0.568868      0.000170813      4.3523e-05       -0.0611094      -0.0104163     -1.14299e-05     0.000179421
                     0.000170371     4.35985e-05          0.26973        -0.75696      0.000175624     0.000139428        -0.441945        0.155044
                        -0.06111      -0.0104159      0.000175158     0.000139325         0.998913       -0.046613      1.24932e-05    -5.02018e-05
                    -1.19355e-05     0.000179407        -0.441945        0.155044      1.24788e-05    -5.03703e-05        -0.708456       -0.380599
515600                  0.885259        0.465099      0.000181463     5.51647e-05       -0.0724918       0.0216436      2.09626e-08     0.000212843
                     0.000181041     5.51923e-05         0.279054       -0.750637      0.000181257     0.000157441        -0.443964        0.148589
                      -0.0724925       0.0216441      0.000180806     0.000157301         0.995548       0.0942584      5.10554e-06    -5.22315e-05
                    -5.44666e-07     0.000212881        -0.443964        0.148589      5.09452e-06    -5.23964e-05        -0.698313       -0.385031
518800                  0.928367        0.371664      0.000191422     6.75727e-05        -0.083036       0.0523786      1.62163e-05     0.000249029
                     0.000191026     6.75557e-05         0.288435       -0.744278      0.000186152      0.00017758        -0.445961         0.14181
                      -0.0830366        0.052379      0.000185722     0.000177404         0.976037        0.217605     -3.04716e-06    -5.44957e-05
                     1.55896e-05     0.000249135        -0.445961         0.14181     -3.05412e-06    -5.46563e-05        -0.687623       -0.389549
522000                   0.95651        0.291699       0.00020061     8.06837e-05       -0.0928165       0.0818637      3.84751e-05     0.000287657
                     0.000200244     8.06261e-05         0.297871       -0.737882      0.000189951     0.000200072        -0.447926        0.134685
                      -0.0928171       0.0818641       0.00018955     0.000199858         0.947435        0.319947     -1.20901e-05    -5.70371e-05
                     3.77904e-05     0.000287853        -0.447926        0.134686     -1.20921e-05    -5.71928e-05        -0.676342       -0.394148
525200                  0.974265        0.225407      0.000208955     9.44242e-05          -0.1019        0.110169      6.83458e-05     0.000327987
                     0.000208623     9.43304e-05         0.307365       -0.731449      0.000192186     0.000225126        -0.449847        0.127192
                       -0.101901         0.11017      0.000191823     0.000224875         0.915611        0.402066     -2.21772e-05    -5.99092e-05
                     6.76125e-05     0.000328299        -0.449847        0.127193     -2.21732e-05    -6.00591e-05        -0.664426       -0.398822
528400                   0.98519        0.171469      0.000216397     0.000108711        -0.110347         0.13736      0.000107521     0.000368661
                     0.000216102     0.000108586         0.316917       -0.724979      0.000192256     0.000252901         -0.45171        0.119306
                       -0.110348        0.137361      0.000191943     0.000252619         0.884355        0.466814     -3.35003e-05    -6.31804e-05
                     0.000106759     0.000369117         -0.45171        0.119306     -3.34889e-05    -6.33231e-05        -0.651822       -0.403563
531600                  0.991769        0.128037      0.000222883     0.000123453        -0.118212        0.163498      0.000157628     0.000407471
                     0.000222629     0.000123302         0.326527       -0.718471      0.000189407     0.000283466        -0.453498        0.110999
                       -0.118212        0.163499      0.000189153     0.000283158         0.855671        0.517521     -4.63009e-05    -6.69384e-05
                     0.000156868     0.000408098        -0.453498        0.110999     -4.62803e-05    -6.70726e-05        -0.638475       -0.408361
534800                  0.995641       0.0932651      0.000228376     0.000138553        -0.125542         0.18864      0.000219823     0.000441173
                     0.000228164     0.000138383         0.336195       -0.711925      0.000182716     0.000316723        -0.455191        0.102243
                       -0.125542         0.18864      0.000182533     0.000316402         0.830367        0.557217     -6.08879e-05     -7.1299e-05
                     0.000219116      0.00044199        -0.455191        0.102243     -6.08557e-05    -7.14227e-05        -0.624322       -0.413201
538000                  0.997851       0.0655219      0.000232851     0.000153911        -0.132381        0.212838      0.000294183     0.000465493
                     0.000232682     0.000153727         0.345923       -0.705341      0.000171111     0.000352323        -0.456768       0.0930074
                       -0.132381        0.212839      0.000171008     0.000352005         0.808582        0.588384     -7.76626e-05    -7.64169e-05
                      0.00029359     0.000466502        -0.456768       0.0930077     -7.76156e-05    -7.65273e-05        -0.609294       -0.418067
541200                  0.999056       0.0434465      0.000236296     0.000169426        -0.138769        0.236143      0.000378955     0.000475527
                      0.00023617     0.000169233         0.355711       -0.698718      0.000153422     0.000389546        -0.458202       0.0832598
                       -0.138769        0.236144      0.000153403     0.000389254         0.790114         0.61296     -9.71555e-05    -8.25036e-05
                     0.000378547     0.000476704        -0.458202       0.0832601     -9.70896e-05    -8.25973e-05        -0.593316       -0.422936
544400                  0.999664        0.025936      0.000238712     0.000184995        -0.144741        0.258601      0.000469988     0.000466713
                     0.000238628       0.0001848         0.365559       -0.692056        0.0001285     0.000427192        -0.459462       0.0729653
                       -0.144742        0.258602      0.000128563     0.000426954         0.774623        0.632423     -0.000120084    -8.98564e-05
                     0.000469827     0.000467997        -0.459462       0.0729656     -0.000119993    -8.99282e-05        -0.576304       -0.427781
547600                  0.999927       0.0121081      0.000240114     0.000200521        -0.150331        0.280256      0.000560808     0.000436257
                      0.00024007     0.000200328         0.375468       -0.685355      9.54268e-05     0.000463499        -0.460512       0.0620872
                       -0.150331        0.280256       9.5558e-05     0.000463343         0.761733        0.647891      -0.00014744    -9.89048e-05
                     0.000560929      0.00043756        -0.460512       0.0620874     -0.000147315    -9.89473e-05        -0.558164       -0.432568
550800                  0.964102      0.00121483      0.000240528     0.000215909        -0.155567        0.301147      0.000643715      0.00038448
                     0.000240522     0.000215724         0.385438       -0.678614         5.38e-05     0.000496155        -0.461309       0.0505866
                       -0.155568        0.301147      5.39726e-05     0.000496106         0.751078        0.660214     -0.000180637    -0.000110292
                     0.000644108     0.000385702        -0.461309       0.0505868     -0.000180467    -0.000110294        -0.538794       -0.437254
554000                  0.927357     -0.00664692       0.00023999     0.000231072        -0.160476        0.321314      0.000711695     0.000315257
                     0.000240019     0.000230898         0.395471       -0.671833      4.05236e-06     0.000522478        -0.461805       0.0384231
                       -0.160477        0.321314      4.22732e-06     0.000522552         0.726831        0.656048     -0.000221758    -0.000125024
                     0.000712306     0.000316314        -0.461805       0.0384234     -0.000221524    -0.000124969         -0.51808       -0.441787
557200                  0.894375      -0.0121834      0.000238547      0.00024593        -0.165083        0.340791      0.000760289     0.000235108
                     0.000238608     0.000245771         0.405566       -0.665011     -5.23059e-05     0.000539804        -0.461943       0.0255548
                       -0.165084        0.340791     -5.21751e-05     0.000539999         0.690455        0.636605     -0.000274001    -0.000144758
                     0.000761038     0.000235954        -0.461943        0.025555     -0.000273673    -0.000144617        -0.495894       -0.446101
560400                  0.864682      -0.0159637      0.000236252     0.000260411         -0.16941        0.359613      0.000788444      0.00015135
                     0.000236342     0.000260271         0.415724       -0.658149     -0.000112669     0.000546017        -0.461656       0.0119386
                        -0.16941        0.359614     -0.000112627     0.000546312         0.658859        0.617873     -0.000342532    -0.000172409
                     0.000789246     0.000151977        -0.461656       0.0119388     -0.000342063    -0.000172132        -0.472098       -0.450116
563600                  0.837866      -0.0184116      0.000233166     0.000274453        -0.173477        0.377811      0.000798073     7.02949e-05
                      0.00023328     0.000274333         0.425947       -0.651245      -0.00017364     0.000540094        -0.460865     -0.00246875
                       -0.173477        0.377811     -0.000173718     0.000540447         0.631251        0.599995     -0.000436244    -0.000213571
                     0.000798862     7.07281e-05        -0.460865     -0.00246851     -0.000435546    -0.000213059        -0.446536       -0.453732
564000                  0.834697      -0.0186407      0.000232728     0.000276175        -0.173968        0.380044      0.000798147     6.05918e-05
                     0.000232845     0.000276058         0.427229        -0.65038     -0.000181122     0.000538503        -0.460727     -0.00432743
                       -0.173968        0.380044     -0.000181217     0.000538859         0.628047        0.597824     -0.000450425    -0.000220146
                      0.00079893     6.10035e-05        -0.460727     -0.00432718     -0.000449688    -0.000219594        -0.443208        -0.45415
566800                  0.813567      -0.0198453      0.000229352     0.000288004        -0.177302        0.395415      0.000792837    -3.74648e-06
                     0.000229487     0.000287906         0.436234         -0.6443     -0.000231624     0.000522399        -0.459482      -0.0177098
                       -0.177302        0.395415     -0.000231834      0.00052276         0.606987        0.583033     -0.000571742    -0.000280284
                     0.000793568    -3.46657e-06        -0.459482      -0.0177095     -0.000570648    -0.000279322        -0.419037       -0.456824
570000                  0.791476      -0.0205051      0.000224877      0.00030102        -0.180903        0.412452      0.000776881    -6.85632e-05
                     0.000225029     0.000300946         0.446585       -0.637314     -0.000283507     0.000494621        -0.457402       -0.033825
                       -0.180903        0.412452     -0.000283839     0.000494942         0.585547           0.567     -0.000783459    -0.000403113
