! TOUCHSTONE file generated by CST MICROWAVE STUDIO
! Date and time: Mon Oct 20 08:27:18 2025
! Project name: Teste_Macro_Metasurface_Nanopilar.cst
! Parameters = {H=600; L_x=85; L_y=145; Lambda=1064; Max_L=200; Min_L=70; PathPara=1; Phi=0; Step_L=10; Theta=0; p=520; phaseX=180; phaseY=0}
! Header version: 2018
! Port assignment regex: !\s*Touchstone port\s*([0-9]+)\s*=\s*(CST MWS port|CST DS port)\s*([0-9]+|Zmin|Zmax)\s*\(\"(.*)\"\)(\s*mode\s*([0-9]+))?.*
! Touchstone port assignment:
! Touchstone port 1 = CST MWS port Zmax ("") mode 1
! Touchstone port 2 = CST MWS port Zmax ("") mode 2
! Touchstone port 3 = CST MWS port Zmin ("") mode 1
! Touchstone port 4 = CST MWS port Zmin ("") mode 2
! S-Parameters are not renormalized. Each port impedance will be approximated by the real part at minimum frequency. The values are described via the [Reference] keyword.
! Default impedance is overridden by [Reference]
[Version] 2.0
# GHz S RI R 376.73
[Number of Ports] 4
[Reference]
376.73 376.73 259.888 259.888 
[Number of Frequencies] 52
[Network Data]
474000                  0.308263       -0.290998      4.48515e-05     1.83677e-05        -0.542715         0.71608      4.13189e-05     0.000101822
                     6.66421e-05      9.0562e-06       -0.0591383        0.428417      0.000105789      0.00011163        -0.851495       -0.228382
                       -0.542665        0.716023      8.43642e-05     0.000117574         -0.19351        0.378505      5.68543e-05     6.39377e-05
                     3.53294e-05     8.87645e-05        -0.851488       -0.228372      3.92064e-05     8.64848e-05         -0.14611        0.416336
477200                  0.306798       -0.288052      3.36451e-05     2.64167e-05        -0.526809        0.726776      4.74465e-05     0.000108647
                     5.61089e-05     1.64697e-05         -0.11618         0.46005      0.000109349     0.000108399        -0.857703        -0.18892
                       -0.526761        0.726717      8.79645e-05     0.000114415        -0.205241        0.379107      5.66277e-05     6.71517e-05
                      4.1822e-05     9.54505e-05        -0.857695       -0.188911      3.92101e-05     8.96179e-05        -0.136841        0.420761
480400                  0.305257       -0.284821      2.14405e-05     3.54471e-05        -0.509566         0.73773      5.37167e-05     0.000116037
                     4.46407e-05     2.47737e-05        -0.180078         0.47965        0.0001131     0.000104968        -0.862229       -0.145217
                       -0.509519        0.737669      9.17624e-05     0.000111059        -0.217576        0.379455      5.64048e-05     7.05326e-05
                     4.84843e-05     0.000102712        -0.862221       -0.145207      3.92302e-05     9.29091e-05        -0.126693        0.425339
483600                  0.303636       -0.281261      8.10535e-06     4.56397e-05        -0.490839        0.748907      6.01153e-05     0.000124046
                     3.21134e-05     3.41306e-05        -0.246828        0.485412      0.000117059     0.000101318         -0.86441       -0.096788
                       -0.490793        0.748844      9.57744e-05     0.000107487        -0.230551        0.379508      5.61873e-05     7.40935e-05
                     5.53036e-05     0.000110606          -0.8644      -0.0967785      3.92693e-05     9.63705e-05        -0.115547        0.430058
486800                  0.301935       -0.277323     -6.51529e-06     5.72209e-05        -0.470464        0.760261      6.66227e-05     0.000132736
                     1.83813e-05     4.47425e-05        -0.312018        0.477312      0.000121243     9.74266e-05        -0.863371      -0.0431425
                       -0.470419        0.760196      0.000100019     0.000103677        -0.244204        0.379214       5.5977e-05     7.78489e-05
                     6.22619e-05     0.000119198        -0.863361      -0.0431333      3.93302e-05     0.000100016         -0.10326        0.434894
490000                  0.300155       -0.272947     -2.26029e-05     7.04766e-05        -0.448255        0.771725      7.32129e-05     0.000142173
                     3.27307e-06     5.68645e-05        -0.371752        0.457045      0.000125672     9.32706e-05        -0.857978       0.0161768
                       -0.448213        0.771658      0.000104517     9.96064e-05        -0.258576         0.37852      5.57762e-05     8.18152e-05
                     6.93347e-05     0.000128558        -0.857966       0.0161856      3.94166e-05     0.000103859       -0.0896663        0.439812
493200                    0.2983        -0.26806     -4.03703e-05      8.5773e-05        -0.424008        0.783211      7.98515e-05     0.000152431
                    -1.34127e-05     7.08222e-05        -0.423333        0.427462      0.000130367     8.88219e-05        -0.846761       0.0815274
                       -0.423968        0.783142      0.000109291      9.5246e-05        -0.273705        0.377359      5.55876e-05     8.60105e-05
                     7.64886e-05     0.000138764        -0.846748       0.0815355      3.95324e-05     0.000107918       -0.0745676        0.444758
496400                   0.29638       -0.262572     -6.00662e-05     0.000103585        -0.397491          0.7946      8.64941e-05     0.000163588
                    -3.19133e-05     8.70367e-05        -0.465487        0.391821      0.000135353     8.40486e-05        -0.827857        0.153057
                       -0.397453         0.79453      0.000114368     9.05647e-05        -0.289633        0.375657      5.54144e-05     9.04548e-05
                     8.36802e-05       0.0001499        -0.827843        0.153065      3.96824e-05      0.00011221       -0.0577302        0.449654
499600                  0.294414       -0.256375     -8.19798e-05     0.000124536        -0.368447        0.805738      9.30841e-05      0.00017573
                    -5.25069e-05     0.000106061        -0.498177         0.35315      0.000140658     7.89146e-05         -0.79895        0.230537
                       -0.368412        0.805666      0.000119776      8.5526e-05          -0.3064        0.373329      5.52606e-05     9.51708e-05
                      9.0853e-05     0.000162059        -0.798934        0.230543      3.98721e-05     0.000116755        -0.038876        0.454382
502800                  0.292431       -0.249333     -0.000106442     0.000149463        -0.336597        0.816418      9.95498e-05     0.000188947
                    -7.55165e-05      0.00012863         -0.52221        0.313871      0.000146311     7.33777e-05        -0.757261        0.313115
                       -0.336565        0.816345      0.000125548     8.00881e-05        -0.324045        0.370277      5.51309e-05     0.000100184
                     9.79348e-05     0.000175338        -0.757244         0.31312      4.01081e-05     0.000121578       -0.0176751        0.458776
506000                  0.290482       -0.241278     -0.000133819       0.0001795        -0.301631        0.826377      0.000105802     0.000203337
                     -0.00010131     0.000155745        -0.538831        0.275699      0.000152349     6.73895e-05        -0.699642        0.398989
                       -0.301603        0.826302      0.000131723     7.42021e-05        -0.342605        0.366387      5.50311e-05     0.000105523
                     0.000104834     0.000189843        -0.699624        0.398991      4.03981e-05     0.000126702       0.00626337        0.462594
509200                  0.288647       -0.231999     -0.000164492     0.000216219        -0.263221         0.83527      0.000111728     0.000218998
                    -0.000130287     0.000188784        -0.549403        0.239708       0.00015881     6.08931e-05        -0.622834        0.485011
                       -0.263197        0.835194      0.000138343      6.7811e-05        -0.362111        0.361532       5.4968e-05     0.000111219
                     0.000111436     0.000205683        -0.622815         0.48501      4.07513e-05     0.000132157        0.0333993        0.465489
512400                  0.287053       -0.221231     -0.000198796     0.000261843        -0.221021        0.842659      0.000117192     0.000236032
                    -0.000162842     0.000229692        -0.555221        0.206465      0.000165741     5.38223e-05        -0.524018        0.566324
                       -0.221001        0.842581      0.000145457     6.08479e-05        -0.382587        0.355565      5.49503e-05      0.00011731
                     0.000117599     0.000222967        -0.523999        0.566321      4.11786e-05     0.000137975        0.0642665        0.466963
515600                  0.285903       -0.208641     -0.000236873     0.000319571        -0.174683        0.847981      0.000122025     0.000254537
                    -0.000199261      0.00028127        -0.557407        0.176187      0.000173192     4.60986e-05          -0.4017        0.636197
                       -0.174667        0.847903      0.000153122     5.32336e-05        -0.404049        0.348317      5.49883e-05     0.000123838
                     0.000123147     0.000241806        -0.401683         0.63619      4.16933e-05     0.000144193        0.0994691        0.466299
518800                   0.28552       -0.193814     -0.000278338     0.000394101        -0.123874        0.850529      0.000126025     0.000274604
                    -0.000239479     0.000347631        -0.556888        0.148859      0.000181224      3.7629e-05        -0.256881        0.686364
                       -0.123864        0.850451      0.000161401     4.48739e-05        -0.426495        0.339601      5.50948e-05      0.00013085
                     0.000127867     0.000262301        -0.256865        0.686354       4.2311e-05     0.000150854          0.13966        0.462472
522000                  0.286421       -0.176241     -0.000321497     0.000492422       -0.0683108        0.849415       0.00012895     0.000296308
                    -0.000282503      0.00043493        -0.554403        0.124333      0.000189903     2.83022e-05       -0.0941821        0.708167
                      -0.0683068        0.849337      0.000170371     3.56558e-05        -0.449908        0.329203      5.52857e-05       0.0001384
                     0.000131502     0.000284537       -0.0941691        0.708155      4.30508e-05     0.000158003          0.18548        0.454015
525200                  0.289437       -0.155329     -0.000361554     0.000624909      -0.00780895        0.843545      0.000130512       0.0003197
                    -0.000325048     0.000552437        -0.550522        0.102393      0.000199309     1.79842e-05        0.0776937        0.694531
                      -0.0078111        0.843468      0.000180118     2.54426e-05        -0.474244        0.316886      5.55805e-05     0.000146553
                     0.000133746     0.000308575         0.077703        0.694517      4.39361e-05     0.000165697         0.237424        0.438857
528400                  0.295905        -0.13046     -0.000386475     0.000806314        0.0576505         0.83159      0.000130378     0.000344795
                    -0.000358312     0.000713835        -0.545682        0.082793      0.000209533     6.51171e-06         0.246832        0.642262
                       0.0576419        0.831516      0.000190746     1.40675e-05        -0.499425        0.302386      5.60037e-05     0.000155381
                     0.000134244     0.000334436         0.246837        0.642247      4.49953e-05     0.000173998         0.295577        0.414129
531600                  0.307961       -0.101194     -0.000367954      0.00105421         0.127823        0.811979      0.000128168     0.000371554
                    -0.000360547      0.00093727        -0.540212       0.0652855       0.00022068    -6.31519e-06         0.400448        0.553611
                        0.127807        0.811909      0.000202373     1.32504e-06        -0.525332        0.285416      5.65861e-05     0.000164969
                     0.000132588     0.000362081          0.40045        0.553598      4.62632e-05     0.000182978          0.35912        0.376007
534800                  0.328896       -0.067783     -0.000245436      0.00137517         0.202073        0.782916       0.00012346     0.000399865
                    -0.000282005      0.00123733        -0.534354       0.0496349      0.000232875    -2.07445e-05         0.527913        0.436108
                        0.202052         0.78285      0.000215141    -1.30407e-05        -0.551794        0.265667      5.73667e-05     0.000175418
                     0.000128323     0.000391395         0.527912        0.436096      4.77834e-05      0.00019272         0.425524        0.319764
538000                   0.36336      -0.0323275       8.0294e-05      0.00171461         0.279228        0.742445      0.000115798     0.000429523
                    -2.85842e-05      0.00158705        -0.528287       0.0356241      0.000246262    -3.70871e-05         0.623063        0.300587
                        0.279201        0.742387      0.000229217     -2.9352e-05        -0.578573        0.242815      5.83951e-05     0.000186845
                     0.000120959     0.000422158          0.62306        0.300578        4.961e-05     0.000203324         0.489408        0.240377
541200                  0.416543    -0.000837444      0.000658394      0.00187878         0.357412        0.688601      0.000104713      0.00046021
                     0.000489334      0.00183031        -0.522142       0.0230577      0.000261008    -5.57371e-05         0.684835        0.158408
                         0.35738         0.68855      0.000244798    -4.80202e-05        -0.605355         0.21653      5.97351e-05     0.000199389
                     0.000109992     0.000454026         0.684831        0.158401      5.18112e-05     0.000214902          0.54141        0.134253
544400                  0.490546       0.0146844       0.00127822      0.00165346         0.433909        0.619647      8.97486e-05     0.000491468
                      0.00113967      0.00170916        -0.516014       0.0117624      0.000277309    -7.72015e-05         0.716274       0.0191308
                        0.433875        0.619606       0.00026212    -6.95779e-05        -0.631734         0.18649      6.14695e-05     0.000213215
                     9.49356e-05     0.000486503          0.71627       0.0191262      5.44735e-05      0.00022759         0.568208      0.00244499
547600                  0.577128     -0.00147353       0.00161463      0.00116058         0.505111        0.534438      7.05044e-05     0.000522693
                      0.00155965      0.00124481        -0.509968      0.00158558      0.000295391    -0.000102142         0.722772       -0.110611
                        0.505077        0.534407       0.00028146    -9.47256e-05          -0.6572        0.152402      6.37068e-05     0.000228521
                     7.53672e-05     0.000518933         0.722769       -0.110614      5.77079e-05     0.000241545         0.555549       -0.145567
550800                  0.654136      -0.0567062       0.00164919     0.000696655         0.566629        0.432861      4.66837e-05     0.000553127
                      0.00164334     0.000754069         -0.50405     -0.00760617       0.00031551    -0.000131435         0.710404       -0.227138
                        0.566596         0.43284      0.000303144    -0.000124401         -0.68113         0.11403      6.65907e-05     0.000245546
                     5.09838e-05     0.000550495         0.710402        -0.22714      6.16579e-05     0.000256954         0.495021       -0.290926
554000                  0.698495       -0.137877       0.00154212      0.00037468         0.613639        0.316286      1.81517e-05      0.00058188
                      0.00154933     0.000403871        -0.498292      -0.0159292      0.000337945    -0.000166267         0.684811       -0.329115
                        0.613612        0.316275      0.000327546    -0.000159885        -0.702787       0.0712283      7.03135e-05     0.000264579
                     2.16648e-05     0.000580227         0.684809       -0.329116       6.6511e-05     0.000274041         0.390882       -0.411008
557200                  0.705219       -0.220024       0.00140192     0.000173029          0.64151        0.187869     -1.50082e-05     0.000607963
                      0.00140852     0.000185574        -0.492713      -0.0234847       0.00036298    -0.000208272         0.650667       -0.416771
                        0.641491        0.187865      0.000355076    -0.000202967        -0.721325       0.0239826      7.51366e-05     0.000285971
                    -1.24668e-05     0.000607078         0.650666       -0.416772      7.25156e-05     0.000293071         0.260106       -0.489662
560400                  0.686236        -0.28617       0.00126999     4.89892e-05         0.646614       0.0525298     -5.24492e-05     0.000630364
                      0.00127321     5.32365e-05        -0.487326      -0.0303609      0.000390848    -0.000259751         0.611555        -0.49122
                        0.646604       0.0525292      0.000386141    -0.000256206        -0.735814      -0.0275445      8.14198e-05     0.000310151
                    -5.09996e-05     0.000629976         0.611555        -0.49122      8.00041e-05      0.00031436         0.124182       -0.523753
563600                  0.656015       -0.332722       0.00115685    -2.82844e-05         0.627121      -0.0835105     -9.35403e-05     0.000648125
                      0.00115705    -2.78811e-05        -0.482136      -0.0366342      0.000421602    -0.000324029         0.570072       -0.553972
                         0.62712      -0.0835103      0.000421018    -0.000323374        -0.745274      -0.0829709      8.96663e-05     0.000337648
                    -9.32178e-05     0.000647933         0.570071       -0.553972      8.94279e-05     0.000338284     -0.000126641       -0.521108
564000                  0.651974       -0.337306       0.00114407    -3.56858e-05         0.622952       -0.100231     -9.88911e-05     0.000649976
                      0.00114396    -3.55777e-05        -0.481501      -0.0373794      0.000425637    -0.000333186         0.564816       -0.561074
                        0.622953       -0.100231      0.000425646    -0.000333005        -0.746054      -0.0901445      9.08679e-05     0.000341349
                    -9.87073e-05     0.000649788         0.564816       -0.561074      9.07706e-05     0.000341481       -0.0143446       -0.518795
566800                  0.623861       -0.363131       0.00106249    -7.74468e-05         0.583506       -0.213595      -0.00013738     0.000660444
                      0.00106061       -7.87e-05        -0.477143      -0.0423716      0.000454816     -0.00040603          0.52801       -0.606631
                        0.583513       -0.213597      0.000459549    -0.000410185        -0.748738       -0.141659      0.000100592     0.000369104
                    -0.000138126      0.00066015          0.52801       -0.606632      0.000101408     0.000365286        -0.104456       -0.493856
570000                  0.594042       -0.382164      0.000984171    -0.000109376         0.518546        -0.33168      -0.00018285      0.00066677
                     0.000980998    -0.000111239        -0.472348      -0.0476311      0.000488867    -0.000513228         0.486556       -0.650724
                        0.518559       -0.331687      0.000500337    -0.000525578        -0.745324         -0.2027      0.000115231     0.000405299
