! TOUCHSTONE file generated by CST MICROWAVE STUDIO
! Date and time: Mon Oct 20 08:27:54 2025
! Project name: Teste_Macro_Metasurface_Nanopilar.cst
! Parameters = {H=600; L_x=200; L_y=130; Lambda=1064; Max_L=200; Min_L=70; PathPara=1; Phi=0; Step_L=10; Theta=0; p=520; phaseX=180; phaseY=0}
! Header version: 2018
! Port assignment regex: !\s*Touchstone port\s*([0-9]+)\s*=\s*(CST MWS port|CST DS port)\s*([0-9]+|Zmin|Zmax)\s*\(\"(.*)\"\)(\s*mode\s*([0-9]+))?.*
! Touchstone port assignment:
! Touchstone port 1 = CST MWS port Zmax ("") mode 1
! Touchstone port 2 = CST MWS port Zmax ("") mode 2
! Touchstone port 3 = CST MWS port Zmin ("") mode 1
! Touchstone port 4 = CST MWS port Zmin ("") mode 2
! S-Parameters are not renormalized. Each port impedance will be approximated by the real part at minimum frequency. The values are described via the [Reference] keyword.
! Default impedance is overridden by [Reference]
[Version] 2.0
# GHz S RI R 376.73
[Number of Ports] 4
[Reference]
376.73 376.73 259.888 259.888 
[Number of Frequencies] 52
[Network Data]
474000                  0.188411       0.0922259      1.56653e-05     1.42473e-05        -0.898635        0.374064      1.14584e-05    -5.73199e-05
                     6.04509e-06     1.72533e-06         0.525015        0.677539     -9.55568e-06      6.2417e-06        -0.150074        0.445186
                       -0.898631        0.374062     -3.07906e-06     1.86888e-05       -0.0653369        0.198525      3.86544e-05      2.6797e-05
                     1.40046e-05    -3.67719e-05        -0.150105        0.445208      3.85391e-05     8.04925e-06         0.806634       -0.245439
477200                  0.183084       0.0946616      1.45619e-05     1.43149e-05        -0.903961        0.400604      9.33559e-06     -5.2755e-05
                     5.04702e-06     1.95788e-06         0.489844        0.682721     -6.18063e-06     5.90958e-06        -0.159218        0.539115
                       -0.903957        0.400601      7.78488e-08     1.80967e-05       -0.0701249        0.199519      4.10103e-05     2.53284e-05
                     1.15421e-05    -3.25818e-05        -0.159252        0.539143      4.07716e-05     6.76822e-06         0.797183       -0.249804
480400                  0.177476       0.0973018      1.34084e-05     1.43867e-05        -0.904076        0.427371      7.06224e-06    -4.80526e-05
                     4.00452e-06     2.20236e-06         0.453855        0.686644     -2.69135e-06     5.58346e-06        -0.161266        0.656884
                       -0.904077        0.427371       3.3455e-06     1.75017e-05        -0.075161        0.200595      4.34677e-05     2.37711e-05
                     8.92817e-06    -2.82744e-05        -0.161303        0.656921      4.31025e-05      5.4104e-06         0.787458       -0.254247
483600                  0.171565         0.10017      1.22014e-05     1.44629e-05        -0.892508        0.451032      4.62641e-06    -4.32085e-05
                     2.91455e-06     2.45969e-06         0.417102        0.689228      9.17916e-07     5.26456e-06         -0.14874        0.806811
                       -0.892508        0.451031      6.72966e-06     1.69045e-05       -0.0804647        0.201765      4.60331e-05     2.21174e-05
                     6.15184e-06    -2.38465e-05         -0.14878        0.806861      4.55383e-05     3.96906e-06         0.777448        -0.25877
486800                  0.165327        0.103294       1.0937e-05     1.45441e-05        -0.879307        0.476255      2.01513e-06    -3.82187e-05
                      1.7738e-06      2.7309e-06         0.379646        0.690393      4.65332e-06     4.95422e-06         -0.10626        0.994338
                       -0.879308        0.476254      1.02365e-05     1.63062e-05       -0.0860575        0.203038      4.87135e-05     2.03586e-05
                     3.20103e-06    -1.92952e-05        -0.106293        0.994335      4.80861e-05     2.43671e-06          0.76714       -0.263374
490000                  0.158736        0.106704      9.61111e-06     1.46307e-05        -0.864196        0.503156     -7.85742e-07    -3.30791e-05
                     5.78635e-07     3.01711e-06         0.341556        0.690064      8.52142e-06     4.65395e-06      -0.00472938        0.999989
                       -0.864196        0.503155      1.38726e-05     1.57076e-05       -0.0919633        0.204427      5.15163e-05      1.8485e-05
                     6.26815e-08    -1.46176e-05      -0.00475537        0.999989      5.07533e-05     8.04954e-07         0.756522        -0.26806
493200                  0.151765        0.110437      8.21902e-06     1.47231e-05         -0.84684        0.531848      -3.7916e-06    -2.77861e-05
                    -6.74917e-07     3.31958e-06          0.30291        0.688169      1.25292e-05     4.36544e-06         0.135613        0.990762
                        -0.84684        0.531847      1.76452e-05     1.51101e-05       -0.0982085        0.205946      5.44495e-05     1.64858e-05
                    -3.27738e-06    -9.81111e-06         0.135597        0.990764      5.35482e-05     -9.3561e-07         0.745579       -0.272831
496400                  0.144382        0.114534       6.7557e-06      1.4822e-05         -0.82684        0.562437     -7.01924e-06    -2.23361e-05
                    -1.99124e-06     3.63972e-06         0.263794         0.68464      1.66842e-05     4.09061e-06         0.328137         0.94463
                       -0.826841        0.562436      2.15616e-05      1.4515e-05        -0.104823        0.207611       5.7522e-05     1.43488e-05
                    -6.83454e-06     -4.8735e-06         0.328139         0.94463      5.64799e-05    -2.79555e-06         0.734296       -0.277686
499600                  0.136553        0.119045      5.21553e-06      1.4928e-05         -0.80372        0.595008      -1.0487e-05     -1.6726e-05
                    -3.37516e-06     3.97907e-06         0.224302        0.679413      2.09945e-05     3.83159e-06         0.570535        0.821273
                        -0.80372        0.595007      2.56302e-05     1.39239e-05        -0.111838        0.209441      6.07431e-05     1.20603e-05
                    -1.06255e-05     1.97187e-07         0.570557        0.821258       5.9558e-05     -4.7868e-06         0.722659       -0.282628
502800                  0.128243        0.124027      3.59232e-06     1.50418e-05        -0.776909        0.629613     -1.42147e-05    -1.09533e-05
                    -4.83202e-06      4.3394e-06         0.184535        0.672433      2.54686e-05     3.59077e-06         0.809603        0.586978
                        -0.77691        0.629612      2.98596e-05     1.33387e-05        -0.119293        0.211459      6.41232e-05     9.60478e-06
                    -1.46685e-05     5.40239e-06         0.809634        0.586935      6.27934e-05    -6.92282e-06          0.71065       -0.287657
506000                   0.11941        0.129546      1.87915e-06     1.51643e-05        -0.745733        0.666244     -1.82243e-05     -5.0159e-06
                    -6.36772e-06     4.72266e-06         0.144602        0.663651      3.01158e-05     3.37087e-06         0.958557        0.284901
                       -0.745734        0.666243      3.42592e-05     1.27615e-05        -0.127227        0.213689      6.76732e-05     6.96467e-06
                    -1.89831e-05     1.07429e-05         0.958575        0.284842      6.61976e-05    -9.21893e-06         0.698253       -0.292775
509200                  0.110011        0.135682      6.83408e-08     1.52964e-05          -0.7094        0.704806     -2.25394e-05     1.08727e-06
                    -7.98883e-06     5.13107e-06         0.104619        0.653027       3.4946e-05     3.17492e-06         0.999929        0.011935
                       -0.709402        0.704805      3.88392e-05     1.21946e-05        -0.135688        0.216161      7.14051e-05     4.11999e-06
                    -2.35908e-05     1.62189e-05         0.999929       0.0118803      6.97834e-05    -1.16926e-05         0.685448       -0.297982
512400                       0.1         0.14253     -1.84869e-06     1.54392e-05        -0.666995        0.745062     -2.71859e-05      7.3564e-06
                    -9.70267e-06     5.56711e-06        0.0647077        0.640529      3.99698e-05     3.00636e-06         0.982034       -0.188702
                       -0.666996        0.745061      4.36104e-05     1.16409e-05        -0.144727        0.218912       7.5332e-05     1.04795e-06
                    -2.85148e-05     2.18295e-05         0.982026       -0.188744      7.35647e-05    -1.43636e-05         0.672215       -0.303279
515600                 0.0893278          0.1502     -3.88156e-06     1.55939e-05        -0.617487        0.786581     -3.21919e-05     1.37904e-05
                    -1.15174e-05     6.03364e-06        0.0249937        0.626138      4.51988e-05     2.86905e-06         0.945156       -0.326621
                       -0.617489         0.78658      4.85847e-05     1.11036e-05        -0.154404        0.221984      7.94677e-05    -2.27756e-06
                    -3.37804e-05     2.75727e-05         0.945145       -0.326651      7.75567e-05    -1.72549e-05         0.658535       -0.308667
518800                 0.0779412        0.158828      -6.0411e-06     1.57621e-05        -0.559765        0.828651     -3.75882e-05     2.03866e-05
                    -1.34422e-05     6.53387e-06       -0.0143925        0.609843      5.06453e-05     2.76737e-06         0.906682       -0.421815
                       -0.559767         0.82865      5.37748e-05     1.05863e-05        -0.164787        0.225426      8.38272e-05    -5.88651e-06
                    -3.94149e-05     3.34452e-05         0.906672       -0.421837      8.17761e-05    -2.03927e-05         0.644384       -0.314146
522000                 0.0657872        0.168575      -8.3395e-06     1.59452e-05        -0.492707        0.870195     -4.34079e-05     2.71406e-05
                    -1.54874e-05      7.0715e-06        -0.053318        0.591647      5.63226e-05     2.70626e-06         0.872042       -0.489431
                       -0.492709        0.870194      5.91943e-05     1.00933e-05        -0.175951          0.2293      8.84266e-05    -9.81347e-06
                     -4.5448e-05     3.94419e-05         0.872033       -0.489447      8.62411e-05    -2.38074e-05         0.629739       -0.319716
525200                 0.0528129        0.179637     -1.07906e-05     1.61454e-05        -0.415308        0.909681     -4.96872e-05     3.40455e-05
                    -1.76645e-05     7.65078e-06       -0.0916482        0.571564      6.22452e-05     2.69132e-06         0.842248        -0.53909
                       -0.415311         0.90968      6.48583e-05     9.62927e-06        -0.187985        0.233679      9.32832e-05    -1.40985e-05
                    -5.19119e-05      4.5556e-05         0.842241       -0.539102      9.09714e-05    -2.75344e-05         0.614573       -0.325376
528400                 0.0389692        0.192249     -1.34101e-05     1.63648e-05        -0.326886        0.945064     -5.64654e-05     4.10918e-05
                    -1.99868e-05     8.27658e-06        -0.129249        0.549621      6.84286e-05     2.72889e-06         0.816939       -0.576724
                       -0.326888        0.945063      7.07827e-05     9.19993e-06        -0.200988         0.23865      9.84149e-05    -1.87881e-05
                    -5.88412e-05      5.1778e-05         0.816933       -0.576733      9.59888e-05    -3.16146e-05         0.598861       -0.331128
531600                  0.024216        0.206704      -1.6216e-05     1.66061e-05        -0.227344        0.973814     -6.37847e-05     4.82666e-05
                    -2.24692e-05     8.95459e-06        -0.165987        0.525858      7.48896e-05     2.82621e-06         0.795432       -0.606043
                       -0.227347        0.973814      7.69853e-05     8.81165e-06        -0.215076        0.244324      0.000103841    -2.39365e-05
                    -6.62733e-05     5.80957e-05         0.795427       -0.606049      0.000101316    -3.60965e-05         0.582573       -0.336968
534800                0.00853029        0.223355     -1.92289e-05     1.68725e-05        -0.117476        0.993076     -7.16908e-05      5.5553e-05
                    -2.51288e-05     9.69142e-06        -0.201733        0.500325      8.16466e-05     2.99147e-06         0.777056       -0.629432
                       -0.117479        0.993075      8.34849e-05     8.47183e-06         -0.23038        0.250834      0.000109581    -2.96076e-05
                    -7.42487e-05     6.44934e-05         0.777052       -0.629437       0.00010698    -4.10366e-05         0.565679       -0.342897
538000               -0.00808079         0.24264     -2.24725e-05     1.71677e-05      0.000808059               1     -8.02325e-05     6.29295e-05
                    -2.79853e-05     1.04948e-05         -0.23636        0.473088      8.87192e-05     3.23402e-06         0.757551        -0.64533
                     0.000805154               1      9.03023e-05     8.18901e-06        -0.247052        0.258347      0.000115655    -3.58762e-05
                    -8.28104e-05     7.09515e-05         0.757547       -0.645332      0.000113006    -4.65021e-05         0.548144       -0.348912
541200                -0.0255601        0.265096     -2.59743e-05     1.74962e-05         0.124437        0.992227     -8.94621e-05     7.03687e-05
                    -3.10612e-05     1.13739e-05        -0.269749        0.444222      9.61292e-05     3.56456e-06         0.706009       -0.627357
                        0.124435        0.992228        9.746e-05     7.97309e-06        -0.265267        0.267074      0.000122082    -4.28311e-05
                    -9.20047e-05     7.74456e-05         0.706006       -0.627359      0.000119423     -5.2573e-05         0.529934        -0.35501
544400                -0.0437692        0.291385     -2.97664e-05     1.78634e-05         0.249445        0.968389     -9.94352e-05     7.78367e-05
                    -3.43827e-05     1.23395e-05        -0.301786        0.413815        0.0001039     3.99531e-06         0.662628       -0.610356
                        0.249443         0.96839      0.000104983      7.8355e-06        -0.285226         0.27728       0.00012888    -5.05775e-05
                    -0.000101881     8.39455e-05         0.662625       -0.610357      0.000126261    -5.93447e-05         0.511011       -0.361188
547600                -0.0624408        0.322319     -3.38865e-05     1.82759e-05         0.371522        0.928424      -0.00011021     8.52919e-05
                    -3.79803e-05     1.34047e-05        -0.332368        0.381963      0.000112056     4.54026e-06         0.625685       -0.594471
                         0.37152        0.928425      0.000112897     7.78952e-06        -0.307161        0.289306      0.000136064    -5.92414e-05
                     -0.00011249     9.04147e-05         0.625683       -0.594472      0.000133551    -6.69322e-05         0.491334       -0.367441
550800                 -0.081105        0.358882     -3.83788e-05     1.87418e-05         0.486696        0.873571     -0.000121848     9.26834e-05
                    -4.18898e-05      1.4585e-05        -0.361399        0.348773      0.000120627     5.21551e-06         0.593895       -0.579724
                        0.486694        0.873572      0.000121232     7.85057e-06        -0.331332         0.30359      0.000143642    -6.89735e-05
                    -0.000123887     9.68087e-05         0.593894       -0.579725       0.00014132    -7.54745e-05         0.470859       -0.373765
554000                -0.0989799        0.402246     -4.32961e-05     1.92711e-05         0.591895        0.806015     -0.000134411     9.99495e-05
                    -4.61533e-05     1.58993e-05        -0.388794         0.31436      0.000129641     6.03958e-06         0.566283       -0.566076
                        0.591894        0.806016      0.000130021     8.03662e-06        -0.358035        0.320709      0.000151615    -7.99553e-05
                    -0.000136129     0.000103074         0.566282       -0.566077      0.000149595    -8.51408e-05         0.449539       -0.380154
557200                 -0.114809        0.453751     -4.87016e-05     1.98761e-05         0.630973        0.670697     -0.000147965     0.000107017
                     -5.0821e-05     1.73709e-05        -0.414482        0.278845      0.000139132     7.03383e-06         0.542098       -0.553459
                        0.630972        0.670698      0.000139298     8.36863e-06        -0.387588         0.34142      0.000159967    -9.24058e-05
                    -0.000149272     0.000109148         0.542097       -0.553459      0.000158394     -9.6138e-05         0.427323       -0.386598
560400                 -0.126633        0.514827     -5.46715e-05     2.05727e-05         0.641902        0.538995     -0.000162571     0.000113798
                    -5.59527e-05     1.90286e-05        -0.438399        0.242354      0.000149136       8.223e-06         0.520756       -0.541794
                        0.641901        0.538995      0.000149101     8.87111e-06        -0.420324         0.36674       0.00016866    -0.000106591
                    -0.000163375     0.000114954         0.520756       -0.541794      0.000167724    -0.000108721         0.404158       -0.393089
563600                 -0.131497         0.58677      -6.1299e-05     2.13809e-05         0.632313        0.418749     -0.000178291     0.000120189
                    -6.16207e-05     2.09081e-05        -0.460498        0.205018      0.000159693     9.63572e-06         0.501795       -0.530999
                        0.632312        0.418749      0.000159473      9.5728e-06        -0.456549        0.398039      0.000177618    -0.000122832
                    -0.000178496     0.000120404         0.501795       -0.530999      0.000177568    -0.000123204         0.379983       -0.399616
564000                 -0.131419        0.596573     -6.21791e-05      2.1491e-05         0.629949        0.404661     -0.000180337     0.000120954
                    -6.23711e-05     2.11608e-05        -0.463131        0.200298      0.000161053     9.82964e-06         0.499573       -0.529707
                        0.629949        0.404661      0.000160812     9.67613e-06        -0.461335        0.402459      0.000178751    -0.000125025
                     -0.00018046     0.000121056         0.499573       -0.529707      0.000178833    -0.000125167         0.376887       -0.400434
566800                 -0.125128        0.670284     -6.86986e-05     2.23268e-05         0.607694        0.312275     -0.000195181     0.000126069
                     -6.7913e-05      2.3055e-05        -0.480743         0.16697      0.000170845     1.13053e-05         0.484847       -0.520998
                        0.607694        0.312275       0.00017046     1.05074e-05        -0.496471        0.437189      0.000186713    -0.000141519
                    -0.000194688     0.000125394         0.484847       -0.520998      0.000187874    -0.000139979         0.354736       -0.406165
570000                  -0.10175        0.764627     -7.70131e-05     2.34445e-05         0.572921        0.220081      -0.00021329       0.0001313
                    -7.49377e-05     2.55275e-05        -0.499108        0.128343      0.000182639     1.32706e-05         0.469613       -0.511716
                        0.572921        0.220081      0.000182113     1.17148e-05        -0.540041        0.486758      0.000195734    -0.000163123
