! TOUCHSTONE file generated by CST MICROWAVE STUDIO
! Date and time: Mon Oct 20 08:27:22 2025
! Project name: Teste_Macro_Metasurface_Nanopilar.cst
! Parameters = {H=600; L_x=100; L_y=130; Lambda=1064; Max_L=200; Min_L=70; PathPara=1; Phi=0; Step_L=10; Theta=0; p=520; phaseX=180; phaseY=0}
! Header version: 2018
! Port assignment regex: !\s*Touchstone port\s*([0-9]+)\s*=\s*(CST MWS port|CST DS port)\s*([0-9]+|Zmin|Zmax)\s*\(\"(.*)\"\)(\s*mode\s*([0-9]+))?.*
! Touchstone port assignment:
! Touchstone port 1 = CST MWS port Zmax ("") mode 1
! Touchstone port 2 = CST MWS port Zmax ("") mode 2
! Touchstone port 3 = CST MWS port Zmin ("") mode 1
! Touchstone port 4 = CST MWS port Zmin ("") mode 2
! S-Parameters are not renormalized. Each port impedance will be approximated by the real part at minimum frequency. The values are described via the [Reference] keyword.
! Default impedance is overridden by [Reference]
[Version] 2.0
# GHz S RI R 376.73
[Number of Ports] 4
[Reference]
376.73 376.73 259.888 259.888 
[Number of Frequencies] 52
[Network Data]
474000                 -0.845098       -0.241278      6.51679e-05    -5.43679e-05        -0.287794       -0.305971      2.74617e-05    -9.09333e-05
                     6.50401e-05      -5.431e-05        0.0787625        0.111739     -6.44996e-05     -1.4851e-06        -0.934102         -0.2095
                       -0.287761       -0.305965     -3.68146e-05    -2.87389e-05         0.107138        0.881624      5.94037e-05    -7.03493e-05
                     3.14509e-05    -3.22508e-05        -0.934187       -0.209432      2.12783e-05    -7.65806e-05        -0.081791        0.118722
477200                 -0.845143       -0.232281       6.3147e-05    -5.25669e-05        -0.289835       -0.310412      2.67722e-05    -8.98428e-05
                      6.2047e-05    -5.33666e-05        0.0768339        0.105348     -6.42396e-05    -1.80677e-06        -0.950564       -0.215445
                       -0.289801       -0.310407     -3.70522e-05    -2.88443e-05         0.104906        0.854752      5.87059e-05    -6.91035e-05
                     3.05491e-05    -3.14549e-05        -0.950653       -0.215376      2.08345e-05    -7.56087e-05       -0.0810426        0.114697
480400                 -0.845012       -0.222704      6.10922e-05    -5.07218e-05        -0.292022       -0.315092      2.60408e-05    -8.86951e-05
                     5.90053e-05    -5.23614e-05        0.0747784       0.0987987     -6.39676e-05    -2.14026e-06        -0.968525       -0.222162
                       -0.291989       -0.315087     -3.73006e-05    -2.89543e-05         0.102075        0.827668      5.79689e-05    -6.78005e-05
                     2.95976e-05    -3.06249e-05        -0.968618       -0.222091      2.03676e-05     -7.4592e-05       -0.0803093        0.110517
483600                 -0.844671       -0.212495      5.90027e-05    -4.88312e-05        -0.294372       -0.320029      2.52636e-05    -8.74856e-05
                     5.59148e-05    -5.12914e-05        0.0725878       0.0920849     -6.36829e-05    -2.48624e-06        -0.974012       -0.226498
                       -0.294339       -0.320025     -3.75604e-05     -2.9069e-05        0.0986282        0.800388      5.71893e-05    -6.64363e-05
                     2.85925e-05    -2.97586e-05        -0.974032        -0.22641      1.98757e-05    -7.35274e-05       -0.0795946        0.106174
486800                 -0.844076       -0.201597      5.68775e-05    -4.68933e-05        -0.296903       -0.325245      2.44362e-05     -8.6209e-05
                     5.27755e-05    -5.01534e-05        0.0702532       0.0852022     -6.33846e-05    -2.84539e-06        -0.973218       -0.229885
                        -0.29687       -0.325241     -3.78325e-05    -2.91888e-05        0.0945515         0.77293      5.63635e-05    -6.50065e-05
                     2.75292e-05    -2.88537e-05        -0.973239       -0.229796      1.93566e-05    -7.24112e-05       -0.0789023        0.101658
490000                 -0.843176       -0.189946       5.4716e-05    -4.49066e-05        -0.299634       -0.330764      2.35536e-05    -8.48598e-05
                     4.95873e-05    -4.89444e-05        0.0677651        0.078146     -6.30716e-05    -3.21847e-06        -0.972278       -0.233829
                       -0.299601       -0.330761     -3.81178e-05    -2.93141e-05        0.0898301        0.745314      5.54874e-05    -6.35063e-05
                     2.64025e-05    -2.79077e-05        -0.972299       -0.233739      1.88083e-05    -7.12398e-05       -0.0782369       0.0969599
493200                 -0.841909       -0.177473      5.25173e-05    -4.28692e-05        -0.302589       -0.336612      2.26104e-05    -8.34317e-05
                     4.63504e-05    -4.76608e-05        0.0651134       0.0709113     -6.27428e-05    -3.60626e-06        -0.971157       -0.238442
                       -0.302557        -0.33661     -3.84173e-05    -2.94452e-05        0.0844501        0.717557      5.45563e-05    -6.19305e-05
                     2.52069e-05    -2.69179e-05        -0.971179       -0.238352       1.8228e-05    -7.00089e-05       -0.0776032       0.0920699
496400                 -0.840197         -0.1641      5.02805e-05    -4.07794e-05        -0.305796       -0.342819         2.16e-05    -8.19175e-05
                     4.30648e-05    -4.62992e-05        0.0622873       0.0634934     -6.23972e-05    -4.00964e-06        -0.969808       -0.243869
                       -0.305763       -0.342817      -3.8732e-05    -2.95825e-05        0.0783982        0.689682       5.3565e-05    -6.02733e-05
                     2.39358e-05    -2.58814e-05        -0.969831       -0.243778      1.76131e-05     -6.8714e-05       -0.0770068       0.0869768
499600                 -0.837949       -0.149742      4.80047e-05     -3.8635e-05        -0.309284       -0.349417      2.05153e-05    -8.03093e-05
                     3.97311e-05    -4.48558e-05        0.0592749       0.0558874     -6.20334e-05    -4.42952e-06         -0.96817       -0.250293
                       -0.309251       -0.349417     -3.90631e-05    -2.97264e-05        0.0716618        0.661708      5.25077e-05    -5.85284e-05
                     2.25823e-05     -2.4795e-05        -0.968194       -0.250201      1.69603e-05    -6.73498e-05        -0.076454       0.0816691
502800                 -0.835053       -0.134307       4.5689e-05    -3.64343e-05         -0.31309       -0.356445      1.93477e-05    -7.85983e-05
                     3.63495e-05     -4.3327e-05        0.0560638       0.0480885     -6.16499e-05    -4.86691e-06        -0.966158       -0.257951
                       -0.313058       -0.356445      -3.9412e-05    -2.98776e-05        0.0642292        0.633659      5.13779e-05    -5.66886e-05
                     2.11382e-05    -2.36554e-05        -0.966183       -0.257859      1.62662e-05    -6.59108e-05       -0.0759521       0.0761343
506000                  -0.83137       -0.117697      4.33325e-05    -3.41749e-05        -0.317258       -0.363942      1.80877e-05    -7.67742e-05
                     3.29208e-05    -4.17087e-05        0.0526405       0.0400918     -6.12452e-05    -5.32287e-06        -0.963654       -0.267153
                       -0.317226       -0.363943     -3.97802e-05    -3.00364e-05        0.0560894        0.605557      5.01681e-05    -5.47463e-05
                     1.95943e-05    -2.24589e-05         -0.96368        -0.26706      1.55266e-05    -6.43906e-05       -0.0755091       0.0703592
509200                 -0.826731      -0.0998058      4.09343e-05    -3.18548e-05        -0.321836       -0.371956      1.67241e-05    -7.48258e-05
                     2.94457e-05    -3.99968e-05        0.0489905       0.0318927     -6.08175e-05    -5.79857e-06        -0.960492       -0.278309
                       -0.321805       -0.371957     -4.01692e-05    -3.02036e-05        0.0472322        0.577427      4.88697e-05    -5.26929e-05
                     1.79404e-05    -2.12015e-05        -0.960519       -0.278215      1.47371e-05    -6.27822e-05       -0.0751344       0.0643297
512400                  -0.82093      -0.0805226      3.84933e-05    -2.94715e-05        -0.326885       -0.380539      1.52438e-05      -7.274e-05
                      2.5925e-05     -3.8187e-05        0.0450984       0.0234867      -6.0365e-05    -6.29526e-06        -0.956426       -0.291975
                       -0.326854       -0.380542     -4.05808e-05    -3.03798e-05        0.0376487        0.549293      4.74731e-05    -5.05186e-05
                     1.61645e-05    -1.98789e-05        -0.956455       -0.291881      1.38924e-05    -6.10777e-05       -0.0748383       0.0580307
515600                 -0.813708      -0.0597363      3.60085e-05    -2.70226e-05        -0.332474       -0.389752      1.36314e-05    -7.05021e-05
                     2.23601e-05     -3.6275e-05        0.0409473       0.0148694     -5.98853e-05    -6.81429e-06        -0.951091       -0.308911
                       -0.332443       -0.389755     -4.10172e-05    -3.05657e-05        0.0273308        0.521182       4.5967e-05    -4.82128e-05
                     1.42533e-05    -1.84867e-05        -0.951121       -0.308817      1.29869e-05    -5.92683e-05       -0.0746329       0.0514461
518800                 -0.804751      -0.0373405      3.34791e-05    -2.45056e-05        -0.338687       -0.399661      1.18691e-05     -6.8095e-05
                     1.87521e-05    -3.42561e-05        0.0365195      0.00603685     -5.93762e-05    -7.35713e-06        -0.943918       -0.330181
                       -0.338658       -0.399665     -4.14806e-05    -3.07621e-05        0.0162716        0.493119      4.43386e-05    -4.57635e-05
                     1.21911e-05    -1.70199e-05         -0.94395       -0.330088      1.20137e-05    -5.73441e-05       -0.0745316       0.0445588
522000                 -0.793668      -0.0132427      3.09038e-05    -2.19177e-05        -0.345627       -0.410343      9.93525e-06    -6.54992e-05
                     1.51027e-05    -3.21258e-05        0.0317956     -0.00301482     -5.88349e-05    -7.92534e-06        -0.933989       -0.357301
                       -0.345598       -0.410349     -4.19737e-05      -3.097e-05       0.00446538        0.465132      4.25731e-05    -4.31574e-05
                     9.96011e-06    -1.54734e-05        -0.934024       -0.357211      1.09651e-05    -5.52939e-05       -0.0745499       0.0373506
525200                 -0.779979       0.0126201      2.82817e-05    -1.92562e-05        -0.353417       -0.421886      7.80439e-06    -6.26922e-05
                     1.14138e-05     -2.9879e-05         0.026755      -0.0122889     -5.82583e-05    -8.52065e-06        -0.919765       -0.392469
                       -0.353389       -0.421893     -4.24992e-05    -3.11904e-05      -0.00809244        0.437249       4.0653e-05    -4.03793e-05
                     7.53959e-06    -1.38417e-05        -0.919802       -0.392382      9.83212e-06    -5.31049e-05       -0.0747055       0.0298022
528400                 -0.763093       0.0402589      2.56117e-05    -1.65179e-05        -0.362209       -0.434388      5.44566e-06    -5.96477e-05
                     7.68731e-06    -2.75108e-05        0.0213755      -0.0217882     -5.76431e-05     -9.1449e-06        -0.898533       -0.438906
                       -0.362181       -0.434396     -4.30606e-05    -3.14245e-05        -0.021405        0.409498      3.85583e-05    -3.74123e-05
                     4.90539e-06    -1.21191e-05        -0.898572       -0.438826      8.60449e-06    -5.07626e-05       -0.0750182       0.0218929
531600                 -0.742292       0.0695975      2.28926e-05    -1.36999e-05        -0.372188        -0.44796      2.82162e-06    -5.63351e-05
                     3.92572e-06     -2.5016e-05        0.0156333      -0.0315149     -5.69854e-05     -9.8001e-06        -0.865279       -0.501291
                       -0.372161        -0.44797     -4.36617e-05    -3.16735e-05       -0.0354743        0.381908      3.62649e-05    -3.42372e-05
                     2.02928e-06    -1.02997e-05        -0.865318       -0.501223      7.27005e-06    -4.82507e-05       -0.0755111       0.0136012
534800                 -0.716711        0.100421      2.01234e-05    -1.07987e-05        -0.383587        -0.46273     -1.13616e-07    -5.27186e-05
                     1.31726e-07    -2.23894e-05       0.00950267      -0.0414704     -5.62808e-05    -1.04884e-05        -0.810335       -0.585967
                       -0.383562        -0.46274     -4.43067e-05    -3.19389e-05       -0.0503006        0.354508      3.37448e-05    -3.08325e-05
                    -1.12196e-06    -8.37779e-06        -0.810369       -0.585919      5.81459e-06      -4.555e-05       -0.0762101      0.00490415
538000                 -0.685331        0.132304       1.7303e-05    -7.81099e-06        -0.396699       -0.478837     -3.41683e-06     -4.8756e-05
                    -3.69164e-06    -1.96256e-05       0.00295628      -0.0516551     -5.55244e-05    -1.12122e-05        -0.714884       -0.699243
                       -0.396676       -0.478849     -4.50008e-05    -3.22223e-05       -0.0658831        0.327327      3.09643e-05    -2.71734e-05
                    -4.58761e-06    -6.34781e-06        -0.714899       -0.699228      4.22127e-06    -4.26388e-05       -0.0771452     -0.00422231
541200                 -0.646989        0.164505      1.44301e-05    -4.73302e-06        -0.411895       -0.496438     -7.15908e-06    -4.43972e-05
                    -7.54098e-06    -1.67191e-05      -0.00403536      -0.0620685     -5.47104e-05     -1.1974e-05        -0.545937       -0.837827
                       -0.411873       -0.496451     -4.57497e-05    -3.25258e-05       -0.0822194        0.300396      2.78833e-05    -2.32321e-05
                    -8.41438e-06    -4.20486e-06          -0.5459        -0.83785      2.47009e-06    -3.94916e-05       -0.0783506      -0.0138032
544400                 -0.600434        0.195839      1.15037e-05    -1.56097e-06         -0.42965       -0.515701     -1.14303e-05    -3.95829e-05
                    -1.14125e-05    -1.36642e-05       -0.0115038      -0.0727086     -5.38326e-05    -1.27765e-05         -0.26981       -0.962914
                       -0.429631       -0.515715     -4.65601e-05    -3.28513e-05       -0.0993054        0.273744      2.44531e-05    -1.89769e-05
                    -1.26582e-05    -1.94527e-06        -0.269687       -0.962948      5.37044e-07     -3.6079e-05       -0.0798651      -0.0238647
547600                 -0.544445        0.224521      8.52254e-06     1.70924e-06        -0.450582       -0.536798     -1.63458e-05    -3.42423e-05
                    -1.53019e-05    -1.04554e-05       -0.0194827       -0.083572     -5.28833e-05    -1.36226e-05        0.0798341       -0.996808
                       -0.450566       -0.536814     -4.74399e-05    -3.32014e-05        -0.117136        0.247402      2.06146e-05    -1.43715e-05
                    -1.73865e-05     4.32488e-07         0.080014       -0.996794     -1.60686e-06    -3.23665e-05       -0.0817337      -0.0344333
550800                 -0.478068        0.248009      5.48543e-06     5.08188e-06          -0.4755       -0.559894     -2.20557e-05    -2.82907e-05
                    -1.92047e-05    -7.08679e-06       -0.0280083      -0.0946533      -5.1854e-05    -1.45156e-05         0.384104        -0.92329
                       -0.475487       -0.559911     -4.83985e-05    -3.35789e-05        -0.135703          0.2214      1.62953e-05    -9.37476e-06
                    -2.26807e-05     2.92643e-06         0.384254       -0.923228     -3.99699e-06    -2.83131e-05       -0.0840074      -0.0455364
554000                 -0.400991        0.262926      2.39119e-06     8.56148e-06        -0.505477       -0.585111     -2.87584e-05    -2.16268e-05
                    -2.31156e-05    -3.55267e-06       -0.0371191       -0.105945     -5.07347e-05    -1.54587e-05         0.581095       -0.813836
                       -0.505468       -0.585129     -4.94469e-05    -3.39871e-05        -0.154999        0.195766      1.14053e-05       -3.94e-06
                    -2.86407e-05     5.52898e-06         0.581186       -0.813771     -6.67681e-06    -2.38708e-05       -0.0867449      -0.0572011
557200                  -0.31408        0.265157     -7.61358e-07     1.21528e-05         -0.54195       -0.612474     -3.67206e-05    -1.41301e-05
                    -2.70291e-05     1.52758e-07       -0.0468562       -0.117437     -4.95138e-05    -1.64554e-05         0.693174        -0.72077
                       -0.541945       -0.612491     -5.05983e-05    -3.44298e-05        -0.175014        0.170532      5.83218e-06     1.98568e-06
                    -3.53885e-05     8.22369e-06          0.69322       -0.720726     -9.70041e-06    -1.89817e-05       -0.0900135      -0.0694539
560400                 -0.219968        0.250293     -3.97342e-06     1.58609e-05        -0.586858       -0.641793     -4.63085e-05    -5.65919e-06
                    -3.09389e-05     4.03527e-06       -0.0572634       -0.129118     -4.81777e-05    -1.75094e-05         0.754436       -0.656374
                       -0.586859        -0.64181     -5.18686e-05    -3.49114e-05        -0.195735        0.145727     -5.65942e-07     8.46148e-06
                    -4.30755e-05     1.09803e-05         0.754454       -0.656353     -1.31358e-05    -1.35766e-05         -0.09389        -0.08232
563600                 -0.123477        0.214522     -7.24617e-06     1.96912e-05         -0.64283       -0.672456     -5.80357e-05     3.94715e-06
                    -3.48383e-05     8.10059e-06        -0.068387        -0.14097     -4.67105e-05    -1.86245e-05         0.785971       -0.618264
                       -0.642837       -0.672469     -5.32771e-05    -3.54373e-05        -0.217149        0.121379     -7.97044e-06     1.55527e-05
                    -5.18893e-05     1.37469e-05         0.785972       -0.618263     -1.70694e-05    -7.57149e-06       -0.0984626      -0.0958221
564000                 -0.111574        0.208455     -7.65959e-06     2.01788e-05        -0.650769       -0.676324     -5.96856e-05     5.23633e-06
                    -3.53246e-05     8.62189e-06       -0.0698302       -0.142462      -4.6517e-05    -1.87683e-05          0.76654       -0.598045
                       -0.650777       -0.676337      -5.3464e-05    -3.55064e-05        -0.219874        0.118369     -8.97774e-06     1.64858e-05
                    -5.30814e-05     1.40896e-05         0.766539       -0.598047     -1.76014e-05    -6.77378e-06       -0.0990879      -0.0975556
566800                -0.0314796        0.155915     -1.05808e-05     2.36492e-05        -0.712276         -0.7019     -7.26396e-05       1.486e-05
                    -3.87201e-05     1.23543e-05       -0.0802763       -0.152973     -4.50933e-05    -1.98042e-05         0.634618       -0.478622
                       -0.712278       -0.701897     -5.48477e-05    -3.60135e-05        -0.239241       0.0975163     -1.66158e-05     2.33292e-05
                    -6.20642e-05     1.64378e-05         0.634616       -0.478638      -2.1613e-05    -8.63748e-07        -0.103832       -0.109979
570000                 0.0481205       0.0756384     -1.39784e-05     2.77409e-05        -0.739844       -0.672778     -9.12079e-05      2.7229e-05
                    -4.25762e-05      1.6802e-05        -0.092983       -0.165104     -4.33036e-05    -2.10522e-05         0.506652       -0.384882
                       -0.739853       -0.672769     -5.66099e-05    -3.66474e-05        -0.261996       0.0741674     -2.68088e-05     3.18617e-05
