! TOUCHSTONE file generated by CST MICROWAVE STUDIO
! Date and time: Mon Oct 20 08:27:38 2025
! Project name: Teste_Macro_Metasurface_Nanopilar.cst
! Parameters = {H=600; L_x=145; L_y=190; Lambda=1064; Max_L=200; Min_L=70; PathPara=1; Phi=0; Step_L=10; Theta=0; p=520; phaseX=180; phaseY=0}
! Header version: 2018
! Port assignment regex: !\s*Touchstone port\s*([0-9]+)\s*=\s*(CST MWS port|CST DS port)\s*([0-9]+|Zmin|Zmax)\s*\(\"(.*)\"\)(\s*mode\s*([0-9]+))?.*
! Touchstone port assignment:
! Touchstone port 1 = CST MWS port Zmax ("") mode 1
! Touchstone port 2 = CST MWS port Zmax ("") mode 2
! Touchstone port 3 = CST MWS port Zmin ("") mode 1
! Touchstone port 4 = CST MWS port Zmin ("") mode 2
! S-Parameters are not renormalized. Each port impedance will be approximated by the real part at minimum frequency. The values are described via the [Reference] keyword.
! Default impedance is overridden by [Reference]
[Version] 2.0
# GHz S RI R 376.73
[Number of Ports] 4
[Reference]
376.73 376.73 259.888 259.888 
[Number of Frequencies] 52
[Network Data]
474000                -0.0268819        0.136644     -5.26897e-06     1.96197e-05         0.383622       -0.820276       6.5668e-05    -1.76844e-05
                    -5.26014e-06     1.96253e-05          0.15751        0.137365     -3.18568e-05    -5.45255e-05        -0.362157        0.899149
                        0.383622       -0.820276     -3.18479e-05    -5.45183e-05        0.0175541       -0.159111     -1.21961e-05     2.35309e-05
                     6.56859e-05    -1.76808e-05        -0.362157        0.899149     -1.21897e-05     2.35349e-05         0.204713      0.00592277
477200                 -0.019855        0.134794     -5.68054e-06     1.87618e-05         0.398236        -0.74493      7.25192e-05    -2.42801e-05
                    -5.66281e-06     1.93247e-05         0.160382         0.13655     -3.19054e-05    -5.24035e-05        -0.319825        0.902486
                        0.398237       -0.744927      -3.1898e-05    -5.23847e-05        0.0172219       -0.147958     -1.14692e-05     2.39717e-05
                      6.8558e-05    -2.24427e-05        -0.319825        0.902486      -1.1459e-05     2.39734e-05         0.210509      0.00894682
480400                -0.0124101        0.132796     -6.11569e-06     1.78301e-05         0.404415       -0.674348      8.04367e-05    -3.21544e-05
                    -6.09693e-06      1.8998e-05         0.163443        0.135672      -3.1962e-05    -5.02086e-05        -0.275087        0.903728
                        0.404414       -0.674343      -3.1956e-05    -5.01784e-05        0.0171053       -0.136079     -1.07084e-05     2.44301e-05
                     7.16768e-05    -2.78841e-05        -0.275088        0.903727     -1.06944e-05     2.44293e-05         0.216653        0.012292
483600               -0.00450902        0.130632     -6.57603e-06     1.68148e-05         0.403836       -0.609058      8.96812e-05    -4.17091e-05
                    -6.56631e-06     1.86417e-05          0.16671        0.134722     -3.20271e-05    -4.79371e-05        -0.227932        0.902506
                        0.403835       -0.609051     -3.20227e-05    -4.78957e-05        0.0172502       -0.123411     -9.91144e-06     2.49071e-05
                     7.50631e-05    -3.41541e-05        -0.227932        0.902505      -9.8936e-06     2.49039e-05         0.223173       0.0160039
486800                 0.0038911        0.128283     -7.06321e-06     1.57044e-05         0.397986       -0.549228        0.0001006    -5.35291e-05
                    -7.07541e-06     1.82516e-05         0.170207        0.133691     -3.21018e-05    -4.55851e-05         -0.17839         0.89841
                        0.397985        -0.54922     -3.20988e-05    -4.55325e-05        0.0177122       -0.109882     -9.07555e-06     2.54039e-05
                     7.87343e-05    -4.14465e-05         -0.17839        0.898409     -9.05386e-06     2.53981e-05         0.230099       0.0201357
490000                 0.0128386        0.125725     -7.57884e-06     1.44854e-05         0.388134       -0.494775      0.000113663     -6.8498e-05
                    -7.62945e-06     1.78225e-05         0.173957         0.13257     -3.21868e-05    -4.31481e-05        -0.126546        0.890994
                        0.388131       -0.494766     -3.21852e-05    -4.30845e-05        0.0185583      -0.0954134     -8.19788e-06     2.59216e-05
                     8.26981e-05    -5.00166e-05        -0.126547        0.890992     -8.17233e-06     2.59133e-05         0.237464       0.0247508
493200                 0.0223883        0.122932      -8.1244e-06     1.31414e-05         0.375325       -0.445454      0.000129509    -8.80079e-05
                    -8.23462e-06     1.73485e-05          0.17799        0.131346     -3.22832e-05    -4.06214e-05        -0.072555        0.879776
                        0.375322       -0.445445      -3.2283e-05    -4.05472e-05        0.0198695      -0.0799192     -7.27523e-06     2.64617e-05
                      8.6942e-05    -6.02068e-05       -0.0725562        0.879774     -7.24582e-06     2.64507e-05         0.245302       0.0299239
496400                 0.0326023        0.119872     -8.70112e-06     1.16528e-05         0.360409       -0.400927      0.000148998    -0.000114371
                    -8.89829e-06     1.68222e-05         0.182339        0.130006     -3.23921e-05    -3.80002e-05       -0.0166517        0.864248
                        0.360405       -0.400918     -3.23933e-05    -3.79155e-05        0.0217443      -0.0633053     -6.30408e-06     2.70255e-05
                     9.14118e-05    -7.24823e-05       -0.0166532        0.864246     -6.27084e-06     2.70119e-05         0.253648       0.0357444
499600                 0.0435517        0.116507     -9.30969e-06     9.99576e-06         0.344059       -0.360808      0.000173218    -0.000151679
                    -9.62929e-06     1.62345e-05         0.187042        0.128531     -3.25147e-05     -3.5279e-05        0.0408313        0.843888
                        0.344054         -0.3608     -3.25173e-05    -3.51843e-05        0.0243025      -0.0454693     -5.28053e-06     2.76145e-05
                     9.59717e-05    -8.74867e-05        0.0408294        0.843886      -5.2435e-06     2.75983e-05         0.262539        0.042319
502800                 0.0553177        0.112793     -9.94993e-06      8.1412e-06         0.326801       -0.324701       0.00020319    -0.000207761
                    -1.04383e-05     1.55742e-05         0.192143        0.126902     -3.26524e-05    -3.24521e-05          0.09945        0.818173
                        0.326796       -0.324693     -3.26563e-05    -3.23477e-05        0.0276899      -0.0263012     -4.20026e-06     2.82306e-05
                     0.000100324    -0.000106122        0.0994477        0.818171     -4.15949e-06     2.82116e-05         0.272011       0.0497763
506000                 0.0679939        0.108678     -1.06202e-05      6.0531e-06         0.309043       -0.292215      0.000237957    -0.000299045
                    -1.13384e-05      1.4827e-05         0.197696        0.125093     -3.28067e-05    -2.95132e-05         0.158637        0.786608
                        0.309037       -0.292207     -3.28118e-05    -2.93997e-05        0.0320851     -0.00568358     -3.05845e-06     2.88755e-05
                     0.000103845    -0.000129661         0.158635        0.786606     -3.01403e-06     2.88537e-05         0.282099       0.0582711
509200                 0.0816885        0.104099     -1.13165e-05     3.68665e-06         0.291092        -0.26298      0.000263768    -0.000463085
                    -1.23456e-05     1.39749e-05         0.203763        0.123076     -3.29794e-05    -2.64556e-05         0.217695        0.748748
                        0.291087       -0.262973     -3.29856e-05    -2.63335e-05        0.0377063       0.0165059     -1.84974e-06     2.95511e-05
                     0.000105254    -0.000159893         0.217692        0.748746     -1.80177e-06     2.95266e-05         0.292828       0.0679913
512400                  0.096527        0.098978     -1.20309e-05     9.85365e-07         0.273183       -0.236653      0.000189684    -0.000777303
                    -1.34801e-05     1.29945e-05         0.210418        0.120812     -3.31723e-05    -2.32721e-05         0.275791        0.704235
                        0.273177       -0.236646     -3.31794e-05    -2.31421e-05        0.0448216       0.0403914     -5.68124e-07     3.02597e-05
                     0.000101908    -0.000199215         0.275788        0.704234     -5.16763e-07     3.02325e-05         0.304218       0.0791651
515600                  0.112656       0.0932225     -1.27493e-05    -2.12256e-06         0.255486       -0.212921     -0.000382216     -0.00111484
                     -1.4767e-05      1.1855e-05          0.21775        0.118256     -3.33875e-05    -1.99548e-05          0.33197        0.652839
                         0.25548       -0.212915     -3.33954e-05    -1.98176e-05        0.0537595       0.0660935      7.93138e-07     3.10037e-05
                     8.83589e-05    -0.000250326         0.331966        0.652837      8.47702e-07     3.09738e-05         0.316265       0.0920703
518800                  0.130249       0.0867175     -1.34472e-05    -5.72945e-06         0.238126       -0.191503      -0.00100716    -0.000506762
                    -1.62386e-05      1.0515e-05         0.225868        0.115349     -3.36275e-05    -1.64952e-05         0.385168        0.594488
                         0.23812       -0.191497      -3.3636e-05    -1.63517e-05        0.0649234       0.0937195      2.24163e-06     3.17855e-05
                     5.37605e-05    -0.000314225         0.385164        0.594487      2.29916e-06      3.1753e-05         0.328939        0.107046
522000                  0.149508       0.0793206     -1.40834e-05    -9.95522e-06         0.221189       -0.172144     -0.000793056    -2.65952e-06
                    -1.79366e-05     8.91802e-06         0.234904        0.112019     -3.38949e-05    -1.28841e-05         0.434248        0.529318
                        0.221184       -0.172139     -3.39037e-05    -1.27353e-05        0.0788072         0.12335      3.78594e-06      3.2608e-05
                    -2.04952e-05    -0.000382792         0.434244        0.529317      3.84612e-06      3.2573e-05         0.342158        0.124505
525200                  0.170677        0.070853     -1.45883e-05     -1.4957e-05         0.204737       -0.154621     -0.000564466     0.000126952
                    -1.99158e-05     6.98417e-06         0.245019        0.108171     -3.41927e-05     -9.1114e-06         0.478045        0.457694
                        0.204732       -0.154617     -3.42015e-05    -8.95846e-06        0.0960136        0.155015      5.43577e-06     3.34743e-05
                     -0.00015151    -0.000422343         0.478041        0.457693      5.49824e-06      3.3437e-05         0.355766        0.144947
528400                  0.194043       0.0610885     -1.48446e-05     -2.0942e-05         0.188806       -0.138734     -0.000426435     0.000154469
                     -2.2249e-05      4.5979e-06         0.256419         0.10368     -3.45243e-05    -5.16615e-06         0.515422        0.380231
                        0.188801        -0.13873     -3.45327e-05    -5.01043e-06         0.117273        0.188667       7.2022e-06     3.43877e-05
                     -0.00031189    -0.000374783         0.515417        0.380231      7.26649e-06     3.43482e-05         0.369493        0.168972
531600                  0.219957       0.0497365     -1.46515e-05     -2.8183e-05         0.173418       -0.124305     -0.000340894     0.000156056
                    -2.50344e-05     1.58577e-06         0.269361         0.09838     -3.48936e-05    -1.03644e-06         0.545335        0.297799
                        0.173414       -0.124301     -3.49011e-05    -8.79468e-07          0.14346        0.224128      9.09789e-06     3.53519e-05
                    -0.000413015    -0.000237456         0.545331          0.2978      9.16343e-06     3.53106e-05         0.382893         0.19729
534800                   0.24884       0.0364198     -1.36611e-05    -3.70342e-05         0.158582       -0.111178     -0.000284138     0.000150727
                    -2.84061e-05     -2.3236e-06         0.284174       0.0920471     -3.53049e-05     3.29079e-06         0.566907        0.211501
                        0.158578       -0.111175     -3.53109e-05     3.44726e-06         0.175605        0.261025      1.11374e-05     3.63708e-05
                    -0.000417812    -9.38247e-05         0.566903        0.211502      1.12035e-05      3.6328e-05         0.395259        0.230707
538000                  0.281208       0.0206406      -1.1261e-05    -4.79319e-05           0.1443      -0.0992155     -0.000244177     0.000143853
                    -3.25453e-05    -7.57665e-06         0.301286       0.0843686     -3.57632e-05     7.82984e-06         0.579483         0.12263
                        0.144296       -0.099213     -3.57671e-05     7.98377e-06         0.214885        0.298704      1.33374e-05     3.74489e-05
                    -0.000371567     3.20783e-06         0.579479        0.122632      1.34032e-05     3.74051e-05         0.405511         0.27009
541200                  0.317695      0.00173218     -6.36248e-06    -6.13377e-05         0.130563      -0.0882954     -0.000214687     0.000137071
                    -3.76874e-05     -1.4954e-05         0.321264       0.0748994      -3.6274e-05     1.25964e-05         0.582685       0.0326156
                         0.13056      -0.0882933     -3.62749e-05     1.27454e-05         0.262588        0.336103      1.57174e-05     3.85907e-05
                    -0.000316345     5.73827e-05         0.582681        0.032617      1.57819e-05     3.85466e-05         0.412041        0.316264
544400                  0.359082      -0.0212146      2.95561e-06    -7.74885e-05         0.117362      -0.0783099     -0.000192103     0.000130863
                    -4.40807e-05    -2.59265e-05         0.344869        0.062987     -3.68438e-05     1.76076e-05         0.576437      -0.0570586
                        0.117359      -0.0783082     -3.68408e-05     1.77492e-05         0.320015         0.37162      1.83001e-05     3.98014e-05
                    -0.000267785     8.54253e-05         0.576434      -0.0570571       1.8362e-05     3.97579e-05         0.412549        0.369801
547600                  0.406334       -0.049464      1.98922e-05    -9.56033e-05         0.104682      -0.0691637     -0.000174289     0.000125327
                     -5.1693e-05    -4.35216e-05         0.373144       0.0476413       -3.748e-05     2.28825e-05         0.560977        -0.14493
                        0.104679      -0.0691624     -3.74718e-05     2.30136e-05         0.388298         0.40296      2.11121e-05     4.10865e-05
                    -0.000228524     9.92832e-05         0.560974       -0.144928      2.11697e-05     4.10447e-05         0.403919        0.430635
550800                  0.460647      -0.0848129      4.87809e-05    -0.000111898        0.0925046      -0.0607725     -0.000159897      0.00012043
                    -5.85483e-05    -7.45442e-05         0.407546       0.0272991      -3.8191e-05     2.84421e-05         0.536828       -0.229637
                       0.0925027      -0.0607715     -3.81763e-05     2.85591e-05         0.468097        0.427027      2.41846e-05     4.24518e-05
                    -0.000197394     0.000105623         0.536827       -0.229635      2.42361e-05     4.24132e-05         0.382276        0.497461
554000                  0.523478       -0.129877      9.18051e-05    -0.000116628        0.0808129      -0.0530615     -0.000148038     0.000116103
                    -5.10066e-05    -0.000133753          0.45014    -0.000628767     -3.89865e-05     3.43095e-05         0.504766       -0.309986
                       0.0808115      -0.0530608     -3.89635e-05     3.44085e-05         0.559155        0.439948      2.75549e-05     4.39033e-05
                    -0.000172634      0.00010796         0.504765       -0.309984      2.75979e-05     4.38698e-05         0.343454        0.566972
557200                  0.596554       -0.188563      0.000139973    -9.64176e-05        0.0695875      -0.0459646     -0.000138104     0.000112272
                     3.90709e-05    -0.000216606         0.503879      -0.0406817     -3.98778e-05     4.05105e-05         0.465754       -0.384999
                       0.0695866      -0.0459641     -3.98445e-05     4.05867e-05         0.659769        0.437327      3.12674e-05     4.54474e-05
                    -0.000152718     0.000108153         0.465753       -0.384998      3.12992e-05     4.54215e-05         0.284154        0.633229
560400                   0.68176       -0.266877      0.000171156    -5.11609e-05        0.0588087      -0.0394227     -0.000129664     0.000108865
                     0.000200184     -0.00013335         0.572876       -0.101383     -4.08781e-05     4.70735e-05         0.420878       -0.453944
                       0.0588082      -0.0394225     -4.08319e-05     4.71218e-05         0.766298        0.414874      3.53759e-05     4.70901e-05
                     -0.00013648     0.000107203         0.420878       -0.453943      3.53928e-05     4.70751e-05         0.203816         0.68784
563600                  0.780693       -0.374316      0.000173545    -1.78094e-06        0.0484571      -0.0333835     -0.000122409     0.000105823
                     0.000179296    -4.61738e-06         0.662016        -0.20008     -4.20024e-05     5.40305e-05         0.371285       -0.516338
                        0.048457      -0.0333835     -4.19404e-05     5.40446e-05         0.872999        0.369415      3.99455e-05     4.88371e-05
                    -0.000123059     0.000105658         0.371285       -0.516338      3.99431e-05     4.88374e-05         0.106467        0.721689
564000                  0.794056       -0.390473      0.000172205     3.61649e-06        0.0471922      -0.0326616     -0.000121573     0.000105465
                     0.000172192     3.63104e-06         0.674752       -0.216624     -4.21526e-05     5.49295e-05         0.364812       -0.523662
                       0.0471922      -0.0326616     -4.20883e-05      5.4939e-05         0.885993        0.362039      4.05529e-05     4.90631e-05
                    -0.000121545      0.00010544         0.364812       -0.523662      4.05477e-05     4.90657e-05        0.0935051        0.724079
566800                  0.861582       -0.507618      0.000157318     3.42623e-05        0.0385134      -0.0278003     -0.000116105     0.000103094
                     0.000128763     3.45318e-05         0.772068        -0.37519     -4.32687e-05     6.14169e-05         0.318115       -0.571939
                       0.0385137      -0.0278006     -4.31871e-05     6.13899e-05         0.955545        0.294845      4.50559e-05     5.06929e-05
                     -0.00011182     0.000103827         0.318116       -0.571939      4.50288e-05     5.07143e-05       0.00107301        0.728139
570000                  0.804604       -0.593812      0.000136113     5.53009e-05        0.0289587      -0.0226315      -0.00011058     0.000100634
                     9.65985e-05     4.41944e-05         0.771864       -0.635787     -4.46978e-05     6.92727e-05         0.262455       -0.620717
                       0.0289595      -0.0226319     -4.45922e-05     6.91964e-05         0.980977        0.194124       5.0806e-05     5.26596e-05
