! TOUCHSTONE file generated by CST MICROWAVE STUDIO
! Date and time: Mon Oct 20 08:27:44 2025
! Project name: Teste_Macro_Metasurface_Nanopilar.cst
! Parameters = {H=600; L_x=175; L_y=85; Lambda=1064; Max_L=200; Min_L=70; PathPara=1; Phi=0; Step_L=10; Theta=0; p=520; phaseX=180; phaseY=0}
! Header version: 2018
! Port assignment regex: !\s*Touchstone port\s*([0-9]+)\s*=\s*(CST MWS port|CST DS port)\s*([0-9]+|Zmin|Zmax)\s*\(\"(.*)\"\)(\s*mode\s*([0-9]+))?.*
! Touchstone port assignment:
! Touchstone port 1 = CST MWS port Zmax ("") mode 1
! Touchstone port 2 = CST MWS port Zmax ("") mode 2
! Touchstone port 3 = CST MWS port Zmin ("") mode 1
! Touchstone port 4 = CST MWS port Zmin ("") mode 2
! S-Parameters are not renormalized. Each port impedance will be approximated by the real part at minimum frequency. The values are described via the [Reference] keyword.
! Default impedance is overridden by [Reference]
[Version] 2.0
# GHz S RI R 376.73
[Number of Ports] 4
[Reference]
376.73 376.73 259.888 259.888 
[Number of Frequencies] 52
[Network Data]
474000                 0.0303211        0.168781      7.59292e-05     0.000162273        -0.938359       -0.282795     -0.000153184     8.34627e-05
                     7.03848e-05     0.000154031        0.0529832       0.0781826     -9.06203e-05     0.000142549        -0.151324       -0.950805
                       -0.938335       -0.282792     -6.02199e-05     0.000128944        -0.122866        0.128477     -0.000145171    -4.20071e-05
                    -0.000164487     9.56809e-05        -0.151341       -0.950834     -0.000169823    -5.11181e-05       -0.0089979       -0.100228
477200                 0.0420432        0.172628      7.30289e-05     0.000166049        -0.928825       -0.260385     -0.000156549      8.2168e-05
                     6.78012e-05     0.000157716        0.0642819       0.0704126     -8.97901e-05     0.000146416         -0.15187       -0.952794
                         -0.9288       -0.260385     -5.95665e-05     0.000132555        -0.116316        0.125695     -0.000147494    -3.78806e-05
                    -0.000167906     9.42284e-05        -0.151887       -0.952825     -0.000172413    -4.67858e-05       0.00489416       -0.102279
480400                 0.0548683        0.177203      6.98313e-05     0.000170094        -0.917106        -0.23717     -0.000160101     8.07514e-05
                     6.49485e-05     0.000161671        0.0765072       0.0616328      -8.8878e-05     0.000150496        -0.152461       -0.954946
                       -0.917078       -0.237172     -5.88491e-05     0.000136367        -0.109139        0.122577     -0.000149933    -3.34443e-05
                    -0.000171513     9.26391e-05        -0.152478       -0.954977     -0.000175129     -4.2122e-05        0.0203221        -0.10453
483600                 0.0689419        0.182673      6.62913e-05     0.000174434        -0.902897       -0.213315     -0.000163856     7.91976e-05
                     6.17852e-05     0.000165924        0.0897636       0.0516542     -8.78738e-05     0.000154805        -0.153104        -0.95728
                       -0.902868        -0.21332     -5.80596e-05     0.000140398        -0.101242        0.119062     -0.000152494    -2.86628e-05
                    -0.000175322     9.08961e-05        -0.153121       -0.957311     -0.000177979    -3.70888e-05        0.0375553       -0.107013
486800                 0.0844307         0.18926      6.23548e-05       0.0001791        -0.885882       -0.189054      -0.00016783     7.74888e-05
                     5.82614e-05     0.000170507         0.104167       0.0402414     -8.67657e-05     0.000159363        -0.153803        -0.95982
                       -0.885852       -0.189063     -5.71886e-05     0.000144666       -0.0925123        0.115071     -0.000155184    -2.34956e-05
                     -0.00017935     8.89795e-05        -0.153821       -0.959853     -0.000180969    -3.16422e-05        0.0569304       -0.109762
490000                  0.101524        0.197247      5.79563e-05     0.000184126        -0.865745       -0.164704     -0.000172041     7.56046e-05
                     5.43164e-05     0.000175456         0.119847       0.0270989     -8.55401e-05     0.000164192        -0.154569       -0.962596
                       -0.865716       -0.164718     -5.62256e-05     0.000149192        -0.082812        0.110507     -0.000158011    -1.78957e-05
                    -0.000183613     8.68664e-05        -0.154588       -0.962629     -0.000184106    -2.57313e-05        0.0788728       -0.112824
493200                  0.120436        0.207008      5.30158e-05      0.00018955        -0.842189        -0.14068     -0.000176509     7.35208e-05
                      4.9876e-05     0.000180813         0.136941       0.0118519     -8.41811e-05     0.000169315        -0.155411       -0.965642
                        -0.84216       -0.140698     -5.51578e-05        0.000154       -0.0719732        0.105241     -0.000160981    -1.18084e-05
                     -0.00018813     8.45301e-05         -0.15543       -0.965676     -0.000187397    -1.92968e-05         0.103929       -0.116253
496400                  0.141397         0.21904      4.74353e-05     0.000195414         -0.81496       -0.117499     -0.000181256     7.12096e-05
                     4.48485e-05     0.000186625         0.155594     -0.00597962     -8.26701e-05     0.000174759         -0.15634       -0.968998
                       -0.814932       -0.117522     -5.39707e-05     0.000159116       -0.0597871       0.0991092       -0.0001641    -5.16973e-06
                    -0.000192923     8.19393e-05         -0.15636       -0.969033     -0.000190847    -1.22696e-05         0.132812       -0.120117
499600                  0.164648        0.234006      4.10929e-05     0.000201764        -0.783881      -0.0957891     -0.000186306     6.86377e-05
                     3.91199e-05     0.000192943         0.175945      -0.0270163     -8.09853e-05     0.000180554        -0.157371       -0.972715
                       -0.783855      -0.0958169      -5.2647e-05      0.00016457        -0.045992       0.0918898     -0.000167373     2.09548e-06
                    -0.000198013     7.90572e-05        -0.157391       -0.972751     -0.000194459    -4.56802e-06          0.16647       -0.124498
502800                  0.190413        0.252805      3.38364e-05     0.000208647         -0.74889      -0.0762786     -0.000191686     6.57661e-05
                     3.25467e-05     0.000199824         0.198112      -0.0520692      -7.9101e-05     0.000186733        -0.158522       -0.976855
                       -0.748867       -0.076311     -5.11662e-05     0.000170396       -0.0302562       0.0832852     -0.000170804     1.00762e-05
                    -0.000203423     7.58407e-05        -0.158543       -0.976892     -0.000198233     3.90417e-06         0.206192       -0.129501
506000                  0.218846         0.27666      2.54737e-05     0.000216116        -0.710083      -0.0597788     -0.000197425     6.25484e-05
                     2.49468e-05      0.00020733         0.222151      -0.0822079     -7.69867e-05     0.000193334        -0.159815       -0.981493
                       -0.710065      -0.0598153     -4.95041e-05     0.000176632       -0.0121536       0.0728834     -0.000174392     1.88782e-05
                    -0.000209181     7.22383e-05        -0.159836       -0.981532     -0.000202166     1.32614e-05          0.25378       -0.135258
509200                  0.249928         0.30724      1.57597e-05     0.000224218        -0.667756      -0.0471444     -0.000203553     5.89293e-05
                     1.60862e-05     0.000215525         0.247991       -0.118854     -7.46064e-05     0.000200399        -0.161277       -0.986726
                       -0.667744       -0.047184     -4.76317e-05      0.00018332       0.00886902       0.0601005     -0.000178133     2.86281e-05
                    -0.000215313     6.81891e-05          -0.1613       -0.986767     -0.000206247     2.36406e-05         0.311823        -0.14193
512400                  0.283261        0.346817      4.37867e-06     0.000232993         -0.62243       -0.039218     -0.000210104     5.48425e-05
                     5.66152e-06     0.000224472         0.275303       -0.163909     -7.19164e-05     0.000207975         -0.16198       -0.986794
                       -0.622424      -0.0392595     -4.55143e-05     0.000190511        0.0335401       0.0440861     -0.000182014     3.94783e-05
                    -0.000221846     6.36201e-05        -0.161996       -0.986791     -0.000210455     3.52061e-05         0.384186       -0.149711
515600                  0.317689        0.398426      -9.0798e-06     0.000242463        -0.574866      -0.0367571     -0.000217114     5.02079e-05
                    -6.72587e-06      0.00023422          0.30327       -0.219906     -6.88648e-05     0.000216115        -0.162748       -0.986668
                       -0.574867       -0.036799     -4.31097e-05      0.00019826        0.0628276       0.0235613     -0.000186012     5.16139e-05
                    -0.000228809     5.84439e-05        -0.162765       -0.986665     -0.000214756     4.81568e-05         0.476903       -0.158812
518800                  0.350606        0.465939     -2.51547e-05     0.000252606        -0.526052      -0.0403537      -0.00022462     4.49287e-05
                     -2.1605e-05     0.000244792         0.330158       -0.290187     -6.53881e-05     0.000224881        -0.163635       -0.986521
                       -0.526061      -0.0403943     -4.03668e-05     0.000206632        0.0980255     -0.00347147     -0.000190087     6.52603e-05
                    -0.000236231      5.2555e-05        -0.163652       -0.986518     -0.000219093     6.27342e-05         0.599943       -0.169386
522000                  0.376804        0.553771     -4.45593e-05     0.000263321        -0.477151      -0.0503559      -0.00023266     3.88871e-05
                    -3.96851e-05     0.000256146         0.352551       -0.378986     -6.14093e-05     0.000234341        -0.164667       -0.986349
                       -0.477167      -0.0503933     -3.72228e-05     0.000215701         0.140848        -0.04027     -0.000194173     8.06949e-05
                    -0.000244135     4.58258e-05        -0.164686       -0.986346     -0.000223375     7.92336e-05         0.771029       -0.181253
525200                  0.386837        0.665564     -6.82412e-05     0.000274355        -0.429424      -0.0668083     -0.000241269     3.19388e-05
                    -6.19245e-05      0.00026811         0.364031       -0.491172     -5.68338e-05     0.000244571        -0.165886       -0.986145
                       -0.429446      -0.0668408     -3.36002e-05     0.000225551         0.193459      -0.0924236     -0.000198164     9.82601e-05
                    -0.000252541     3.81014e-05        -0.165906       -0.986142     -0.000227464      9.8017e-05         0.982763       -0.184871
528400                  0.365662        0.800706     -9.74569e-05      0.00028518        -0.384129      -0.0894239      -0.00025048     2.39068e-05
                    -8.96209e-05     0.000280267         0.353155       -0.630934     -5.15448e-05     0.000255658        -0.167347       -0.985898
                       -0.384156      -0.0894502     -2.94026e-05     0.000236282         0.258121       -0.170086     -0.000201898     0.000118382
                    -0.000261458     2.91933e-05        -0.167368       -0.985894     -0.000231146     0.000119529         0.990854        -0.13494
531600                  0.294332        0.947923     -0.000133846     0.000294755        -0.342416       -0.117598     -0.000260314     1.45724e-05
                    -0.000124515     0.000291719         0.301204       -0.797936     -4.53968e-05       0.0002677         -0.16913       -0.985594
                       -0.342446       -0.117617     -2.45089e-05     0.000248007         0.335104       -0.292822     -0.000205117     0.000141591
                    -0.000270878     1.88714e-05        -0.169153        -0.98559     -0.000234095     0.000144318         0.997812      -0.0661152
534800                  0.146303         0.98924     -0.000179451     0.000301117        -0.305226       -0.150458     -0.000270774     3.66525e-06
                    -0.000168863     0.000300663         0.182581       -0.978979     -3.82076e-05     0.000280804        -0.171356       -0.985209
                       -0.305257        -0.15047     -1.87658e-05     0.000260857         0.413093       -0.499775     -0.000207423      0.00016855
                    -0.000280762     6.85516e-06        -0.171382       -0.985205     -0.000235813     0.000173049         0.997094       0.0761861
538000                -0.0250472        0.999686     -0.000236531     0.000300678        -0.273229       -0.186953     -0.000281834    -9.14947e-06
                    -0.000225333     0.000303616       -0.0216433       -0.999766     -2.97467e-05      0.00029509        -0.174216       -0.984707
                        -0.27326       -0.186957      -1.1977e-05     0.000274985         0.427874       -0.861963     -0.000208192     0.000200083
                    -0.000291031    -7.19691e-06        -0.174245       -0.984702     -0.000235536     0.000206528         0.540746        0.841186
541200                 -0.198063        0.980189     -0.000306762     0.000287153        -0.246793       -0.225946     -0.000293415    -2.42861e-05
                     -0.00029627     0.000294159        -0.249149       -0.968465     -1.97206e-05     0.000310683        -0.178029       -0.984025
                       -0.246822       -0.225942     -3.88908e-06     0.000290565        0.0936645       -0.995604     -0.000206446     0.000237194
                    -0.000301534    -2.36974e-05        -0.178061       -0.984019      -0.00023209     0.000245689        -0.886295        0.463121
544400                 -0.353032        0.935611     -0.000388976     0.000250463        -0.225992       -0.266313     -0.000305356    -4.22546e-05
                    -0.000381338     0.000261413         -0.47123        -0.88201     -7.75246e-06     0.000327714        -0.183374       -0.983043
                       -0.226018       -0.266303       5.8292e-06     0.000307795        -0.428215       -0.903677     -0.000200636     0.000281068
                    -0.000312014    -4.31385e-05        -0.183412       -0.983036     -0.000223668     0.000291545        -0.957962        0.286894
547600                 -0.479214        0.877698     -0.000474395     0.000177377        -0.210645       -0.307023     -0.000317366    -6.36748e-05
                    -0.000471968     0.000190216        -0.657753       -0.753234      6.64502e-06      0.00034631        -0.191438       -0.981505
                       -0.210666       -0.307008      1.76154e-05     0.000326898        -0.818305       -0.574784     -0.000188305     0.000332985
                    -0.000322059    -6.60937e-05        -0.191486       -0.981495     -0.000207505     0.000345007        -0.975753        0.218875
550800                 -0.575879        0.817535     -0.000540732     5.84421e-05        -0.200374       -0.347192     -0.000328948    -8.92829e-05
                    -0.000543714     6.87541e-05        -0.794223       -0.607626      2.41065e-05      0.00036657        -0.205108       -0.978739
                        -0.20039       -0.347174      3.20541e-05     0.000348115         -0.96135       -0.275329     -0.000165577     0.000394027
                    -0.000331021    -9.32029e-05        -0.205171       -0.978726      -0.00017944     0.000406455        -0.983858        0.178949
554000                 -0.625925        0.736218     -0.000555105    -9.60697e-05        -0.194668       -0.386111     -0.000339295    -0.000119915
                    -0.000558928    -9.18476e-05        -0.884232       -0.467048      4.54624e-05     0.000388538        -0.233981       -0.972241
                       -0.194678        -0.38609      4.99358e-05     0.000371691         -0.99666      -0.0816689     -0.000126457     0.000464308
                     -0.00033792    -0.000125125        -0.234083       -0.972217     -0.000133477     0.000474764        -0.988576        0.150726
557200                 -0.632325        0.643876     -0.000498195    -0.000247251        -0.192944        -0.42325      -0.00034714    -0.000156444
                    -0.000496676    -0.000246545        -0.939509       -0.342524      7.18019e-05     0.000412138         -0.34717       -0.937802
                       -0.192949       -0.423227      7.23402e-05      0.00039784        -0.993832       0.0417045     -6.22169e-05     0.000541206
                    -0.000341321    -0.000162426        -0.347479       -0.937688     -6.17902e-05     0.000545449         -0.99168        0.128725
560400                 -0.625042        0.568395     -0.000388282    -0.000352259        -0.194599       -0.458247     -0.000350575    -0.000199613
                    -0.000380801    -0.000348487        -0.971589       -0.236675      0.000104548     0.000437065      -0.00705848        0.999975
                       -0.194599       -0.458224      0.000100755     0.000426673        -0.874218        0.110381      3.80838e-05     0.000615903
                    -0.000339214     -0.00020537      -0.00709751        0.999975      4.36348e-05     0.000607797        -0.993868         0.11057
563600                 -0.610642        0.507467     -0.000265264    -0.000398301        -0.199045       -0.490887     -0.000346866    -0.000249708
                      -0.0002563    -0.000388101         -0.94391       -0.141327      0.000145538     0.000462604        0.0492659       0.0589584
                       -0.199039       -0.490865      0.000137241     0.000458054        -0.784724        0.147499      0.000183113     0.000668623
                    -0.000328969    -0.000253552        0.0492718       0.0589682      0.000185671     0.000642496        -0.944981       0.0902219
564000                 -0.608556        0.500736      -0.00025063    -0.000400511        -0.199769       -0.494795     -0.000345729    -0.000256436
                    -0.000241817    -0.000389522         -0.93733        -0.13068       0.00015135     0.000465778        0.0391215      -0.0186757
                       -0.199763       -0.494773        0.0001425      0.00046213        -0.775188        0.150817      0.000204378     0.000672167
                    -0.000326964    -0.000259881        0.0391335      -0.0186496      0.000205643     0.000643645        -0.934594       0.0875305
566800                 -0.593002        0.458347     -0.000157788    -0.000400226        -0.205737       -0.521074     -0.000332407    -0.000305977
                    -0.000151428    -0.000384644        -0.891421      -0.0661766      0.000197066     0.000487307       -0.0116712       -0.337811
                       -0.205727       -0.521052      0.000184635       0.0004913        -0.716528        0.168701      0.000367257     0.000667693
                     -0.00030749    -0.000305379       -0.0116446       -0.337752      0.000352664     0.000624878        -0.870002       0.0710918
570000                 -0.574313        0.418559     -7.47948e-05    -0.000378415        -0.214188       -0.548802     -0.000303055    -0.000365803
                    -7.26617e-05    -0.000359948        -0.841297     -0.00996121      0.000261816     0.000508486       -0.0436802       -0.502512
                       -0.214174       -0.548782      0.000246768     0.000524625        -0.663335        0.181309       0.00055633     0.000584611
