! TOUCHSTONE file generated by CST MICROWAVE STUDIO
! Date and time: Mon Oct 20 08:27:29 2025
! Project name: Teste_Macro_Metasurface_Nanopilar.cst
! Parameters = {H=600; L_x=115; L_y=200; Lambda=1064; Max_L=200; Min_L=70; PathPara=1; Phi=0; Step_L=10; Theta=0; p=520; phaseX=180; phaseY=0}
! Header version: 2018
! Port assignment regex: !\s*Touchstone port\s*([0-9]+)\s*=\s*(CST MWS port|CST DS port)\s*([0-9]+|Zmin|Zmax)\s*\(\"(.*)\"\)(\s*mode\s*([0-9]+))?.*
! Touchstone port assignment:
! Touchstone port 1 = CST MWS port Zmax ("") mode 1
! Touchstone port 2 = CST MWS port Zmax ("") mode 2
! Touchstone port 3 = CST MWS port Zmin ("") mode 1
! Touchstone port 4 = CST MWS port Zmin ("") mode 2
! S-Parameters are not renormalized. Each port impedance will be approximated by the real part at minimum frequency. The values are described via the [Reference] keyword.
! Default impedance is overridden by [Reference]
[Version] 2.0
# GHz S RI R 376.73
[Number of Ports] 4
[Reference]
376.73 376.73 259.888 259.888 
[Number of Frequencies] 52
[Network Data]
474000                  0.336593       -0.282528     -3.81933e-06     3.74793e-05        -0.798478          0.3863       1.4563e-05    -2.85124e-06
                     5.37184e-06     1.82563e-05       -0.0912226        0.265215     -2.79882e-05     1.33705e-05        -0.865663       -0.349403
                       -0.798523        0.386329     -3.16422e-05     1.94561e-05        -0.433159        0.086267      2.68073e-06     2.85463e-05
                     3.27866e-05     1.65215e-05        -0.865665       -0.349395      1.79828e-05     4.64535e-05        -0.151724        0.268591
477200                  0.332146       -0.279934     -2.79115e-06     3.76129e-05        -0.804722        0.416479      1.39395e-05    -3.51462e-06
                     6.09402e-06     1.88748e-05        -0.100245        0.267369     -2.68218e-05     1.43708e-05        -0.857097       -0.347859
                       -0.804767        0.416509     -3.04954e-05        2.04e-05        -0.433236        0.108773      4.37819e-06      2.7192e-05
                     3.21109e-05     1.57779e-05        -0.857099       -0.347852      1.95653e-05      4.4876e-05        -0.160231        0.269753
480400                  0.327399        -0.27718     -1.73098e-06     3.77525e-05        -0.810248        0.449777      1.32836e-05    -4.21271e-06
                      6.8415e-06     1.95111e-05        -0.110045        0.269526     -2.56038e-05      1.5432e-05        -0.848262       -0.346338
                       -0.810294        0.449811     -2.92969e-05     2.14009e-05        -0.432303         0.13293       6.1533e-06     2.57364e-05
                     3.13976e-05     1.49929e-05        -0.848264        -0.34633      2.12178e-05     4.31867e-05        -0.169546        0.270965
483600                  0.322321       -0.274252     -6.37298e-07     3.78983e-05        -0.814728        0.486603      1.25927e-05     -4.9483e-06
                      7.6156e-06     2.01661e-05        -0.120722        0.271662     -2.43311e-05     1.65594e-05        -0.839146       -0.344843
                       -0.814774         0.48664     -2.80431e-05     2.24642e-05        -0.430127        0.158847       8.0106e-06     2.41688e-05
                     3.06436e-05     1.41629e-05        -0.839148       -0.344835      2.29442e-05     4.13741e-05        -0.179791        0.272226
486800                  0.316876       -0.271131      4.91495e-07     3.80508e-05        -0.817725        0.527412      1.18639e-05    -5.72452e-06
                     8.41777e-06     2.08406e-05        -0.132392        0.273744     -2.29999e-05     1.77591e-05        -0.829736       -0.343379
                        -0.81777        0.527453     -2.67306e-05     2.35956e-05        -0.426428         0.18663      9.95486e-06     2.24773e-05
                     2.98453e-05     1.32839e-05        -0.829738       -0.343371      2.47485e-05     3.94253e-05         -0.19111        0.273531
490000                  0.311022       -0.267798      1.65712e-06     3.82103e-05        -0.818653        0.572705       1.1094e-05    -6.54481e-06
                     9.24954e-06     2.15354e-05         -0.14519        0.275727     -2.16066e-05      1.9038e-05         -0.82002       -0.341951
                       -0.818698         0.57275     -2.53551e-05     2.48015e-05         -0.42087        0.216367       1.1991e-05      2.0648e-05
                     2.89986e-05     1.23516e-05        -0.820022       -0.341944      2.66347e-05     3.73257e-05         -0.20368        0.274872
493200                  0.304713       -0.264231      2.86139e-06     3.83773e-05        -0.795084        0.606499      1.02795e-05    -7.41304e-06
                     1.01125e-05     2.22514e-05        -0.159275        0.277552      -2.0147e-05     2.04038e-05        -0.809983       -0.340566
                       -0.795076         0.60651     -2.39125e-05     2.60893e-05        -0.413051        0.248119      1.41241e-05     1.86653e-05
                     2.80989e-05     1.13609e-05        -0.809984       -0.340559      2.86069e-05     3.50586e-05        -0.217719        0.276237
496400                  0.297892       -0.260405      4.10627e-06     3.85524e-05        -0.766776        0.641914      9.41637e-06    -8.33355e-06
                     1.10085e-05     2.29895e-05        -0.174834        0.279135     -1.86167e-05     2.18651e-05         -0.79961        -0.33923
                       -0.766767        0.641925      -2.2398e-05      2.7467e-05        -0.402499        0.281904      1.63593e-05     1.65114e-05
                     2.71413e-05     1.03062e-05        -0.799611       -0.339222      3.06692e-05     3.26049e-05        -0.233499        0.277603
499600                  0.290496       -0.256291      5.39384e-06     3.87361e-05        -0.733686        0.679489      8.50007e-06    -9.31118e-06
                     1.19394e-05     2.37509e-05        -0.192088        0.280365      -1.7011e-05     2.34319e-05        -0.788885       -0.337949
                       -0.733675        0.679501     -2.08065e-05      2.8944e-05        -0.388661        0.317677      1.87017e-05     1.41655e-05
                     2.61198e-05      9.1809e-06        -0.788886       -0.337942      3.28252e-05     2.99428e-05         -0.25136        0.278935
502800                  0.282447       -0.251856      6.72631e-06     3.89288e-05        -0.694859        0.719146      7.52556e-06    -1.03514e-05
                     1.29073e-05     2.45365e-05        -0.211299        0.281088     -1.53247e-05     2.51152e-05        -0.777792       -0.336733
                       -0.694846        0.719159     -1.91325e-05      3.0531e-05        -0.370903        0.355296      2.11563e-05     1.16042e-05
                     2.50279e-05     7.97784e-06        -0.777793       -0.336726      3.50786e-05     2.70473e-05        -0.271739        0.280178
506000                  0.273658       -0.247061      8.10608e-06     3.91314e-05        -0.649161        0.760651      6.48712e-06    -1.14606e-05
                     1.39143e-05     2.53475e-05        -0.232779        0.281092     -1.35525e-05     2.69279e-05        -0.766313        -0.33559
                       -0.649145        0.760665     -1.73701e-05     3.22399e-05        -0.348509        0.394491      2.37274e-05     8.79996e-06
                      2.3858e-05     6.68862e-06        -0.766314       -0.335583      3.74321e-05     2.38894e-05          -0.2952        0.281245
509200                  0.264019        -0.24186      9.53569e-06     3.93445e-05        -0.595262        0.803531      5.37823e-06    -1.26456e-05
                     1.49629e-05      2.6185e-05        -0.256892        0.280087     -1.16884e-05     2.88844e-05         -0.75443       -0.334529
                       -0.595244        0.803545     -1.55128e-05     3.40846e-05        -0.320697        0.434814      2.64189e-05     5.72135e-06
                     2.26015e-05     5.30366e-06        -0.754431       -0.334522      3.98877e-05     2.04357e-05        -0.322486        0.281997
512400                  0.253404       -0.236202      1.10179e-05     3.95688e-05        -0.531668        0.846953       4.1915e-06    -1.39146e-05
                     1.60556e-05     2.70504e-05         -0.28407        0.277664     -9.72637e-06     3.10014e-05        -0.742122       -0.333563
                       -0.531645        0.846967     -1.35536e-05      3.6081e-05        -0.286648        0.475593      2.92334e-05     2.33162e-06
                     2.12484e-05     3.81186e-06        -0.742123       -0.333556      4.24458e-05     1.66474e-05        -0.354598        0.282209
515600                  0.241655       -0.230023      1.25556e-05     3.98051e-05         -0.45679        0.889575       2.9184e-06    -1.52768e-05
                     1.71952e-05     2.79451e-05        -0.314809        0.273255     -7.65977e-06     3.32984e-05         -0.72937       -0.332702
                       -0.456763        0.889588     -1.14851e-05     3.82474e-05        -0.245562        0.515872      3.21718e-05     -1.4119e-06
                     1.97871e-05     2.20037e-06         -0.72937       -0.332696      4.51046e-05     1.24796e-05        -0.392906        0.281511
518800                  0.228583       -0.223252       1.4152e-05     4.00545e-05        -0.369125         0.92938      1.54918e-06    -1.67429e-05
                     1.83848e-05     2.88703e-05        -0.349671        0.266053     -5.48178e-06     3.57974e-05         -0.71615       -0.331961
                       -0.369094        0.929392     -9.29928e-06     4.06051e-05        -0.196742        0.554371      3.52323e-05      -5.559e-06
                      1.8204e-05     4.54184e-07         -0.71615       -0.331955      4.78596e-05     7.87966e-06        -0.439339        0.279275
522000                  0.213951         -0.2158      1.58106e-05     4.03177e-05        -0.267573        0.963537      7.24994e-08    -1.83253e-05
                     1.96276e-05     2.98278e-05        -0.389258        0.254918     -3.18537e-06     3.85245e-05         -0.70244       -0.331355
                       -0.267538        0.963547     -6.98768e-06     4.31788e-05        -0.139713        0.589453      3.84095e-05    -1.01679e-05
                     1.64833e-05    -1.44432e-06         -0.70244       -0.331349      5.07017e-05     2.78618e-06        -0.496681        0.274401
525200                  0.197464       -0.207562      1.75349e-05     4.05961e-05        -0.151914        0.988394     -1.52479e-06    -2.00383e-05
                     2.09272e-05      3.0819e-05        -0.434147        0.238228      -7.6341e-07     4.15097e-05        -0.688215       -0.330901
                       -0.151875          0.9884     -4.54139e-06     4.59975e-05       -0.0743787        0.619149      4.16923e-05    -1.53066e-05
                     1.46063e-05    -3.51598e-06        -0.688215       -0.330895      5.36156e-05    -2.87272e-06         -0.56908        0.264874
528400                  0.178749       -0.198414      1.93289e-05     4.08907e-05       -0.0233932        0.999726     -3.25811e-06    -2.18989e-05
                     2.22876e-05     3.18457e-05        -0.484746        0.213683       1.7911e-06     4.47886e-05        -0.673449       -0.330616
                       -0.023351        0.999727     -1.95122e-06     4.90953e-05      -0.00118712        0.641242      4.50623e-05    -2.10548e-05
                     1.25506e-05    -5.78562e-06        -0.673449       -0.330611      5.65777e-05    -9.18123e-06        -0.662908        0.246802
531600                  0.157324         -0.1882       2.1197e-05     4.12029e-05         0.114787         0.99339     -5.14559e-06    -2.39269e-05
                      2.3713e-05     3.29097e-05        -0.540996        0.178064      4.48468e-06     4.84028e-05        -0.658114       -0.330523
                         0.11483        0.993385      7.92148e-07     5.25124e-05        0.0787083        0.653443      4.84897e-05    -2.75057e-05
                     1.02894e-05    -8.28305e-06        -0.658114       -0.330518      5.95521e-05     -1.6238e-05        -0.788245        0.212138
534800                  0.132561       -0.176736      2.31439e-05     4.15342e-05         0.257398        0.966305     -7.20875e-06    -2.61461e-05
                     2.52081e-05     3.40129e-05        -0.601787        0.126999      7.32291e-06     5.24017e-05        -0.642181       -0.330645
                        0.257439        0.966295      3.69774e-06     5.62966e-05          0.16336        0.653657        5.193e-05     -3.4768e-05
                     7.79027e-06    -1.10444e-05        -0.642181        -0.33064      6.24861e-05    -2.41581e-05        -0.961137        0.142801
538000                  0.103621       -0.163794      2.51745e-05     4.18861e-05         0.397835        0.917457     -9.47334e-06    -2.85847e-05
                      2.6778e-05     3.51575e-05        -0.663929       0.0549425      1.03096e-05     5.68438e-05         -0.62562       -0.331007
                        0.397872        0.917441      6.77382e-06     6.05051e-05         0.250057        0.640314       5.5317e-05    -4.29674e-05
                     5.01362e-06    -1.41137e-05         -0.62562       -0.331002      6.53034e-05    -3.30757e-05        -0.999988     -0.00493125
541200                 0.0693646       -0.149097      2.72943e-05     4.22606e-05           0.5294        0.848372     -1.19703e-05     -3.1277e-05
                     2.84283e-05     3.63455e-05        -0.720554      -0.0441561      1.34459e-05     6.17993e-05        -0.608399       -0.331638
                         0.52943        0.848353       1.0027e-05     6.52063e-05         0.335518        0.612694       5.8555e-05    -5.22485e-05
                     1.91047e-06    -1.75457e-05        -0.608398       -0.331633      6.78946e-05    -4.31448e-05        -0.974265       -0.225406
544400                 0.0281999        -0.13231      2.95094e-05     4.26595e-05         0.646702        0.762743     -1.47375e-05    -3.42647e-05
                     3.01652e-05     3.75794e-05        -0.759303       -0.174551      1.67283e-05     6.73521e-05        -0.590482       -0.332571
                        0.646725        0.762723      1.34608e-05     7.04832e-05         0.416241        0.571155      6.15072e-05    -6.27741e-05
                    -1.58036e-06    -2.14086e-05        -0.590481       -0.332567      7.01048e-05    -5.45403e-05        -0.829349       -0.558731
547600                -0.0221587       -0.113039      3.18262e-05     4.30851e-05         0.746517        0.665367     -1.78211e-05    -3.75995e-05
                     3.19955e-05     3.88615e-05        -0.761976       -0.333803      2.01463e-05     7.36035e-05        -0.571834       -0.333843
                        0.746533        0.665349       1.7074e-05     7.64362e-05         0.488952        0.517178      6.39805e-05    -7.47231e-05
                    -5.53636e-06    -2.57891e-05        -0.571834       -0.333839      7.17158e-05    -6.74552e-05         -0.36973       -0.929139
550800                -0.0851076       -0.090855      3.42519e-05       4.354e-05         0.814263        0.551782     -2.12787e-05    -4.13453e-05
                     3.39268e-05     4.01944e-05        -0.709244       -0.506387      2.36792e-05     8.06759e-05        -0.552418       -0.335493
                        0.814276        0.551769      2.08571e-05     8.31881e-05         0.551033          0.4532      6.57056e-05    -8.82826e-05
                    -1.00571e-05    -3.07986e-05        -0.552418        -0.33549      7.24227e-05    -8.20923e-05         0.268471       -0.963288
554000                 -0.165904      -0.0653874      3.67943e-05     4.40269e-05         0.798457        0.406214     -2.51829e-05    -4.55832e-05
                     3.59674e-05      4.1581e-05        -0.592583       -0.662176      2.72898e-05     8.87178e-05        -0.532194       -0.337568
                        0.798463        0.406205      2.47879e-05     9.08892e-05         0.600823        0.382267      6.63126e-05    -0.000103632
                    -1.52729e-05     -3.6583e-05        -0.532194       -0.337565      7.18048e-05    -9.86471e-05         0.642336       -0.766423
557200                 -0.273096       -0.036631      3.94619e-05      4.4549e-05         0.762669        0.280768     -2.96259e-05    -5.04169e-05
                     3.81267e-05     4.30241e-05        -0.425988       -0.768029      3.09169e-05     9.79092e-05        -0.511122       -0.340118
                        0.762672        0.280763       2.8824e-05     9.97248e-05         0.637719        0.307603      6.53018e-05    -0.000120912
                    -2.13573e-05    -4.33374e-05        -0.511121       -0.340115      6.92893e-05    -0.000117273         0.815266       -0.579087
560400                 -0.421428     -0.00593002      4.22642e-05     4.51098e-05         0.714642        0.175681     -3.47277e-05    -5.59816e-05
                     4.04149e-05     4.45268e-05        -0.242373        -0.80725      3.44629e-05     0.000108468        -0.489157         -0.3432
                        0.714642         0.17568      3.28916e-05     0.000109923         0.662086         0.23222      6.20168e-05    -0.000140174
                    -2.85471e-05    -5.13278e-05        -0.489157       -0.343197      6.41155e-05    -0.000138021         0.874833       -0.417414
563600                 -0.638222        0.020723      4.52115e-05     4.57134e-05         0.660246        0.089309     -4.06465e-05    -6.24566e-05
                     4.28436e-05     4.60923e-05       -0.0745989       -0.787245      3.77751e-05     0.000120659        -0.466256       -0.346879
                        0.660246       0.0893105      3.68681e-05     0.000121764         0.675022        0.158639      5.56283e-05    -0.000161297
                    -3.71735e-05    -6.09279e-05        -0.466256       -0.346877      5.53098e-05    -0.000160736         0.756821       -0.246612
564000                 -0.672391       0.0229977      4.55907e-05      4.5792e-05         0.653219       0.0797097     -4.14536e-05    -6.33412e-05
                     4.31577e-05     4.62925e-05       -0.0558236       -0.781592      3.81622e-05     0.000122312        -0.463326       -0.347384
                        0.653219       0.0797115      3.73499e-05     0.000123376          0.67591        0.149669      5.45638e-05    -0.000164051
                    -3.83745e-05    -6.22656e-05        -0.463325       -0.347382      5.38971e-05    -0.000163694         0.743731       -0.230594
566800                  -0.97828       0.0203237      4.83153e-05     4.63642e-05         0.603568       0.0191946     -4.75954e-05    -7.00852e-05
                     4.54258e-05     4.77239e-05        0.0594248       -0.729146      4.06189e-05     0.000134792        -0.442374       -0.351226
                        0.603568       0.0191982      4.05548e-05     0.000135593         0.678084        0.088751      4.51522e-05    -0.000183869
                    -4.77148e-05    -7.26784e-05        -0.442374       -0.351225      4.17008e-05    -0.000184912         0.661953       -0.140208
570000                 -0.997883      -0.0650389      5.15882e-05     4.70675e-05         0.547263        -0.03728      -5.5869e-05    -7.92056e-05
                     4.81758e-05     4.94253e-05         0.157054       -0.653828      4.26359e-05     0.000151232        -0.417463       -0.356323
                        0.547263       -0.037275      4.36353e-05     0.000151822          0.67302       0.0238097       2.9536e-05    -0.000207041
