! TOUCHSTONE file generated by CST MICROWAVE STUDIO
! Date and time: Mon Oct 20 08:27:20 2025
! Project name: Teste_Macro_Metasurface_Nanopilar.cst
! Parameters = {H=600; L_x=100; L_y=70; Lambda=1064; Max_L=200; Min_L=70; PathPara=1; Phi=0; Step_L=10; Theta=0; p=520; phaseX=180; phaseY=0}
! Header version: 2018
! Port assignment regex: !\s*Touchstone port\s*([0-9]+)\s*=\s*(CST MWS port|CST DS port)\s*([0-9]+|Zmin|Zmax)\s*\(\"(.*)\"\)(\s*mode\s*([0-9]+))?.*
! Touchstone port assignment:
! Touchstone port 1 = CST MWS port Zmax ("") mode 1
! Touchstone port 2 = CST MWS port Zmax ("") mode 2
! Touchstone port 3 = CST MWS port Zmin ("") mode 1
! Touchstone port 4 = CST MWS port Zmin ("") mode 2
! S-Parameters are not renormalized. Each port impedance will be approximated by the real part at minimum frequency. The values are described via the [Reference] keyword.
! Default impedance is overridden by [Reference]
[Version] 2.0
# GHz S RI R 376.73
[Number of Ports] 4
[Reference]
376.73 376.73 259.888 259.888 
[Number of Frequencies] 52
[Network Data]
474000                   0.30774        0.162523      4.44434e-05    -1.91283e-05        -0.728445       -0.580318      2.51011e-05     8.52236e-05
                     4.39742e-05     -1.1053e-05         0.437685       -0.657176      3.54751e-05     4.70883e-05        -0.506818        0.285551
                        -0.72844       -0.580309      3.18765e-05     5.52471e-05         -0.21994       -0.265135     -7.76415e-05     6.88203e-05
                     2.00815e-05     8.68987e-05        -0.506809        0.285543      -8.1289e-05     7.68695e-05        -0.792025       0.0857985
477200                  0.317359        0.163832      4.35058e-05    -1.79792e-05        -0.729827       -0.576736      2.55571e-05     8.63467e-05
                     4.26265e-05    -1.01147e-05         0.422243       -0.727983      3.48043e-05     4.69587e-05        -0.497172        0.291775
                       -0.729822       -0.576726      3.13327e-05      5.5609e-05        -0.215234       -0.264394     -7.65008e-05     6.97005e-05
                     2.06782e-05     8.82494e-05        -0.497162        0.291766     -7.97124e-05     7.78571e-05        -0.780526        0.103377
480400                  0.328043        0.164968      4.25387e-05    -1.67673e-05        -0.731299        -0.57287      2.60496e-05     8.75703e-05
                     4.12224e-05    -9.11743e-06          0.38771       -0.815307      3.40834e-05     4.68135e-05        -0.486746         0.29829
                       -0.731292        -0.57286      3.07427e-05     5.59966e-05        -0.210473       -0.263564     -7.52993e-05     7.06173e-05
                      2.1323e-05     8.97248e-05        -0.486735        0.298281     -7.80499e-05     7.88818e-05        -0.767693        0.120916
483600                  0.339963        0.165844      4.15412e-05    -1.54878e-05        -0.732867       -0.568685       2.6583e-05     8.89085e-05
                     3.97585e-05    -8.05578e-06         0.318887       -0.918382      3.33065e-05     4.66501e-05        -0.475447         0.30511
                        -0.73286       -0.568675      3.01007e-05     5.64127e-05        -0.205659        -0.26264     -7.40319e-05     7.15731e-05
                     2.20216e-05     9.13429e-05        -0.475436          0.3051     -7.62946e-05     7.99455e-05        -0.753465        0.138302
486800                   0.35332        0.166338      4.05125e-05    -1.41354e-05        -0.734542       -0.564142      2.71627e-05     9.03783e-05
                     3.82313e-05    -6.92385e-06         0.184764       -0.982783      3.24672e-05     4.64656e-05        -0.463168        0.312246
                       -0.734535       -0.564131      2.93993e-05     5.68605e-05        -0.200793       -0.261618     -7.26931e-05     7.25701e-05
                      2.2781e-05     9.31256e-05        -0.463156        0.312235     -7.44385e-05       8.105e-05         -0.73779        0.155406
490000                  0.368354         0.16628      3.94515e-05     -1.2704e-05        -0.736335       -0.559191      2.77949e-05     9.19999e-05
                      3.6637e-05    -5.71502e-06       -0.0113699       -0.999935      3.15576e-05     4.62561e-05        -0.449783        0.319706
                       -0.736327        -0.55918      2.86301e-05     5.73436e-05        -0.195878       -0.260497     -7.12771e-05     7.36111e-05
                     2.36092e-05     9.50989e-05        -0.449771        0.319694     -7.24732e-05     8.21972e-05        -0.720628        0.172088
493200                  0.385352        0.165432      3.83577e-05    -1.11872e-05        -0.738256       -0.553775      2.84868e-05     9.37981e-05
                     3.49716e-05    -4.42188e-06        -0.253795       -0.967258      3.05686e-05      4.6017e-05        -0.435146        0.327495
                       -0.738248       -0.553764      2.77828e-05     5.78661e-05        -0.190913       -0.259271     -6.97769e-05     7.46986e-05
                     2.45158e-05     9.72953e-05        -0.435134        0.327483      -7.0389e-05     8.33893e-05        -0.701956        0.188191
496400                   0.40465        0.163455      3.72303e-05    -9.57781e-06         -0.74032       -0.547828      2.92471e-05     9.58033e-05
                     3.32308e-05    -3.03608e-06        -0.500293       -0.865856      2.94898e-05     4.57426e-05        -0.419088        0.335613
                       -0.740311       -0.547815       2.6845e-05      5.8433e-05        -0.185901       -0.257938      -6.8185e-05     7.58358e-05
                      2.5512e-05     9.97546e-05        -0.419075          0.3356      -6.8175e-05     8.46281e-05        -0.681766        0.203551
499600                  0.426638        0.159861      3.60688e-05    -7.86781e-06         -0.74254       -0.541265      3.00862e-05     9.80534e-05
                     3.14102e-05    -1.54821e-06        -0.585519       -0.605218      2.83085e-05     4.54258e-05        -0.401406        0.344051
                       -0.742531       -0.541253      2.58017e-05     5.90496e-05        -0.180845       -0.256494     -6.64931e-05     7.70257e-05
                     2.66112e-05     0.000102527        -0.401392        0.344037     -6.58194e-05     8.59158e-05        -0.660074        0.217991
502800                  0.451748        0.153955       3.4873e-05    -6.04839e-06        -0.744934       -0.533989      3.10167e-05     0.000100596
                     2.95048e-05     5.23484e-08        -0.544989       -0.381954      2.70099e-05     4.50576e-05        -0.381863        0.352785
                       -0.744924       -0.533976      2.46342e-05     5.97226e-05        -0.175746       -0.254935     -6.46915e-05     7.82718e-05
                     2.78293e-05     0.000105675        -0.381848         0.35277     -6.33085e-05     8.72544e-05        -0.636918         0.23133
506000                  0.480421        0.144729      3.36427e-05    -4.10974e-06        -0.747518       -0.525877      3.20538e-05     0.000103492
                     2.75098e-05     1.77765e-06        -0.450662       -0.235457       2.5576e-05     4.46264e-05        -0.360177        0.361777
                       -0.747508       -0.525863      2.33193e-05     6.04592e-05        -0.170607       -0.253259     -6.27695e-05     7.95779e-05
                     2.91855e-05     0.000109281        -0.360162         0.36176      -6.0627e-05     8.86458e-05        -0.612363        0.243384
509200                   0.51303        0.130727      3.23783e-05    -2.04095e-06        -0.750313       -0.516778      3.32158e-05      0.00010682
                     2.54198e-05     3.64137e-06        -0.350655       -0.151041      2.39854e-05     4.41174e-05        -0.336011        0.370957
                       -0.750301       -0.516763      2.18278e-05     6.12682e-05         -0.16543       -0.251461      -6.0715e-05     8.09478e-05
                     3.07026e-05     0.000113452        -0.335995        0.370939     -5.77578e-05     9.00918e-05        -0.586503         0.25397
512400                  0.549699        0.109872      3.10806e-05     1.70112e-07        -0.753337       -0.506502      3.45256e-05     0.000110684
                     2.32293e-05     5.65914e-06        -0.262825       -0.105618      2.22119e-05     4.35113e-05        -0.308963        0.380221
                       -0.753325       -0.506486      2.01222e-05     6.21594e-05        -0.160219       -0.249538     -5.85142e-05     8.23857e-05
                     3.24078e-05     0.000118331        -0.308947        0.380201     -5.46813e-05      9.1594e-05         -0.55946        0.262914
515600                  0.589932       0.0792618      2.97508e-05     2.53698e-06        -0.756611       -0.494807      3.60109e-05     0.000115224
                     2.09328e-05      7.8488e-06        -0.190361      -0.0826365      2.02237e-05     4.27821e-05        -0.278552        0.389406
                       -0.756597        -0.49479      1.81541e-05     6.31439e-05        -0.154975       -0.247486     -5.61513e-05     8.38962e-05
                     3.43332e-05     0.000124112        -0.278535        0.389384     -5.13753e-05     9.31537e-05        -0.531384        0.270053
518800                  0.631933       0.0350833      2.83911e-05     5.07477e-06        -0.760151       -0.481384      3.77057e-05     0.000120633
                     1.85246e-05     1.02308e-05        -0.131619      -0.0722409      1.79814e-05     4.18952e-05        -0.244196        0.398267
                       -0.760135       -0.481367      1.58594e-05     6.42343e-05        -0.149703       -0.245301     -5.36085e-05     8.54839e-05
                     3.65153e-05     0.000131068         -0.24418        0.398243     -4.78144e-05     9.47717e-05        -0.502452        0.275241
522000                  0.671463      -0.0270581      2.70044e-05     7.80036e-06        -0.763966       -0.465826      3.96512e-05     0.000127185
                     1.59992e-05     1.28287e-05       -0.0839807      -0.0688661      1.54366e-05     4.08029e-05        -0.205202        0.406442
                       -0.763949       -0.465807      1.31521e-05     6.54435e-05        -0.144406       -0.242981      -5.0865e-05     8.71539e-05
                     3.89922e-05     0.000139591        -0.205186        0.406416     -4.39695e-05     9.64478e-05        -0.472867        0.278358
525200                  0.700409       -0.110687       2.5595e-05     1.07327e-05        -0.768051        -0.44759      4.18947e-05     0.000135281
                     1.33511e-05     1.56697e-05        -0.045045      -0.0693938      1.25287e-05     3.94389e-05        -0.160737        0.413394
                       -0.768032        -0.44757      9.91396e-06     6.67836e-05        -0.139087       -0.240522     -4.78969e-05     8.89113e-05
                     4.17952e-05     0.000150268        -0.160721        0.413365     -3.98072e-05     9.81811e-05        -0.442853        0.279309
528400                  0.706175       -0.215025      2.41685e-05     1.38928e-05        -0.772365       -0.425938      4.44854e-05     0.000145532
                     1.05756e-05     1.87853e-05       -0.0128855      -0.0720617      9.18273e-06     3.77081e-05        -0.109818        0.418331
                       -0.772343       -0.425916      5.97894e-06     6.82623e-05        -0.133751        -0.23792     -4.46767e-05     9.07614e-05
                     4.49237e-05     0.000164013        -0.109803        0.418299      -3.5289e-05     9.99692e-05        -0.412647        0.278034
531600                  0.674654       -0.330049      2.27325e-05     1.73045e-05        -0.776805        -0.39984      4.74551e-05     0.000158914
                     7.66887e-06     2.22119e-05        0.0139756      -0.0758607      5.30576e-06     3.54722e-05       -0.0513026        0.420085
                        -0.77678       -0.399817      1.10724e-06     6.98741e-05        -0.128401       -0.235173     -4.11721e-05     9.27094e-05
                     4.82733e-05     0.000182321       -0.0512885         0.42005     -3.03701e-05     0.000101808        -0.382499        0.274507
534800                  0.598958       -0.434723      2.12972e-05     2.09942e-05        -0.781133       -0.367822      5.07562e-05     0.000177081
                     4.62837e-06     2.59921e-05        0.0366577      -0.0802067      7.85316e-07     3.25239e-05        0.0160871        0.416941
                       -0.781104       -0.367798     -5.05792e-06     7.15819e-05        -0.123042       -0.232276     -3.73454e-05     9.47605e-05
                     5.14217e-05     0.000207798        0.0160991        0.416903     -2.49987e-05     0.000103689        -0.352659        0.268741
538000                  0.488633       -0.505282      1.98757e-05     2.49916e-05        -0.784843       -0.327714        5.405e-05     0.000203059
                     1.45389e-06     3.01757e-05        0.0560087      -0.0847596     -4.50762e-06     2.85446e-05         0.093674        0.406385
                       -0.784809       -0.327688     -1.30647e-05     7.32709e-05        -0.117679       -0.229227     -3.31522e-05     9.69193e-05
                     5.29277e-05     0.000245341        0.0936829        0.406344     -1.91142e-05     0.000105602        -0.323376        0.260783
541200                   0.36718       -0.530021      1.84851e-05     2.93298e-05        -0.786848       -0.276206       5.5914e-05     0.000242933
                    -1.85157e-06     3.48207e-05        0.0726751      -0.0893218        -1.07e-05      2.3031e-05         0.182606        0.384767
                       -0.786808       -0.276179     -2.37834e-05     7.46362e-05        -0.112317       -0.226024       -2.854e-05     9.91895e-05
                      4.7696e-05     0.000304932         0.182611        0.384722     -1.26455e-05     0.000107532        -0.294886        0.250718
544400                  0.257601       -0.514861      1.71475e-05     3.40457e-05        -0.784764       -0.208074      5.03115e-05     0.000310492
                    -5.28023e-06     3.99953e-05        0.0871546      -0.0937804     -1.78534e-05     1.51692e-05         0.283379        0.346884
                       -0.784714       -0.208046     -3.86292e-05      7.4888e-05         -0.10696       -0.222662     -2.34462e-05     0.000101573
                     1.50391e-05     0.000407695         0.283377        0.346838     -5.50919e-06     0.000109453        -0.267409        0.238664
547600                  0.171625       -0.475074      1.58914e-05       3.918e-05         -0.77307       -0.114822      6.05537e-06     0.000439985
                    -8.81751e-06     4.57795e-05         0.099834       -0.098073      -2.5774e-05     3.62693e-06         0.394905        0.285601
                       -0.773008       -0.114795     -5.98734e-05     7.19292e-05        -0.101615        -0.21914     -1.77958e-05      0.00010407
                    -0.000143399     0.000575558         0.394896        0.285555      2.39312e-06     0.000111334        -0.241142        0.224768
550800                  0.110197       -0.425004      1.47532e-05     4.47778e-05        -0.738057       0.0174218     -0.000280478     0.000651029
                    -1.24391e-05     5.22675e-05         0.111017       -0.102168     -3.34808e-05    -1.37203e-05         0.512889        0.191826
                       -0.737977       0.0174415     -9.05405e-05     5.99859e-05       -0.0962864       -0.215455     -1.14986e-05     0.000106675
                    -0.000632872     0.000472688         0.512872        0.191784      1.11778e-05     0.000113126        -0.216256        0.209201
554000                 0.0689892       -0.373886      1.37794e-05      5.0888e-05         -0.64275        0.208533     -0.000755325     0.000110382
                    -1.61067e-05     5.95694e-05         0.120946       -0.106053     -3.78289e-05    -3.97928e-05         0.627417       0.0556226
                       -0.642648        0.208532     -0.000129944     2.37595e-05       -0.0909807       -0.211604     -4.44491e-06     0.000109378
                    -0.000562997    -5.96349e-05         0.627393       0.0555885      2.09824e-05     0.000114762        -0.192893         0.19215
557200                 0.0426386       -0.326322      1.30294e-05     5.75631e-05        -0.383695        0.460928     -0.000364486    -0.000173929
                    -1.97629e-05     6.78138e-05         0.129814       -0.109726     -3.08143e-05    -7.62965e-05         0.720474       -0.130253
                       -0.383584        0.460877     -0.000148623    -6.07275e-05       -0.0857039       -0.207586      3.49912e-06     0.000112159
                    -0.000312508    -0.000139555         0.720447       -0.130274      3.19698e-05     0.000116148         -0.17116        0.173818
560400                 0.0265822       -0.284017      1.25786e-05     6.48584e-05          0.24333        0.576169     -0.000190493    -0.000137681
                    -2.33223e-05     7.71503e-05         0.137777       -0.113191      8.39291e-07    -0.000115387         0.765957       -0.363465
                        0.243372        0.576063     -7.86785e-05    -0.000149687       -0.0804625         -0.2034      1.24979e-05     0.000114982
                    -0.000195181    -0.000115751         0.765936       -0.363472      4.43324e-05     0.000117152        -0.151136         0.15441
563600                 0.0174447       -0.247194      1.25222e-05       7.283e-05         0.911905      -0.0669518     -0.000119293    -9.69986e-05
                    -2.66617e-05     8.77498e-05         0.144965       -0.116457      5.86745e-05    -0.000131255         0.736544       -0.624124
                        0.911894      -0.0669628      2.00351e-05    -0.000146086       -0.0752631       -0.199042      2.27548e-05      0.00011779
                     -0.00013657    -8.79662e-05         0.736539        -0.62412      5.82952e-05     0.000117584        -0.132867        0.134135
564000                 0.0166629       -0.242959      1.25486e-05     7.38767e-05         0.932317       -0.190992     -0.000113493     -9.2802e-05
                    -2.70555e-05     8.91729e-05         0.145814       -0.116852      6.64263e-05     -0.00013036         0.726659       -0.656865
                        0.932317       -0.190992      2.87366e-05    -0.000141159       -0.0746164       -0.198485      2.41373e-05     0.000118136
                    -0.000131385    -8.48887e-05         0.726656        -0.65686      6.01657e-05     0.000117586        -0.130708        0.131549
566800                 0.0128828       -0.215432      1.29805e-05     8.15317e-05         0.624623       -0.780927     -8.31561e-05    -6.81755e-05
                    -2.96042e-05     9.98045e-05         0.151482       -0.119535      0.000112364    -0.000108473         0.577774       -0.816196
                        0.624656         -0.7809      6.68037e-05     -0.00010261       -0.0701124       -0.194513      3.45222e-05     0.000120492
                    -0.000103037    -6.59835e-05         0.577785       -0.816189      7.41187e-05      0.00011718         -0.11637        0.113194
570000                 0.0113163       -0.188092      1.41034e-05     9.10102e-05         0.222712       -0.974884     -6.18691e-05     -4.7771e-05
                    -3.18997e-05     0.000113522         0.157416       -0.122435      0.000137925    -6.91526e-05         0.369457       -0.929248
                         0.22275       -0.974875      8.11543e-05    -6.65375e-05       -0.0650175       -0.189811      4.81147e-05     0.000122941
