! TOUCHSTONE file generated by CST MICROWAVE STUDIO
! Date and time: Mon Oct 20 08:27:51 2025
! Project name: Teste_Macro_Metasurface_Nanopilar.cst
! Parameters = {H=600; L_x=190; L_y=175; Lambda=1064; Max_L=200; Min_L=70; PathPara=1; Phi=0; Step_L=10; Theta=0; p=520; phaseX=180; phaseY=0}
! Header version: 2018
! Port assignment regex: !\s*Touchstone port\s*([0-9]+)\s*=\s*(CST MWS port|CST DS port)\s*([0-9]+|Zmin|Zmax)\s*\(\"(.*)\"\)(\s*mode\s*([0-9]+))?.*
! Touchstone port assignment:
! Touchstone port 1 = CST MWS port Zmax ("") mode 1
! Touchstone port 2 = CST MWS port Zmax ("") mode 2
! Touchstone port 3 = CST MWS port Zmin ("") mode 1
! Touchstone port 4 = CST MWS port Zmin ("") mode 2
! S-Parameters are not renormalized. Each port impedance will be approximated by the real part at minimum frequency. The values are described via the [Reference] keyword.
! Default impedance is overridden by [Reference]
[Version] 2.0
# GHz S RI R 376.73
[Number of Ports] 4
[Reference]
376.73 376.73 259.888 259.888 
[Number of Frequencies] 52
[Network Data]
474000                  0.797848         0.17591      0.000952798     0.000103004        -0.495517       -0.238098     -0.000623799    -0.000104893
                     0.000953791     0.000102255         -0.77382        0.225144     -0.000302665    -2.59731e-05        0.0608565        0.298182
                       -0.495517       -0.238098     -0.000303527    -2.58401e-05        -0.637938       -0.512856      0.000198132    -8.26278e-06
                     -0.00062596    -0.000103914        0.0608557        0.298181      0.000199071    -6.56713e-06        -0.780638        0.348678
477200                  0.790829        0.187427      0.000966152     0.000182628        -0.496126       -0.302942     -0.000648035    -0.000130259
                     0.000967843      0.00018216        -0.782606        0.183031     -0.000302603    -2.06033e-05        0.0593817        0.296338
                       -0.496108        -0.30294     -0.000302542    -2.04312e-05         -0.77155       -0.400213      0.000199758    -9.54265e-06
                    -0.000650474    -0.000129201         0.059381        0.296337      0.000203434    -6.75856e-06        -0.769696        0.363339
480400                  0.782859        0.199945      0.000968337     0.000272393         -0.48054       -0.378964     -0.000672864    -0.000161467
                     0.000970724     0.000272449        -0.789257        0.139087      -0.00030245    -1.49234e-05        0.0578072        0.294356
                       -0.480499       -0.378949     -0.000301398    -1.47429e-05        -0.900768       -0.241304      0.000201437    -1.08913e-05
                    -0.000675652    -0.000160359        0.0578065        0.294355      0.000208021    -7.04598e-06        -0.757953        0.378318
483600                  0.773753        0.213586      0.000955174     0.000370799        -0.440287       -0.461442     -0.000697377    -0.000199805
                     0.000958162      0.00037166        -0.793512       0.0934175      -0.00030219    -8.90818e-06        0.0561226         0.29222
                       -0.440227       -0.461399     -0.000300074    -8.75666e-06          -0.9996      -0.0282767       0.00020317    -1.23138e-05
                    -0.000700597    -0.000198703        0.0561219        0.292219      0.000212848    -7.44409e-06        -0.745346        0.393606
486800                  0.763278         0.22849      0.000922392     0.000474529        -0.368298       -0.539016     -0.000720071    -0.000246664
                     0.000925751     0.000476471        -0.795111       0.0461663     -0.000301803     -2.5299e-06        0.0543161        0.289912
                       -0.368233       -0.538927     -0.000298543    -2.45229e-06        -0.976091        0.217363      0.000204959    -1.38159e-05
                     -0.00072381    -0.000245665        0.0543153        0.289911       0.00021793    -7.96987e-06         -0.73181        0.409185
490000                  0.751139        0.244819      0.000866526     0.000578116        -0.265045       -0.594183     -0.000738605    -0.000303353
                     0.000869881      0.00058134        -0.793795     -0.00248216     -0.000301266     4.24202e-06        0.0523739         0.28741
                       -0.265005       -0.594044     -0.000296777     4.19142e-06        -0.888922        0.458058      0.000206807    -1.54035e-05
                    -0.000742945    -0.000302605         0.052373         0.28741      0.000223285    -8.64293e-06        -0.717275        0.425035
493200                  0.736955         0.26275      0.000786155     0.000674153        -0.143768       -0.610509      -0.00074957    -0.000370692
                     0.000789017      0.00067869        -0.789317      -0.0523009     -0.000300554     1.14411e-05        0.0502803         0.28469
                       -0.143782       -0.610338     -0.000294742     1.11969e-05        -0.741853        0.670562      0.000208716    -1.70833e-05
                    -0.000754557    -0.000370415        0.0502795        0.284689       0.00022893    -9.48596e-06        -0.701665         0.44113
496400                  0.720236        0.282481      0.000683069     0.000754318       -0.0268949       -0.583459     -0.000748407    -0.000448341
                     0.000684935     0.000759968        -0.781448       -0.103019     -0.000299635     1.91043e-05        0.0480172         0.28172
                      -0.0269739       -0.583291     -0.000292398     1.85875e-05        -0.550299        0.834968      0.000210688    -1.88628e-05
                    -0.000754003    -0.000448824        0.0480164        0.281719      0.000234885    -1.05253e-05        -0.684901        0.457436
499600                  0.700334        0.304219      0.000562734     0.000811174        0.0662165       -0.523634     -0.000729754    -0.000533846
                     0.000563218     0.000817507        -0.769984       -0.154324     -0.000298469     2.72719e-05        0.0455634        0.278465
                       0.0660873       -0.523501     -0.000289699     2.63877e-05        -0.337351        0.941379      0.000212725      -2.075e-05
                    -0.000735777    -0.000535418        0.0455626        0.278464       0.00024117    -1.17914e-05        -0.666898        0.473912
502800                  0.676393        0.328171      0.000433539     0.000840107         0.128178       -0.448569     -0.000688584    -0.000621723
                      0.00043249     0.000846556        -0.754757        -0.20586     -0.000297012      3.5988e-05         0.042894        0.274882
                        0.128025       -0.448483     -0.000286594     3.46221e-05        -0.125945        0.992037       0.00021483    -2.27538e-05
                     -0.00069466    -0.000624664        0.0428931        0.274881      0.000247803    -1.33197e-05        -0.647566        0.490507
506000                  0.647259        0.354505      0.000304941      0.00084049         0.162151       -0.372885     -0.000622236    -0.000703285
                     0.000302476     0.000846499        -0.735643       -0.257239     -0.000295209     4.53008e-05        0.0399797         0.27092
                        0.161996       -0.372843     -0.000283018     4.33157e-05        0.0675808        0.997714      0.000217005     -2.4884e-05
                    -0.000627807    -0.000707693        0.0399788        0.270919      0.000254808    -1.51514e-05        -0.626813         0.50716
509200                  0.611364        0.383288      0.000185313     0.000815513         0.175649       -0.304661     -0.000532681    -0.000768124
                     0.000181756     0.000820666         -0.71257       -0.308041     -0.000292995     5.52625e-05        0.0367858        0.266515
                        0.175506       -0.304652     -0.000278902     5.24925e-05         0.235224        0.971941      0.000219252    -2.71514e-05
                    -0.000537141    -0.000773788        0.0367849        0.266515      0.000262204    -1.73343e-05        -0.604541        0.523799
512400                  0.566559        0.414353      8.04381e-05      0.00077087         0.175994       -0.246686     -0.000427447     -0.00080734
                     7.62065e-05     0.000774954        -0.685525       -0.357824     -0.000290291      6.5929e-05        0.0332708         0.26159
                        0.175868       -0.246701      -0.00027416     6.21748e-05         0.375453        0.926842      0.000221572     -2.9568e-05
                    -0.000430348    -0.000813737        0.0332699        0.261589      0.000270011    -1.99242e-05         -0.58065        0.540335
515600                  0.509884        0.447039     -6.90921e-06     0.000713085         0.168671        -0.19885     -0.000317861    -0.000816945
                    -1.14114e-05     0.000716073        -0.654557       -0.406136        -0.000287     7.73601e-05        0.0293851        0.256047
                        0.168563       -0.198879     -0.000268694     7.23816e-05         0.490389        0.871504      0.000223969     -3.2147e-05
                    -0.000319089    -0.000823399        0.0293841        0.256047      0.000278248    -2.29857e-05        -0.555036        0.556667
518800                  0.437298        0.479684     -7.64932e-05      0.00064816         0.157293       -0.159867     -0.000215261    -0.000799133
                    -8.09423e-05     0.000650155        -0.619786       -0.452527     -0.000283008      8.9618e-05        0.0250682        0.249764
                        0.157202       -0.159903      -0.00026239     8.31268e-05         0.583625        0.812023      0.000226442    -3.49031e-05
                     -0.00021504    -0.000805046        0.0250672        0.249763      0.000286931    -2.65941e-05        -0.527598        0.572673
522000                  0.343446        0.508656     -0.000129753     0.000580859         0.144079       -0.128183     -0.000127585     -0.00076062
                    -0.000133927     0.000582034        -0.581398       -0.496558     -0.000278171     0.000102766        0.0202466        0.242583
                        0.144002       -0.128223     -0.000255114     9.44156e-05         0.658961        0.752177      0.000228994    -3.78526e-05
                    -0.000126338     -0.00076563        0.0202456        0.242582      0.000296072    -3.08366e-05        -0.498231        0.588213
525200                  0.221825         0.52655     -0.000168965     0.000514546         0.130324       -0.102361     -5.81932e-05      -0.0007096
                    -0.000172734     0.000515088        -0.539646       -0.537817      -0.00027232     0.000116868          0.01483        0.234299
                        0.130259       -0.102402     -0.000246712     0.000106241         0.719837        0.694143      0.000231624    -4.10136e-05
                    -5.63687e-05    -0.000713595         0.014829        0.234298      0.000305675    -3.58141e-05        -0.466839        0.603124
528400                 0.0663816        0.519214     -0.000196629     0.000451341         0.116754      -0.0811949      -6.7304e-06    -0.000653278
                    -0.000199936     0.000451427        -0.494843       -0.575931     -0.000265244     0.000131979       0.00870654        0.224641
                        0.116699      -0.0812358     -0.000237003      0.00011858         0.769146        0.639073      0.000234332    -4.44063e-05
                    -4.69204e-06     -0.00065632       0.00870555         0.22464      0.000315736     -4.1643e-05        -0.433328        0.617221
531600                 -0.123019        0.462159     -0.000215106     0.000392413         0.103751      -0.0637207      2.92426e-05    -0.000596798
                    -0.000217943     0.000392193        -0.447358       -0.610575     -0.000256687     0.000148145       0.00173719        0.213242
                        0.103705      -0.0637603     -0.000225782     0.000131382         0.809232        0.587489      0.000237118    -4.80529e-05
                     3.12485e-05    -0.000599036       0.00173617        0.213241      0.000326237    -4.84567e-05        -0.397618        0.630292
534800                 -0.327759        0.321163      -0.00022645     0.000338266        0.0914994      -0.0491806      5.28591e-05    -0.000543262
                    -0.000228837      0.00033786        -0.397601       -0.641483      -0.00024634     0.000165391       -0.0062515        0.199595
                       0.0914596      -0.0492184     -0.000212813     0.000144565         0.841961        0.539538      0.000239978    -5.19784e-05
                       5.469e-05    -0.000544865      -0.00625254        0.199594      0.000337144     -5.6407e-05        -0.359639        0.642096
538000                 -0.493758       0.0704817     -0.000232356     0.000288976        0.0800655      -0.0369853      6.71235e-05     -0.00049421
                     -0.00023433     0.000288475        -0.346014       -0.668455     -0.000233824     0.000183705       -0.0154749        0.182978
                       0.0800314      -0.0370209     -0.000197831        0.000158         0.868803        0.495157       0.00024291    -5.62107e-05
                     6.87113e-05    -0.000495333        -0.015476        0.182977      0.000348394    -6.56647e-05        -0.319346        0.652367
541200                 -0.540561       -0.263932      -0.00023418     0.000244365        0.0694528      -0.0266762      7.45609e-05    -0.000450174
                    -0.000235786     0.000243835         -0.29306       -0.691359     -0.000218688      0.00020302       -0.0261958        0.162333
                       0.0694235      -0.0267095     -0.000180547     0.000171495         0.890915        0.454169      0.000245906    -6.07807e-05
                     7.58842e-05    -0.000450944       -0.0261969        0.162332      0.000359895     -7.6419e-05        -0.276716        0.660808
544400                 -0.427776       -0.586743     -0.000232984     0.000204117        0.0596299      -0.0178959      7.71454e-05    -0.000411101
                    -0.000234265     0.000203608        -0.239205       -0.710133     -0.000200391     0.000223179       -0.0387174        0.136045
                       0.0596047       -0.017927     -0.000160647     0.000184779         0.909207        0.416345      0.000248959     -6.5723e-05
                     7.82095e-05    -0.000411617       -0.0387185        0.136044      0.000371509    -8.88754e-05        -0.231762        0.667093
547600                 -0.206252       -0.805177     -0.000229585     0.000167856        0.0505483      -0.0103641      7.63564e-05    -0.000376642
                    -0.000230586     0.000167401        -0.184911       -0.724784     -0.000178306     0.000243897       -0.0533347        0.101547
                       0.0505265      -0.0103929     -0.000137813     0.000197478         0.924396        0.381433      0.000252056     -7.1076e-05
                     7.71797e-05    -0.000376979       -0.0533358        0.101546      0.000383046     -0.00010325        -0.184537        0.670874
550800                 0.0359291       -0.901795     -0.000224609     0.000135192        0.0421525     -0.00385956      7.32738e-05    -0.000346326
                    -0.000225367     0.000134812        -0.130621       -0.735384     -0.000151721     0.000264702       -0.0701445       0.0545275
                       0.0421335     -0.00388629     -0.000111744     0.000209087         0.937054        0.349185      0.000255183    -7.68825e-05
                     7.38803e-05    -0.000346539       -0.0701456        0.054526      0.000394247     -0.00011976        -0.135143        0.671778
554000                  0.244341        -0.91284     -0.000218528     0.000105744        0.0343856      0.00179332      6.86732e-05    -0.000319658
                    -0.000219079     0.000105455       -0.0767476       -0.742059     -0.000119873     0.000284857       -0.0883746      -0.0127181
                       0.0343691      0.00176862     -8.21888e-05     0.000218955         0.947633        0.319361      0.000258319    -8.31898e-05
                     6.90879e-05    -0.000319786       -0.0883756      -0.0127197      0.000404772    -0.000138607       -0.0837389        0.669417
557200                  0.405188       -0.879198     -0.000211699     7.91603e-05        0.0271925      0.00673521      6.31056e-05    -0.000296163
                    -0.000212073     7.89694e-05       -0.0236702       -0.744988     -8.20156e-05     0.000303274        -0.103924       -0.114945
                       0.0271781      0.00671243     -4.90085e-05     0.000226261         0.956498        0.291739      0.000261435    -9.00504e-05
                     6.33523e-05    -0.000296234        -0.103924       -0.114947      0.000414189    -0.000159956        -0.030552        0.663397
560400                  0.524021       -0.827534      -0.00020439     5.51184e-05        0.0205215       0.0110795      5.69593e-05    -0.000275414
                    -0.000204614     5.50298e-05        0.0282754       -0.744387      -3.7541e-05     0.000318424        -0.099401       -0.281987
                       0.0205089       0.0110585      -1.2244e-05     0.000230015         0.957422        0.264316      0.000264497    -9.75221e-05
                     5.70595e-05    -0.000275449       -0.0994013       -0.281989      0.000421967    -0.000183901        0.0241191        0.653326
563600                  0.610844       -0.771693       -0.0001968     3.33301e-05        0.0143248       0.0149181      5.05059e-05    -0.000257032
                    -0.000196897     3.33448e-05        0.0787984       -0.740507      1.38111e-05     0.000328279      0.000836704       -0.567727
                       0.0143138       0.0148989      2.77905e-05     0.000229093         0.955813        0.238712       0.00026746    -0.000105668
                     5.04788e-05    -0.000257047      0.000836787       -0.567727      0.000427476    -0.000210424        0.0798965        0.638833
564000                  0.619914       -0.764784     -0.000195839     3.07519e-05        0.0135814       0.0153663      4.96877e-05    -0.000254884
                    -0.000195922     3.07795e-05        0.0850011       -0.739804      2.07042e-05     0.000329018        0.0307511       -0.613999
                       0.0135705       0.0153473      3.29953e-05      0.00022859         0.955578        0.235667      0.000267821    -0.000106737
                      4.9646e-05    -0.000254897        0.0307511       -0.613999      0.000427971    -0.000213914        0.0869245        0.636693
566800                  0.674564       -0.717926     -0.000189077     1.35396e-05        0.0085591       0.0183265      4.39338e-05    -0.000240694
                    -0.000189067     1.36566e-05         0.127655       -0.733616      7.16614e-05      0.00033034         0.471633       -0.881795
                       0.0085494       0.0183088      7.04118e-05     0.000222308         0.953765        0.215243      0.000270266    -0.000114555
                     4.37961e-05    -0.000240697         0.471632       -0.881796      0.000430013    -0.000239348         0.136321        0.619579
570000                  0.721865       -0.668635     -0.000181332     -4.4786e-06       0.00318505       0.0213664      3.73725e-05    -0.000226119
                    -0.000181231    -4.26166e-06          0.17465          -0.724      0.000134641      0.00032184         0.946778       -0.321888
                      0.00317652       0.0213502       0.00011449     0.000208542         0.951395        0.193669      0.000272841    -0.000124258
