! TOUCHSTONE file generated by CST MICROWAVE STUDIO
! Date and time: Mon Oct 20 08:27:33 2025
! Project name: Teste_Macro_Metasurface_Nanopilar.cst
! Parameters = {H=600; L_x=130; L_y=190; Lambda=1064; Max_L=200; Min_L=70; PathPara=1; Phi=0; Step_L=10; Theta=0; p=520; phaseX=180; phaseY=0}
! Header version: 2018
! Port assignment regex: !\s*Touchstone port\s*([0-9]+)\s*=\s*(CST MWS port|CST DS port)\s*([0-9]+|Zmin|Zmax)\s*\(\"(.*)\"\)(\s*mode\s*([0-9]+))?.*
! Touchstone port assignment:
! Touchstone port 1 = CST MWS port Zmax ("") mode 1
! Touchstone port 2 = CST MWS port Zmax ("") mode 2
! Touchstone port 3 = CST MWS port Zmin ("") mode 1
! Touchstone port 4 = CST MWS port Zmin ("") mode 2
! S-Parameters are not renormalized. Each port impedance will be approximated by the real part at minimum frequency. The values are described via the [Reference] keyword.
! Default impedance is overridden by [Reference]
[Version] 2.0
# GHz S RI R 376.73
[Number of Ports] 4
[Reference]
376.73 376.73 259.888 259.888 
[Number of Frequencies] 52
[Network Data]
474000                 0.0382813        0.299178      2.05507e-05       1.575e-05        -0.554111        0.707635       5.8835e-05     0.000125798
                     2.05545e-05     1.57579e-05         0.172955        0.124371      0.000104132     5.93662e-05        -0.927473        0.290513
                       -0.554079        0.707654      8.71899e-05      7.4188e-05         0.283106      -0.0218482      4.03626e-05    -2.19313e-06
                     5.88372e-05     0.000125807        -0.927473        0.290513      4.87177e-05    -3.47111e-05        -0.069115        0.201982
477200                 0.0330162        0.296543      2.11786e-05     1.70675e-05        -0.538684        0.676908      5.87568e-05     0.000128412
                     2.07823e-05     1.68458e-05         0.187875        0.128085      0.000122203     5.91585e-05        -0.921925        0.301284
                       -0.538649        0.676931      0.000104378      7.4729e-05         0.282442      -0.0346088      4.54129e-05     -4.7754e-06
                     5.94731e-05     0.000128328        -0.921925        0.301284       5.3817e-05    -3.75264e-05       -0.0715231        0.194803
480400                 0.0273981        0.293672      2.18299e-05     1.84444e-05        -0.523014        0.646319      5.86518e-05      0.00013114
                      2.1017e-05     1.79807e-05         0.204186        0.132638      0.000142355     5.89265e-05        -0.915728        0.312642
                       -0.522974        0.646344      0.000123523     7.53498e-05         0.282018      -0.0487283      5.07775e-05    -7.54225e-06
                     6.01185e-05     0.000130971        -0.915727        0.312641      5.92339e-05    -4.05384e-05       -0.0740588        0.186907
483600                 0.0213911        0.290532      2.25059e-05      1.9885e-05          -0.5071         0.61587      5.85165e-05      0.00013399
                     2.12588e-05     1.91656e-05         0.222062        0.138236      0.000164968     5.86654e-05        -0.908789         0.32462
                       -0.507057        0.615898      0.000144979     7.60683e-05         0.281931      -0.0644227      5.64867e-05    -1.05139e-05
                     6.07724e-05     0.000133745        -0.908788        0.324618      6.49985e-05    -4.37682e-05       -0.0767245        0.178183
486800                 0.0149547        0.287087      2.32081e-05     2.13937e-05        -0.490945        0.585565       5.8347e-05     0.000136969
                      2.1508e-05     2.04041e-05         0.241705        0.145141      0.000190523     5.83696e-05        -0.901001        0.337253
                       -0.490899        0.585595       0.00016919     7.69079e-05          0.28231      -0.0819523      6.25745e-05    -1.37137e-05
                     6.14338e-05     0.000136659        -0.900999         0.33725      7.11456e-05    -4.72402e-05       -0.0795191        0.168497
490000                0.00804243        0.283293      2.39379e-05     2.29754e-05        -0.474552        0.555405       5.8139e-05     0.000140087
                     2.17649e-05     2.16997e-05         0.263338        0.153698      0.000219633     5.80315e-05        -0.892239        0.350573
                       -0.474503        0.555438      0.000196725        7.79e-05         0.283336       -0.101633      6.90796e-05    -1.71683e-05
                     6.21014e-05     0.000139724        -0.892237        0.350569      7.77142e-05    -5.09824e-05       -0.0824361        0.157687
493200               0.000601388        0.279096      2.46969e-05     2.46356e-05        -0.457921        0.525394      5.78873e-05     0.000143353
                     2.20296e-05     2.30565e-05         0.287207        0.164354      0.000253096     5.76413e-05        -0.882357        0.364609
                       -0.457869        0.525429      0.000228316     7.90871e-05         0.285262        -0.12385      7.60462e-05    -2.09092e-05
                     6.27733e-05     0.000142951        -0.882354        0.364604      8.47491e-05    -5.50272e-05       -0.0854609        0.145551
496400               -0.00742917        0.274435      2.54869e-05     2.63802e-05        -0.441056        0.495535      5.75864e-05     0.000146776
                     2.23026e-05     2.44789e-05         0.313571        0.177701      0.000291967     5.71862e-05        -0.871184        0.379382
                       -0.441001        0.495572      0.000264933     8.05283e-05         0.288446       -0.149071      8.35249e-05    -2.49727e-05
                     6.34475e-05     0.000146354         -0.87118        0.379376      9.23014e-05    -5.94123e-05       -0.0885648        0.131839
499600                -0.0161191        0.269232      2.63095e-05     2.82157e-05        -0.423958        0.465829      5.72296e-05     0.000150368
                     2.25841e-05     2.59718e-05         0.342688        0.194524      0.000337673     5.66484e-05        -0.858518        0.394907
                         -0.4239         0.46587      0.000307878     8.23079e-05         0.293397       -0.177869      9.15739e-05    -2.94016e-05
                     6.41213e-05     0.000149946        -0.858514        0.394899       0.00010043    -6.41821e-05       -0.0916983        0.116238
502800                -0.0255492        0.263394      2.71669e-05     3.01494e-05        -0.406628        0.436281      5.68094e-05     0.000154141
                     2.28742e-05     2.75406e-05         0.374772        0.215872      0.000392189     5.60031e-05        -0.844125         0.41118
                       -0.406569        0.436324      0.000358946     8.45497e-05         0.300858       -0.210934       0.00010026    -3.42466e-05
                     6.47915e-05     0.000153743         -0.84412         0.41117      0.000109203    -6.93886e-05        -0.094778       0.0983473
506000                -0.0358127        0.256808       2.8061e-05     3.21893e-05         -0.38907        0.406893      5.63173e-05     0.000158108
                     2.31733e-05      2.9191e-05          0.40993        0.243145      0.000458335     5.52147e-05        -0.827728        0.428175
                       -0.389009        0.406937      0.000420681     8.74421e-05         0.311921       -0.249088      0.000109663     -3.9568e-05
                     6.54541e-05     0.000157762        -0.827723        0.428163        0.0001187     -7.5094e-05       -0.0976658       0.0776541
509200                -0.0470181        0.249331      2.89942e-05     3.43443e-05        -0.371286        0.377667      5.57434e-05     0.000162283
                     2.34816e-05     3.09296e-05         0.448026        0.278215      0.000540277     5.42296e-05        -0.809006        0.445834
                       -0.371223        0.377713      0.000496814     9.12838e-05         0.328213       -0.293269      0.000119872    -4.54379e-05
                     6.61042e-05     0.000162023           -0.809        0.445821      0.000129014    -8.13724e-05        -0.100136       0.0534906
512400                -0.0592912        0.240784      2.99688e-05     3.66244e-05        -0.353277        0.348606      5.50762e-05     0.000166682
                     2.37992e-05     3.27637e-05         0.488449        0.323546      0.000644441     5.29639e-05        -0.787584        0.464053
                       -0.353212        0.348654      0.000593044     9.65741e-05         0.352189       -0.344449      0.000130996    -5.19437e-05
                     6.67358e-05     0.000166546        -0.787579        0.464037      0.000140254     -8.8313e-05        -0.101814        0.024979
515600                -0.0727786        0.230943      3.09874e-05     3.90408e-05        -0.335046        0.319712      5.43026e-05     0.000171321
                     2.41264e-05     3.47012e-05         0.529699        0.382293      0.000781283     5.12784e-05        -0.763031         0.48266
                        -0.33498        0.319762      0.000718535     0.000104202         0.387581       -0.403399      0.000143162     -5.9192e-05
                     6.73416e-05     0.000171356        -0.763026        0.482641      0.000152548    -9.60245e-05        -0.102081     -0.00904697
518800                -0.0876501        0.219517      3.20529e-05     4.16057e-05        -0.316595        0.290988      5.34072e-05      0.00017622
                     2.44631e-05     3.67512e-05         0.568712        0.458244      0.000969043     4.89237e-05        -0.734857        0.501394
                       -0.316528         0.29104       0.00088901      0.00011589          0.44003       -0.470081       0.00015652    -6.73141e-05
                     6.79127e-05      0.00017648        -0.734852        0.501372      0.000166052     -0.00010464       -0.0998832      -0.0501447
522000                 -0.104102        0.206132      3.31681e-05     4.43333e-05        -0.297927        0.262436      5.23723e-05     0.000181398
                     2.48094e-05     3.89235e-05         0.599856        0.555345       0.00124264     4.54054e-05        -0.702512        0.519867
                       -0.297859         0.26249        0.0011339     0.000135354          0.51782       -0.542238      0.000171254    -7.64731e-05
                      6.8438e-05     0.000181946        -0.702508        0.519842      0.000180951    -0.000114326       -0.0934059       -0.100387
525200                 -0.122356        0.190294      3.43363e-05     4.72394e-05        -0.279044        0.234059       5.1177e-05     0.000186878
                     2.51652e-05     4.12296e-05         0.613735        0.676265       0.00167835     3.95886e-05        -0.665401        0.537525
                       -0.278975        0.234114       0.00151541     0.000171985         0.632083       -0.612438      0.000187582    -8.68748e-05
                     6.89039e-05     0.000187789        -0.665399        0.537496       0.00019747    -0.000125289       -0.0794386       -0.162459
528400                 -0.142663        0.171343      3.55607e-05     5.03419e-05        -0.259948         0.20586      4.97972e-05     0.000192683
                     2.55302e-05     4.36818e-05         0.588658        0.808383       0.00248098      2.8187e-05         -0.62291        0.553591
                       -0.259879        0.205916       0.00219143     0.000255894         0.767792       -0.640699      0.000205773    -9.87815e-05
                      6.9294e-05     0.000194046        -0.622911        0.553558      0.000215884    -0.000137794       -0.0521808       -0.239558
531600                 -0.165286        0.148385       3.6845e-05      5.3661e-05        -0.240641         0.17784      4.82043e-05      0.00019884
                     2.59041e-05     4.62946e-05         0.479845        0.877353       0.00445101    -3.57148e-06        -0.574456        0.567006
                       -0.240572        0.177897       0.00371125     0.000534939         0.836294       -0.548281      0.000226156    -0.000112532
                     6.95876e-05     0.000200758        -0.574461        0.566968      0.000236532     -0.00015218      -0.00102388       -0.334459
534800                 -0.190476         0.12019      3.81929e-05     5.72201e-05        -0.221127        0.150001      4.63648e-05     0.000205378
                     2.62861e-05     4.90841e-05         0.345386        0.938461        0.0169246    -0.000329176        -0.519575        0.576366
                       -0.221058         0.15006       0.00993734      0.00316061         0.911302       -0.411739      0.000249143    -0.000128574
                     6.97594e-05     0.000207974        -0.519585        0.576323      0.000259838    -0.000168894        0.0930446       -0.445837
538000                  -0.21841       0.0850363      3.96081e-05     6.10457e-05        -0.201408        0.122347      4.42392e-05     0.000212327
                     2.66752e-05     5.20685e-05         0.191491        0.981494       -0.0105222     0.000103324        -0.458055        0.579869
                       -0.201339        0.122406       -0.0128831      0.00459583         0.971509       -0.237002      0.000275248    -0.000147503
                     6.97781e-05     0.000215748        -0.458072        0.579823      0.000286339     -0.00018853         0.260262       -0.556882
541200                 -0.249049       0.0404785      4.10948e-05     6.51685e-05        -0.181486        0.094879      4.17807e-05      0.00021972
                     2.70702e-05     5.52689e-05        0.0308482        0.999524      -0.00418727      9.5894e-05        -0.390139        0.575311
                       -0.181417       0.0949388      -0.00453508     0.000492953         0.998818      -0.0486127      0.000305123    -0.000170136
                     6.96044e-05      0.00022414        -0.390164        0.575263      0.000316717    -0.000211897         0.529412       -0.610477
544400                 -0.281838      -0.0169929       4.2657e-05     6.96239e-05        -0.161363       0.0675993      3.89335e-05     0.000227593
                      2.7469e-05     5.87094e-05        -0.121859        0.992547      -0.00267894     8.59546e-05        -0.316771        0.560163
                       -0.161295       0.0676597       -0.0027877     0.000201114         0.992396        0.123087      0.000339604    -0.000197613
                     6.91896e-05     0.000233218        -0.316807        0.560114      0.000351856    -0.000240125         0.863607       -0.499853
547600                 -0.315048      -0.0924205      4.42985e-05     7.44532e-05        -0.141043       0.0405101      3.56313e-05     0.000235983
                     2.78691e-05     6.24176e-05        -0.255855        0.966715       -0.0020028      8.0479e-05        -0.239879        0.531789
                       -0.140976       0.0405709      -0.00204728     0.000126939         0.965361        0.260916      0.000379768    -0.000231572
                     6.84725e-05     0.000243061        -0.239927        0.531742      0.000392912    -0.000274826         0.986005       -0.166716
550800                 -0.344387       -0.192889       4.6023e-05     7.97046e-05        -0.120528       0.0136135       3.1795e-05      0.00024493
                     2.82668e-05     6.64256e-05        -0.366814        0.930294      -0.00161904     7.70902e-05         -0.16259        0.487865
                       -0.120462       0.0136745      -0.00163906     9.84154e-05         0.931517        0.363697      0.000427012    -0.000274438
                      6.7376e-05     0.000253755         -0.16265        0.487823      0.000441416    -0.000318385         0.987723        0.156218
554000                 -0.360119       -0.327553      4.78336e-05     8.54348e-05        -0.099821      -0.0130885      2.73295e-05     0.000254474
                     2.86575e-05     7.07707e-05        -0.455509        0.890231      -0.00137173     7.47986e-05       -0.0892512        0.426979
                      -0.0997556      -0.0130274      -0.00138059      8.4877e-05         0.899003        0.437943      0.000483134    -0.000329925
                     6.58028e-05     0.000265398        -0.089322        0.426947      0.000499402    -0.000374451         0.915978         0.40123
557200                 -0.341687       -0.505209      4.97326e-05     9.17109e-05        -0.078924      -0.0395939      2.21208e-05     0.000264655
                     2.90345e-05     7.54968e-05        -0.509988        0.826349      -0.00119908     7.31487e-05       -0.0250986        0.349328
                      -0.0788597       -0.039533      -0.00120229      7.7576e-05          0.87105        0.491194       0.00055038     -0.00040397
                      6.3629e-05       0.0002781       -0.0251779        0.349308      0.000569564     -0.00044886         0.795633        0.547447
560400                  -0.25076       -0.723768      5.17205e-05     9.86128e-05       -0.0578399      -0.0659009      1.60313e-05     0.000275508
                     2.93893e-05     8.06552e-05        -0.525875        0.739248      -0.00107172     7.19051e-05        0.0245162        0.257234
                      -0.0577769      -0.0658402      -0.00107189     7.32884e-05         0.848271        0.529562      0.000631284    -0.000506504
                     6.06969e-05     0.000291982        0.0244326        0.257231      0.000655332    -0.000551422         0.653984         0.60034
563600                -0.0352915       -0.943151      5.37955e-05     0.000106237       -0.0365715      -0.0920075      8.89547e-06     0.000287067
                     2.97102e-05     8.63071e-05        -0.528681        0.664949     -0.000973888     7.09347e-05        0.0552135        0.155198
                        -0.03651      -0.0919473     -0.000972375     7.06141e-05         0.812565        0.545606      0.000727667    -0.000655048
                     5.68045e-05     0.000307174        0.0551309        0.155212      0.000760442    -0.000699658         0.543606        0.616228
564000                0.00222262       -0.966023      5.40608e-05     0.000107246       -0.0339001      -0.0952566      7.92039e-06     0.000288562
                     2.97471e-05     8.70517e-05        -0.528388        0.656516     -0.000963231     7.08282e-05        0.0575755        0.142036
                      -0.0338389      -0.0951965     -0.000961568     7.03548e-05         0.804843        0.544533      0.000740766    -0.000678229
                     5.62382e-05     0.000309172        0.0574934        0.142052      0.000775078    -0.000722798         0.531781        0.616729
566800                  0.289227        -0.95726      5.59519e-05     0.000114698       -0.0151216       -0.117912      5.13513e-07      0.00029935
                     2.99814e-05     9.25251e-05        -0.523512        0.602343     -0.000896386     7.01566e-05        0.0646281       0.0492827
                      -0.0150618       -0.117852     -0.000893936     6.88706e-05         0.756066        0.535399      0.000836436    -0.000882166
                     5.16919e-05     0.000323814        0.0645518       0.0493125      0.000886206    -0.000927023         0.459287        0.614817
570000                  0.592383       -0.805657      5.81782e-05     0.000124139       0.00650716       -0.143612     -9.35527e-06     0.000312361
                     3.01818e-05     9.93968e-05        -0.513719        0.549776     -0.000833473     6.95188e-05        0.0529616      -0.0540319
                      0.00656518       -0.143554     -0.000830523     6.76959e-05         0.709949        0.522891      0.000932907     -0.00125013
