! TOUCHSTONE file generated by CST MICROWAVE STUDIO
! Date and time: Mon Oct 20 08:27:16 2025
! Project name: Teste_Macro_Metasurface_Nanopilar.cst
! Parameters = {H=600; L_x=85; L_y=85; Lambda=1064; Max_L=200; Min_L=70; PathPara=1; Phi=0; Step_L=10; Theta=0; p=520; phaseX=180; phaseY=0}
! Header version: 2018
! Port assignment regex: !\s*Touchstone port\s*([0-9]+)\s*=\s*(CST MWS port|CST DS port)\s*([0-9]+|Zmin|Zmax)\s*\(\"(.*)\"\)(\s*mode\s*([0-9]+))?.*
! Touchstone port assignment:
! Touchstone port 1 = CST MWS port Zmax ("") mode 1
! Touchstone port 2 = CST MWS port Zmax ("") mode 2
! Touchstone port 3 = CST MWS port Zmin ("") mode 1
! Touchstone port 4 = CST MWS port Zmin ("") mode 2
! S-Parameters are not renormalized. Each port impedance will be approximated by the real part at minimum frequency. The values are described via the [Reference] keyword.
! Default impedance is overridden by [Reference]
[Version] 2.0
# GHz S RI R 376.73
[Number of Ports] 4
[Reference]
376.73 376.73 259.888 259.888 
[Number of Frequencies] 52
[Network Data]
474000                  0.452059      -0.0922322      9.00043e-05     4.29843e-05        -0.880207       -0.041611      1.11919e-05     8.31233e-05
                     7.88611e-05     2.30972e-05         0.452217      -0.0923277      6.27814e-05     8.63232e-05        -0.880096      -0.0417765
                       -0.880211      -0.0416088      7.58678e-05     8.18104e-05        -0.446024       -0.128017     -0.000118613     0.000121378
                     1.22252e-05     8.31184e-05        -0.880109       -0.041778     -0.000106477     0.000107137         -0.44613       -0.128291
477200                  0.444754      -0.0977215      8.87925e-05     4.14154e-05        -0.879044      -0.0225927      1.23934e-05      8.6022e-05
                      7.8146e-05     2.16197e-05         0.444869      -0.0978414      6.95164e-05     8.81427e-05        -0.878931      -0.0227465
                       -0.879048      -0.0225909       8.2119e-05     8.65594e-05        -0.414523       -0.145585     -0.000118042     0.000121942
                     1.51242e-05     8.45434e-05        -0.878945      -0.0227478     -0.000106067      0.00010781        -0.414835        -0.14545
480400                  0.437137       -0.103176      8.75579e-05     3.97488e-05        -0.877336     -0.00204172      1.36985e-05     8.92189e-05
                     7.74288e-05      2.0063e-05         0.437206       -0.103318      7.70896e-05     8.99702e-05        -0.877221     -0.00218293
                        -0.87734     -0.00204018      8.92494e-05      9.1846e-05        -0.381154       -0.155671     -0.000117445     0.000122527
                     1.83281e-05     8.60713e-05        -0.877234     -0.00218393     -0.000105635      0.00010851        -0.381805       -0.155297
483600                  0.429194       -0.108583      8.63022e-05     3.79766e-05        -0.874953       0.0202169      1.51208e-05     9.27621e-05
                     7.67116e-05     1.84216e-05         0.429218       -0.108746      8.56558e-05     9.17645e-05        -0.874835       0.0200892
                       -0.874958       0.0202181      9.74554e-05     9.77628e-05        -0.348293       -0.158559     -0.000116819     0.000123135
                     2.18867e-05     8.77117e-05        -0.874849       0.0200885     -0.000105181     0.000109239        -0.349317       -0.158137
486800                  0.420918       -0.113929      8.50275e-05     3.60907e-05        -0.871735        0.044382       1.6676e-05     9.67111e-05
                     7.59974e-05     1.66897e-05         0.420895        -0.11411      9.54072e-05     9.34616e-05        -0.871612       0.0442686
                        -0.87174       0.0443828      0.000106995     0.000104423          -0.3178       -0.155334     -0.000116164     0.000123766
                     2.58609e-05     8.94743e-05        -0.871626       0.0442683     -0.000104704     0.000109998        -0.319147       -0.155024
490000                  0.412296       -0.119198      8.37365e-05     3.40821e-05        -0.867478       0.0706788      1.83828e-05     0.000101139
                     7.52893e-05     1.48612e-05         0.412225       -0.119394      0.000106583     9.49625e-05        -0.867349       0.0705808
                       -0.867483       0.0706792      0.000118216     0.000111968        -0.290816        -0.14747     -0.000115476     0.000124423
                      3.0326e-05     9.13693e-05        -0.867363       0.0705809       -0.0001042     0.000110788        -0.292389       -0.147378
493200                  0.403319       -0.124374      8.24328e-05      3.1941e-05        -0.861923       0.0993626       2.0263e-05     0.000106139
                     7.45913e-05     1.29293e-05         0.403199       -0.124583      0.000119485      9.6115e-05        -0.861787        0.099281
                       -0.861928       0.0993624      0.000131593     0.000120567        -0.267812       -0.136469     -0.000114754     0.000125105
                     3.53761e-05     9.34061e-05        -0.861802       0.0992815     -0.000103669     0.000111613        -0.269501       -0.136643
496400                  0.393977        -0.12944      8.11207e-05     2.96569e-05        -0.854743         0.13072      2.23425e-05     0.000111828
                     7.39079e-05     1.08871e-05         0.393808       -0.129659      0.000134488      9.6683e-05        -0.854597        0.130656
                       -0.854748         0.13072      0.000147794     0.000130434        -0.248759       -0.123628     -0.000113994     0.000125816
                     4.11305e-05     9.55921e-05        -0.854612        0.130657     -0.000103107     0.000112474        -0.250466       -0.124072
499600                  0.384261       -0.134375      7.98055e-05     2.72184e-05        -0.845515        0.165073      2.46518e-05     0.000118357
                     7.32446e-05     8.72693e-06         0.384043       -0.134602      0.000152064      9.6298e-05        -0.845357        0.165027
                        -0.84552        0.165071      0.000167789      0.00014182        -0.233329       -0.109955     -0.000113195     0.000126556
                     4.77416e-05     9.79307e-05        -0.845373        0.165028     -0.000102513     0.000113374        -0.234976       -0.110642
502800                  0.374163        -0.13916      7.84941e-05     2.46132e-05        -0.833697        0.202771      2.72264e-05     0.000125927
                     7.26078e-05     6.44087e-06         0.373896       -0.139391      0.000172794     9.43797e-05        -0.833524        0.202744
                       -0.833702        0.202769      0.000193024     0.000155011        -0.221054      -0.0961612     -0.000112352     0.000127327
                     5.54078e-05     0.000100417        -0.833539        0.202746     -0.000101883     0.000114315        -0.222586      -0.0970512
506000                  0.363675       -0.143772      7.71943e-05     2.18282e-05        -0.818583        0.244193      3.01072e-05     0.000134805
                     7.20049e-05     4.02049e-06         0.363358       -0.144004      0.000197367     9.00049e-05        -0.818392        0.244185
                       -0.818588         0.24419      0.000225755     0.000170282         -0.21143      -0.0827157     -0.000111462     0.000128132
                     6.43906e-05     0.000103031        -0.818408        0.244188     -0.000101215     0.000115301        -0.212816      -0.0837644
509200                  0.352789       -0.148187      7.59163e-05     1.88494e-05        -0.799257        0.289724      3.33398e-05     0.000145357
                     7.14447e-05     1.45695e-06         0.352424       -0.148417      0.000226534     8.16952e-05        -0.799043        0.289735
                       -0.799263         0.28972      0.000269658     0.000187729        -0.203987      -0.0699004     -0.000110521     0.000128972
                     7.50404e-05     0.000105723        -0.799059        0.289739     -0.000100504     0.000116333         -0.20521      -0.0710649
512400                  0.341501        -0.15238      7.46718e-05     1.56619e-05        -0.774519        0.339727      3.69703e-05     0.000158099
                     7.09374e-05    -1.25895e-06         0.341088       -0.152604      0.000260929     6.70847e-05        -0.774277        0.339757
                       -0.774525        0.339723      0.000331048      0.00020674        -0.198306      -0.0578654     -0.000109525      0.00012985
                     8.78351e-05     0.000108389        -0.774293        0.339762     -9.97477e-05     0.000117416        -0.199361      -0.0591083
515600                  0.329806       -0.156324      7.34753e-05     1.22501e-05          -0.7428        0.394484      4.10356e-05     0.000173779
                      7.0495e-05     -4.1367e-06         0.329346       -0.156539      0.000300578     4.24557e-05        -0.742524         0.39453
                       -0.742808        0.394479      0.000421394     0.000224212        -0.194037      -0.0466731     -0.000108468     0.000130768
                     0.000103437     0.000110827         -0.74254        0.394536     -9.89403e-05     0.000118553        -0.194928      -0.0479625
518800                    0.3177       -0.159991      7.23439e-05     8.59752e-06         -0.70205        0.454086      4.55355e-05     0.000193517
                     7.01315e-05    -7.18595e-06         0.317195       -0.160192      0.000343706      2.3035e-06        -0.701733        0.454143
                        -0.70206        0.454079      0.000562377     0.000228154        -0.190889      -0.0363293     -0.000107347     0.000131729
                     0.000122781     0.000112637        -0.701749        0.454151     -9.80772e-05     0.000119749        -0.191623      -0.0376397
522000                  0.305184       -0.163349      7.12983e-05     4.68747e-06        -0.649615        0.518248      5.03617e-05     0.000219076
                      6.9863e-05    -1.04164e-05         0.304635       -0.163535      0.000384342     -6.0304e-05        -0.649249         0.51831
                       -0.649626        0.518241      0.000791875     0.000172842        -0.188629      -0.0268062     -0.000106153     0.000132736
                     0.000147197     0.000113042        -0.649264        0.518319     -9.71529e-05     0.000121007        -0.189217      -0.0281174
525200                  0.292257       -0.166368      7.03629e-05     5.02993e-07        -0.582112           0.586      5.51045e-05     0.000253357
                     6.97084e-05    -1.38374e-05         0.291667       -0.166534      0.000408942    -0.000150414        -0.581691        0.586055
                       -0.582126        0.585992       0.00111935    -0.000107685         -0.18707      -0.0180571     -0.000104881     0.000133792
                     0.000178573     0.000110487        -0.581705        0.586066     -9.61608e-05     0.000122333        -0.187523      -0.0193534
528400                  0.278922       -0.169015      6.95665e-05    -3.97259e-06        -0.495388        0.655183      5.84914e-05     0.000301455
                     6.96892e-05     -1.7458e-05         0.278295       -0.169158      0.000396244    -0.000262179        -0.494905        0.655215
                       -0.495404        0.655174       0.00112861    -0.000848032         -0.18606      -0.0100261     -0.000103523       0.0001349
                     0.000219463     0.000101789        -0.494918        0.655228     -9.50936e-05     0.000123731        -0.186391      -0.0112959
531600                  0.265186       -0.171255      6.89433e-05    -8.75511e-06        -0.384669        0.721697      5.65732e-05     0.000372943
                     6.98306e-05    -2.12862e-05         0.264523       -0.171371      0.000330029    -0.000369306        -0.384126        0.721684
                       -0.384689        0.721689      0.000390802     -0.00119067        -0.185484     -0.00265441     -0.000102069     0.000136063
                     0.000272713     8.03064e-05        -0.384137        0.721698     -9.39428e-05     0.000125208        -0.185703     -0.00388913
534800                  0.251055       -0.173052       6.8533e-05    -1.38587e-05        -0.245202        0.778484      3.59431e-05     0.000486987
                      7.0161e-05    -2.53286e-05         0.250362       -0.173139      0.000221265    -0.000435772        -0.244609        0.778399
                       -0.245226        0.778479      -5.6975e-05    -0.000919561        -0.185245      0.00411616      -0.00010051     0.000137287
                      0.00033877     3.24098e-05        -0.244618        0.778414     -9.26989e-05      0.00012677        -0.185365      0.00292272
538000                  0.236542       -0.174369      6.83818e-05    -1.92949e-05       -0.0737943        0.814473     -5.62782e-05     0.000679392
                     7.07131e-05    -2.95896e-05         0.235822       -0.174425       0.00010559    -0.000447162       -0.0731798        0.814287
                       -0.073823        0.814472     -0.000180937    -0.000664453        -0.185271       0.0103411      -9.8835e-05     0.000138574
                     0.000404772    -6.58337e-05       -0.0731853        0.814303     -9.13507e-05     0.000128424        -0.185301      0.00919314
541200                  0.221661       -0.175171      6.85428e-05     -2.5071e-05         0.128287        0.814217     -0.000439995     0.000925949
                     7.15237e-05    -3.40708e-05         0.220918       -0.175192      1.20597e-05    -0.000418568         0.128874        0.813913
                        0.128255        0.814222     -0.000203492    -0.000501667        -0.185503       0.0160719     -9.70299e-05      0.00013993
                     0.000419229    -0.000232004         0.128872        0.813928     -8.98852e-05     0.000130178        -0.185452       0.0149722
544400                   0.20643       -0.175418      6.90766e-05    -3.11888e-05         0.351228        0.759746      -0.00115635     0.000469026
                     7.26343e-05    -3.87698e-05         0.205669       -0.175402     -5.18571e-05    -0.000372797         0.351721        0.759338
                        0.351196         0.75976     -0.000198216    -0.000397309        -0.185894       0.0213561     -9.50801e-05     0.000141359
                     0.000306898    -0.000404347         0.351722         0.75935     -8.82876e-05      0.00013204        -0.185771       0.0203062
547600                  0.190869       -0.175072      7.00513e-05    -3.76418e-05         0.573375        0.636392     -0.000859634    -0.000217035
                     7.40909e-05     -4.3679e-05         0.190097       -0.175019      -9.1436e-05    -0.000324909         0.573715        0.635939
                        0.573346        0.636416     -0.000185852    -0.000326819        -0.186407       0.0262364     -9.29682e-05     0.000142866
                       0.0001134    -0.000457138         0.573718        0.635947     -8.65401e-05     0.000134019         -0.18622       0.0252371
550800                  0.175006       -0.174096      7.15423e-05    -4.44134e-05         0.763053         0.44205     -0.000509672    -0.000294056
                     7.59437e-05    -4.87839e-05         0.174228       -0.174004     -0.000114404    -0.000281476         0.763224        0.441649
                        0.763033         0.44208      -0.00017253    -0.000276722        -0.187013       0.0307518     -9.06739e-05     0.000144457
                    -3.27395e-05    -0.000400438         0.763226        0.441653     -8.46222e-05     0.000136127        -0.186768       0.0298031
554000                  0.158869       -0.172453      7.36315e-05    -5.14736e-05         0.888772        0.194119     -0.000339342    -0.000255931
                     7.82472e-05    -5.40618e-05         0.158091       -0.172322     -0.000126905    -0.000244293         0.888828        0.193866
                        0.888764        0.194152     -0.000160073    -0.000239571        -0.187688       0.0349368     -8.81737e-05     0.000146138
                    -0.000105948    -0.000318538         0.888827        0.193868     -8.25095e-05     0.000138374        -0.187392       0.0340383
557200                  0.142492       -0.170106      7.64054e-05    -5.87758e-05         0.933468      -0.0739103     -0.000249875    -0.000213531
                     8.10588e-05    -5.94795e-05         0.141722       -0.169936      -0.00013303    -0.000213152          0.93351       -0.073973
                        0.933471      -0.0738812     -0.000148936    -0.000211053        -0.188415       0.0388228     -8.54401e-05     0.000147913
                    -0.000135691    -0.000248748         0.933506      -0.0739721      -8.0173e-05     0.000140772        -0.188073       0.0379737
560400                  0.125914       -0.167021      7.99524e-05    -6.62535e-05         0.901582       -0.326294     -0.000196996    -0.000179336
                     8.44372e-05    -6.49915e-05         0.125157       -0.166813     -0.000135325    -0.000187215          0.90171       -0.326195
                        0.901592       -0.326272     -0.000139127    -0.000188538        -0.189178       0.0424374     -8.24406e-05      0.00014979
                    -0.000145076    -0.000195843         0.901704       -0.326193      -7.7578e-05     0.000143335        -0.188794       0.0416367
563600                  0.109177       -0.163164      8.43584e-05    -7.38175e-05         0.813494       -0.538603     -0.000162745    -0.000152739
                     8.84406e-05    -7.05378e-05         0.108441       -0.162921     -0.000135344    -0.000165561         0.813765       -0.538412
                        0.813506       -0.538589     -0.000130515    -0.000170345        -0.189965       0.0458057     -7.91366e-05     0.000151772
                    -0.000145566    -0.000156454         0.813757       -0.538408     -7.46828e-05     0.000146077        -0.189545       0.0450521
564000                  0.107076       -0.162626      8.49735e-05    -7.47636e-05         0.799785       -0.561729     -0.000159313    -0.000149853
                     8.89878e-05    -7.12299e-05         0.106343       -0.162379     -0.000135238    -0.000163112         0.800075       -0.561532
                        0.799798       -0.561716     -0.000129515    -0.000168315        -0.190065       0.0462106        -7.87e-05     0.000152028
                    -0.000145299    -0.000152282         0.800068       -0.561528     -7.42974e-05     0.000146433         -0.18964       0.0454628
566800                 0.0923285       -0.158507      8.97014e-05    -8.13529e-05         0.693882       -0.701944     -0.000139005    -0.000131872
                     9.31231e-05    -7.60423e-05        0.0916196       -0.158231     -0.000134027     -0.00014737         0.694304       -0.701736
                        0.693895       -0.701938     -0.000122943     -0.00015536        -0.190768       0.0489499     -7.54823e-05     0.000153866
                    -0.000142324     -0.00012678         0.694297        -0.70173     -7.14368e-05     0.000149012        -0.190314       0.0482421
570000                 0.0754186       -0.153022      9.60442e-05    -8.87187e-05         0.563121       -0.818991     -0.000121689    -0.000115208
                     9.85308e-05    -8.14117e-05         0.074744       -0.152717     -0.000131948    -0.000131971         0.563669       -0.818818
                        0.563131        -0.81899     -0.000116258    -0.000142815        -0.191579       0.0518898     -7.14227e-05     0.000156073
