! TOUCHSTONE file generated by CST MICROWAVE STUDIO
! Date and time: Mon Oct 20 08:27:40 2025
! Project name: Teste_Macro_Metasurface_Nanopilar.cst
! Parameters = {H=600; L_x=160; L_y=115; Lambda=1064; Max_L=200; Min_L=70; PathPara=1; Phi=0; Step_L=10; Theta=0; p=520; phaseX=180; phaseY=0}
! Header version: 2018
! Port assignment regex: !\s*Touchstone port\s*([0-9]+)\s*=\s*(CST MWS port|CST DS port)\s*([0-9]+|Zmin|Zmax)\s*\(\"(.*)\"\)(\s*mode\s*([0-9]+))?.*
! Touchstone port assignment:
! Touchstone port 1 = CST MWS port Zmax ("") mode 1
! Touchstone port 2 = CST MWS port Zmax ("") mode 2
! Touchstone port 3 = CST MWS port Zmin ("") mode 1
! Touchstone port 4 = CST MWS port Zmin ("") mode 2
! S-Parameters are not renormalized. Each port impedance will be approximated by the real part at minimum frequency. The values are described via the [Reference] keyword.
! Default impedance is overridden by [Reference]
[Version] 2.0
# GHz S RI R 376.73
[Number of Ports] 4
[Reference]
376.73 376.73 259.888 259.888 
[Number of Frequencies] 52
[Network Data]
474000                  0.130633        0.393836      8.30639e-05    -0.000106529        -0.804307        0.395175     -4.17876e-05     9.41907e-05
                     8.30258e-05    -0.000106526        -0.156237       -0.248649      4.96774e-07    -0.000154316        -0.164203        0.908562
                       -0.804307        0.395175      5.20222e-07    -0.000154331         0.244015        0.325219      1.27704e-05     0.000139364
                    -4.18431e-05     9.41693e-05        -0.164203        0.908562      1.27233e-05     0.000139371        -0.241748        0.196523
477200                  0.113382        0.389755      8.33706e-05    -0.000112075        -0.877322        0.353853     -3.81457e-05     9.32081e-05
                     8.33856e-05    -0.000112138        -0.153281       -0.241362      4.29813e-06     -0.00015415         -0.28857        0.909813
                        -0.87732        0.353849      4.33101e-06    -0.000154108         0.249551        0.328034      1.10621e-05     0.000139151
                    -3.82518e-05      9.3177e-05         -0.28857        0.909814      1.10043e-05     0.000139122        -0.247952        0.206082
480400                  0.095156        0.384781      8.35837e-05    -0.000118136        -0.948186        0.298658     -3.43127e-05      9.2118e-05
                     8.36565e-05    -0.000118277        -0.150231       -0.233549      8.34086e-06     -0.00015396        -0.420511        0.880777
                       -0.948181         0.29865      8.38356e-06    -0.000153856         0.255337        0.330859      9.24708e-06     0.000138907
                    -3.44731e-05     9.20778e-05        -0.420511        0.880779      9.17841e-06     0.000138839        -0.254729        0.215941
483600                 0.0759106        0.378769      8.36712e-05    -0.000124784        -0.975375        0.220555     -3.02743e-05     9.09065e-05
                     8.38068e-05    -0.000125018        -0.147089       -0.225154      1.26486e-05    -0.000153744         -0.54876        0.817278
                       -0.975377        0.220546      1.27015e-05    -0.000153572         0.261388        0.333688      7.31537e-06     0.000138627
                    -3.04933e-05     9.08583e-05         -0.54876        0.817282      7.23572e-06     0.000138516        -0.262133        0.226098
486800                 0.0556062        0.371548      8.35906e-05    -0.000132102        -0.990794        0.135378     -2.60152e-05      8.9558e-05
                     8.37941e-05    -0.000132446         -0.14386       -0.216112      1.72483e-05    -0.000153497        -0.660006        0.720996
                       -0.990796        0.135367      1.73118e-05     -0.00015325         0.267718        0.336513      5.25568e-06     0.000138306
                    -2.62975e-05      8.9503e-05        -0.660007           0.721      5.16507e-06     0.000138148        -0.270228        0.236546
490000                 0.0342132        0.362922      8.32859e-05    -0.000140188        -0.998926       0.0463404     -2.15186e-05     8.80541e-05
                     8.35624e-05    -0.000140664        -0.140549       -0.206349      2.21706e-05    -0.000153214        -0.742778        0.600207
                       -0.998926       0.0463286       2.2245e-05    -0.000152885         0.274344        0.339327      3.05529e-06     0.000137937
                    -2.18693e-05     8.79939e-05        -0.742781        0.600212      2.95388e-06     0.000137727         -0.27908        0.247273
493200                 0.0117164        0.352663      8.26821e-05    -0.000149159        -0.999001      -0.0446922     -1.67664e-05     8.63738e-05
                     8.30359e-05    -0.000149795        -0.137169       -0.195782      2.74504e-05    -0.000152889          -0.7911        0.467591
                          -0.999      -0.0447038       2.7536e-05     -0.00015247         0.281282         0.34212      6.99812e-07     0.000137512
                    -1.71912e-05     8.63104e-05        -0.791104        0.467596      5.87927e-07     0.000137244        -0.288764        0.258265
496400                -0.0118781        0.340511      8.16779e-05    -0.000159153        -0.990763       -0.135602     -1.17388e-05     8.44925e-05
                     8.21124e-05    -0.000159984        -0.133736       -0.184312       3.3128e-05    -0.000152514        -0.805687        0.336195
                       -0.990762       -0.135612      3.32252e-05    -0.000151996         0.288551        0.344881     -1.82707e-06     0.000137021
                     -1.2244e-05     8.44283e-05        -0.805692        0.336199     -1.94886e-06      0.00013669        -0.299362        0.269497
499600                -0.0365346        0.326166      8.01362e-05    -0.000170332         -0.97453       -0.224256     -6.41461e-06     8.23814e-05
                      8.0652e-05    -0.000171403        -0.130272       -0.171828      3.92499e-05    -0.000152081        -0.792339        0.215978
                       -0.974528       -0.224264      3.93589e-05    -0.000151452         0.296169        0.347598     -4.54394e-06     0.000136452
                      -7.007e-06     8.23196e-05        -0.792345        0.215981     -4.67474e-06      0.00013605         -0.31096        0.280936
502800                -0.0621763        0.309289      7.78685e-05    -0.000182891        -0.951144       -0.308748     -7.70729e-07      8.0007e-05
                     7.84618e-05    -0.000184258        -0.126809       -0.158198      4.58703e-05    -0.000151579        -0.759044        0.112451
                       -0.951142       -0.308754      4.59911e-05    -0.000150827         0.304156        0.350256       -7.472e-06     0.000135792
                    -1.45795e-06     7.99514e-05         -0.75905        0.112452     -7.61047e-06     0.000135311        -0.323654         0.29254
506000                -0.0886717        0.289497      7.46137e-05    -0.000197056        -0.921832       -0.387589      5.21748e-06     7.73298e-05
                     7.52727e-05     -0.00019879        -0.123394        -0.14327      5.30521e-05    -0.000150995        -0.713529       0.0272089
                       -0.921831       -0.387592      5.31847e-05    -0.000150105         0.312532         0.35284     -1.06355e-05     0.000135022
                     4.42701e-06     7.72853e-05        -0.713535        0.027209     -1.07798e-05     0.000134453        -0.337547        0.304253
509200                 -0.115816        0.266371      7.00067e-05    -0.000213086        -0.888024       -0.459798      1.15763e-05     7.43034e-05
                     7.07057e-05     -0.00021528        -0.120086       -0.126866      6.08697e-05    -0.000150311        -0.661978      -0.0407191
                       -0.888023       -0.459799      6.10136e-05    -0.000149267          0.32132         0.35533     -1.40623e-05     0.000134122
                     1.06733e-05     7.42759e-05        -0.661983      -0.0407198     -1.42097e-05     0.000133454        -0.352745        0.316003
512400                 -0.143312        0.239455      6.35316e-05    -0.000231269        -0.851161       -0.524905      1.83333e-05     7.08727e-05
                     6.42218e-05    -0.000234041        -0.116972       -0.108779      6.94108e-05    -0.000149508        -0.608741      -0.0935702
                       -0.851162       -0.524904      6.95654e-05    -0.000148289         0.330541        0.357705     -1.77845e-05     0.000133065
                     1.73077e-05     7.08697e-05        -0.608747      -0.0935716     -1.79312e-05     0.000132284        -0.369365        0.327702
515600                 -0.170742        0.208274      5.44543e-05      -0.0002519        -0.812564       -0.582872      2.55174e-05     6.69726e-05
                      5.5047e-05      -0.0002554        -0.114167       -0.088763        7.878e-05     -0.00014856        -0.556582       -0.133951
                       -0.812566       -0.582869       7.8944e-05    -0.000147141          0.34022        0.359941     -2.18389e-05     0.000131817
                     2.43579e-05     6.70033e-05        -0.556586       -0.133953     -2.19798e-05     0.000130909        -0.387523        0.339237
518800                 -0.197544        0.172351      4.17243e-05     -0.00027523        -0.773346       -0.633984      3.31576e-05     6.25254e-05
                     4.20647e-05    -0.000279643         -0.11183      -0.0665322      8.91029e-05    -0.000147432        -0.507076       -0.164344
                        -0.77335       -0.633979      8.92743e-05    -0.000145786          0.35038        0.362009     -2.62682e-05     0.000130337
                     3.18522e-05     6.26012e-05         -0.50708       -0.164346     -2.63962e-05     0.000129285        -0.407339        0.350472
522000                 -0.222981        0.131245      2.38425e-05    -0.000301353        -0.734383       -0.678735      4.12827e-05     5.74384e-05
                     2.36652e-05    -0.000306892        -0.110181      -0.0417496      0.000100532    -0.000146083        -0.461003       -0.186896
                       -0.734389       -0.678729      0.000100707    -0.000144174         0.361046        0.363879     -3.11214e-05     0.000128571
                     3.98181e-05     5.75736e-05        -0.461007       -0.186898     -3.12269e-05     0.000127354        -0.428933        0.361241
525200                 -0.246123       0.0845982      -1.3004e-06    -0.000329964        -0.693275       -0.714592      4.99193e-05     5.16006e-05
                    -2.43837e-06    -0.000336842         -0.10952      -0.0140213      0.000113253    -0.000144456        -0.418639       -0.203369
                       -0.693258       -0.714559      0.000113428    -0.000142241         0.372242        0.365515     -3.64553e-05     0.000126452
                     4.82815e-05     5.18129e-05        -0.418642       -0.203371     -3.65247e-05     0.000125045        -0.452416        0.371344
528400                 -0.265831       0.0322046      -3.6554e-05    -0.000359888         -0.63694       -0.725789      5.90894e-05     4.48789e-05
                    -3.93651e-05    -0.000368229        -0.110264       0.0171097      0.000127495    -0.000142478        -0.379961       -0.215162
                       -0.636927       -0.725757      0.000127663    -0.000139904         0.383994        0.366875     -4.23346e-05     0.000123892
                     5.72636e-05     4.51903e-05        -0.379964       -0.215164     -4.23493e-05     0.000122266        -0.477888        0.380546
531600                 -0.280771      -0.0259051      -8.5414e-05    -0.000388244        -0.584687       -0.731208      6.88072e-05     3.71134e-05
                    -9.09631e-05    -0.000397871        -0.112992       0.0521666      0.000143547    -0.000140048        -0.344787       -0.223368
                       -0.584677       -0.731177      0.000143696    -0.000137051         0.396327        0.367914     -4.88328e-05     0.000120774
                     6.67784e-05     3.75513e-05         -0.34479        -0.22337      -4.8767e-05     0.000118895        -0.505429        0.388569
534800                 -0.289454       -0.089368     -0.000151208    -0.000409194        -0.536646       -0.732094      7.90736e-05     2.81118e-05
                    -0.000160855    -0.000419225        -0.118509       0.0917329       0.00016177    -0.000137032        -0.312856       -0.228831
                       -0.536639       -0.732065      0.000161885    -0.000133526         0.409263        0.368579     -5.60319e-05     0.000116947
                     7.68269e-05     2.87104e-05        -0.312858       -0.228834     -5.58495e-05     0.000114776        -0.535089        0.395094
538000                 -0.290325       -0.157393     -0.000234684    -0.000412827        -0.492746        -0.72949      8.98681e-05     1.76435e-05
                    -0.000249574    -0.000421152        -0.127942        0.136428       0.00018263     -0.00013324        -0.283875       -0.232202
                       -0.492742       -0.729462      0.000182686    -0.000129118         0.422825        0.368813     -6.40202e-05     0.000112209
                     8.73904e-05     1.84452e-05        -0.283877       -0.232204     -6.36705e-05     0.000109698        -0.566876        0.399759
541200                 -0.281901       -0.228689     -0.000329504     -0.00038631        -0.452795       -0.724252      0.000101138     5.43239e-06
                    -0.000349295    -0.000389528        -0.142861        0.186849      0.000206733    -0.000128403        -0.257554       -0.233977
                       -0.452793       -0.724225      0.000206692    -0.000123525         0.437034         0.36855     -7.28871e-05     0.000106285
                     9.84194e-05     6.48969e-06        -0.257555       -0.233979     -7.22979e-05     0.000103382        -0.600739        0.402163
544400                  -0.26296       -0.301445      -0.00041845    -0.000320593        -0.416528       -0.717066      0.000112782    -8.84918e-06
                    -0.000439933    -0.000315559        -0.165448        0.243439      0.000234879    -0.000122129        -0.233616       -0.234539
                       -0.416527       -0.717042      0.000234682    -0.000116308         0.451904        0.367716     -8.27106e-05      9.8806e-05
                     0.000109818    -7.47157e-06        -0.233617       -0.234541     -8.17792e-05     9.54539e-05        -0.636557        0.401869
547600                 -0.232747       -0.373389      -0.00047809    -0.000221086         -0.38365       -0.708478      0.000124627    -2.55858e-05
                    -0.000496026     -0.00020776        -0.198689        0.306243      0.000268148     -0.00011383        -0.211806       -0.234181
                       -0.383651       -0.708456      0.000267701    -0.000106811         0.467449        0.366229     -9.35323e-05     8.92644e-05
                     0.000121424     -2.3809e-05        -0.211807       -0.234183     -9.21116e-05     8.54069e-05        -0.674122        0.398421
550800                  -0.19117       -0.441946     -0.000494015    -0.000109674        -0.353858       -0.698916      0.000136395    -4.52197e-05
                     -0.00050468     -9.1804e-05        -0.246564        0.374442      0.000308027    -0.000102595        -0.191894       -0.233129
                        -0.35386       -0.698895      0.000307173    -9.40256e-05         0.483675           0.364     -0.000105308     7.69671e-05
                     0.000132973    -4.29491e-05        -0.191895        -0.23313     -0.000103187     7.25619e-05         -0.71312        0.391356
554000                  -0.13892       -0.504487     -0.000470786    -1.07498e-05        -0.326856        -0.68871      0.000147659    -6.82426e-05
                    -0.000474129     7.06216e-06        -0.314073        0.445577      0.000356605    -8.69582e-05        -0.173675       -0.231555
                       -0.326859       -0.688691      0.000355074    -7.63352e-05         0.500581        0.360927      -0.00011781     6.09732e-05
                     0.000144066    -6.53674e-05        -0.173676       -0.231557      -0.00011469     5.60195e-05        -0.753122        0.380235
557200                -0.0774836       -0.558633     -0.000424685     6.30419e-05        -0.302366       -0.678117      0.000157789    -9.51708e-05
                    -0.000422965     7.80588e-05        -0.406817         0.51437      0.000416886    -6.44493e-05        -0.156967       -0.229596
                        -0.30237         -0.6781      0.000414198    -5.10394e-05         0.518154        0.356902     -0.000130452     4.00385e-05
                     0.000154106    -9.15666e-05        -0.156967       -0.229597     -0.000125921     3.46325e-05        -0.793576        0.364668
560400               -0.00900897       -0.602535     -0.000371161     0.000111527        -0.280129       -0.667331      0.000165879    -0.000126491
                    -0.000366803     0.000123061         -0.52955        0.571331      0.000493276    -3.06793e-05        -0.141607       -0.227354
                       -0.280133       -0.667315      0.000488517    -1.33895e-05         0.536373        0.351806     -0.000141969     1.26204e-05
                     0.000162241    -0.000122027        -0.141608       -0.227355      -0.00013549     7.05933e-06        -0.833813        0.344352
563600                 0.0639367       -0.635088     -0.000319485     0.000140318        -0.259911       -0.656499      0.000170685    -0.000162558
                    -0.000314157     0.000148757        -0.683046        0.602024      0.000592273     2.26715e-05        -0.127455        -0.22491
                       -0.259916       -0.656484      0.000583601     4.54789e-05         0.555199        0.345511     -0.000149908    -2.29079e-05
                     0.000167289    -0.000157116        -0.127456       -0.224911     -0.000140887    -2.79557e-05        -0.873058        0.319113
564000                 0.0732348       -0.638336     -0.000313393     0.000142853        -0.257515       -0.655148      0.000170978    -0.000167408
                    -0.000308021     0.000150954        -0.704132        0.603142      0.000606667     3.14129e-05        -0.125764       -0.224594
                       -0.257519       -0.655133       0.00059729     5.50598e-05         0.557592        0.344633      -0.00015046    -2.79837e-05
                      0.00016763    -0.000161837        -0.125765       -0.224595     -0.000141084    -3.28934e-05        -0.877852        0.315609
566800                  0.138671          -0.656     -0.000273588     0.000155629          -0.2415       -0.645731       0.00017057    -0.000203432
                     -0.00026821     0.000161666          -0.8249        0.565279      0.000723087     0.000112613        -0.114386       -0.222327
                       -0.241504       -0.645718      0.000706486     0.000143263         0.574577        0.337881     -0.000149996    -6.75133e-05
                     0.000167696    -0.000196932        -0.114386       -0.222328     -0.000138017    -7.07993e-05        -0.910459        0.288937
570000                  0.212689       -0.665739     -0.000234375     0.000162334        -0.224706       -0.635109      0.000163529     -0.00024863
                    -0.000229374     0.000166612        -0.894847        0.446373      0.000895765     0.000276941        -0.102289       -0.219653
                        -0.22471       -0.635097      0.000861793     0.000317699         0.594431        0.328774     -0.000135879    -0.000119767
