! TOUCHSTONE file generated by CST MICROWAVE STUDIO
! Date and time: Mon Oct 20 08:27:15 2025
! Project name: Teste_Macro_Metasurface_Nanopilar.cst
! Parameters = {H=600; L_x=70; L_y=190; Lambda=1064; Max_L=200; Min_L=70; PathPara=1; Phi=0; Step_L=10; Theta=0; p=520; phaseX=180; phaseY=0}
! Header version: 2018
! Port assignment regex: !\s*Touchstone port\s*([0-9]+)\s*=\s*(CST MWS port|CST DS port)\s*([0-9]+|Zmin|Zmax)\s*\(\"(.*)\"\)(\s*mode\s*([0-9]+))?.*
! Touchstone port assignment:
! Touchstone port 1 = CST MWS port Zmax ("") mode 1
! Touchstone port 2 = CST MWS port Zmax ("") mode 2
! Touchstone port 3 = CST MWS port Zmin ("") mode 1
! Touchstone port 4 = CST MWS port Zmin ("") mode 2
! S-Parameters are not renormalized. Each port impedance will be approximated by the real part at minimum frequency. The values are described via the [Reference] keyword.
! Default impedance is overridden by [Reference]
[Version] 2.0
# GHz S RI R 376.73
[Number of Ports] 4
[Reference]
376.73 376.73 259.888 259.888 
[Number of Frequencies] 52
[Network Data]
474000                 0.0821211       0.0121942      0.000133843    -8.43551e-07         0.147236       -0.955859     -2.33407e-06    -0.000253613
                     0.000135708    -1.02182e-07         0.946902      -0.0544508      1.32993e-05     0.000158286        -0.204973      -0.0504735
                        0.147236       -0.955859      1.49644e-05      0.00015599        0.0539743      -0.0212127      0.000187547     0.000170398
                    -1.79164e-06    -0.000253729        -0.204974      -0.0504742      0.000189739     0.000169698        -0.741974       -0.578403
477200                 0.0879285       0.0125386      0.000134438     1.53209e-06         0.146722       -0.976753     -2.08211e-06    -0.000255105
                     0.000136301     2.30581e-06         0.954021       -0.044644      1.49656e-05     0.000158915        -0.199597      -0.0497259
                        0.146722       -0.976754      1.66506e-05     0.000156557        0.0512032      -0.0252589      0.000200099      0.00017199
                    -1.52757e-06    -0.000255222        -0.199597      -0.0497265      0.000202323     0.000171137        -0.750747       -0.568992
480400                 0.0939875       0.0129789      0.000135031     4.07043e-06         0.144774       -0.989465     -1.80733e-06    -0.000256722
                     0.000136891      4.8785e-06         0.961438      -0.0339372      1.67753e-05     0.000159583        -0.193928       -0.049002
                        0.144773       -0.989465      1.84813e-05     0.000157157        0.0483117        -0.02954      0.000213907     0.000172909
                    -1.23958e-06     -0.00025684        -0.193929      -0.0490027      0.000216151     0.000171884        -0.759777       -0.558857
483600                  0.100313       0.0135269      0.000135619     6.78762e-06         0.140933       -0.990019      -1.5065e-06    -0.000258481
                     0.000137473     7.63219e-06         0.969154      -0.0222149      1.87478e-05     0.000160294        -0.187943      -0.0483093
                        0.140932       -0.990019      2.04755e-05     0.000157794        0.0452924      -0.0340769      0.000229075     0.000172926
                     -9.2429e-07      -0.0002586        -0.187944      -0.0483099      0.000231322     0.000171707        -0.769059        -0.54793
486800                   0.10692       0.0141961      0.000136195     9.70184e-06         0.137048       -0.990564     -1.17576e-06    -0.000260402
                     0.000138042     1.05852e-05         0.977162     -0.00934287      2.09057e-05     0.000161051        -0.181617      -0.0476565
                        0.137047       -0.990565      2.26561e-05     0.000158469        0.0421375      -0.0388926      0.000245691      0.00017175
                    -5.77641e-07    -0.000260522        -0.181617       -0.047657      0.000247917     0.000170317        -0.778581        -0.53613
490000                  0.113827       0.0150018      0.000136752     1.28336e-05         0.133152       -0.991096     -8.10443e-07    -0.000262507
                     0.000138591     1.37582e-05         0.985448      0.00483465       2.3276e-05     0.000161857         -0.17492      -0.0470541
                        0.133152       -0.991096        2.505e-05     0.000159184        0.0388385      -0.0440129       0.00026381     0.000169022
                    -1.94745e-07    -0.000262628         -0.17492      -0.0470547      0.000265985     0.000167352         -0.78833       -0.523372
493200                  0.121051       0.0159613      0.000137281     1.62061e-05         0.129293       -0.991606     -4.04866e-07    -0.000264825
                     0.000139109     1.71746e-05         0.993982       0.0204994      2.58914e-05     0.000162717        -0.167821      -0.0465148
                        0.129292       -0.991607      2.76896e-05     0.000159943        0.0353865      -0.0494669      0.000283429     0.000164299
                     2.30355e-07    -0.000264947        -0.167822      -0.0465153      0.000285512     0.000162375        -0.798281        -0.50956
496400                  0.128612       0.0170942       0.00013777     1.98456e-05         0.125538       -0.992089      4.79614e-08    -0.000267389
                     0.000139584     2.08608e-05         0.999288       0.0377337      2.87914e-05     0.000163634        -0.160287      -0.0460536
                        0.125537       -0.992089      3.06144e-05     0.000160747        0.0317719      -0.0552876      0.000304451     0.000157055
                     7.04988e-07    -0.000267513        -0.160287      -0.0460541      0.000306391     0.000154866        -0.808404       -0.494586
499600                  0.136529       0.0184228      0.000138205     2.37819e-05         0.121983       -0.992532      5.56734e-07    -0.000270241
                     0.000140001     2.48466e-05         0.998407        0.056429      3.20242e-05     0.000164612        -0.152277      -0.0456887
                        0.121982       -0.992532      3.38722e-05     0.000161597        0.0279846      -0.0615122      0.000326639     0.000146687
                     1.23827e-06    -0.000270367        -0.152277      -0.0456892      0.000328373      0.00014423        -0.818656       -0.478333
502800                  0.144826       0.0199723      0.000138567     2.80487e-05         0.118766       -0.992922       1.1324e-06    -0.000273433
                     0.000140341     2.91659e-05         0.997038       0.0769123      3.56495e-05     0.000165653        -0.143748      -0.0454418
                        0.118766       -0.992922      3.75222e-05     0.000162494        0.0240139      -0.0681828      0.000349558     0.000132538
                     1.84169e-06     -0.00027356        -0.143749      -0.0454423      0.000351015     0.000129828        -0.828981       -0.460672
506000                  0.153523       0.0217718      0.000138831     3.26844e-05          0.11609       -0.993239      1.78895e-06    -0.000277028
                     0.000140577     3.38571e-05         0.995045        0.099423      3.97419e-05      0.00016676        -0.134654      -0.0453394
                         0.11609       -0.993239      4.16382e-05     0.000163436        0.0198485      -0.0753478      0.000372515     0.000113959
                      2.5299e-06    -0.000277158        -0.134655      -0.0453399      0.000373618     0.000111033        -0.839304        -0.44146
509200                  0.162647       0.0238542      0.000138966     3.77322e-05         0.114252       -0.993452      2.54451e-06     -0.00028111
                      0.00014068     3.89635e-05         0.992252        0.124238      4.43956e-05      0.00016793        -0.124941      -0.0454131
                        0.114251       -0.993452      4.63131e-05     0.000164417        0.0154769      -0.0830625      0.000394508     9.04069e-05
                     3.32192e-06    -0.000281241        -0.124941      -0.0454135       0.00039518     8.73309e-05         -0.84953       -0.420542
512400                  0.172221        0.026257      0.000138933     4.32412e-05         0.113698       -0.993515      3.42302e-06    -0.000285782
                     0.000140608      4.4534e-05          0.98843        0.151676      4.97315e-05     0.000169159        -0.114549      -0.0457015
                        0.113697       -0.993515      5.16659e-05     0.000165425        0.0108872      -0.0913902      0.000414215     6.15865e-05
                     4.24284e-06    -0.000285915        -0.114549      -0.0457019      0.000414397     5.84589e-05        -0.859538       -0.397749
515600                  0.182273       0.0290233      0.000138682     4.92667e-05         0.115119       -0.993352      4.45669e-06    -0.000291184
                     0.000140308     5.06235e-05          0.98328        0.182103      5.59064e-05     0.000170431        -0.103412      -0.0462514
                        0.115119       -0.993352      5.78505e-05     0.000166439        0.0060673       -0.100404      0.000430056     2.76309e-05
                     5.32645e-06    -0.000291319        -0.103413      -0.0462518      0.000429717     2.45783e-05        -0.869172       -0.372901
518800                  0.192828       0.0322025      0.000138147       5.587e-05         0.119621        -0.99282      5.68992e-06    -0.000297501
                     0.000139714     5.72929e-05         0.976409         0.21593      6.31276e-05     0.000171719       -0.0914575      -0.0471201
                         0.11962        -0.99282      6.50691e-05     0.000167422       0.00100568        -0.11019      0.000440359    -1.07351e-05
                     6.61932e-06    -0.000297638       -0.0914579      -0.0471205      0.000439516    -1.35697e-05        -0.878238       -0.345808
522000                  0.203916        0.035851      0.000137243     6.31192e-05         0.129043       -0.991639      7.18558e-06    -0.000304986
                      0.00013874     6.46091e-05         0.967305        0.253616      7.16737e-05     0.000172969       -0.0786022      -0.0483774
                        0.129042       -0.991639      7.35925e-05     0.000168306      -0.00430851       -0.120847      0.000443639    -5.21104e-05
                     8.18736e-06    -0.000305125       -0.0786027      -0.0483778      0.000442362    -5.45898e-05        -0.886492       -0.316274
525200                  0.215563       0.0400337      0.000135861     7.10874e-05         0.146633       -0.989191      9.03551e-06    -0.000313996
                     0.000137273     7.26437e-05         0.955295        0.295655      8.19259e-05     0.000174082       -0.0647556      -0.0501094
                        0.146632       -0.989191       8.3789e-05     0.000168974      -0.00988447        -0.13249      0.000438925    -9.44927e-05
                     1.01269e-05    -0.000314137        -0.064756      -0.0501097      0.000437335    -9.65109e-05        -0.893633       -0.284102
528400                  0.227797       0.0448251      0.000133859     7.98512e-05         0.178544       -0.983932      1.13792e-05     -0.00032505
                     0.000135168      8.1471e-05         0.939499        0.342551      9.44171e-05     0.000174877       -0.0498169      -0.0524218
                        0.178543       -0.983932      9.61692e-05     0.000169221       -0.0157286       -0.145258      0.000426043    -0.000135543
                     1.25842e-05    -0.000325191       -0.0498173      -0.0524221      0.000424292    -0.000137048        -0.899288       -0.249104
531600                  0.240643       0.0503108       0.00013105     8.94859e-05         0.237555       -0.971374      1.44384e-05    -0.000338931
                     0.000132238     9.11628e-05         0.918782        0.394766      0.000109906     0.000175011       -0.0336755      -0.0554457
                        0.237555       -0.971374      0.000111453     0.000168672       -0.0218429       -0.159312      0.000405718    -0.000172988
                     1.57919e-05     -0.00033907       -0.0336759       -0.055446      0.000403963    -0.000173989        -0.903008       -0.211113
534800                  0.254124       0.0565889      0.000127196     0.000100057         0.353071       -0.935597       1.8587e-05    -0.000356878
                     0.000128241      0.00010178         0.891699        0.452629      0.000129494     0.000173833       -0.0162107      -0.0593436
                        0.353071       -0.935597      0.000130671     0.000166635       -0.0282223       -0.174846      0.000379443    -0.000205024
                     2.01421e-05    -0.000357013       -0.0162111      -0.0593439      0.000377816    -0.000205585        -0.904247       -0.170004
538000                  0.268261       0.0637725      0.000121987     0.000111607         0.592372       -0.805665      2.45038e-05     -0.00038098
                     0.000122864     0.000113357         0.856473        0.516192      0.000154786     0.000170049       0.00270683      -0.0643182
                        0.592372       -0.805665      0.000155296     0.000161766       -0.0348511        -0.19209      0.000349161    -0.000230582
                     2.63466e-05    -0.000381101       0.00270647      -0.0643184      0.000347749    -0.000230801         -0.90236       -0.125718
541200                  0.283064        0.071991      0.000115025      0.00012413         0.950675        -0.31019      3.35492e-05    -0.000415042
                      0.00011571     0.000125879         0.811028        0.585008       0.00018807     0.000160975        0.0232133      -0.0706223
                        0.950675       -0.310188      0.000187358     0.000151363       -0.0416975       -0.211326      0.000316884    -0.000249379
                     3.58317e-05    -0.000415128        0.0232129      -0.0706225       0.00031573    -0.000249363        -0.896598      -0.0782956
544400                  0.298539       0.0813927      0.000105812     0.000137533         0.921551        0.388258      4.88528e-05    -0.000466788
                     0.000106284     0.000139239          0.75315        0.657849      0.000232186     0.000140807        0.0454466       -0.078573
                         0.92155         0.38826      0.000229197     0.000129754       -0.0487054       -0.232891      0.000284385    -0.000261784
                     5.18784e-05    -0.000466781        0.0454463      -0.0785731       0.00028349     -0.00026163        -0.886106        -0.02792
547600                  0.314675       0.0921472      9.37404e-05     0.000151576         0.739988         0.67262      7.92758e-05    -0.000554572
                     9.39846e-05     0.000153184         0.680854        0.732419       0.00028844     9.67753e-05        0.0695384      -0.0885676
                        0.739988        0.672621       0.00028128     8.49248e-05       -0.0557825       -0.257199      0.000253022    -0.000268595
                     8.37677e-05    -0.000554268        0.0695382      -0.0885678      0.000252363     -0.00026838        -0.869944       0.0250329
550800                  0.331446        0.104447      7.81094e-05     0.000165787         0.643755        0.765231      0.000160474    -0.000734166
                     7.81287e-05     0.000167223         0.592988        0.805211      0.000345656     3.62281e-06        0.0955999       -0.101105
                        0.643755        0.765232      0.000332019    -5.71353e-06       -0.0627815       -0.284758      0.000223701    -0.000270803
                     0.000168757    -0.000732488        0.0955998       -0.101105       0.00022324    -0.000270582        -0.847123       0.0799381
554000                  0.348802        0.118511       5.8187e-05     0.000179347         0.605129        0.796128      0.000596805     -0.00125175
                     5.80134e-05     0.000180524         0.481213        0.856124      0.000346805    -0.000161106         0.123699        -0.11681
                        0.605129        0.796128      0.000329338    -0.000160304       -0.0694726       -0.316194      0.000196924    -0.000269421
                     0.000620539     -0.00123399         0.123699        -0.11681      0.000196621    -0.000269227        -0.816662        0.135868
557200                  0.366659        0.134583      3.33573e-05      0.00019097         0.598986         0.80076       0.00161166      0.00160472
                     3.30667e-05       0.0001918         0.337508        0.835766      0.000202501    -0.000316334         0.153824        -0.13646
                        0.598986         0.80076      0.000194331    -0.000306281       -0.0754992       -0.352283      0.000172885    -0.000265369
                      0.00158631      0.00153134         0.153824        -0.13646      0.000172701     -0.00026522        -0.777685        0.191547
560400                  0.384895        0.152935       3.3907e-06     0.000198834          0.61313        0.789982      6.12866e-05     0.000526933
                     3.11365e-06     0.000199251         0.202082        0.778935      1.59454e-06    -0.000314342         0.185827       -0.161017
                         0.61313        0.789982      2.26432e-06    -0.000309117       -0.0803114       -0.393984      0.000151566    -0.000259427
                     6.43538e-05     0.000524676         0.185827       -0.161017      0.000151469     -0.00025933        -0.729542        0.245342
563600                  0.403329        0.173864     -3.11625e-05      0.00020067         0.572778        0.685214     -1.23809e-05     0.000207069
                    -3.12459e-05     0.000200669        0.0878205        0.691574      -0.00010935     -0.00022043         0.219339       -0.191645
                        0.572778        0.685214     -0.000109079    -0.000220201       -0.0830589       -0.442481      0.000132818    -0.000252221
                    -1.22611e-05     0.000206976         0.219339       -0.191645       0.00013278    -0.000252175        -0.671954        0.295287
564000                  0.405636        0.176677     -3.57325e-05     0.000200356         0.562395        0.665128     -1.49428e-05     0.000185141
                    -3.57777e-05     0.000200308        0.0754978        0.679024     -0.000116872     -0.00020821         0.223603       -0.195966
                        0.562395        0.665128     -0.000116845     -0.00020827       -0.0831981        -0.44909      0.000130645    -0.000251257
                    -1.49413e-05     0.000185101         0.223603       -0.195966      0.000130613    -0.000251217        -0.664097        0.301152
566800                  0.421716        0.197687     -6.85632e-05     0.000194164         0.501384        0.540657     -2.30703e-05     7.78942e-05
                    -6.82597e-05     0.000193843       0.00282121        0.584653     -0.000145709    -0.000132739         0.253643       -0.229715
                        0.501384        0.540658     -0.000147132    -0.000133572       -0.0824228       -0.499215      0.000116422    -0.000244234
                     -2.3463e-05     7.79878e-05         0.253644       -0.229715      0.000116423    -0.000244233         -0.60517         0.33919
570000                  0.439722        0.224734     -0.000105739     0.000177722         0.450094        0.426043     -2.44677e-05     8.77657e-06
                    -0.000104912     0.000177289       -0.0510767        0.470388     -0.000150921    -7.03104e-05         0.287509       -0.276763
                        0.450094        0.426043     -0.000153095    -7.09064e-05       -0.0763491       -0.565885       0.00010213    -0.000235825
