! TOUCHSTONE file generated by CST MICROWAVE STUDIO
! Date and time: Mon Oct 20 08:27:38 2025
! Project name: Teste_Macro_Metasurface_Nanopilar.cst
! Parameters = {H=600; L_x=145; L_y=175; Lambda=1064; Max_L=200; Min_L=70; PathPara=1; Phi=0; Step_L=10; Theta=0; p=520; phaseX=180; phaseY=0}
! Header version: 2018
! Port assignment regex: !\s*Touchstone port\s*([0-9]+)\s*=\s*(CST MWS port|CST DS port)\s*([0-9]+|Zmin|Zmax)\s*\(\"(.*)\"\)(\s*mode\s*([0-9]+))?.*
! Touchstone port assignment:
! Touchstone port 1 = CST MWS port Zmax ("") mode 1
! Touchstone port 2 = CST MWS port Zmax ("") mode 2
! Touchstone port 3 = CST MWS port Zmin ("") mode 1
! Touchstone port 4 = CST MWS port Zmin ("") mode 2
! S-Parameters are not renormalized. Each port impedance will be approximated by the real part at minimum frequency. The values are described via the [Reference] keyword.
! Default impedance is overridden by [Reference]
[Version] 2.0
# GHz S RI R 376.73
[Number of Ports] 4
[Reference]
376.73 376.73 259.888 259.888 
[Number of Frequencies] 52
[Network Data]
474000                  0.684692        0.686919      1.54726e-05    -1.84848e-05        0.0064305        0.047189       8.1499e-06     1.47219e-05
                     1.79961e-05    -3.55199e-05         0.158151        0.131523      7.17703e-06    -3.53642e-06        -0.523478         0.81725
                      0.00643068       0.0471549      4.56043e-06    -1.99085e-06         0.460045       -0.853859      1.42809e-06    -1.08257e-05
                     2.45199e-05     2.97274e-05        -0.523478        0.817258     -2.06562e-06    -5.29099e-06         0.182867       0.0849233
477200                  0.680183        0.689664       1.6855e-05    -1.70446e-05        0.0119643       0.0513468      9.09141e-06     1.03236e-05
                      1.9425e-05    -3.40902e-05          0.16679        0.129047      3.98407e-06    -3.34726e-06        -0.487478        0.779184
                       0.0119654       0.0513126      1.33917e-06    -1.83136e-06         0.470053        -0.83859      4.12517e-06    -1.23853e-05
                     2.49625e-05     2.52926e-05        -0.487477        0.779191      6.61885e-07    -6.97741e-06         0.186804       0.0879797
480400                  0.675329        0.692455      1.83161e-05    -1.55147e-05        0.0177374       0.0559119      1.01416e-05     5.76967e-06
                      2.0935e-05    -3.25688e-05         0.175908        0.126319      6.03244e-07    -3.19708e-06        -0.453451        0.742262
                       0.0177394       0.0558776     -2.07072e-06    -1.71331e-06         0.480056       -0.822744       6.9277e-06    -1.39861e-05
                     2.54979e-05     2.06865e-05        -0.453451        0.742269      3.49702e-06    -8.70854e-06         0.190977       0.0912397
483600                  0.670094        0.695282      1.98628e-05    -1.38864e-05        0.0237558       0.0609338      1.13108e-05      1.0535e-06
                     2.25331e-05    -3.09466e-05         0.185544        0.123307     -2.98126e-06    -3.09401e-06        -0.421257         0.70645
                       0.0237588       0.0608994     -5.68502e-06    -1.64512e-06         0.490036         -0.8063      9.84182e-06    -1.56293e-05
                     2.61364e-05     1.59012e-05        -0.421256        0.706455      6.44609e-06    -1.04859e-05         0.195407       0.0947239
486800                  0.664443        0.698131      2.15028e-05      -1.215e-05        0.0300234       0.0664689      1.26106e-05    -3.83148e-06
                     2.42272e-05    -2.92135e-05         0.195743        0.119974     -6.78689e-06    -3.04776e-06        -0.390766        0.671711
                       0.0300275       0.0664345     -9.52112e-06    -1.63678e-06         0.499976       -0.789234      1.28741e-05    -1.73164e-05
                     2.68893e-05     1.09282e-05        -0.390765        0.671716      9.51588e-06    -1.23109e-05         0.200119       0.0984563
490000                  0.658332        0.700985      2.32447e-05    -1.02944e-05        0.0365411       0.0725817      1.40536e-05    -8.89199e-06
                     2.60261e-05    -2.73576e-05         0.206549        0.116277     -1.08329e-05    -3.06991e-06        -0.361859         0.63801
                       0.0365464       0.0725473     -1.35982e-05     -1.7002e-06         0.509858       -0.771521      1.60318e-05    -1.90488e-05
                     2.77692e-05     5.75885e-06        -0.361858        0.638015      1.27137e-05    -1.41852e-05          0.20514        0.102464
493200                  0.651716         0.70382      2.50982e-05    -8.30703e-06        0.0433055       0.0793457      1.56539e-05    -1.41348e-05
                     2.79398e-05    -2.53655e-05         0.218017        0.112164     -1.51407e-05    -3.17432e-06        -0.334428        0.605312
                        0.043312       0.0793113     -1.79375e-05    -1.84959e-06         0.519659       -0.753139      1.93224e-05    -2.08278e-05
                     2.87904e-05     3.84323e-07        -0.334427        0.605316      1.60475e-05    -1.61103e-05         0.210501        0.106779
496400                  0.644543        0.706607      2.70745e-05    -6.17326e-06        0.0503072       0.0868446      1.74267e-05    -1.95668e-05
                     2.99794e-05     -2.3222e-05         0.230202        0.107577     -1.97337e-05    -3.37759e-06        -0.308373        0.573582
                       0.0503151       0.0868105     -2.25623e-05    -2.10198e-06         0.529357        -0.73406      2.27544e-05     -2.2655e-05
                     2.99684e-05    -5.20447e-06        -0.308372        0.573585      1.95257e-05    -1.80878e-05         0.216239        0.111436
499600                  0.636759        0.709308      2.91859e-05    -3.87645e-06        0.0575289       0.0951739      1.93893e-05    -2.51947e-05
                     3.21576e-05    -2.09091e-05          0.24317        0.102445     -2.46381e-05    -3.69969e-06        -0.283603        0.542785
                       0.0575382       0.0951401     -2.74986e-05    -2.47777e-06         0.538924       -0.714262      2.63368e-05    -2.45316e-05
                     3.13209e-05    -1.10167e-05        -0.283602        0.542788      2.31577e-05    -2.01192e-05         0.222393        0.116479
502800                  0.628302        0.711875      3.14468e-05    -1.39726e-06        0.0649424        0.104442      2.15604e-05    -3.10251e-05
                     3.44889e-05    -1.84061e-05         0.256989       0.0966861     -2.98826e-05     -4.1647e-06        -0.260034        0.512889
                       0.0649532        0.104409     -3.27748e-05    -3.00156e-06         0.548334       -0.693717      3.00792e-05    -2.64593e-05
                     3.28672e-05    -1.70617e-05        -0.260033        0.512891      2.69535e-05    -2.22061e-05         0.229011        0.121957
506000                  0.619108        0.714247      3.38735e-05     1.28677e-06        0.0725052        0.114772      2.39608e-05    -3.70643e-05
                     3.69896e-05     -1.5689e-05         0.271739       0.0902021      -3.5499e-05    -4.80175e-06        -0.237588         0.48386
                       0.0725176        0.114739     -3.84223e-05    -3.70302e-06         0.557556       -0.672401      3.39923e-05    -2.84392e-05
                     3.46292e-05    -2.33485e-05        -0.237587        0.483862       3.0924e-05    -2.43501e-05         0.236147        0.127928
509200                  0.609107         0.71635      3.64846e-05     4.20199e-06         0.080156        0.126301      2.66136e-05    -4.33182e-05
                     3.96787e-05    -1.27292e-05         0.287503       0.0828759      -4.1522e-05    -5.64616e-06        -0.216194        0.455667
                       0.0801701        0.126269     -4.44755e-05     -4.6181e-06         0.566554       -0.650288      3.80876e-05    -3.04729e-05
                      3.6631e-05    -2.98861e-05        -0.216193        0.455669       3.5081e-05    -2.65526e-05         0.243862         0.13446
512400                  0.598229        0.718087      3.93019e-05     7.37938e-06        0.0878083        0.139184      2.95439e-05    -4.97922e-05
                     4.25777e-05    -9.49327e-06         0.304376       0.0745673       -4.799e-05    -6.74091e-06        -0.195787         0.42828
                       0.0878241        0.139153     -5.09718e-05    -5.79044e-06         0.575293       -0.627352      4.23777e-05    -3.25614e-05
                     3.88998e-05    -3.66829e-05        -0.195786        0.428282      3.94374e-05    -2.88151e-05          0.25223        0.141637
515600                  0.586402        0.719341      4.23505e-05     1.08557e-05        0.0953432        0.153589      3.27799e-05    -5.64905e-05
                     4.57116e-05    -5.94113e-06         0.322459       0.0651074     -5.49442e-05    -8.13846e-06        -0.176304        0.401669
                       0.0953608        0.153559     -5.79521e-05    -7.27321e-06         0.583732       -0.603567      4.68763e-05    -3.47061e-05
                     4.14656e-05    -4.37469e-05        -0.176304        0.401671      4.40073e-05    -3.11388e-05         0.261337        0.149556
518800                  0.573556        0.719968      4.56596e-05     1.46749e-05           0.1026          0.1697      3.63525e-05    -6.34167e-05
                     4.91096e-05    -2.02475e-06         0.341863       0.0542914     -6.24295e-05    -9.90302e-06        -0.157692        0.375806
                         0.10262        0.169672     -6.54597e-05    -9.13136e-06         0.591829        -0.57891      5.15982e-05    -3.69078e-05
                     4.43619e-05    -5.10849e-05        -0.157691        0.375807      4.88061e-05    -3.35248e-05         0.271283        0.158338
522000                  0.559632        0.719789      4.92637e-05     1.88899e-05         0.109365         0.18771      4.02956e-05    -7.05725e-05
                     5.28053e-05     2.31401e-06         0.362705       0.0418703     -7.04931e-05    -1.21134e-05        -0.139896        0.350663
                        0.109386        0.187683     -7.35409e-05    -1.14445e-05         0.599534       -0.553355        5.656e-05    -3.91676e-05
                     4.76261e-05    -5.87023e-05        -0.139896        0.350664      5.38506e-05    -3.59743e-05         0.282187         0.16813
525200                  0.544585        0.718588      5.32033e-05     2.35649e-05         0.115358        0.207811      4.46469e-05    -7.79581e-05
                     5.68383e-05     7.14618e-06         0.385107       0.0275392      -7.9184e-05    -1.48666e-05         -0.12287        0.326213
                        0.115381        0.207787     -8.22429e-05    -1.43102e-05         0.606798       -0.526881      6.17793e-05    -4.14858e-05
                     5.12996e-05     -6.6603e-05        -0.122869        0.326214      5.91592e-05    -3.84878e-05         0.294194        0.179113
528400                  0.528396        0.716108      5.75267e-05     2.87788e-05         0.120216        0.230185      4.94474e-05    -8.55709e-05
                     6.12551e-05     1.25594e-05         0.409193       0.0109229     -8.85514e-05    -1.82821e-05        -0.106568        0.302432
                         0.12024        0.230164     -9.16127e-05    -1.78488e-05         0.613564       -0.499466       6.7276e-05    -4.38629e-05
                     5.54285e-05    -7.47882e-05        -0.106568        0.302433      6.47522e-05    -4.10657e-05         0.307475        0.191515
531600                  0.511089        0.712046      6.22914e-05     3.46294e-05         0.123479        0.254981      5.47424e-05    -9.34057e-05
                     6.61107e-05     1.86628e-05         0.435082     -0.00844197     -9.86413e-05    -2.25074e-05       -0.0909492        0.279295
                        0.123505        0.254963     -0.000101694    -2.22081e-05         0.619774        -0.47109      7.30718e-05    -4.62988e-05
                     6.00635e-05    -8.32561e-05       -0.0909488        0.279295      7.06518e-05     -4.3708e-05         0.322238        0.205625
534800                  0.492745        0.706051       6.7567e-05     4.12394e-05          0.12458        0.282282      6.05812e-05    -0.000101453
                       7.147e-05     2.55945e-05         0.462871      -0.0311309     -0.000109492    -2.77247e-05       -0.0759747        0.256778
                        0.124606        0.282267     -0.000112521    -2.75703e-05         0.625363       -0.441737      7.91903e-05    -4.87927e-05
                      6.5261e-05    -9.20009e-05       -0.0759743        0.256778      7.68826e-05    -4.64142e-05          0.33874        0.221811
538000                  0.473532        0.697737      7.34374e-05     4.87646e-05         0.122831        0.312062      6.70177e-05    -0.000109701
                     7.74103e-05     3.35308e-05         0.492623      -0.0578606     -0.000121128    -3.41581e-05       -0.0616087        0.234859
                        0.122857        0.312051     -0.000124115    -3.41587e-05         0.630262        -0.41139      8.56579e-05    -5.13435e-05
                     7.10826e-05    -0.000101012       -0.0616084         0.23486      8.34715e-05    -4.91829e-05         0.357296        0.240559
541200                  0.453725        0.686691      8.00057e-05     5.74063e-05         0.117438        0.344132      7.41102e-05    -0.000118128
                     8.40233e-05     4.27009e-05          0.52433      -0.0895251     -0.000133547    -4.20826e-05       -0.0478178        0.213517
                        0.117463        0.344125     -0.000136468    -4.22468e-05         0.634398       -0.380039      9.25038e-05    -5.39491e-05
                     7.75959e-05    -0.000110271       -0.0478175        0.213518      9.04484e-05     -5.2012e-05         0.378297        0.262509
544400                  0.433737        0.672503      8.73981e-05     6.74281e-05         0.107528        0.378067      8.19216e-05    -0.000126709
                     9.14177e-05     5.34069e-05          0.55786        -0.12724     -0.000146701    -5.18323e-05       -0.0345707        0.192731
                        0.107552        0.378064     -0.000149528    -5.21657e-05         0.637692       -0.347677      9.97602e-05    -5.66064e-05
                     8.48745e-05    -0.000119755       -0.0345705        0.192731      9.78466e-05    -5.48984e-05         0.402235        0.288533
547600                  0.414143        0.654811       9.5771e-05     7.91823e-05        0.0922154        0.413142      9.05194e-05     -0.00013541
                     9.97211e-05     6.60557e-05         0.592882       -0.172389     -0.000160478    -6.38085e-05       -0.0218386        0.172481
                       0.0922369        0.413143     -0.000163175    -6.43109e-05         0.640061         -0.3143      0.000107463    -5.93112e-05
                     9.29977e-05    -0.000129427       -0.0218384        0.172481      0.000105703    -5.78376e-05         0.429727        0.319836
550800                  0.395688        0.633362      0.000105319     9.31495e-05        0.0707134        0.448273       9.9975e-05    -0.000144186
                     0.000109079     8.12056e-05         0.628732       -0.226674      -0.00017466    -7.84809e-05      -0.00959417        0.152748
                       0.0707313        0.448278     -0.000177186    -7.91438e-05         0.641418       -0.279911      0.000115651    -6.20576e-05
                      0.00010205    -0.000139243      -0.00959396        0.152748      0.000114057    -6.08234e-05         0.461553        0.358137
554000                  0.379271        0.608086      0.000116283     0.000110002        0.0424853        0.482008      0.000110364    -0.000152983
                     0.000119651     9.96416e-05         0.664223       -0.292144     -0.000188876    -9.63803e-05       0.00218791        0.133514
                       0.0424988        0.482015     -0.000191187    -9.71826e-05         0.641668       -0.244518       0.00012437    -6.48378e-05
                     0.000112122    -0.000149141       0.00218809        0.133514      0.000122956    -6.38475e-05         0.498692        0.405953
557200                  0.365896        0.579178       0.00012896     0.000130705       0.00742685        0.512587      0.000121762     -0.00016173
                     0.000131588     0.000122497         0.697355       -0.371168     -0.000202544    -0.000118069        0.0135314        0.114761
                      0.00743516        0.512595     -0.000204591    -0.000118972         0.640716       -0.208135      0.000133669    -6.76414e-05
                     0.000123306    -0.000159044        0.0135315        0.114761       0.00013245    -6.68991e-05         0.542337        0.467112
560400                  0.356575        0.547161      0.000143703     0.000156695       -0.0339693        0.538105       0.00013425    -0.000170343
                     0.000144978      0.00015146         0.724908       -0.466285     -0.000214793    -0.000144077        0.0244584       0.0964727
                      -0.0339662        0.538113     -0.000216536    -0.000145022         0.638458       -0.170785      0.000143603    -7.04552e-05
                     0.000135697    -0.000168857        0.0244586       0.0964725      0.000142595     -6.9964e-05         0.593835        0.547665
563600                  0.352199        0.512909      0.000160901     0.000190186       -0.0805249        0.556768      0.000147904    -0.000178717
                     0.000159695     0.000189124         0.741919         -0.5798     -0.000224402    -0.000174785        0.0349899       0.0786332
                      -0.0805265        0.556774     -0.000225815    -0.000175685          0.63479         -0.1325      0.000154235     -7.3262e-05
                     0.000149388     -0.00017846          0.03499       0.0786329      0.000153456    -7.30241e-05         0.654314        0.657653
564000                  0.352035        0.508526      0.000163241     0.000195057       -0.0866226        0.558544      0.000149697    -0.000179742
                     0.000161603     0.000194626         0.742971       -0.595364     -0.000225341    -0.000178961        0.0362795        0.076434
                      -0.0866247        0.558549     -0.000226714    -0.000179849         0.634227       -0.127651      0.000155616    -7.36113e-05
                     0.000151195    -0.000179639        0.0362796       0.0764337      0.000154867    -7.34052e-05         0.662519        0.674225
566800                  0.353392        0.477602       0.00018086     0.000234756        -0.130424        0.567197      0.000162798     -0.00018673
                     0.000175012     0.000239619         0.720702       -0.693245     -0.000229774    -0.000210234        0.0451454       0.0612269
                       -0.130429        0.567199     -0.000230864    -0.000210985         0.629602      -0.0933209      0.000165633    -7.60397e-05
                     0.000164468    -0.000187709        0.0451455       0.0612266      0.000165102     -7.6056e-05         0.663939        0.747786
570000                  0.360381         0.44262      0.000203421     0.000296491         -0.18142        0.568692      0.000178997    -0.000194235
                     0.000188538      0.00030973         0.636344       -0.771405     -0.000229008    -0.000249876        0.0549431       0.0442392
                       -0.181427         0.56869      -0.00022983    -0.000250366         0.622782       -0.053298      0.000177876    -7.87604e-05
