! TOUCHSTONE file generated by CST MICROWAVE STUDIO
! Date and time: Mon Oct 20 08:27:33 2025
! Project name: Teste_Macro_Metasurface_Nanopilar.cst
! Parameters = {H=600; L_x=130; L_y=175; Lambda=1064; Max_L=200; Min_L=70; PathPara=1; Phi=0; Step_L=10; Theta=0; p=520; phaseX=180; phaseY=0}
! Header version: 2018
! Port assignment regex: !\s*Touchstone port\s*([0-9]+)\s*=\s*(CST MWS port|CST DS port)\s*([0-9]+|Zmin|Zmax)\s*\(\"(.*)\"\)(\s*mode\s*([0-9]+))?.*
! Touchstone port assignment:
! Touchstone port 1 = CST MWS port Zmax ("") mode 1
! Touchstone port 2 = CST MWS port Zmax ("") mode 2
! Touchstone port 3 = CST MWS port Zmin ("") mode 1
! Touchstone port 4 = CST MWS port Zmin ("") mode 2
! S-Parameters are not renormalized. Each port impedance will be approximated by the real part at minimum frequency. The values are described via the [Reference] keyword.
! Default impedance is overridden by [Reference]
[Version] 2.0
# GHz S RI R 376.73
[Number of Ports] 4
[Reference]
376.73 376.73 259.888 259.888 
[Number of Frequencies] 52
[Network Data]
474000                  -0.73736        0.415692     -0.000196191     9.59615e-05        -0.355167       -0.255439      3.48992e-05    -0.000133738
                    -0.000196165     9.59595e-05         0.208152       -0.336898     -4.45683e-05     5.16618e-05        -0.758608        0.473793
                       -0.355167       -0.255439     -4.45619e-05     5.16445e-05         -0.25463        0.824617      0.000107705    -3.63192e-06
                     8.64531e-05    -0.000104673        -0.758599        0.473778      9.86813e-05     7.97133e-06        -0.403954       0.0657498
477200                 -0.736629        0.414347     -0.000196642     9.38669e-05        -0.388645       -0.253577      3.47489e-05    -0.000134946
                    -0.000196778       9.385e-05         0.205352       -0.341107     -4.52154e-05     5.78422e-05         -0.75239        0.482827
                       -0.388645       -0.253577     -4.51087e-05     5.80275e-05        -0.258294        0.822092       9.8799e-05     -8.9721e-06
                     8.58037e-05    -0.000106505        -0.752382        0.482811      9.00273e-05     2.78706e-06         -0.40649       0.0737221
480400                 -0.735844        0.412901     -0.000197098     9.16751e-05        -0.426372       -0.249278      3.45868e-05    -0.000136208
                    -0.000197404     9.16402e-05         0.202282        -0.34548     -4.57511e-05     6.42575e-05        -0.745716        0.492281
                       -0.426371       -0.249279     -4.55326e-05     6.46468e-05        -0.262232        0.819337      8.93143e-05    -1.42549e-05
                     8.51115e-05    -0.000108414        -0.745707        0.492265       8.0811e-05    -2.34421e-06        -0.408893       0.0822675
483600                 -0.734996        0.411344     -0.000197559     8.93793e-05        -0.468946       -0.241564       3.4412e-05    -0.000137527
                    -0.000198042     8.93231e-05         0.198909       -0.350022     -4.61617e-05     7.09165e-05        -0.738538        0.502181
                       -0.468946       -0.241567     -4.58186e-05     7.15107e-05        -0.266475        0.816317      7.92141e-05     -1.9446e-05
                     8.43726e-05    -0.000110404         -0.73853        0.502165      7.09965e-05    -7.38957e-06        -0.411117       0.0914313
486800                  -0.73408        0.409663     -0.000198023     8.69723e-05        -0.516972       -0.229073       3.4223e-05    -0.000138908
                    -0.000198693     8.68907e-05         0.195201       -0.354732     -4.64315e-05     7.78283e-05        -0.730803        0.512557
                       -0.516972       -0.229078     -4.59507e-05     7.86273e-05        -0.271061        0.812996      6.84612e-05    -2.45054e-05
                     8.35827e-05     -0.00011248        -0.730795        0.512541      6.05474e-05    -1.23105e-05        -0.413109        0.101261
490000                 -0.733085        0.407842     -0.000198489     8.44459e-05        -0.570962       -0.209913      3.40184e-05    -0.000140355
                    -0.000199355     8.43346e-05         0.191117       -0.359612     -4.65438e-05     8.50017e-05         -0.72245        0.523438
                       -0.570962       -0.209919     -4.59111e-05     8.60048e-05        -0.276029        0.809325      5.70178e-05    -2.93865e-05
                     8.27371e-05    -0.000114648        -0.722442        0.523422      4.94265e-05    -1.70622e-05        -0.414801        0.111805
493200                 -0.732003        0.405862     -0.000198956     8.17913e-05        -0.631148       -0.181481      3.37966e-05    -0.000141872
                    -0.000200027     8.16454e-05         0.186616       -0.364656     -4.64797e-05     9.24455e-05        -0.713411        0.534856
                       -0.631149        -0.18149     -4.56803e-05     9.36507e-05        -0.281431         0.80525      4.48467e-05    -3.40351e-05
                     8.18305e-05    -0.000116914        -0.713403         0.53484       3.7597e-05    -2.15926e-05        -0.416116        0.123112
496400                 -0.730819        0.403702     -0.000199422     7.89988e-05        -0.697127       -0.140276      3.35558e-05    -0.000143465
                     -0.00020071     7.88126e-05         0.181647        -0.36986     -4.62187e-05     0.000100168        -0.703606        0.546845
                       -0.697129       -0.140288      -4.5237e-05     0.000101572        -0.287322        0.800702      3.19113e-05    -3.83892e-05
                     8.08568e-05    -0.000119284        -0.703599        0.546829      2.50229e-05    -2.58417e-05         -0.41696        0.135231
499600                  -0.72952        0.401337     -0.000199885     7.60578e-05        -0.767242      -0.0817869      3.32938e-05    -0.000145139
                    -0.000201401      7.5825e-05         0.176156        -0.37521     -4.57382e-05     0.000108177        -0.692945         0.55944
                       -0.767248      -0.0818017     -4.45579e-05     0.000109776        -0.293772        0.795596      1.81776e-05    -4.23775e-05
                     7.98093e-05    -0.000121766        -0.692938        0.559424      1.16698e-05    -2.97408e-05        -0.417222        0.148204
502800                 -0.728088        0.398734     -0.000200343     7.29566e-05        -0.837603    -0.000674091      3.30082e-05    -0.000146901
                    -0.000202098     7.26698e-05         0.170084       -0.380691     -4.50136e-05      0.00011648        -0.681324        0.572677
                       -0.837614    -0.000691703     -4.36176e-05     0.000118267        -0.300859        0.789826      3.61442e-06    -4.59188e-05
                     7.86804e-05    -0.000124366        -0.681318        0.572661     -2.49332e-06    -3.32114e-05        -0.416769         0.16207
506000                 -0.726501        0.395858     -0.000200792     6.96821e-05         -0.90078        0.108309      3.26963e-05    -0.000148758
                    -0.000202801     6.93331e-05         0.163361       -0.386276     -4.40176e-05     0.000125083        -0.668624        0.586595
                       -0.900797         0.10829     -4.23884e-05     0.000127051        -0.308679        0.783259     -1.18041e-05    -4.89216e-05
                     7.74617e-05    -0.000127094        -0.668618        0.586579      -1.7493e-05    -3.61647e-05        -0.415448        0.176856
509200                 -0.724734        0.392662     -0.000201229     6.62201e-05         -0.94467        0.248032       3.2355e-05    -0.000150718
                    -0.000203506     6.57995e-05         0.155913       -0.391931     -4.27208e-05     0.000133991        -0.654705        0.601229
                       -0.944696        0.248014     -4.08403e-05     0.000136131        -0.317347        0.775727      -2.8097e-05    -5.12829e-05
                     7.61433e-05    -0.000129957        -0.654699        0.601213     -3.33492e-05    -3.85007e-05        -0.413081        0.192571
512400                 -0.722751        0.389091     -0.000201649     6.25547e-05        -0.916836        0.399264      3.19807e-05    -0.000152788
                    -0.000204209     6.20516e-05         0.147659       -0.397609     -4.10909e-05     0.000143208        -0.639407        0.616617
                       -0.916846        0.399241     -3.89406e-05     0.000145508        -0.326999        0.767009     -4.52743e-05    -5.28882e-05
                     7.47144e-05    -0.000132966        -0.639402        0.616601     -5.00735e-05    -4.01082e-05        -0.409463        0.209204
515600                 -0.720514        0.385072     -0.000202048     5.86681e-05        -0.836805        0.547501      3.15692e-05     -0.00015498
                    -0.000204906     5.80702e-05         0.138511       -0.403248     -3.90927e-05     0.000152736        -0.622542        0.632792
                       -0.836817        0.547482     -3.66543e-05     0.000155182        -0.337799        0.756818     -6.33341e-05    -5.36111e-05
                     7.31622e-05    -0.000136131        -0.622537        0.632776     -6.76658e-05    -4.08639e-05        -0.404362        0.226708
518800                 -0.717968        0.380518     -0.000202418     5.45409e-05        -0.726496        0.687171      3.11157e-05    -0.000157302
                    -0.000205593     5.38339e-05         0.128376       -0.408764     -3.66885e-05     0.000162574        -0.603891        0.649782
                       -0.726509        0.687157     -3.39433e-05      0.00016515        -0.349946        0.744768     -8.22597e-05    -5.33143e-05
                     7.14724e-05    -0.000139464        -0.603887        0.649767      -8.6112e-05    -4.06336e-05        -0.397525        0.244998
522000                 -0.715046        0.375313     -0.000202752      5.0151e-05        -0.591651        0.806194      3.06147e-05    -0.000159769
                    -0.000206263     4.93186e-05         0.117156       -0.414053     -3.38373e-05      0.00017272        -0.583197        0.667608
                       -0.591661        0.806187     -3.07673e-05     0.000175405        -0.363676        0.730334     -0.000102016    -5.18499e-05
                     6.96286e-05    -0.000142976        -0.583193        0.667593      -0.00010538    -3.92725e-05        -0.388677        0.263929
525200                 -0.711657        0.369307      -0.00020304     4.54741e-05        -0.443355        0.896346      3.00595e-05    -0.000162392
                    -0.000206907     4.44972e-05         0.104754       -0.418981     -3.04949e-05     0.000183167        -0.560158        0.686276
                       -0.443362        0.896343     -2.70828e-05     0.000185939        -0.379269        0.712785     -0.000122546    -4.90616e-05
                     6.76118e-05    -0.000146682        -0.560155        0.686261     -0.000125418    -3.66267e-05        -0.377533        0.283291
528400                 -0.707679          0.3623     -0.000203271     4.04827e-05        -0.294008        0.955803      2.94427e-05    -0.000165187
                    -0.000207515     3.93395e-05        0.0910781       -0.423379     -2.66145e-05     0.000193904        -0.534419        0.705772
                        -0.29401        0.955802     -2.28441e-05     0.000196738         -0.39704        0.691082     -0.000143767    -4.47873e-05
                        6.54e-05    -0.000150596        -0.534417        0.705757     -0.000146146    -3.25365e-05        -0.363815        0.302791
531600                 -0.702947         0.35402      -0.00020343      3.5146e-05         -0.14729        0.949569       2.8755e-05    -0.000168172
                    -0.000208075      3.3811e-05        0.0760486       -0.427041      -2.2146e-05     0.000204917         -0.50556        0.726052
                       -0.147294        0.949608     -1.80027e-05     0.000207783         -0.41732        0.663701     -0.000165567     -3.8863e-05
                      6.2968e-05    -0.000154734        -0.505558        0.726038     -0.000167459    -2.68393e-05        -0.347272        0.322045
534800                 -0.697221        0.344084     -0.000203501     2.94295e-05       -0.0237102        0.893911      2.79859e-05    -0.000171364
                    -0.000208572     2.78731e-05        0.0596086       -0.429715     -1.70366e-05     0.000216185        -0.473084        0.747028
                      -0.0237056        0.893945     -1.25081e-05      0.00021905        -0.440367        0.628353     -0.000187801    -3.11281e-05
                     6.02862e-05    -0.000159112        -0.473083        0.747014     -0.000189218    -1.93749e-05        -0.327706        0.340569
538000                 -0.690154        0.331941     -0.000203462     2.32944e-05        0.0701496        0.825894      2.71225e-05    -0.000174788
                    -0.000208985     2.14817e-05        0.0417382       -0.431104     -1.12312e-05     0.000227682        -0.436406        0.768548
                       0.0701591        0.825922     -6.30803e-06      0.00023051        -0.466144        0.581491     -0.000210291    -2.14313e-05
                       5.732e-05    -0.000163748        -0.436405        0.768534     -0.000211249    -9.99167e-06        -0.305012        0.357787
541200                 -0.681214        0.316765     -0.000203287     1.66967e-05         0.138786        0.755086      2.61497e-05    -0.000178467
                     -0.00020929     1.45872e-05        0.0224722       -0.430864      -4.6725e-06     0.000239373        -0.394835        0.790365
                        0.138798        0.755109      6.51128e-07     0.000242125          -0.4937        0.517468     -0.000232819    -9.63895e-06
                     5.40292e-05    -0.000168663        -0.394835        0.790353     -0.000233343     1.44584e-06        -0.279216        0.373043
544400                 -0.669543        0.297258     -0.000202943      9.5869e-06         0.187669        0.686893       2.5049e-05    -0.000182431
                    -0.000209455     7.13285e-06       0.00192127       -0.428613      2.69803e-06     0.000251218        -0.347561        0.812104
                        0.187682        0.686911      8.42347e-06     0.000253851          -0.5195        0.427166     -0.000255135     4.35679e-06
                     5.03661e-05    -0.000173875        -0.347562        0.812092     -0.000255255     1.50485e-05        -0.250509         0.38564
547600                 -0.653673        0.271263     -0.000202392     1.90915e-06         0.221755        0.623894       2.3798e-05    -0.000186712
                    -0.000209443    -9.45911e-07        -0.019705       -0.423943      1.09394e-05     0.000263166        -0.293645        0.833197
                        0.221768        0.623908      1.70627e-05     0.000265632        -0.532842        0.296302     -0.000276953     2.06282e-05
                     4.62745e-05    -0.000179407        -0.293646        0.833187     -0.000276705      3.0893e-05        -0.219276        0.394884
550800                 -0.630856        0.234907     -0.000201583    -6.39969e-06         0.245021        0.566994      2.23694e-05     -0.00019135
                    -0.000209204    -9.72251e-06       -0.0420758       -0.416447      2.01101e-05     0.000275155        -0.232013        0.852814
                        0.245033        0.567005      2.66211e-05     0.000277407        -0.503745        0.106667     -0.000297963     3.92028e-05
                     4.16877e-05    -0.000185279        -0.232015        0.852805     -0.000297386     4.90125e-05        -0.186104        0.400157
554000                 -0.595309        0.180483     -0.000200454    -1.54108e-05         0.260474        0.516209      2.07296e-05    -0.000196388
                    -0.000208675    -1.92806e-05       -0.0647231       -0.405756      3.02665e-05     0.000287114         -0.16147        0.869751
                        0.260485        0.516217      3.71479e-05     0.000289102        -0.358681       -0.141131     -0.000317831     6.00545e-05
                     3.65264e-05    -0.000191511        -0.161472        0.869744      -0.00031697     6.93876e-05        -0.151766        0.400981
557200                 -0.532481       0.0902113     -0.000198926    -2.52042e-05         0.270319        0.471131      1.88368e-05    -0.000201878
                    -0.000207776    -2.97153e-05       -0.0870378       -0.391589      4.14613e-05      0.00029896       -0.0807511        0.882291
                        0.270329        0.471138      4.86878e-05     0.000300632       0.00804309       -0.334037     -0.000336219     8.30968e-05
                     3.06957e-05    -0.000198124       -0.0807528        0.882286      -0.00033512      9.1939e-05        -0.117173        0.397089
560400                  -0.39309      -0.0877186     -0.000196902    -3.58695e-05         0.276151        0.431187      1.66386e-05     -0.00020788
                    -0.000206405    -4.11345e-05        -0.108286        -0.37381      5.37417e-05     0.000310597        0.0113694        0.888025
                        0.276161        0.431192       6.1279e-05     0.000311904         0.496614       -0.208298     -0.000352791     0.000108178
                     2.40815e-05    -0.000205132        0.0113682        0.888022       -0.0003515     0.000116523       -0.0832972        0.388465
563600                  0.137423       -0.578404     -0.000194256    -4.75061e-05         0.279117        0.395768      1.40687e-05    -0.000214464
                     -0.00020443    -5.36593e-05        -0.127652       -0.352484      6.71467e-05     0.000321919         0.115861        0.883644
                        0.279125        0.395771      7.49514e-05     0.000322812         0.735716         0.18929     -0.000367233     0.000135082
                      1.6547e-05    -0.000212545         0.115861        0.883643     -0.000365796     0.000142931       -0.0510892         0.37536
564000                  0.319192       -0.699545     -0.000193873    -4.90343e-05          0.27933        0.391629      1.37174e-05    -0.000215332
                    -0.000204132    -5.53093e-05        -0.129899       -0.349581      6.89029e-05     0.000323306          0.12982        0.882179
                        0.279338        0.391633      7.67375e-05     0.000324144         0.742268        0.239254     -0.000368874      0.00013856
                     1.55326e-05    -0.000213501          0.12982        0.882178     -0.000367422     0.000146347       -0.0472239        0.373429
566800                  0.377677        0.925937     -0.000190827    -6.02227e-05         0.280038        0.364296      1.10426e-05    -0.000221713
                    -0.000201678    -6.74252e-05        -0.144305       -0.327913      8.17049e-05     0.000332805         0.233056        0.864737
                        0.280045        0.364299      8.97236e-05     0.000333239         0.702329        0.526611     -0.000379266      0.00016353
                     7.92678e-06    -0.000220362         0.233058        0.864739     -0.000377725      0.00017089       -0.0213871        0.358264
570000                 -0.586749        0.809769     -0.000186411    -7.41361e-05         0.279507        0.336253      7.45102e-06    -0.000229725
                    -0.000197928    -8.25799e-05        -0.157488       -0.300654      9.74316e-05     0.000343124         0.362031        0.825692
                        0.279513        0.336255      0.000105601      0.00034306         0.584304        0.720859     -0.000388664     0.000193189
