! TOUCHSTONE file generated by CST MICROWAVE STUDIO
! Date and time: Mon Oct 20 08:27:49 2025
! Project name: Teste_Macro_Metasurface_Nanopilar.cst
! Parameters = {H=600; L_x=190; L_y=115; Lambda=1064; Max_L=200; Min_L=70; PathPara=1; Phi=0; Step_L=10; Theta=0; p=520; phaseX=180; phaseY=0}
! Header version: 2018
! Port assignment regex: !\s*Touchstone port\s*([0-9]+)\s*=\s*(CST MWS port|CST DS port)\s*([0-9]+|Zmin|Zmax)\s*\(\"(.*)\"\)(\s*mode\s*([0-9]+))?.*
! Touchstone port assignment:
! Touchstone port 1 = CST MWS port Zmax ("") mode 1
! Touchstone port 2 = CST MWS port Zmax ("") mode 2
! Touchstone port 3 = CST MWS port Zmin ("") mode 1
! Touchstone port 4 = CST MWS port Zmin ("") mode 2
! S-Parameters are not renormalized. Each port impedance will be approximated by the real part at minimum frequency. The values are described via the [Reference] keyword.
! Default impedance is overridden by [Reference]
[Version] 2.0
# GHz S RI R 376.73
[Number of Ports] 4
[Reference]
376.73 376.73 259.888 259.888 
[Number of Frequencies] 52
[Network Data]
474000                  0.460663       -0.105162     -5.06098e-06    -8.80404e-05        -0.864862      -0.0445904      4.26838e-06     5.91321e-06
                    -5.04827e-06    -8.80036e-05         0.465767       -0.110983      7.99726e-06     6.17561e-06        -0.857494        0.118799
                       -0.864862      -0.0445904      7.96545e-06      6.1955e-06        -0.450653       -0.157804     -1.44005e-06    -7.86573e-05
                     4.32303e-06     5.87878e-06        -0.857494        0.118799     -1.50292e-06    -7.86833e-05         -0.48061       0.0194289
477200                   0.45697       -0.113145     -4.88569e-06    -8.72126e-05        -0.876217      -0.0616091      5.21055e-06     6.11385e-06
                    -4.85422e-06    -8.72102e-05          0.46537       -0.116539      7.31181e-06     5.76834e-06        -0.869999        0.177011
                       -0.876217      -0.0616094      7.02288e-06     5.84771e-06         -0.44102       -0.165218     -9.69396e-07    -7.46848e-05
                     5.43881e-06     6.32816e-06        -0.869998        0.177008     -1.03038e-06    -7.47103e-05        -0.484479       0.0421364
480400                  0.453052       -0.121325     -4.70375e-06    -8.63328e-05        -0.887511      -0.0801372      6.19385e-06     6.32385e-06
                    -4.65169e-06    -8.63675e-05          0.46494       -0.122415      6.60006e-06       5.347e-06        -0.875935        0.239441
                       -0.887512      -0.0801376      6.04602e-06     5.48846e-06         -0.43061       -0.172846     -5.35151e-07    -7.05741e-05
                     6.60331e-06     6.79872e-06        -0.875933        0.239434     -5.94192e-07    -7.05992e-05        -0.487682       0.0664306
483600                  0.448896       -0.129706     -4.51493e-06     -8.5396e-05        -0.898635       -0.100307      7.22104e-06     6.54387e-06
                    -4.44022e-06    -8.54707e-05         0.464471       -0.128636      5.86048e-06     4.91088e-06        -0.874104        0.305074
                       -0.898636       -0.100308        5.033e-06     5.11718e-06        -0.419339       -0.180678     -1.41961e-07     -6.6319e-05
                     7.81978e-06     7.29198e-06        -0.874102        0.305064     -1.99014e-07    -6.63436e-05        -0.490054       0.0924217
486800                  0.444486       -0.138294     -4.31906e-06    -8.43965e-05        -0.909452       -0.122258      8.29511e-06     6.77464e-06
                    -4.21932e-06    -8.45146e-05          0.46396       -0.135237      5.09139e-06     4.45918e-06        -0.863505        0.372515
                       -0.909454       -0.122259      3.98175e-06     4.73326e-06        -0.407115       -0.188697      2.05032e-07     -6.1913e-05
                     9.09178e-06     7.80961e-06        -0.863504          0.3725      1.50017e-07    -6.19369e-05        -0.491397        0.120219
490000                  0.439805       -0.147091     -4.11597e-06     -8.3328e-05        -0.919795        -0.14613      9.41936e-06     7.01697e-06
                    -3.98851e-06     -8.3493e-05           0.4634       -0.142251      4.29102e-06     3.99106e-06        -0.843473        0.440031
                       -0.919797       -0.146132      2.89008e-06     4.33607e-06        -0.393835       -0.196878      5.00143e-07    -5.73491e-05
                     1.04232e-05     8.35347e-06        -0.843474        0.440013      4.47215e-07    -5.73724e-05        -0.491478        0.149928
493200                  0.434834       -0.156103     -3.90559e-06    -8.21829e-05        -0.929458       -0.172064      1.05974e-05     7.27175e-06
                    -3.74729e-06    -8.23991e-05         0.462785       -0.149719       3.4574e-06     3.50563e-06        -0.813804         0.50566
                       -0.929461       -0.172066      1.75561e-06     3.92489e-06        -0.379383       -0.205186      7.37077e-07    -5.26203e-05
                     1.18183e-05     8.92559e-06        -0.813809        0.505638      6.86288e-07    -5.26429e-05        -0.490018        0.181643
496400                  0.429555       -0.165333     -3.68794e-06    -8.09529e-05        -0.938197       -0.200194      1.18331e-05     7.53996e-06
                    -3.49519e-06     -8.1225e-05         0.462109       -0.157686      2.58844e-06     3.00191e-06        -0.774844        0.567368
                         -0.9382       -0.200197      5.75781e-07       3.499e-06        -0.363628       -0.213573       9.0887e-07    -4.77191e-05
                     1.32817e-05      9.5282e-06        -0.774852        0.567344       8.6027e-07    -4.77409e-05        -0.486694        0.215441
499600                  0.423945       -0.174784     -3.46314e-06    -7.96283e-05        -0.945717       -0.230639      1.31309e-05     7.82268e-06
                    -3.23174e-06    -7.99614e-05         0.461362       -0.166205      1.68184e-06     2.47886e-06        -0.727501        0.623243
                        -0.94572       -0.230643     -6.52182e-07     3.05759e-06        -0.346426       -0.221975      1.00781e-06    -4.26376e-05
                     1.48186e-05     1.01638e-05        -0.727514        0.623218      9.61452e-07    -4.26586e-05        -0.481127        0.251371
502800                  0.417984       -0.184458     -3.23152e-06    -7.81979e-05        -0.951671       -0.263495      1.44956e-05     8.12111e-06
                    -2.95656e-06     -7.8598e-05         0.460533       -0.175335      7.35122e-07     1.93536e-06        -0.673185        0.671688
                       -0.951674       -0.263499     -1.93128e-06     2.59981e-06        -0.327615       -0.230306      1.02536e-06    -3.73679e-05
                     1.64347e-05     1.08352e-05        -0.673203        0.671663      9.81296e-07    -3.73878e-05        -0.472878        0.289438
506000                  0.411646       -0.194359     -2.99365e-06    -7.66484e-05         -0.95443       -0.298436      1.59325e-05     8.43659e-06
                    -2.66935e-06    -7.71225e-05         0.459612       -0.185142     -2.54437e-07     1.37022e-06        -0.613667        0.711562
                       -0.954429        -0.29844     -3.26478e-06     2.12476e-06        -0.307017       -0.238453      9.52073e-07    -3.19013e-05
                     1.81362e-05     1.15454e-05         -0.61369        0.711539      9.10346e-07    -3.19203e-05        -0.461447        0.329592
509200                  0.404906       -0.204487     -2.75044e-06    -7.49648e-05        -0.943368       -0.331748      1.74474e-05     8.77063e-06
                    -2.36994e-06    -7.55207e-05         0.458583       -0.195706      -1.2898e-06     7.82124e-07          -0.5509        0.742273
                       -0.943367       -0.331752      -4.6562e-06     1.63144e-06        -0.284437        -0.24627      7.77464e-07    -2.62294e-05
                     1.99301e-05     1.22979e-05        -0.550927        0.742251      7.38128e-07    -2.62473e-05        -0.446273          0.3717
512400                  0.397737       -0.214842     -2.50331e-06     -7.3129e-05        -0.930315       -0.366761      1.90469e-05     9.12489e-06
                    -2.05841e-06    -7.37756e-05         0.457428       -0.207118     -2.37421e-06      1.6967e-07        -0.486826        0.763767
                       -0.930313       -0.366766     -6.10942e-06      1.1188e-06        -0.259663       -0.253567      4.89933e-07     -2.0343e-05
                     2.18241e-05     1.30966e-05        -0.486856        0.763749      4.53037e-07    -2.03597e-05        -0.426738        0.415522
515600                  0.390107       -0.225425     -2.25433e-06    -7.11197e-05        -0.915014       -0.403423      2.07382e-05     9.50127e-06
                    -1.73516e-06    -7.18675e-05         0.456127       -0.219483     -3.51122e-06    -4.68662e-07        -0.423213        0.776468
                       -0.915011       -0.403428     -7.62862e-06     5.85706e-07        -0.232469       -0.260099      7.66233e-08     -1.4233e-05
                     2.38268e-05     1.39457e-05        -0.423245        0.776454       4.2215e-08    -1.42484e-05        -0.402179        0.460682
518800                  0.381987       -0.236233     -2.00652e-06    -6.89116e-05        -0.897196       -0.441632      2.25296e-05     9.90187e-06
                     -1.4011e-06    -6.97726e-05         0.454652       -0.232926     -4.70474e-06    -1.13452e-06        -0.361544        0.781163
                       -0.897193       -0.441638      -9.2184e-06     3.09235e-08        -0.202621       -0.265555     -4.76712e-07    -7.88995e-06
                     2.59478e-05     1.48503e-05        -0.361578        0.781153     -5.08588e-07    -7.90386e-06        -0.371913        0.506634
522000                  0.373341       -0.247264     -1.76424e-06    -6.64741e-05        -0.876595       -0.481229      2.44301e-05     1.03291e-05
                    -1.05787e-06    -6.74626e-05         0.452973       -0.247593     -5.95906e-06    -1.82968e-06        -0.302956        0.778869
                       -0.876591       -0.481236     -1.08838e-05     -5.4687e-07        -0.169887        -0.26954     -1.18586e-06    -1.30419e-06
                     2.81979e-05     1.58159e-05         -0.30299        0.778863     -1.21516e-06    -1.31656e-06        -0.335276        0.552631
525200                  0.364133       -0.258512     -1.53371e-06    -6.37704e-05        -0.852955       -0.521984      2.64501e-05     1.07857e-05
                    -7.08208e-07     -6.4903e-05         0.451048       -0.263659     -7.27894e-06     -2.5561e-06        -0.248239         0.77071
                       -0.852951       -0.521991     -1.26303e-05    -1.14911e-06        -0.134048       -0.271558     -2.06831e-06     5.53392e-06
                     3.05892e-05     1.68488e-05        -0.248272        0.770707       -2.095e-06     5.52323e-06        -0.291673        0.597696
528400                  0.354325        -0.26997     -1.32387e-06    -6.07553e-05        -0.826052       -0.563595      2.86011e-05     1.12748e-05
                    -3.56448e-07    -6.20517e-05         0.448828       -0.281334     -8.66962e-06    -3.31587e-06         -0.19786        0.757816
                       -0.826046       -0.563603      -1.4464e-05    -1.77734e-06       -0.0949253       -0.270992     -3.14345e-06     1.26341e-05
                     3.31355e-05     1.79563e-05        -0.197893        0.757817     -3.16749e-06     1.26252e-05        -0.240655        0.640614
531600                  0.343874       -0.281628     -1.14757e-06    -5.73732e-05        -0.795708        -0.60568      3.08963e-05     1.17999e-05
                    -9.32369e-09    -5.88568e-05         0.446249       -0.300871     -1.01369e-05     -4.1113e-06        -0.152023         0.74125
                       -0.795701       -0.605689     -1.63916e-05    -2.43324e-06       -0.0524119       -0.267089     -4.43273e-06     2.00058e-05
                     3.58523e-05     1.91465e-05        -0.152055        0.741254     -4.45409e-06     1.99989e-05        -0.182004        0.679933
534800                  0.332737       -0.293475     -1.02338e-06    -5.35549e-05        -0.761821       -0.647788      3.33508e-05     1.23652e-05
                     3.22832e-07    -5.52538e-05         0.443228       -0.322578     -1.16874e-05    -4.94489e-06        -0.110725        0.721963
                       -0.761813       -0.647797     -1.84204e-05    -3.11865e-06      -0.00652006        -0.25894     -5.95991e-06     2.76585e-05
                     3.87572e-05     2.04292e-05        -0.110754        0.721969     -5.97858e-06     2.76537e-05        -0.115832        0.714016
538000                  0.320866       -0.305495     -9.78428e-07    -4.92132e-05        -0.724381         -0.6894      3.59817e-05     1.29753e-05
                     6.24212e-07    -5.11608e-05         0.439659       -0.346837     -1.33281e-05    -5.81938e-06       -0.0738123        0.700774
                       -0.724372        -0.68941     -2.05586e-05    -3.83553e-06         0.042554       -0.245485     -7.75129e-06      3.5601e-05
                     4.18705e-05     2.18153e-05       -0.0738397        0.700781     -7.76724e-06     3.55984e-05       -0.0426747        0.741118
541200                  0.308212       -0.317669     -1.05282e-06    -4.42371e-05        -0.683491       -0.729959      3.88087e-05     1.36359e-05
                     8.70562e-07    -4.64738e-05         0.435399       -0.374122     -1.50673e-05    -6.73778e-06        -0.041034        0.678363
                       -0.683481       -0.729968     -2.28153e-05    -4.58606e-06        0.0943485       -0.225522     -9.83593e-06     4.38415e-05
                     4.52153e-05     2.33178e-05       -0.0410592        0.678372     -9.84916e-06     4.38414e-05        0.0364393        0.759523
544400                  0.294722       -0.329974     -1.30671e-06    -3.84833e-05        -0.639383       -0.768889      4.18545e-05     1.43533e-05
                     1.02434e-06    -4.10576e-05         0.430258       -0.405034      -1.6914e-05    -7.70335e-06       -0.0120809        0.655283
                       -0.639371       -0.768898     -2.52007e-05    -5.37256e-06          0.14804       -0.197761     -1.22459e-05     5.23874e-05
                     4.88183e-05     2.49518e-05        -0.012104        0.655293     -1.22564e-05     5.23899e-05         0.119969        0.767707
547600                   0.28034       -0.342381     -1.83202e-06    -3.17651e-05        -0.592415       -0.805633      4.51457e-05     1.51351e-05
                     1.02669e-06    -3.47348e-05         0.423975        -0.44034     -1.88783e-05    -8.71972e-06        0.0133831        0.631968
                       -0.592402       -0.805642     -2.77259e-05    -6.19761e-06         0.202345       -0.160925     -1.50167e-05     6.12447e-05
                     5.27106e-05     2.67351e-05        0.0133621         0.63198     -1.50245e-05     6.12501e-05         0.205906        0.764522
550800                  0.265008       -0.354856     -2.77218e-06    -2.38354e-05        -0.543067       -0.839689      4.87129e-05     1.59904e-05
                     7.83646e-07    -2.72681e-05         0.416184       -0.481038      -2.0972e-05    -9.79084e-06        0.0356995        0.608756
                       -0.543054       -0.839698     -3.04036e-05    -7.06401e-06         0.255441       -0.113908     -1.81872e-05     7.04179e-05
                     5.69284e-05     2.86888e-05        0.0356805        0.608767     -1.81923e-05     7.04263e-05           0.2919        0.749367
554000                  0.248664       -0.367359     -4.35671e-06    -1.43644e-05        -0.481532       -0.852259      5.25926e-05     1.69299e-05
                     1.41774e-07    -1.83354e-05         0.406362        -0.52845     -2.32079e-05    -1.09211e-05        0.0552002        0.585895
                       -0.481518       -0.852269     -3.32481e-05    -7.97481e-06         0.304945      -0.0560032     -2.18003e-05     7.99093e-05
                     6.15141e-05     3.08383e-05        0.0551831        0.585907     -2.18029e-05     7.99209e-05         0.375452        0.722301
557200                  0.231246       -0.379843      -6.9635e-06     -2.9087e-06        -0.417577       -0.853164      5.68275e-05     1.79664e-05
                    -1.15654e-06    -7.49162e-06         0.393737       -0.584362     -2.56012e-05    -1.21152e-05         0.072198        0.563571
                       -0.417562       -0.853172     -3.62754e-05    -8.93336e-06         0.347992       0.0128188     -2.59031e-05     8.97185e-05
                     6.65177e-05     3.32141e-05        0.0721827        0.563583     -2.59031e-05     8.97335e-05         0.454144        0.684069
560400                  0.212687       -0.392251     -1.12353e-05      1.1125e-05        -0.355012       -0.846307      6.14688e-05     1.91156e-05
                    -3.55856e-06     5.88653e-06         0.377134       -0.651241     -2.81687e-05    -1.33785e-05        0.0869821         0.54191
                       -0.354997       -0.846313     -3.95035e-05    -9.94332e-06         0.381471        0.091645     -3.05469e-05     9.98417e-05
                      7.1999e-05     3.58533e-05        0.0869684        0.541922     -3.05443e-05     9.98604e-05         0.525873        0.636037
563600                  0.192922        -0.40452     -1.83045e-05     2.85058e-05        -0.295147       -0.832287      6.65777e-05     2.03967e-05
                    -7.87212e-06     2.26773e-05         0.354695       -0.732584     -3.09301e-05    -1.47169e-05        0.0998152        0.520998
                       -0.295132       -0.832291     -4.29532e-05    -1.10087e-05         0.402402        0.178444     -3.57876e-05     0.000110271
                     7.80292e-05     3.88014e-05        0.0998031         0.52101     -3.57827e-05     0.000110294         0.589025        0.580044
564000                  0.190363        -0.40604     -1.94729e-05     3.09581e-05         -0.28791       -0.830071      6.72528e-05     2.05672e-05
                    -8.60996e-06     2.50725e-05         0.351345       -0.744001       -3.129e-05    -1.48898e-05         0.101294         0.51844
                       -0.287895       -0.830075     -4.34011e-05     -1.1146e-05         0.404009        0.189709     -3.64876e-05     0.000111596
                     7.88257e-05     3.91943e-05         0.101282        0.518452     -3.64824e-05     0.000111619         0.596259        0.572589
566800                  0.171882       -0.416572     -3.02369e-05      5.0124e-05        -0.239058       -0.811956      7.22287e-05     2.18333e-05
                    -1.56232e-05     4.40967e-05         0.323347       -0.833503      -3.3908e-05    -1.61368e-05         0.110934        0.500888
                       -0.239044       -0.811958     -4.66479e-05     -1.2134e-05         0.408438        0.270087     -4.16859e-05     0.000120993
                     8.46948e-05      4.2115e-05         0.110923        0.500899     -4.16788e-05      0.00012102         0.642582        0.518194
570000                  0.149499       -0.428323     -5.08963e-05     7.65938e-05        -0.187546       -0.786331      7.85127e-05     2.34552e-05
                    -2.98335e-05     7.16821e-05          0.27744       -0.960743     -3.71286e-05    -1.76454e-05         0.120548        0.481606
                       -0.187532       -0.786331     -5.06146e-05    -1.33239e-05         0.398341        0.362631     -4.83073e-05      0.00013199
