! TOUCHSTONE file generated by CST MICROWAVE STUDIO
! Date and time: Mon Oct 20 08:27:12 2025
! Project name: Teste_Macro_Metasurface_Nanopilar.cst
! Parameters = {H=600; L_x=70; L_y=100; Lambda=1064; Max_L=200; Min_L=70; PathPara=1; Phi=0; Step_L=10; Theta=0; p=520; phaseX=180; phaseY=0}
! Header version: 2018
! Port assignment regex: !\s*Touchstone port\s*([0-9]+)\s*=\s*(CST MWS port|CST DS port)\s*([0-9]+|Zmin|Zmax)\s*\(\"(.*)\"\)(\s*mode\s*([0-9]+))?.*
! Touchstone port assignment:
! Touchstone port 1 = CST MWS port Zmax ("") mode 1
! Touchstone port 2 = CST MWS port Zmax ("") mode 2
! Touchstone port 3 = CST MWS port Zmin ("") mode 1
! Touchstone port 4 = CST MWS port Zmin ("") mode 2
! S-Parameters are not renormalized. Each port impedance will be approximated by the real part at minimum frequency. The values are described via the [Reference] keyword.
! Default impedance is overridden by [Reference]
[Version] 2.0
# GHz S RI R 376.73
[Number of Ports] 4
[Reference]
376.73 376.73 259.888 259.888 
[Number of Frequencies] 52
[Network Data]
474000                   0.43835       -0.656213     -0.000162026    -2.99088e-05        -0.507659        0.285384     -0.000241118    -4.32366e-05
                    -0.000142476     -1.0565e-06         0.307649        0.162721      0.000177768    -0.000138701        -0.728398        -0.58036
                       -0.507613        0.285409      0.000124306    -0.000136298        -0.791613       0.0852705       0.00012419    -0.000203198
                    -0.000233077    -6.71389e-05         -0.72841       -0.580374      0.000113315    -0.000252699        -0.220092       -0.265031
477200                   0.42363       -0.727202     -0.000159259    -3.20361e-05        -0.498026        0.291615     -0.000237898    -4.18425e-05
                    -0.000140307    -2.85024e-06         0.317226        0.164042      0.000177817    -0.000136913         -0.72978       -0.576778
                       -0.497981        0.291637      0.000123996    -0.000135361        -0.780155        0.102834      0.000112039    -0.000196737
                    -0.000230192    -6.52105e-05        -0.729793       -0.576791      0.000101262    -0.000244334        -0.215324        -0.26444
480400                  0.390048        -0.81511     -0.000156289    -3.42242e-05        -0.487615        0.298139      -0.00023456    -4.04421e-05
                    -0.000137983    -4.70789e-06         0.327863        0.165193      0.000177837    -0.000135019        -0.731251       -0.572912
                        -0.48757        0.298159      0.000123663    -0.000134376        -0.767366        0.120361      0.000100179    -0.000189907
                    -0.000227187    -6.32569e-05        -0.731264       -0.572925      8.96273e-05     -0.00023568        -0.210497       -0.263754
483600                  0.322261       -0.919562     -0.000153097    -3.64714e-05        -0.476331        0.304969     -0.000231099    -3.90372e-05
                    -0.000135487    -6.63066e-06         0.339726        0.166091      0.000177822    -0.000133011        -0.732819       -0.568727
                       -0.476286        0.304986      0.000123304    -0.000133339        -0.753184        0.137739      8.86264e-05    -0.000182728
                    -0.000224054    -6.12795e-05        -0.732833       -0.568741      7.84166e-05    -0.000226761        -0.205613        -0.26297
486800                  0.187621       -0.982242     -0.000149661     -3.8775e-05        -0.464068        0.312115     -0.000227509      -3.763e-05
                    -0.000132803     -8.6193e-06         0.353017        0.166615      0.000177765    -0.000130878        -0.734494       -0.564183
                       -0.464024        0.312129      0.000122917    -0.000132246        -0.737556        0.154839      7.73942e-05    -0.000175217
                    -0.000220787    -5.92797e-05        -0.734508       -0.564197      6.76342e-05    -0.000217604        -0.200673       -0.262084
490000               -0.00945924       -0.999955     -0.000145957    -4.11306e-05          -0.4507        0.319587     -0.000223783    -3.62227e-05
                    -0.000129911    -1.06739e-05         0.367975        0.166601      0.000177659    -0.000128611        -0.736286       -0.559232
                       -0.450657        0.319599      0.000122498    -0.000131091        -0.720444        0.171521      6.64953e-05    -0.000167395
                    -0.000217379    -5.72593e-05          -0.7363       -0.559246      5.72827e-05    -0.000208232        -0.195679       -0.261093
493200                 -0.254572       -0.967054     -0.000141956    -4.35322e-05        -0.436081        0.327391     -0.000219915     -3.4818e-05
                    -0.000126788    -1.27938e-05         0.384883        0.165812      0.000177494    -0.000126199        -0.738207       -0.553817
                       -0.436039        0.327399      0.000122045    -0.000129871        -0.701821         0.18763      5.59409e-05    -0.000159282
                    -0.000213821    -5.52205e-05        -0.738222       -0.553831      4.73631e-05    -0.000198671        -0.190632       -0.259993
496400                 -0.504581       -0.863364     -0.000137629    -4.59712e-05        -0.420041        0.335525     -0.000215897    -3.34191e-05
                     -0.00012341    -1.49769e-05         0.404078        0.163916      0.000177258    -0.000123627         -0.74027       -0.547869
                           -0.42         0.33553      0.000121553    -0.000128579        -0.681681           0.203      4.57406e-05    -0.000150899
                    -0.000210105    -5.31658e-05        -0.740286       -0.547883      3.78748e-05    -0.000188945        -0.185536       -0.258779
499600                 -0.596046       -0.605151     -0.000132941     -4.8436e-05        -0.402379        0.343981     -0.000211721    -3.20295e-05
                    -0.000119749    -1.72197e-05         0.425948        0.160438      0.000176937    -0.000120883         -0.74249       -0.541307
                        -0.40234        0.343982      0.000121016    -0.000127209        -0.660038        0.217456      3.59025e-05    -0.000142265
                    -0.000206222    -5.10984e-05        -0.742506       -0.541321      2.88158e-05    -0.000179076        -0.180391       -0.257449
502800                 -0.552664       -0.377807     -0.000127855    -5.09114e-05        -0.382857        0.352737     -0.000207381    -3.06529e-05
                    -0.000115772    -1.95169e-05         0.450924        0.154693      0.000176516    -0.000117953        -0.744883       -0.534031
                       -0.382819        0.352734      0.000120431    -0.000125754         -0.63693        0.230816      2.64333e-05    -0.000133402
                    -0.000202163    -4.90217e-05          -0.7449       -0.534046      2.01829e-05    -0.000169086        -0.175201       -0.255998
506000                  -0.45507       -0.230195      -0.00012233    -5.33772e-05        -0.361192        0.361753     -0.000202867     -2.9294e-05
                    -0.000111444    -2.18601e-05         0.479455        0.145692      0.000175975    -0.000114818        -0.747467       -0.525919
                       -0.361156        0.361746      0.000119789    -0.000124207        -0.612421        0.242896      1.73382e-05    -0.000124331
                    -0.000197917    -4.69399e-05        -0.747484       -0.525934      1.19717e-05    -0.000158996        -0.169967       -0.254422
509200                 -0.352778       -0.146143     -0.000116317    -5.58072e-05        -0.337048        0.370962     -0.000198171    -2.79578e-05
                    -0.000106724    -2.42378e-05         0.511925        0.132008       0.00017529    -0.000111463        -0.750261        -0.51682
                       -0.337015        0.370951      0.000119084    -0.000122557        -0.586604        0.253514      8.62107e-06    -0.000115073
                    -0.000193475    -4.48577e-05        -0.750278       -0.516835       4.1766e-06    -0.000148828        -0.164694       -0.252717
512400                 -0.263597       -0.101511     -0.000109768    -5.81675e-05        -0.310023        0.380259     -0.000193283    -2.66499e-05
                    -0.000101565    -2.66335e-05         0.548485        0.111594      0.000174433     -0.00010787        -0.753284       -0.506544
                       -0.309993        0.380243      0.000118307    -0.000120796        -0.559599        0.262494      2.84294e-07    -0.000105647
                    -0.000188825    -4.27809e-05        -0.753302        -0.50656     -3.20892e-06    -0.000138601        -0.159384        -0.25088
515600                 -0.190391      -0.0793249     -0.000102625    -6.04147e-05        -0.279634        0.389482     -0.000188194    -2.53769e-05
                    -9.59149e-05    -2.90251e-05         0.588698       0.0815887      0.000173367    -0.000104018        -0.756556        -0.49485
                       -0.279607        0.389461      0.000117447    -0.000118912        -0.531557        0.269673     -7.67096e-06    -9.60752e-05
                    -0.000183955    -4.07158e-05        -0.756576       -0.494867     -1.01922e-05    -0.000128332        -0.154041       -0.248906
518800                 -0.131262      -0.0696049     -9.48298e-05    -6.24936e-05          -0.2453        0.398388     -0.000182892    -2.41458e-05
                     -8.9715e-05    -3.13826e-05         0.630869       0.0382037      0.000172053    -9.98887e-05        -0.760094       -0.481429
                       -0.245278        0.398363      0.000116492    -0.000116892        -0.502655        0.274906     -1.52448e-05    -8.63761e-05
                    -0.000178852    -3.86699e-05        -0.760115       -0.481446     -1.67815e-05    -0.000118041        -0.148668       -0.246792
522000                -0.0834344      -0.0667733     -8.63183e-05    -6.43341e-05        -0.206326        0.406616     -0.000177368     -2.2965e-05
                     -8.2899e-05    -3.36659e-05         0.670931      -0.0229831      0.000170438    -9.54633e-05        -0.763908       -0.465873
                       -0.206309        0.406586      0.000115427    -0.000114723        -0.473093        0.278069     -2.24385e-05    -7.65694e-05
                    -0.000173504    -3.66517e-05         -0.76393        -0.46589     -2.29854e-05    -0.000107742         -0.14327       -0.244535
525200                -0.0444203      -0.0677304     -7.70246e-05    -6.58477e-05        -0.161878        0.413629      -0.00017161    -2.18437e-05
                    -7.53935e-05    -3.58218e-05         0.700985       -0.105664       0.00016846    -9.07245e-05        -0.767989        -0.44764
                       -0.161867        0.413594      0.000114234    -0.000112387        -0.443096        0.279068     -2.92544e-05    -6.66739e-05
                    -0.000167896    -3.46711e-05        -0.768013       -0.447657     -2.88136e-05    -9.74516e-05         -0.13785        -0.24213
528400                -0.0122438      -0.0707372     -6.68829e-05    -6.69238e-05         -0.11097        0.418638     -0.000165606    -2.07922e-05
                    -6.71173e-05    -3.77802e-05         0.708571       -0.209468      0.000166044    -8.56587e-05          -0.7723       -0.425991
                       -0.110967        0.418599      0.000112891    -0.000109866        -0.412901        0.277842     -3.56959e-05    -5.67076e-05
                    -0.000162015    -3.27394e-05        -0.772326       -0.426009     -3.42757e-05    -8.71842e-05        -0.132413       -0.239573
531600                 0.0146009      -0.0748053     -5.58306e-05    -6.74247e-05       -0.0524566        0.420476     -0.000159343    -1.98223e-05
                    -5.79827e-05    -3.94491e-05         0.679348       -0.324963        0.0001631    -8.02587e-05        -0.776736       -0.399899
                      -0.0524624        0.420433      0.000111371    -0.000107139        -0.382757        0.274364     -4.17675e-05     -4.6688e-05
                    -0.000155844    -3.08695e-05        -0.776763       -0.399918     -3.93822e-05    -7.69531e-05        -0.126964       -0.236862
534800                 0.0372489      -0.0793668     -4.38146e-05    -6.71807e-05        0.0149445        0.417429     -0.000152809     -1.8947e-05
                    -4.78969e-05    -4.07088e-05         0.605625       -0.431455      0.000159516    -7.45277e-05        -0.781059       -0.367892
                       0.0149281        0.417383      0.000109643    -0.000104183        -0.352916        0.268645     -4.74742e-05     -3.6632e-05
                    -0.000149368    -2.90762e-05        -0.781089        -0.36791     -4.41435e-05    -6.67708e-05        -0.121508       -0.233993
538000                  0.056557      -0.0840939     -3.07989e-05     -6.5985e-05        0.0925634        0.406982      -0.00014599    -1.81813e-05
                    -3.67659e-05    -4.14039e-05          0.49601       -0.504703      0.000155162    -6.84857e-05        -0.784762       -0.327798
                       0.0925349        0.406936      0.000107666     -0.00010097        -0.323625        0.260732     -5.28222e-05    -2.65554e-05
                    -0.000142571    -2.73762e-05        -0.784796       -0.327817     -4.85706e-05    -5.66487e-05         -0.11605       -0.230963
541200                  0.073177      -0.0887983     -1.67762e-05    -6.35897e-05         0.181557        0.385482     -0.000138872    -1.75417e-05
                    -2.45004e-05     -4.1335e-05         0.373789       -0.531928      0.000149884    -6.21773e-05        -0.786761       -0.276314
                        0.181515        0.385438      0.000105389    -9.74686e-05        -0.295122        0.250709      -5.7818e-05    -1.64736e-05
                    -0.000135435    -2.57888e-05        -0.786799       -0.276332     -5.26744e-05    -4.65974e-05        -0.110596       -0.227768
544400                 0.0876092      -0.0933742     -1.78367e-06    -5.97034e-05         0.282432         0.34772     -0.000131442     -1.7047e-05
                    -1.10264e-05    -4.02484e-05         0.262592       -0.518298      0.000143503     -5.5684e-05         -0.78467       -0.208221
                        0.282377        0.347681      0.000102748    -9.36456e-05        -0.267627        0.238694     -6.24692e-05    -6.40093e-06
                    -0.000127944    -2.43358e-05        -0.784714       -0.208237     -5.64661e-05    -3.66267e-05        -0.105151       -0.224407
547600                  0.100242      -0.0977644      1.40772e-05    -5.39933e-05         0.394114        0.286543     -0.000123685    -1.67181e-05
                     3.69869e-06     -3.7826e-05         0.174906       -0.479051      0.000135819    -4.91392e-05        -0.772976       -0.115035
                        0.394046        0.286515      9.96624e-05    -8.94622e-05        -0.241339        0.224832     -6.67836e-05     3.64901e-06
                     -0.00012008    -2.30419e-05        -0.773028       -0.115049     -5.99569e-05    -2.67452e-05       -0.0997218       -0.220876
550800                  0.111381       -0.101942      3.06159e-05     -4.6094e-05         0.512311        0.192829     -0.000115587    -1.65786e-05
                     1.96621e-05    -3.36773e-05         0.112094       -0.428874      0.000126619    -4.27476e-05        -0.737989       0.0170875
                        0.512236        0.192818      9.60275e-05    -8.48772e-05         -0.21643        0.209294     -7.07695e-05     1.36634e-05
                    -0.000111825    -2.19351e-05        -0.738052       0.0170815     -6.31579e-05     -1.6961e-05        -0.094315       -0.217173
554000                  0.121268       -0.105896      4.75262e-05    -3.56278e-05         0.627099       0.0566015     -0.000107132    -1.66548e-05
                     3.67614e-05    -2.73362e-05        0.0699068       -0.377345      0.000115697    -3.68077e-05        -0.642815        0.207981
                        0.627026       0.0566099      9.17075e-05    -7.98475e-05         -0.19304        0.192268     -7.44359e-05     2.36303e-05
                    -0.000103163    -2.10472e-05        -0.642888        0.207993     -6.60803e-05    -7.28119e-06        -0.088937       -0.213295
557200                  0.130096       -0.109628      6.43603e-05    -2.22385e-05         0.720417       -0.129428     -9.83065e-05    -1.69764e-05
                     5.47596e-05    -1.82706e-05        0.0429181       -0.329283      0.000102883    -3.17334e-05        -0.384275        0.460098
                        0.720357       -0.129403      8.65239e-05    -7.43319e-05         -0.17128        0.173955     -7.77918e-05     3.35386e-05
                    -9.40764e-05     -2.0414e-05        -0.384347        0.460145     -6.87351e-05     2.28775e-06       -0.0835949       -0.209242
560400                  0.138022       -0.113143      8.05127e-05    -5.64378e-06         0.766071       -0.362933     -8.90971e-05    -1.75764e-05
                     7.32308e-05    -5.91171e-06        0.0264674       -0.286498      8.80993e-05    -2.80671e-05         0.241457        0.575913
                        0.766037       -0.362904      8.02402e-05    -6.82979e-05        -0.151228        0.154562     -8.08466e-05     4.33778e-05
                    -8.45497e-05    -2.00757e-05         0.241439        0.575988     -7.11333e-05     1.17401e-05       -0.0782957       -0.205011
563600                  0.145175       -0.116453      9.52227e-05     1.42967e-05         0.736639       -0.623955     -7.94906e-05    -1.84916e-05
                     9.15047e-05     1.02834e-05        0.0170977       -0.249252      7.14288e-05    -2.64717e-05         0.910698      -0.0647945
                        0.736632       -0.623946      7.25398e-05    -6.17353e-05        -0.132932        0.134296       -8.361e-05     5.31385e-05
                    -7.45689e-05    -2.00774e-05         0.910706      -0.0647884     -7.32856e-05      2.1071e-05       -0.0730468       -0.200602
564000                   0.14602       -0.116853      9.69171e-05     1.70234e-05         0.726735       -0.656739     -7.82613e-05    -1.86301e-05
                     9.37308e-05     1.26005e-05        0.0162951       -0.244969      6.92255e-05    -2.64544e-05         0.931464       -0.188705
                         0.72673       -0.656734      7.14579e-05    -6.08789e-05        -0.130769        0.131712     -8.39354e-05     5.43527e-05
                    -7.32887e-05     -2.0104e-05         0.931464       -0.188705     -7.35379e-05     2.22285e-05       -0.0723946       -0.200038
566800                  0.151659       -0.119569       0.00010761     3.75034e-05         0.577638       -0.816293     -6.94753e-05    -1.97632e-05
                     0.000108628     3.07284e-05        0.0124072       -0.217132      5.32004e-05    -2.76826e-05          0.62582       -0.779968
                        0.577625       -0.816302      6.29971e-05    -5.46816e-05        -0.116408        0.113362     -8.60918e-05     6.28119e-05
                    -6.41222e-05    -2.04696e-05         0.625804       -0.779981     -7.52026e-05     3.02758e-05        -0.067856       -0.196012
570000                  0.157563       -0.122503      0.000116751     6.36077e-05         0.369042       -0.929413     -5.90411e-05    -2.14368e-05
                     0.000123373     5.55621e-05         0.010777       -0.189496      3.40607e-05     -3.2403e-05         0.223656       -0.974668
                        0.369004       -0.929428      5.10389e-05    -4.72708e-05        -0.101649       0.0919539     -8.83019e-05     7.23899e-05
