! TOUCHSTONE file generated by CST MICROWAVE STUDIO
! Date and time: Mon Oct 20 08:27:25 2025
! Project name: Teste_Macro_Metasurface_Nanopilar.cst
! Parameters = {H=600; L_x=115; L_y=70; Lambda=1064; Max_L=200; Min_L=70; PathPara=1; Phi=0; Step_L=10; Theta=0; p=520; phaseX=180; phaseY=0}
! Header version: 2018
! Port assignment regex: !\s*Touchstone port\s*([0-9]+)\s*=\s*(CST MWS port|CST DS port)\s*([0-9]+|Zmin|Zmax)\s*\(\"(.*)\"\)(\s*mode\s*([0-9]+))?.*
! Touchstone port assignment:
! Touchstone port 1 = CST MWS port Zmax ("") mode 1
! Touchstone port 2 = CST MWS port Zmax ("") mode 2
! Touchstone port 3 = CST MWS port Zmin ("") mode 1
! Touchstone port 4 = CST MWS port Zmin ("") mode 2
! S-Parameters are not renormalized. Each port impedance will be approximated by the real part at minimum frequency. The values are described via the [Reference] keyword.
! Default impedance is overridden by [Reference]
[Version] 2.0
# GHz S RI R 376.73
[Number of Ports] 4
[Reference]
376.73 376.73 259.888 259.888 
[Number of Frequencies] 52
[Network Data]
474000                  0.273094        0.113151      -4.1843e-05     9.25929e-06        -0.870579       -0.384923     -3.92849e-05     1.27294e-05
                    -3.21476e-05     9.47839e-06        -0.243199         0.16127      2.72291e-05     3.42103e-05        -0.836616       -0.444164
                       -0.870567       -0.384926      2.06965e-05     3.06643e-05         -0.26712       -0.125516      1.16789e-05     3.93475e-05
                    -2.96004e-05    -7.49372e-06        -0.836627       -0.444161     -2.45321e-06     1.83034e-05      -0.00922862        0.299331
477200                  0.268543        0.122075     -4.52463e-05        7.34e-06        -0.872098       -0.380464     -4.27801e-05     1.41292e-05
                    -3.67297e-05     8.18044e-06        -0.241908        0.166559      2.92239e-05     3.69667e-05         -0.82354       -0.446667
                       -0.872085       -0.380467      2.27018e-05     3.34029e-05        -0.265428       -0.121628      1.32237e-05     3.98402e-05
                    -3.15978e-05    -6.07768e-06        -0.823552       -0.446664     -7.38918e-07      1.8368e-05       -0.0189742        0.329074
480400                  0.262937        0.131519     -4.88191e-05     5.28361e-06        -0.873711       -0.375646     -4.66169e-05     1.55318e-05
                    -4.15797e-05     6.77041e-06        -0.240627        0.172138      3.13245e-05     3.98908e-05        -0.810073       -0.449008
                       -0.873698       -0.375649      2.48146e-05     3.63088e-05        -0.263578       -0.117643      1.48655e-05     4.03913e-05
                    -3.37769e-05    -4.58057e-06        -0.810083       -0.449005      1.09757e-06     1.84659e-05       -0.0300895         0.35738
483600                  0.256065        0.141435     -5.25737e-05       3.076e-06        -0.875427       -0.370422     -5.08404e-05     1.69189e-05
                    -4.67214e-05     5.23469e-06        -0.239363        0.178029      3.35395e-05     4.29983e-05        -0.796201        -0.45117
                       -0.875414       -0.370426      2.70433e-05     3.93976e-05        -0.261558       -0.113563      1.66128e-05     4.10093e-05
                    -3.61622e-05    -2.99701e-06        -0.796211       -0.451168      3.06901e-06      1.8604e-05       -0.0423938        0.384204
486800                   0.24768        0.151729     -5.65238e-05      7.0115e-07        -0.877255       -0.364741     -5.55023e-05     1.82657e-05
                    -5.21814e-05     3.55753e-06        -0.238124        0.184257      3.58781e-05     4.63069e-05        -0.781914       -0.453135
                       -0.877242       -0.364744      2.93978e-05     4.26872e-05        -0.259355       -0.109389      1.84754e-05     4.17045e-05
                    -3.87829e-05    -1.32161e-06        -0.781924       -0.453133      5.18983e-06     1.87909e-05       -0.0557133        0.409522
490000                  0.237508        0.162244     -6.06841e-05    -1.85917e-06        -0.879206       -0.358539      -6.0662e-05     1.95381e-05
                    -5.79897e-05     1.72059e-06        -0.236921        0.190851      3.83511e-05     4.98366e-05        -0.767201       -0.454884
                       -0.879192       -0.358542      3.18889e-05     4.61976e-05        -0.256955       -0.105124       2.0464e-05     4.24891e-05
                    -4.16735e-05     4.50775e-07         -0.76721       -0.454882      7.47645e-06     1.90371e-05       -0.0698832        0.433333
493200                  0.225251        0.172736     -6.50707e-05    -4.62576e-06        -0.881289       -0.351741     -6.63873e-05     2.06895e-05
                    -6.41799e-05     -2.9754e-07        -0.235768        0.197839      4.09699e-05     5.36103e-05        -0.752049       -0.456395
                       -0.881276       -0.351745      3.45285e-05     4.99516e-05        -0.254344       -0.100771      2.25902e-05     4.33774e-05
                    -4.48755e-05     2.32473e-06        -0.752058       -0.456393       9.9475e-06     1.93557e-05       -0.0847496        0.455649
496400                  0.210612        0.182844     -6.97013e-05     -7.6225e-06        -0.883518       -0.344259     -7.27549e-05      2.1657e-05
                    -7.07898e-05      -2.522e-06        -0.234679        0.205254      4.37477e-05     5.76539e-05        -0.736448       -0.457644
                       -0.883504       -0.344263      3.73301e-05     5.39754e-05        -0.251504      -0.0963347      2.48671e-05     4.43871e-05
                    -4.84383e-05     4.30368e-06        -0.736457       -0.457643      1.26242e-05     1.97628e-05         -0.10017        0.476497
499600                  0.193327        0.192065     -7.45953e-05    -1.08768e-05        -0.885904       -0.335985     -7.98504e-05     2.23553e-05
                    -7.78627e-05    -4.98246e-06        -0.233673        0.213134       4.6699e-05     6.19972e-05        -0.720388       -0.458608
                       -0.885889        -0.33599      4.03087e-05     5.82989e-05        -0.248421      -0.0918211      2.73091e-05     4.55388e-05
                     -5.2422e-05     6.38905e-06        -0.720396       -0.458607      1.55307e-05     2.02789e-05        -0.116015        0.495915
502800                  0.173222        0.199734     -7.97741e-05    -1.44205e-05         -0.88846       -0.326787     -8.77668e-05     2.26693e-05
                    -8.54473e-05    -7.71416e-06        -0.232773        0.221518      4.98401e-05     6.66745e-05        -0.703858       -0.459259
                       -0.888445       -0.326792      4.34812e-05     6.29566e-05        -0.245075      -0.0872379      2.99318e-05     4.68581e-05
                    -5.68998e-05     8.57894e-06        -0.703866       -0.459258      1.86946e-05     2.09293e-05        -0.132166        0.513949
506000                  0.150296        0.205022     -8.52607e-05    -1.82902e-05        -0.891199       -0.316503     -9.66016e-05     2.24446e-05
                    -9.35995e-05    -1.07591e-05        -0.232005         0.23045      5.31896e-05     7.17256e-05        -0.686848       -0.459569
                       -0.891184       -0.316509      4.68668e-05     6.79884e-05         -0.24145      -0.0825941      3.27522e-05     4.83758e-05
                    -6.19613e-05      1.0866e-05        -0.686855       -0.459568       2.2147e-05     2.17463e-05        -0.148519        0.530654
509200                  0.124816        0.206978     -9.10806e-05    -2.25289e-05        -0.894132       -0.304932      -0.00010645     2.14747e-05
                    -0.000102383     -1.4168e-05        -0.231402        0.239978       5.6768e-05     7.71966e-05         -0.66935       -0.459508
                       -0.894117       -0.304937      5.04871e-05      7.3441e-05        -0.237525      -0.0779011      3.57885e-05     5.01299e-05
                     -6.7717e-05     1.32344e-05        -0.669357       -0.459507      2.59233e-05     2.27712e-05         -0.16498        0.546088
512400                 0.0974116        0.204625     -9.72615e-05    -2.71868e-05        -0.897268       -0.291818     -0.000117392     1.94861e-05
                    -0.000111872    -1.80018e-05        -0.231004        0.250156       6.0599e-05     8.31415e-05        -0.651355       -0.459042
                       -0.897252       -0.291825      5.43664e-05     7.93687e-05        -0.233281      -0.0731724      3.90594e-05     5.21669e-05
                    -7.43042e-05     1.56547e-05        -0.651361       -0.459042       3.0063e-05     2.40568e-05        -0.181468        0.560312
515600                 0.0691342        0.197126     -0.000103833    -3.23227e-05        -0.900608       -0.276838     -0.000129471     1.61214e-05
                    -0.000122149    -2.23351e-05        -0.230858        0.261043       6.4709e-05     8.96242e-05        -0.632857       -0.458137
                       -0.900592       -0.276845      5.85326e-05     8.58359e-05        -0.228698      -0.0684238      4.25842e-05     5.45446e-05
                    -8.18939e-05     1.80759e-05        -0.632862       -0.458137      3.46098e-05     2.56711e-05        -0.197911        0.573391
518800                 0.0414184        0.183991     -0.000110829    -3.80065e-05        -0.904141       -0.259569     -0.000142658     1.09245e-05
                    -0.000133314    -2.72596e-05        -0.231023        0.272701      6.91284e-05     9.67199e-05        -0.613849       -0.456756
                       -0.904124       -0.259577      6.30173e-05     9.29188e-05        -0.223756      -0.0636741      4.63808e-05     5.73348e-05
                    -9.07003e-05     2.04135e-05        -0.613854       -0.456756       3.9611e-05     2.77027e-05        -0.214248        0.585389
522000                 0.0159252        0.165282     -0.000118283     -4.4321e-05        -0.907833       -0.239457     -0.000156793     3.33381e-06
                    -0.000145478    -3.28886e-05        -0.231568          0.2852      7.38916e-05     0.000104519        -0.594329       -0.454859
                       -0.907815       -0.239465      6.78569e-05     0.000100709        -0.218434      -0.0589452      5.04642e-05     6.06272e-05
                    -0.000100991     2.25293e-05        -0.594333       -0.454858      4.51153e-05     3.02675e-05        -0.230426        0.596369
525200               -0.00573022        0.141707     -0.000126232     -5.1365e-05        -0.911606       -0.215754     -0.000171514    -7.30181e-06
                    -0.000158775    -3.93639e-05         -0.23258        0.298614      7.90377e-05      0.00011313        -0.574292       -0.452403
                       -0.911586       -0.215764      7.30929e-05     0.000109315        -0.212711      -0.0542623      5.48426e-05     6.45343e-05
                    -0.000113099     2.41997e-05        -0.574297       -0.452402      5.11697e-05     3.35176e-05        -0.246401        0.606395
528400                -0.0222891        0.114563     -0.000134715    -5.92574e-05        -0.915303       -0.187438     -0.000186148    -2.16616e-05
                    -0.000173357    -4.68645e-05        -0.234163        0.313025      8.46116e-05     0.000122684        -0.553741       -0.449343
                       -0.915283       -0.187449      7.87726e-05     0.000118872        -0.206569      -0.0496542      5.95122e-05     6.91972e-05
                    -0.000127431     2.50645e-05        -0.553744       -0.449343      5.78111e-05     3.76532e-05        -0.262137        0.615529
531600                -0.0330833       0.0855025      -0.00014377    -6.81416e-05        -0.918621        -0.15307     -0.000199628    -4.03164e-05
                    -0.000189403    -5.56185e-05        -0.236443        0.328517      9.06644e-05     0.000133342        -0.532675       -0.445633
                       -0.918599       -0.153082      8.49509e-05     0.000129543        -0.199989      -0.0451538      6.44481e-05     7.47927e-05
                    -0.000144464     2.45452e-05        -0.532679       -0.445633      6.50539e-05     4.29384e-05        -0.277604         0.62383
534800                -0.0381075       0.0562236     -0.000153435    -7.81918e-05        -0.920967       -0.110578     -0.000210449     -6.3495e-05
                     -0.00020712    -6.59202e-05        -0.239577        0.345177       9.7254e-05     0.000145304        -0.511102       -0.441222
                       -0.920944       -0.110593        9.169e-05     0.000141532        -0.192954      -0.0407979      6.95899e-05     8.15411e-05
                    -0.000164708     2.17165e-05        -0.511105       -0.441222       7.2865e-05     4.97186e-05        -0.292776        0.631355
538000                -0.0379201       0.0281846     -0.000163741    -8.96209e-05        -0.921175      -0.0568877      -0.00021679    -9.07779e-05
                    -0.000226751    -7.81534e-05        -0.243754        0.363092      0.000104446      0.00015882        -0.489028       -0.436058
                       -0.921151      -0.0569056      9.90614e-05     0.000155093         -0.18545      -0.0366279       7.4819e-05     8.97125e-05
                    -0.000188587     1.51189e-05        -0.489031       -0.436057      8.11227e-05     5.84396e-05        -0.307635        0.638158
541200                -0.0334378        0.002437     -0.000174712     -0.00010269        -0.916865       0.0126924     -0.000216865    -0.000120831
                     -0.00024857    -9.28258e-05        -0.249206        0.382346      0.000112314     0.000174206        -0.466467       -0.430084
                       -0.916839         0.01267      0.000107146      0.00017055        -0.177467      -0.0326893      7.99244e-05     9.96303e-05
                    -0.000216135     2.52344e-06        -0.466468       -0.430084       8.9548e-05     6.96576e-05        -0.322166        0.644292
544400                -0.0257131      -0.0204116     -0.000186354    -0.000117722         -0.90293        0.105497     -0.000209489    -0.000151392
                    -0.000272889    -0.000110617        -0.256215        0.403011      0.000120937     0.000191867        -0.443433       -0.423244
                       -0.902904        0.105468      0.000116032     0.000188321        -0.168997      -0.0290321      8.45515e-05     0.000111661
                    -0.000246337    -1.92306e-05        -0.443434       -0.423244      9.75969e-05     8.40237e-05        -0.336358        0.649805
547600                -0.0157593      -0.0401384     -0.000198639    -0.000135117        -0.867705        0.232984     -0.000194638    -0.000179676
                    -0.000300042    -0.000132451        -0.265122        0.425139      0.000130401     0.000212332        -0.419947       -0.415478
                        -0.86768        0.232946      0.000125818     0.000208949        -0.160037      -0.0257106      8.81323e-05     0.000126179
                    -0.000275949    -5.39145e-05        -0.419948       -0.415477      0.000104309       0.0001022        -0.350205        0.654743
550800               -0.00444731      -0.0568009     -0.000211492    -0.000155372        -0.782539        0.411305     -0.000173629    -0.000203133
                     -0.00033036    -0.000159599        -0.276343        0.448746      0.000140785     0.000236304        -0.396036       -0.406723
                       -0.782519        0.411252      0.000136599     0.000233163        -0.150593      -0.0227826      8.98021e-05     0.000143479
                    -0.000298113    -0.000104217        -0.396036       -0.406722      0.000108143     0.000124639        -0.363701        0.659151
554000                0.00753433      -0.0706313     -0.000224752    -0.000179104        -0.573692        0.649188     -0.000148755    -0.000220169
                    -0.000364109    -0.000193838         -0.29037        0.473788      0.000152151      0.00026473         -0.37173       -0.396914
                       -0.573692        0.649116      0.000148458     0.000261945        -0.140675      -0.0203096      8.83313e-05     0.000163604
                    -0.000302575    -0.000167936         -0.37173       -0.396913      0.000106899      0.00015115        -0.376844        0.663067
557200                 0.0196769      -0.0819489     -0.000238128     -0.00020708       -0.0777812        0.853642     -0.000122564    -0.000230442
                    -0.000401336    -0.000237677        -0.307789        0.500135      0.000164509     0.000298915        -0.347067       -0.385988
                      -0.0778309        0.853572      0.000161432     0.000296663        -0.130302      -0.0183552      8.21463e-05     0.000186054
                     -0.00028065    -0.000234305        -0.347066       -0.385986      9.80033e-05      0.00018025        -0.389635        0.666531
560400                 0.0316269      -0.0911001     -0.000251111     -0.00024024          0.71438          0.5481     -9.71931e-05     -0.00023465
                    -0.000441571    -0.000294682        -0.329277        0.527526      0.000177745       0.0003407        -0.322091       -0.373876
                        0.714305        0.548105       0.00017544     0.000339255        -0.119502      -0.0169846      6.95782e-05     0.000209423
                    -0.000233566    -0.000287103         -0.32209       -0.373874      7.94332e-05     0.000208649        -0.402075        0.669578
563600                 0.0431539      -0.0984205     -0.000262859    -0.000279711         0.904879       -0.384498     -7.40459e-05    -0.000234056
                    -0.000483169     -0.00036989        -0.355591        0.555516      0.000191475      0.00039275        -0.296853       -0.360511
                        0.904875        -0.38447      0.000190132     0.000392549        -0.108313      -0.0162631      4.94786e-05     0.000231144
                    -0.000173945    -0.000315514        -0.296852        -0.36051      5.12266e-05     0.000231599        -0.414169         0.67224
564000                 0.0445573      -0.0992225      -0.00026418    -0.000285152          0.86407        -0.48439     -7.13496e-05    -0.000233714
                      -0.0004883    -0.000380893         -0.35926        0.559025      0.000193187     0.000400156        -0.293683        -0.35875
                        0.864072       -0.484368      0.000191979     0.000400154        -0.106889      -0.0162217       4.6429e-05     0.000233576
                    -0.000166395    -0.000317284        -0.293682       -0.358748      4.71456e-05     0.000233844        -0.415656        0.672547
566800                 0.0541194       -0.104216     -0.000272005     -0.00032679         0.450577       -0.892737     -5.38044e-05    -0.000230039
                     -0.00052199    -0.000470201        -0.387544        0.583405      0.000204712     0.000459015        -0.271415       -0.345828
                         0.45058       -0.892736       0.00020454     0.000460785       -0.0967826      -0.0162544      2.21302e-05     0.000247767
                    -0.000116456    -0.000320424        -0.271413       -0.345826      1.64917e-05     0.000244683        -0.425919        0.674548
570000                 0.0644509       -0.108753     -0.000276387    -0.000382833        0.0635192       -0.997981     -3.66126e-05     -0.00022382
                    -0.000548811    -0.000604189        -0.425937        0.610165       0.00021512     0.000545507        -0.245842       -0.329759
                       0.0635142       -0.997981      0.000216275     0.000550495       -0.0849708      -0.0170188     -1.01018e-05     0.000256044
