! TOUCHSTONE file generated by CST MICROWAVE STUDIO
! Date and time: Mon Oct 20 08:27:32 2025
! Project name: Teste_Macro_Metasurface_Nanopilar.cst
! Parameters = {H=600; L_x=130; L_y=130; Lambda=1064; Max_L=200; Min_L=70; PathPara=1; Phi=0; Step_L=10; Theta=0; p=520; phaseX=180; phaseY=0}
! Header version: 2018
! Port assignment regex: !\s*Touchstone port\s*([0-9]+)\s*=\s*(CST MWS port|CST DS port)\s*([0-9]+|Zmin|Zmax)\s*\(\"(.*)\"\)(\s*mode\s*([0-9]+))?.*
! Touchstone port assignment:
! Touchstone port 1 = CST MWS port Zmax ("") mode 1
! Touchstone port 2 = CST MWS port Zmax ("") mode 2
! Touchstone port 3 = CST MWS port Zmin ("") mode 1
! Touchstone port 4 = CST MWS port Zmin ("") mode 2
! S-Parameters are not renormalized. Each port impedance will be approximated by the real part at minimum frequency. The values are described via the [Reference] keyword.
! Default impedance is overridden by [Reference]
[Version] 2.0
# GHz S RI R 376.73
[Number of Ports] 4
[Reference]
376.73 376.73 259.888 259.888 
[Number of Frequencies] 52
[Network Data]
474000                  0.388029        0.103978      0.000319382     0.000107692        -0.759579        0.489417      0.000317576     0.000225202
                     0.000333714     0.000117158          0.38839        0.104162      0.000406925     0.000188174        -0.759382        0.489371
                       -0.759576        0.489409      0.000365006     0.000184093       -0.0466438         0.39765      0.000331374     0.000367028
                     0.000305661     0.000252211        -0.759385        0.489358      0.000347562     0.000387488       -0.0465338        0.398055
477200                  0.392261        0.103097      0.000317914     0.000106401        -0.751214        0.489327      0.000319327     0.000249765
                     0.000332495     0.000115946         0.392592        0.103297      0.000407209      0.00021057        -0.751116        0.489271
                       -0.751211        0.489319       0.00036511     0.000204423       -0.0442716        0.400164      0.000327187      0.00037203
                     0.000305538     0.000276371        -0.751118        0.489258      0.000343323     0.000393169       -0.0441753         0.40056
480400                  0.396717        0.102141      0.000316329     0.000105022        -0.742546        0.489154      0.000319581     0.000276251
                     0.000331179      0.00011465         0.397017        0.102358      0.000406358     0.000234476         -0.74255         0.48909
                       -0.742543        0.489146      0.000364233     0.000226107       -0.0417453        0.402818      0.000322617     0.000377347
                     0.000303819      0.00030223        -0.742552        0.489077      0.000338679     0.000399216       -0.0416637        0.403204
483600                  0.401415        0.101098      0.000314614     0.000103546        -0.733559         0.48889      0.000317967     0.000304713
                     0.000329754      0.00011326         0.401682        0.101334      0.000404134     0.000259951        -0.733668         0.48882
                       -0.733556        0.488882      0.000362169     0.000249206       -0.0390496        0.405622       0.00031761     0.000383008
                     0.000300154     0.000329799         -0.73367        0.488807      0.000333572     0.000405662        -0.038984        0.405998
486800                  0.406374       0.0999595      0.000312752     0.000101963        -0.724236        0.488525      0.000314051     0.000335154
                     0.000328205     0.000111765         0.406606        0.100216      0.000400257     0.000287035        -0.724454         0.48845
                       -0.724233        0.488517       0.00035868     0.000273766       -0.0361672        0.408591      0.000312107     0.000389043
                     0.000294143     0.000359039        -0.724456        0.488438      0.000327935     0.000412544       -0.0361188        0.408956
490000                  0.411618       0.0987137      0.000310723      0.00010026        -0.714559        0.488048      0.000307333     0.000367509
                     0.000326517     0.000110154         0.411812       0.0989928      0.000394403     0.000315738         -0.71489        0.487971
                       -0.714557         0.48804      0.000353487      0.00029981       -0.0330781        0.411739      0.000306035     0.000395486
                     0.000285336     0.000389839        -0.714892        0.487959      0.000321688     0.000419903       -0.0330485        0.412092
493200                   0.41717        0.097347      0.000308504     9.84239e-05        -0.704511        0.487446      0.000297254     0.000401612
                      0.00032467     0.000108413         0.417324       0.0976509      0.000386204     0.000346027        -0.704957        0.487369
                       -0.704509        0.487438      0.000346272     0.000327329       -0.0297596        0.415082      0.000299308     0.000402373
                     0.000273239     0.000421996         -0.70496        0.487357      0.000314736     0.000427783       -0.0297506        0.415422
496400                  0.423058       0.0958437      0.000306067     9.64389e-05         -0.69407        0.486705      0.000283208     0.000437167
                     0.000322641     0.000106525         0.423169        0.096175      0.000375245      0.00037781        -0.694637        0.486631
                       -0.694068        0.486698      0.000336671     0.000356271       -0.0261856        0.418639      0.000291821     0.000409746
                     0.000257331     0.000455187        -0.694639         0.48662      0.000306962     0.000436231       -0.0261992        0.418965
499600                  0.429313       0.0941857       0.00030338     9.42865e-05        -0.683216        0.485811      0.000264564     0.000473714
                       0.0003204     0.000104472         0.429378       0.0945473      0.000361068      0.00041092        -0.683906        0.485743
                       -0.683214        0.485804      0.000324279      0.00038652        -0.022326         0.42243      0.000283449     0.000417646
                     0.000237088     0.000488943        -0.683909        0.485732      0.000298227       0.0004453       -0.0223643         0.42274
502800                  0.435968       0.0923518      0.000300402     9.19453e-05        -0.671926        0.484746      0.000240712     0.000510596
                     0.000317915     0.000102231         0.435984        0.092747      0.000343182     0.000445091        -0.672744        0.484687
                       -0.671924        0.484739      0.000308652     0.000417884       -0.0181455        0.426478      0.000274039     0.000426118
                      0.00021202     0.000522625        -0.672746        0.484677       0.00028836     0.000455043       -0.0182112        0.426772
506000                  0.443062        0.090317      0.000297084     8.93903e-05        -0.660175        0.483491       0.00021112     0.000546933
                     0.000315143     9.97752e-05         0.443026       0.0907496      0.000321076     0.000479933        -0.661125        0.483445
                       -0.660173        0.483484      0.000289321     0.000450066       -0.0136032        0.430811      0.000263405     0.000435208
                     0.000181726     0.000555413        -0.661128        0.483435      0.000277149     0.000465515       -0.0136993        0.431086
509200                   0.45064        0.088052      0.000293365     8.65922e-05        -0.647938        0.482024      0.000175415     0.000581618
                     0.000312031     9.70743e-05         0.450547       0.0885264      0.000294251     0.000514911        -0.649024        0.481995
                       -0.647936        0.482018      0.000265804     0.000482649      -0.00865102        0.435457      0.000251315     0.000444959
                     0.000145957     0.000586304        -0.649027        0.481985      0.000264333     0.000476768      -0.00878092        0.435712
512400                   0.45875       0.0855217       0.00028917     8.35163e-05        -0.635187        0.480321      0.000133477     0.000613339
                     0.000308517     9.40902e-05         0.458596       0.0860431      0.000262252     0.000549323        -0.636415        0.480314
                       -0.635186        0.480315       0.00023764     0.000515067      -0.00323189        0.440453      0.000237482     0.000455408
                     0.000104692     0.000614144        -0.636417        0.480305      0.000249585     0.000488849       -0.0033997        0.440685
515600                  0.467447       0.0826847      0.000284402     8.01219e-05        -0.621894        0.478356      8.55314e-05     0.000640645
                     0.000304515     9.07776e-05         0.467227       0.0832589      0.000224723     0.000582288        -0.623267        0.478375
                       -0.621893         0.47835      0.000204425     0.000546591       0.00272198        0.445835      0.000221546     0.000466579
                     5.82098e-05     0.000637682        -0.623269        0.478366      0.000232494     0.000501786       0.00251146        0.446042
518800                  0.476796       0.0794909      0.000278939     7.63605e-05        -0.608027        0.476097      3.22255e-05      0.00066206
                     0.000299921     8.70817e-05         0.476505       0.0801251       0.00018147     0.000612752        -0.609549        0.476149
                       -0.608026        0.476092      0.000165869      0.00057632       0.00929191         0.45165      0.000203049     0.000478468
                     7.14291e-06     0.000655665        -0.609552         0.47614      0.000212537     0.000515573       0.00903299        0.451829
522000                  0.486868         0.07588      0.000272621     7.21752e-05        -0.593554        0.473511     -2.53357e-05     0.000676226
                     0.000294595     8.29356e-05         0.486501       0.0765824      0.000132532     0.000639514         -0.59523        0.473601
                       -0.593553        0.473506      0.000121858     0.000603191        0.0165763        0.457948      0.000181414     0.000491025
                    -4.75026e-05     0.000666966        -0.595233        0.473593       0.00018905     0.000530145        0.0162621        0.458097
525200                  0.497747       0.0717789      0.000265236     6.74991e-05         -0.57844        0.470559     -8.56245e-05     0.000682084
                     0.000288352     7.82575e-05         0.497296       0.0725593       7.8248e-05     0.000661283        -0.580274        0.470695
                       -0.578439        0.470554      7.25229e-05     0.000626012         0.024695         0.46479      0.000155897     0.000504113
                    -0.000104379     0.000670711        -0.580277        0.470687      0.000161181     0.000545333        0.0243173        0.464903
528400                  0.509528       0.0670978      0.000256499     6.22548e-05        -0.562648        0.467198     -0.000146798     0.000679024
                     0.000280941     7.29474e-05         0.508986       0.0679679      1.93166e-05      0.00067677        -0.564644        0.467386
                       -0.562647        0.467194      1.83077e-05     0.000643531        0.0337956        0.472244      0.000125549     0.000517454
                    -0.000161888     0.000666407        -0.564647        0.467379      0.000127838     0.000560786        0.0333444        0.472318
531600                  0.522318       0.0617261      0.000246018      5.6356e-05        -0.546139        0.463378     -0.000206875     0.000666994
                      0.00027201     6.68837e-05         0.521678       0.0626999     -4.31862e-05     0.000684805        -0.548302        0.463628
                       -0.546139        0.463374      -3.9987e-05     0.000654525        0.0440619        0.480387      8.91505e-05     0.000530523
                    -0.000218315     0.000654017        -0.548305        0.463621      8.76321e-05     0.000575845        0.0435247        0.480417
534800                  0.536244       0.0555264      0.000233239     4.97139e-05        -0.528873        0.459044     -0.000263939     0.000646514
                     0.000261061     5.99208e-05         0.535496        0.056621     -0.000107829     0.000684472        -0.531206        0.459364
                       -0.528873        0.459041     -0.000101192     0.000657931        0.0557248        0.489312      4.51611e-05     0.000542379
                    -0.000272001     0.000633987        -0.531209        0.459359      3.88274e-05     0.000589331        0.0550861        0.489292
538000                  0.551448       0.0483263      0.000217356     4.22553e-05        -0.510807        0.454133     -0.000316343     0.000618617
                     0.000247357     5.18929e-05         0.550585       0.0495626     -0.000172909     0.000675236        -0.513314        0.454534
                       -0.510807         0.45413     -0.000163809     0.000652972        0.0690785        0.499122     -8.31384e-06      0.00055138
                    -0.000321495      0.00060719        -0.513316        0.454529      -2.0658e-05     0.000599193        0.0683185        0.499045
541200                  0.568098       0.0399078      0.000197168     3.39707e-05        -0.491896        0.448574     -0.000362851       0.0005847
                     0.000229776     4.26347e-05         0.567108       0.0413113     -0.000236579     0.000657034         -0.49458        0.449067
                       -0.491896        0.448571     -0.000226107     0.000639279        0.0845026        0.509934     -7.34518e-05     0.000554719
                    -0.000365683     0.000574817        -0.494582        0.449062     -9.30875e-05     0.000601965        0.0835962        0.509792
544400                  0.586381       0.0299924      0.000170816     2.50375e-05        -0.472095        0.442284     -0.000402709     0.000546348
                     0.000206535      3.2053e-05         0.585255       0.0315948     -0.000297021     0.000630309        -0.474958        0.442882
                       -0.472095        0.442282     -0.000286265      0.00061697         0.102495        0.521876     -0.000152363     0.000547714
                    -0.000403849     0.000538241         -0.47496        0.442878     -0.000180345     0.000591976         0.101409        0.521662
547600                  0.606512       0.0182207      0.000135322     1.61396e-05        -0.451356        0.435173     -0.000435641     0.000505158
                     0.000174673     2.03498e-05          0.60524       0.0200618     -0.000352608     0.000595981        -0.454399        0.435889
                       -0.451356        0.435171     -0.000342541     0.000586659         0.123717        0.535087     -0.000246084     0.000522877
                    -0.000435681     0.000498871        -0.454401        0.435886     -0.000282517     0.000560483         0.122408        0.534791
550800                  0.628731      0.00412408      8.57779e-05     9.33875e-06        -0.429632        0.427134     -0.000461775     0.000462603
                     0.000129034      8.7226e-06         0.627305       0.0062541     -0.000402053      0.00055534        -0.432856        0.427983
                       -0.429632        0.427132     -0.000393442     0.000549406         0.149068        0.549694     -0.000352249     0.000469189
                    -0.000461224      0.00045803        -0.432857        0.427981     -0.000394975     0.000495474         0.147476        0.549307
554000                    0.6533      -0.0129154      1.40888e-05     1.05677e-05        -0.406875        0.418049     -0.000481545     0.000419934
                     6.03306e-05     1.66351e-06         0.651713      -0.0104325     -0.000444491      0.00050991        -0.410279        0.419047
                       -0.406875        0.418047     -0.000437845     0.000506598          0.17979        0.565791     -0.000460852     0.000373152
                    -0.000480806     0.000416874         -0.41028        0.419045     -0.000503928     0.000384194         0.177833        0.565307
557200                  0.680489      -0.0337212     -9.15238e-05     3.70045e-05        -0.383038        0.407779     -0.000495586     0.000378142
                    -4.74695e-05     1.49792e-05         0.678741      -0.0308033     -0.000479508     0.000461293         -0.38662        0.408945
                       -0.383038        0.407778     -0.000475067     0.000459802         0.217636        0.583363     -0.000549415     0.000224851
                    -0.000494949     0.000376343        -0.386621        0.408944     -0.000583352     0.000221363         0.215198        0.582781
560400                  0.710549      -0.0594026     -0.000235261     0.000136399        -0.358079        0.396171      -0.00050463     0.000337959
                     -0.00020943     0.000102571         0.708651      -0.0559437     -0.000507102     0.000411025        -0.361834        0.397523
                       -0.358079         0.39617     -0.000504873     0.000410605         0.265137        0.602141     -0.000584483     3.10599e-05
                    -0.000504282     0.000337154        -0.361834        0.397522     -0.000601334     2.18356e-05         0.262048        0.601478
563600                   0.74365      -0.0914681     -0.000339916     0.000396203        -0.331957        0.383045     -0.000509436     0.000299878
                    -0.000340798     0.000388938         0.741634      -0.0873306     -0.000527614     0.000360476        -0.335878        0.384604
                       -0.331957        0.383045     -0.000527418     0.000360488          0.32602        0.621266      -0.00053923     -0.00017412
                    -0.000509481     0.000299813        -0.335879        0.384604      -0.00054042    -0.000175871         0.322028        0.620578
564000                  0.748004      -0.0960207     -0.000338394     0.000440798        -0.328609        0.381288     -0.000509775     0.000295282
                    -0.000338438     0.000440794         0.745977      -0.0917868     -0.000529708     0.000354196         -0.33255        0.382874
                       -0.328609        0.381288     -0.000529746     0.000354225         0.334823        0.623595     -0.000527735    -0.000198082
                    -0.000509874     0.000295294         -0.33255        0.382874     -0.000527628     -0.00019817         0.330695        0.622912
566800                  0.779764       -0.131982     -0.000172809     0.000728578        -0.304642          0.3682     -0.000510731     0.000264195
                    -0.000123394     0.000749988         0.777697       -0.126988      -0.00054163     0.000310779         -0.30872        0.369987
                       -0.304642          0.3682     -0.000543167     0.000310728          0.40586         0.63854     -0.000418463    -0.000342196
                    -0.000511208     0.000264644        -0.308719        0.369988     -0.000414925      -0.0003293         0.400587        0.637977
570000                  0.818425       -0.183771      0.000159193     0.000788242        -0.276113        0.351403     -0.000509182     0.000231049
                     0.000225602     0.000753263         0.816438       -0.177695     -0.000549883     0.000262813        -0.280333        0.353442
                       -0.276112        0.351404     -0.000552795      0.00026235          0.51298        0.648666     -0.000258737    -0.000442942
