! TOUCHSTONE file generated by CST MICROWAVE STUDIO
! Date and time: Mon Oct 20 08:27:35 2025
! Project name: Teste_Macro_Metasurface_Nanopilar.cst
! Parameters = {H=600; L_x=145; L_y=100; Lambda=1064; Max_L=200; Min_L=70; PathPara=1; Phi=0; Step_L=10; Theta=0; p=520; phaseX=180; phaseY=0}
! Header version: 2018
! Port assignment regex: !\s*Touchstone port\s*([0-9]+)\s*=\s*(CST MWS port|CST DS port)\s*([0-9]+|Zmin|Zmax)\s*\(\"(.*)\"\)(\s*mode\s*([0-9]+))?.*
! Touchstone port assignment:
! Touchstone port 1 = CST MWS port Zmax ("") mode 1
! Touchstone port 2 = CST MWS port Zmax ("") mode 2
! Touchstone port 3 = CST MWS port Zmin ("") mode 1
! Touchstone port 4 = CST MWS port Zmin ("") mode 2
! S-Parameters are not renormalized. Each port impedance will be approximated by the real part at minimum frequency. The values are described via the [Reference] keyword.
! Default impedance is overridden by [Reference]
[Version] 2.0
# GHz S RI R 376.73
[Number of Ports] 4
[Reference]
376.73 376.73 259.888 259.888 
[Number of Frequencies] 52
[Network Data]
474000                  0.153907        0.154685      9.29359e-05     7.46172e-05        -0.972104      -0.0481597      0.000199416    -7.72762e-05
                     0.000110988     7.01649e-05        0.0212864        0.957784      0.000121201      8.6372e-05        0.0512843        -0.13465
                       -0.972112       -0.048162      0.000128194     7.42015e-05        -0.169564        0.141088      0.000235936    -6.82363e-05
                     0.000195966    -0.000103187        0.0512843        -0.13465      0.000237857    -5.78755e-05         0.851593       -0.402234
477200                  0.154497        0.145788      9.29362e-05     7.71111e-05        -0.983404      -0.0291708      0.000200961    -8.20143e-05
                      0.00011082     7.26319e-05        0.0324906        0.957706      0.000120571     8.75375e-05        0.0569793       -0.135669
                       -0.983412      -0.0291741      0.000127526     7.55395e-05        -0.170317        0.137046      0.000236868     -6.5759e-05
                      0.00019701    -0.000108135        0.0569793       -0.135669      0.000238695    -5.55536e-05         0.853209       -0.429041
480400                  0.154904         0.13641      9.29377e-05     7.97283e-05        -0.995562     -0.00803475      0.000202473    -8.71778e-05
                     0.000110644     7.52224e-05        0.0442451        0.957451      0.000119907     8.87545e-05        0.0628631       -0.136643
                       -0.995571     -0.00803921      0.000126821     7.69376e-05        -0.171181        0.132824      0.000237822    -6.31712e-05
                     0.000197969    -0.000113504         0.062863       -0.136643      0.000239553    -5.31288e-05         0.854422        -0.45872
483600                  0.155093        0.126519      9.29405e-05      8.2478e-05         -0.99988       0.0154863      0.000203928    -9.28172e-05
                     0.000110457     7.79458e-05        0.0565871        0.956994      0.000119206     9.00266e-05        0.0689435       -0.137566
                        -0.99988       0.0154805      0.000126076     7.83998e-05        -0.172168        0.128413      0.000238798    -6.04657e-05
                     0.000198809    -0.000119341        0.0689435       -0.137566      0.000240431    -5.05944e-05         0.855062       -0.491737
486800                  0.155027        0.116083      9.29449e-05     8.53706e-05        -0.999147       0.0412869      0.000205289    -9.89895e-05
                     0.000110261     8.08126e-05        0.0695569        0.956303      0.000118466     9.13575e-05        0.0752289       -0.138432
                       -0.999148       0.0412795      0.000125286     7.99307e-05        -0.173295        0.123803      0.000239795    -5.76345e-05
                     0.000199488    -0.000125697        0.0752288       -0.138431      0.000241329    -4.79429e-05         0.850515        -0.52595
490000                   0.15466        0.105066      9.29512e-05     8.84175e-05        -0.997572        0.069645      0.000206512    -0.000105759
                     0.000110053     8.38344e-05        0.0831978        0.955343      0.000117683     9.27513e-05        0.0817278       -0.139232
                       -0.997572       0.0696358      0.000124449     8.15352e-05        -0.174578        0.118982      0.000240814    -5.46688e-05
                      0.00019995    -0.000132629        0.0817277       -0.139232      0.000242246    -4.51664e-05         0.831547       -0.555454
493200                  0.153941       0.0934332      9.29595e-05     9.16314e-05        -0.994893        0.100931      0.000207537    -0.000113197
                     0.000109834     8.70241e-05        0.0975566        0.954074      0.000116853     9.42126e-05         0.088449       -0.139961
                       -0.994895         0.10092      0.000123559     8.32186e-05        -0.176036         0.11394      0.000241854    -5.15593e-05
                     0.000200126    -0.000140198        0.0884489       -0.139961      0.000243184     -4.2256e-05         0.809429       -0.587218
496400                   0.15281       0.0811465      9.29703e-05     9.50263e-05        -0.990766        0.135583      0.000208286    -0.000121383
                     0.000109601     9.03962e-05         0.112683        0.952449      0.000115972     9.57462e-05        0.0954018       -0.140607
                       -0.990768        0.135569      0.000122612     8.49867e-05        -0.177691        0.108665      0.000242914    -4.82955e-05
                     0.000199927    -0.000148469        0.0954016       -0.140607      0.000244141    -3.92021e-05         0.783477       -0.621421
499600                  0.151197        0.068169      9.29839e-05     9.86182e-05        -0.984724        0.174121      0.000208656    -0.000130402
                     0.000109353     9.39668e-05         0.128632        0.950412      0.000115036     9.73577e-05         0.102596       -0.141163
                       -0.984727        0.174105      0.000121603      8.6846e-05        -0.179569        0.103146      0.000243995    -4.48661e-05
                     0.000199242    -0.000157511         0.102595       -0.141163      0.000245117    -3.59942e-05         0.752823       -0.658223
502800                  0.149021        0.054464      9.30007e-05     0.000102424        -0.976135        0.217164      0.000208516    -0.000140345
                      0.00010909     9.77538e-05         0.145461        0.947901       0.00011404     9.90531e-05         0.110041       -0.141617
                       -0.976139        0.217146      0.000120524     8.88036e-05        -0.181697       0.0973711      0.000245096    -4.12588e-05
                     0.000197926     -0.00016739          0.11004       -0.141617      0.000246111    -3.26207e-05         0.716348       -0.697743
506000                  0.146187       0.0399963      9.30214e-05     0.000106465        -0.964125        0.265447      0.000207694    -0.000151303
                      0.00010881     0.000101778         0.163231        0.944842      0.000112976     0.000100839         0.117747       -0.141957
                       -0.964131        0.265426       0.00011937     9.08674e-05        -0.184106       0.0913292      0.000246214    -3.74599e-05
                     0.000195799    -0.000178166         0.117746       -0.141957      0.000247123     -2.9069e-05         0.672597       -0.740009
509200                  0.142589        0.024734      9.30465e-05     0.000110762        -0.947473        0.319837      0.000205966    -0.000163362
                     0.000108511     0.000106061         0.182007        0.941149      0.000111839     0.000102722         0.125724       -0.142171
                       -0.947481        0.319812      0.000118132     9.30461e-05        -0.186835       0.0850098      0.000247348    -3.34543e-05
                     0.000192634    -0.000189886         0.125724        -0.14217      0.000248151    -2.53251e-05         0.619652       -0.784877
512400                  0.138101      0.00865034      9.30767e-05     0.000115341        -0.924434        0.381342      0.000203049    -0.000176588
                      0.00010819      0.00011063          0.20186        0.936722      0.000110622     0.000104712         0.133984       -0.142244
                       -0.924446        0.381313      0.000116802     9.53492e-05        -0.189923       0.0784033      0.000248497    -2.92256e-05
                     0.000188148    -0.000202565         0.133984       -0.142243      0.000249193    -2.13735e-05         0.554963       -0.831875
515600                  0.132578     -0.00827322      9.31131e-05     0.000120231        -0.892477        0.451094      0.000198582     -0.00019101
                     0.000107846     0.000115515         0.222861        0.931446      0.000109314     0.000106816         0.142537        -0.14216
                       -0.892493         0.45106      0.000115368     9.77875e-05        -0.193417       0.0715019      0.000249656    -2.47554e-05
                     0.000181995    -0.000216171         0.142536        -0.14216      0.000250247    -1.71974e-05         0.475113       -0.879925
518800                  0.125858      -0.0260436      9.31567e-05     0.000125463        -0.847838        0.530256      0.000192118    -0.000206588
                     0.000107476     0.000120749         0.245084        0.925182      0.000107907     0.000109045         0.151394       -0.141904
                       -0.847861        0.530219       0.00011382     0.000100373        -0.197372          0.0643      0.000250823    -2.00236e-05
                     0.000173762    -0.000230591         0.151394       -0.141904      0.000251309    -1.27778e-05         0.375521       -0.926814
522000                  0.117751      -0.0446514      9.32087e-05     0.000131077        -0.784801        0.619748       0.00018312    -0.000223169
                     0.000107076      0.00012637         0.268606        0.917772       0.00010639     0.000111409         0.160566       -0.141455
                       -0.784833        0.619708      0.000112143     0.000103119        -0.201847       0.0567953      0.000251992    -1.50077e-05
                     0.000162975    -0.000245594         0.160566       -0.141455      0.000252377    -8.09382e-06         0.250179         -0.9682
525200                  0.108047      -0.0640647      9.32708e-05     0.000137114        -0.694522        0.719472      0.000170968    -0.000240428
                     0.000106645     0.000132424         0.293501        0.909028      0.000104748     0.000113923         0.170065       -0.140793
                       -0.694566        0.719429      0.000110321      0.00010604         -0.20691       0.0489901      0.000253159    -9.68282e-06
                     0.000149119    -0.000260776         0.170065       -0.140793      0.000253445     -3.1222e-06        0.0917505       -0.995782
528400                  0.096509      -0.0842217      9.33449e-05     0.000143624        -0.563298        0.826254      0.000155005     -0.00025779
                     0.000106176     0.000138963         0.319842        0.898732      0.000102967     0.000116599         0.179902       -0.139896
                       -0.563357        0.826213      0.000108337     0.000109153        -0.212638        0.040893      0.000254315    -4.02126e-06
                     0.000131691    -0.000275505         0.179902       -0.139896      0.000254506     2.16295e-06        -0.106799       -0.994281
531600                 0.0828749       -0.105022      9.34333e-05     0.000150666        -0.371017        0.928626      0.000134624     -0.00027435
                     0.000105665     0.000146047         0.347694        0.886625       0.00010103     0.000119453         0.190087       -0.138738
                       -0.371093        0.928596      0.000106167     0.000112477        -0.219119       0.0325205      0.000255451     2.00787e-06
                     0.000110293    -0.000288871         0.190087       -0.138738      0.000255555     7.79056e-06        -0.346256        -0.93814
534800                 0.0668616       -0.126314      9.35391e-05     0.000158308       -0.0946973        0.995506      0.000109428    -0.000288822
                     0.000105107     0.000153748         0.377108        0.872406      9.89147e-05     0.000122503         0.200631       -0.137292
                      -0.0947842        0.995498      0.000103788     0.000116034        -0.226447          0.0239      0.000256558     8.43906e-06
                     8.47742e-05    -0.000299671         0.200631       -0.137292       0.00025658      1.3793e-05         -0.60753       -0.794297
538000                 0.0481685       -0.147884      9.36659e-05     0.000166628         0.266924        0.963718      7.94536e-05    -0.000299565
                     0.000104494     0.000162148         0.408117        0.855723      9.65975e-05      0.00012577         0.211544       -0.135528
                        0.266847        0.963739      0.000101168     0.000119846        -0.234731       0.0150729      0.000257619     1.53109e-05
                     5.54119e-05    -0.000306476         0.211543       -0.135528      0.000257571     2.02066e-05        -0.838602       -0.544745
541200                 0.0264885       -0.169443      9.38183e-05     0.000175723          0.64159        0.767048      4.54223e-05    -0.000304751
                     0.000103818      0.00017135         0.440722        0.836164      9.40496e-05     0.000129276         0.222835       -0.133414
                        0.641548        0.767083      9.82721e-05     0.000123942        -0.244086      0.00609794      0.000258619     2.26667e-05
                     2.30826e-05    -0.000307808         0.222834       -0.133414      0.000258512     2.70721e-05        -0.975212       -0.221272
544400                0.00152237       -0.190607      9.40022e-05     0.000185705         0.901596         0.43258      8.91028e-06    -0.000302723
                     0.000103069     0.000181472         0.474881        0.813253      9.12363e-05     0.000133047         0.234511       -0.130913
                        0.901584        0.432604      9.50566e-05     0.000128351         -0.25464     -0.00294333      0.000259535      3.0555e-05
                      -1.066e-05    -0.000302452         0.234511       -0.130913      0.000259385     3.44353e-05         -0.99443        0.105395
547600                -0.0269991       -0.210892      9.42251e-05     0.000196711         0.997269       0.0738547     -2.77145e-05    -0.000292478
                     0.000102234     0.000192661         0.510487        0.786437      8.81163e-05     0.000137112         0.246581       -0.127986
                        0.997268       0.0738641      9.14694e-05      0.00013311        -0.266525      -0.0119417      0.000260341     3.90304e-05
                    -4.37023e-05    -0.000289823          0.24658       -0.127986      0.000260167     4.23481e-05        -0.924118        0.382106
550800                 -0.059285       -0.229697      9.44968e-05     0.000208906         0.972432       -0.233188     -6.16795e-05    -0.000274099
                     0.000101298     0.000205094         0.547344        0.755088      8.46396e-05     0.000141506         0.259048        -0.12459
                        0.972432       -0.233185       8.7447e-05     0.000138257         -0.27988      -0.0207539      0.000261003     4.81543e-05
                    -7.37224e-05    -0.000270253         0.259048        -0.12459       0.00026083     5.08689e-05        -0.804222        0.594329
554000                -0.0954461       -0.246309      9.48301e-05     0.000222494         0.881148       -0.472841     -9.04383e-05    -0.000248881
                     0.000100242      0.00021899         0.585135        0.718496      8.07452e-05     0.000146266         0.271916        -0.12068
                        0.881148        -0.47284      8.29116e-05     0.000143837         -0.29484      -0.0291958      0.000261479     5.79957e-05
                    -9.86852e-05    -0.000245024         0.271916        -0.12068      0.000261338     6.00638e-05         -0.66303        0.748593
557200                  -0.13545       -0.259907      9.52422e-05     0.000237729           0.7579       -0.652371     -0.000112276    -0.000219044
                     9.90407e-05     0.000234625         0.623383        0.675881       7.6358e-05     0.000151438         0.285185       -0.116204
                        0.757901        -0.65237      7.77665e-05     0.000149902         -0.31153      -0.0370355      0.000261718     6.86325e-05
                    -0.000117283    -0.000216101         0.285184       -0.116204      0.000261644     7.00075e-05        -0.516534        0.856267
560400                 -0.179071       -0.269598      9.57561e-05     0.000254929          0.62254       -0.782588     -0.000126609    -0.000187149
                     9.76623e-05     0.000252347         0.661393        0.626403      7.13848e-05      0.00015707         0.298851       -0.111108
                        0.622541       -0.782587      7.18912e-05     0.000156508        -0.330052      -0.0439874      0.000261654     8.01518e-05
                     -0.00012913     -0.00018567          0.29885       -0.111108      0.000261693     8.07845e-05        -0.373364        0.927685
563600                 -0.225848       -0.274457      9.64038e-05       0.0002745         0.449419       -0.806298     -0.000133884     -0.00015551
                     9.60651e-05     0.000272603         0.698204        0.569206       6.5709e-05     0.000163221         0.312907       -0.105333
                        0.449419       -0.806299      6.51332e-05     0.000163718        -0.350473      -0.0497082      0.000261203     9.26518e-05
                    -0.000134672     -0.00015569         0.312906       -0.105333      0.000261412     9.24906e-05         -0.22222         0.90591
564000                 -0.231884        -0.27468      9.64962e-05     0.000277138         0.430075        -0.80709     -0.000134349    -0.000151666
                     9.58475e-05      0.00027534          0.70266        0.561472      6.49432e-05      0.00016403         0.314691       -0.104561
                        0.430074        -0.80709      6.42173e-05     0.000164665         -0.35316      -0.0503174      0.000261115     9.42885e-05
                    -0.000134967    -0.000152053          0.31469       -0.104561       0.00026135     9.40244e-05        -0.205235         0.90118
566800                 -0.275052       -0.273608      9.72298e-05     0.000296968         0.309146       -0.806652     -0.000135222    -0.000125833
                     9.41932e-05     0.000295978         0.732517        0.503476      5.91826e-05     0.000169954         0.327341      -0.0988163
                        0.309143       -0.806647      5.72983e-05     0.000171603        -0.372796      -0.0537971      0.000260263     0.000106242
                    -0.000134897    -0.000127614         0.327341      -0.0988165      0.000260711     0.000105234       -0.0991252        0.866507
570000                 -0.325678       -0.266308      9.82985e-05     0.000323027         0.196649       -0.797874     -0.000132011    -9.91254e-05
                       9.197e-05     0.000323253         0.762641        0.428542       5.1616e-05     0.000177342         0.342136      -0.0914898
                        0.196643       -0.797865      4.81357e-05     0.000180234        -0.396943      -0.0558017      0.000258701     0.000121042
