! TOUCHSTONE file generated by CST MICROWAVE STUDIO
! Date and time: Mon Oct 20 08:27:39 2025
! Project name: Teste_Macro_Metasurface_Nanopilar.cst
! Parameters = {H=600; L_x=160; L_y=85; Lambda=1064; Max_L=200; Min_L=70; PathPara=1; Phi=0; Step_L=10; Theta=0; p=520; phaseX=180; phaseY=0}
! Header version: 2018
! Port assignment regex: !\s*Touchstone port\s*([0-9]+)\s*=\s*(CST MWS port|CST DS port)\s*([0-9]+|Zmin|Zmax)\s*\(\"(.*)\"\)(\s*mode\s*([0-9]+))?.*
! Touchstone port assignment:
! Touchstone port 1 = CST MWS port Zmax ("") mode 1
! Touchstone port 2 = CST MWS port Zmax ("") mode 2
! Touchstone port 3 = CST MWS port Zmin ("") mode 1
! Touchstone port 4 = CST MWS port Zmin ("") mode 2
! S-Parameters are not renormalized. Each port impedance will be approximated by the real part at minimum frequency. The values are described via the [Reference] keyword.
! Default impedance is overridden by [Reference]
[Version] 2.0
# GHz S RI R 376.73
[Number of Ports] 4
[Reference]
376.73 376.73 259.888 259.888 
[Number of Frequencies] 52
[Network Data]
474000                 -0.048813        0.158634      3.04643e-05    -1.19497e-05        -0.896145       -0.399388      6.80903e-05     3.53547e-05
                     4.22285e-05     6.54338e-06        0.0888057       -0.299678      4.00655e-05     2.21834e-05         0.791547        0.491735
                       -0.896148       -0.399391      5.10235e-05     2.25728e-05       -0.0889528        0.146703      3.08547e-05     1.43809e-05
                     5.43519e-05     1.32614e-05         0.791533        0.491721      4.23204e-05     1.03432e-05         0.215888       -0.213334
477200                -0.0442617         0.15871      3.28885e-05     -1.0698e-05        -0.901115       -0.379654      6.65739e-05     3.70566e-05
                     4.48288e-05     8.01775e-06        0.0872262       -0.354095      4.27867e-05     1.90367e-05         0.761164        0.489879
                       -0.901118       -0.379658      5.39497e-05     1.94923e-05       -0.0844446        0.149728      2.95273e-05     1.91327e-05
                     5.26249e-05     1.45133e-05         0.761151        0.489866      4.12183e-05     1.49049e-05         0.222246       -0.203969
480400                -0.0394062         0.15877      3.54916e-05    -9.35828e-06        -0.905764       -0.358101      6.49324e-05     3.88913e-05
                      4.7621e-05     9.59487e-06        0.0796636       -0.406186      4.57434e-05     1.56558e-05         0.731328        0.487436
                       -0.905768       -0.358105      5.71277e-05     1.61855e-05       -0.0796694        0.153055      2.81332e-05     2.42962e-05
                     5.07575e-05     1.58598e-05         0.731317        0.487424      4.00668e-05     1.98574e-05         0.228843       -0.193948
483600                -0.0342151        0.158811      3.82942e-05    -7.92092e-06        -0.909942       -0.334514      6.31496e-05     4.08751e-05
                      5.0627e-05     1.12859e-05        0.0668896       -0.455151      4.89672e-05     1.20138e-05         0.702043        0.484437
                       -0.909946       -0.334518       6.0591e-05     1.26266e-05       -0.0746067        0.156729        2.667e-05     2.99265e-05
                     4.87317e-05     1.73121e-05         0.702033        0.484426      3.88654e-05     2.52523e-05         0.235684       -0.183205
486800                -0.0286525        0.158829        4.132e-05    -6.37487e-06        -0.913451       -0.308654      6.12065e-05     4.30267e-05
                     5.38724e-05     1.31034e-05        0.0497629       -0.500422      5.24957e-05     8.07965e-06         0.673311        0.480913
                       -0.913455       -0.308658      6.43795e-05     8.78643e-06       -0.0692346        0.160799       2.5136e-05     3.60889e-05
                     4.65266e-05     1.88831e-05         0.673302        0.480902      3.76148e-05     3.11509e-05         0.242776       -0.171665
490000                -0.0226773        0.158817      4.45968e-05    -4.70734e-06        -0.916035       -0.280257      5.90805e-05     4.53685e-05
                     5.73869e-05     1.50624e-05        0.0291617       -0.541662      5.63734e-05     3.81739e-06         0.645133        0.476893
                       -0.916039        -0.28026      6.85404e-05     4.63072e-06       -0.0635302        0.165323       2.3531e-05     4.28611e-05
                     4.41172e-05     2.05878e-05         0.645125        0.476883      3.63171e-05     3.76258e-05          0.25012       -0.159243
493200                -0.0162421        0.158769      4.81571e-05    -2.90348e-06        -0.917362       -0.249036      5.67445e-05     4.79268e-05
                     6.12054e-05     1.71797e-05       0.00592861       -0.578729       6.0654e-05    -8.15126e-07          0.61751        0.472405
                       -0.917366       -0.249039      7.31306e-05     1.19824e-07       -0.0574698         0.17037      2.18566e-05     5.03368e-05
                      4.1474e-05     2.24441e-05         0.617502        0.472396      3.49769e-05     4.47643e-05         0.257716       -0.145843
496400               -0.00929203        0.158677      5.20395e-05    -9.45907e-07           -0.917       -0.214686       5.4166e-05     5.07329e-05
                      6.5369e-05     1.94754e-05       -0.0191666       -0.611642      6.54027e-05    -5.86737e-06          0.59044        0.467478
                       -0.917005       -0.214689      7.82191e-05    -4.79271e-06       -0.0510297        0.176024      2.01179e-05     5.86292e-05
                     3.85612e-05     2.44729e-05         0.590433        0.467469      3.36023e-05     5.26718e-05         0.265559       -0.131355
499600               -0.00176311        0.158528      5.62896e-05     1.18584e-06        -0.914393         -0.1769      5.13051e-05     5.38245e-05
                     6.99268e-05     2.19729e-05       -0.0454493       -0.640546      7.06995e-05    -1.13978e-05         0.563922        0.462136
                       -0.914399       -0.176902      8.38902e-05    -1.01615e-05       -0.0441869        0.182384      1.83245e-05     6.78767e-05
                     3.53356e-05     2.66993e-05         0.563915        0.462128      3.22066e-05     6.14768e-05         0.273641       -0.115655
502800                0.00641951         0.15831      6.09623e-05       3.516e-06        -0.908825        -0.13538       4.8113e-05     5.72476e-05
                     7.49374e-05     2.46999e-05       -0.0723492        -0.66567      7.66429e-05    -1.74758e-05         0.537951        0.456406
                        -0.90883       -0.135382      9.02479e-05    -1.60511e-05       -0.0369208        0.189568      1.64939e-05     7.82501e-05
                     3.17439e-05     2.91533e-05         0.537946        0.456399      3.08113e-05     7.13372e-05         0.281943      -0.0985975
506000                 0.0153441        0.158004      6.61237e-05      6.0735e-06        -0.899379      -0.0898833      4.45288e-05     6.10581e-05
                     8.04717e-05     2.76894e-05       -0.0993998       -0.687299      8.33564e-05    -2.41846e-05         0.512526        0.450313
                       -0.899385      -0.0898852      9.74222e-05    -2.25383e-05       -0.0292158        0.197721      1.46552e-05     8.99621e-05
                     2.77204e-05     3.18715e-05         0.512521        0.450306      2.94496e-05     8.24493e-05         0.290438      -0.0800201
509200                 0.0251154        0.157589      7.18548e-05     8.89316e-06        -0.884898      -0.0402738      4.04759e-05     6.53256e-05
                     8.66162e-05     3.09808e-05        -0.126231       -0.705743      9.09966e-05    -3.16242e-05         0.487641         0.44388
                       -0.884904      -0.0402753      0.000105577    -2.97149e-05       -0.0210647        0.207018      1.28552e-05     0.000103281
                     2.31826e-05     3.48984e-05         0.487637        0.443873      2.81727e-05     9.50595e-05         0.299085      -0.0597336
512400                 0.0358587        0.157034      7.82553e-05     1.20172e-05        -0.863942       0.0133869      3.58561e-05     7.01372e-05
                     9.34775e-05     3.46221e-05        -0.152559       -0.721323      9.97642e-05    -3.99156e-05         0.463291        0.437129
                       -0.863948       0.0133859      0.000114924    -3.76908e-05       -0.0124751        0.217669      1.11695e-05     0.000118548
                     1.80256e-05     3.82892e-05         0.463288        0.437123      2.70598e-05     0.000109481         0.307825      -0.0375207
515600                 0.0477248        0.156303      8.54494e-05     1.54975e-05        -0.834764       0.0707071      3.05424e-05     7.56033e-05
                     0.000101189     3.86717e-05        -0.178174       -0.734353      0.000109921    -4.92066e-05         0.439471        0.430082
                       -0.834771       0.0707068      0.000125735    -4.65986e-05      -0.00347739        0.229933      9.71866e-06     0.000136206
                     1.21139e-05     4.21126e-05         0.439468        0.430077       2.6234e-05     0.000126116         0.316575      -0.0131314
518800                 0.0608972        0.155343      9.35945e-05     1.93982e-05        -0.795328         0.13078      2.43666e-05     8.18664e-05
                     0.000109917     4.32016e-05        -0.202928       -0.745131      0.000121815    -5.96778e-05         0.416175        0.422761
                       -0.795335         0.13078      0.000138374    -5.65984e-05       0.00586146        0.244125      8.69637e-06     0.000156832
                     5.27002e-06     4.64554e-05         0.416172        0.422756       2.5888e-05     0.000145491         0.325218       0.0137227
522000                 0.0756009         0.15409      0.000102892     2.37996e-05        -0.743407        0.191945      1.71016e-05     8.91133e-05
                     0.000119879     4.83017e-05        -0.226721       -0.753933      0.000135915     -7.1551e-05         0.393395        0.415185
                       -0.743414        0.191947      0.000153327    -6.78826e-05        0.0154182        0.260624      8.41771e-06     0.000181195
                    -2.74394e-06      5.1429e-05         0.393392         0.41518      2.63282e-05     0.000168296         0.333594       0.0433733
525200                 0.0921149        0.152452      0.000113605     2.88038e-05        -0.676818        0.251522      8.43395e-06     9.75932e-05
                     0.000131353     5.40851e-05        -0.249494       -0.761014      0.000152873    -8.50981e-05         0.371124        0.407372
                       -0.676825        0.251524      0.000171266    -8.06808e-05        0.0249835        0.279891      9.40388e-06     0.000210328
                    -1.22535e-05     5.71774e-05         0.371122        0.407368      2.80519e-05     0.000195461         0.341483       0.0762016
528400                  0.110789        0.150303      0.000126081     3.45422e-05        -0.593864        0.305583     -2.08234e-06     0.000107646
                     0.000144713     6.06968e-05        -0.271219         -0.7666      0.000173608    -0.000100649         0.349356        0.399341
                        -0.59387        0.305586      0.000193139    -9.52599e-05        0.0342174        0.302471      1.25368e-05     0.000245638
                    -2.37164e-05     6.38904e-05         0.349355        0.399338       3.1885e-05     0.000228238         0.348586        0.112643
531600                  0.132067        0.147471      0.000140796     4.11866e-05        -0.494007        0.348919     -1.51024e-05     0.000119748
                     0.000160461     6.83245e-05        -0.291892       -0.770896      0.000199465    -0.000118591         0.328083        0.391109
                       -0.494012        0.348923      0.000220318    -0.000111912         0.042585        0.328993      1.93503e-05     0.000289053
                    -3.77957e-05      7.1821e-05         0.328082        0.391106      3.92388e-05     0.000268332         0.354498         0.15319
534800                  0.156519        0.143707      0.000158408     4.89655e-05        -0.378706        0.375395     -3.16287e-05     0.000134583
                     0.000179298     7.72153e-05        -0.311525        -0.77408       0.00023247    -0.000139345         0.307296        0.382693
                        -0.37871          0.3754      0.000254855    -0.000130908        0.0492647        0.360149      3.25993e-05     0.000343187
                     -5.5489e-05     8.13108e-05         0.307295        0.382691      5.26037e-05     0.000318039         0.358669        0.198392
538000                  0.184891        0.138649      0.000179862     5.81894e-05        -0.252148        0.378883     -5.32719e-05     0.000153168
                     0.000202226     8.76998e-05        -0.330144       -0.776312      0.000275793    -0.000163267         0.286987        0.374108
                        -0.25215        0.378888       0.00029993    -0.000152356        0.0530263        0.396625      5.74028e-05     0.000411423
                    -7.83655e-05     9.28229e-05         0.286986        0.374106      7.65291e-05     0.000380313         0.360355        0.248851
541200                   0.21817        0.131758      0.000206565     6.92875e-05        -0.121427        0.354762     -8.27865e-05     0.000177069
                     0.000230731     0.000100227        -0.347782       -0.777727      0.000334604    -0.000190318         0.267149        0.365369
                       -0.121428        0.354766      0.000360648    -0.000175805        0.0520837        0.438951      0.000103565     0.000497397
                    -0.000109034     0.000106975         0.267148        0.365368      0.000119588     0.000458353         0.358556        0.305194
544400                  0.257689        0.122206      0.000240697     8.28673e-05        0.0042722        0.301537     -0.000125275     0.000208785
                     0.000267106     0.000115415        -0.364479       -0.778447      0.000417696    -0.000219059         0.247771        0.356491
                      0.00427191        0.301541      0.000445521    -0.000199102        0.0439594        0.487218      0.000190011     0.000602035
                    -0.000152147      0.00012452         0.247771        0.356489      0.000198133     0.000553235         0.351934        0.368036
547600                  0.305272        0.108677      0.000285833     9.98021e-05         0.115509        0.221821     -0.000191261     0.000252389
                     0.000315092     0.000134118        -0.380279       -0.778576      0.000540533    -0.000243445         0.228846        0.347485
                         0.11551        0.221824      0.000569042    -0.000215011        0.0254576         0.54059      0.000350723     0.000711933
                    -0.000216783     0.000146013         0.228846        0.347484      0.000341663     0.000654664         0.338712        0.437889
550800                  0.363464       0.0890041      0.000348249     0.000121351         0.204802         0.12201     -0.000305935     0.000314021
                     0.000381199      0.00015748        -0.395227       -0.778204      0.000729756     -0.00024223         0.210366        0.338366
                        0.204803        0.122012      0.000754768    -0.000200767      -0.00705518        0.596622      0.000626632     0.000766182
                    -0.000322873     0.000169744         0.210365        0.338366      0.000588767     0.000713591         0.316564        0.515028
554000                  0.435842       0.0594449      0.000440032     0.000149223         0.268213       0.0106848     -0.000543982      0.00039488
                     0.000477793     0.000186804        -0.409368       -0.777409        0.0010188    -0.000144676          0.19232        0.329146
                        0.268214       0.0106862       0.00102754    -8.71527e-05       -0.0567758        0.650565      0.000981417     0.000626782
                       -0.000521     0.000178577          0.19232        0.329145      0.000922725     0.000608434         0.282518        0.599243
557200                  0.527405       0.0132067        0.0005876     0.000184915         0.305655       -0.103491      -0.00118663     0.000353193
                     0.000631294     0.000222227        -0.422749       -0.776257       0.00135157     0.000237398           0.1747        0.319835
                        0.305656        -0.10349       0.00132172     0.000291951         -0.12483        0.695223       0.00118626     0.000246139
                    -0.000945428     3.43403e-05           0.1747        0.319834       0.00114881      0.00026406         0.232908        0.689476
560400                  0.644715       -0.062781      0.000860478     0.000222832         0.320027       -0.213439      -0.00162076     -0.00153437
                     0.000908174       0.0002534        -0.435412       -0.774807       0.00127368     0.000967686         0.157498        0.310444
                        0.320028       -0.213438       0.00123389     0.000972157        -0.208319        0.722192       0.00110573     -0.00012916
                     -0.00122879     -0.00111681         0.157498        0.310444       0.00109839    -0.000113666         0.163487        0.783293
563600                  0.794165       -0.195174       0.00149997     0.000174558          0.31584       -0.314424      0.000215174      -0.0012895
                      0.00151524     0.000178605        -0.447402       -0.773109      0.000631993      0.00130812         0.140705        0.300984
                         0.31584       -0.314424      0.000629709      0.00130555        -0.299464        0.724793      0.000904902    -0.000330203
                     0.000192704     -0.00127903         0.140705        0.300984      0.000905188    -0.000328547        0.0698456        0.876238
564000                  0.815167          -0.218       0.00163935     0.000137743         0.314257       -0.326273      0.000267358     -0.00118259
                       0.0016393     0.000137721        -0.448855       -0.772881      0.000554594      0.00130445         0.138634        0.299797
                        0.314257       -0.326273      0.000554539      0.00130436        -0.310862        0.723253      0.000879731     -0.00034457
                     0.000267425     -0.00118262         0.138634        0.299797      0.000879977    -0.000344177         0.056238        0.887473
566800                  0.910693       -0.413084       0.00314918      -0.0015999         0.297962       -0.403991      0.000359298    -0.000709195
                      0.00283887     -0.00123206        -0.458758       -0.771205      0.000162704      0.00115211         0.124312        0.291464
                        0.297962       -0.403991      0.000163792       0.0011656        -0.387368        0.701357      0.000721774    -0.000402463
                     0.000415378    -0.000698509         0.124312        0.291464      0.000719893    -0.000407495       -0.0516651        0.961205
570000                   0.77272       -0.634747      -0.00101898     -0.00262009         0.270806       -0.481446      0.000330051    -0.000471956
                    -0.000384658     -0.00297197         -0.46952       -0.769132     -3.66206e-05     0.000931291         0.108309        0.281893
                        0.270806       -0.481447     -4.17367e-05     0.000947306        -0.461984        0.656305      0.000585211    -0.000415094
