! TOUCHSTONE file generated by CST MICROWAVE STUDIO
! Date and time: Mon Oct 20 08:27:13 2025
! Project name: Teste_Macro_Metasurface_Nanopilar.cst
! Parameters = {H=600; L_x=70; L_y=115; Lambda=1064; Max_L=200; Min_L=70; PathPara=1; Phi=0; Step_L=10; Theta=0; p=520; phaseX=180; phaseY=0}
! Header version: 2018
! Port assignment regex: !\s*Touchstone port\s*([0-9]+)\s*=\s*(CST MWS port|CST DS port)\s*([0-9]+|Zmin|Zmax)\s*\(\"(.*)\"\)(\s*mode\s*([0-9]+))?.*
! Touchstone port assignment:
! Touchstone port 1 = CST MWS port Zmax ("") mode 1
! Touchstone port 2 = CST MWS port Zmax ("") mode 2
! Touchstone port 3 = CST MWS port Zmin ("") mode 1
! Touchstone port 4 = CST MWS port Zmin ("") mode 2
! S-Parameters are not renormalized. Each port impedance will be approximated by the real part at minimum frequency. The values are described via the [Reference] keyword.
! Default impedance is overridden by [Reference]
[Version] 2.0
# GHz S RI R 376.73
[Number of Ports] 4
[Reference]
376.73 376.73 259.888 259.888 
[Number of Frequencies] 52
[Network Data]
474000                 -0.243057        0.161344     -5.94417e-05     9.22357e-06        -0.836515       -0.444393     -5.37852e-06    -4.89602e-05
                     -6.1233e-05     1.55152e-05         0.273151        0.113172       3.3732e-05    -2.36663e-05        -0.870475       -0.385108
                       -0.836525       -0.444409      4.50264e-05    -2.96904e-05      -0.00954452        0.299247       2.8888e-05     5.94545e-05
                    -6.13878e-06    -3.37599e-05        -0.870479       -0.385115      2.31847e-05     5.67088e-05        -0.267128       -0.125669
477200                 -0.241882        0.166628     -5.85194e-05      1.0535e-05        -0.823752       -0.447052     -7.60303e-06    -4.99909e-05
                    -6.03135e-05     1.68826e-05         0.268602        0.122106        3.654e-05     -2.6773e-05        -0.871994       -0.380649
                       -0.823761       -0.447068      4.84741e-05    -3.28511e-05       -0.0210255         0.32857      2.96265e-05     5.98805e-05
                    -8.46492e-06    -3.47043e-05        -0.871998       -0.380657      2.37919e-05     5.70984e-05        -0.265439       -0.121777
480400                 -0.240725        0.172199     -5.75323e-05     1.19347e-05        -0.810596       -0.449562     -9.96616e-06    -5.11033e-05
                     -5.9329e-05     1.83414e-05         0.262997         0.13156      3.97104e-05    -3.01495e-05        -0.873608       -0.375831
                       -0.810604       -0.449578      5.23698e-05    -3.62663e-05       -0.0336584         0.35632      3.04277e-05     6.03378e-05
                    -1.09374e-05    -3.57276e-05        -0.873612       -0.375839        2.445e-05     5.75173e-05        -0.263593       -0.117788
483600                 -0.239591        0.178077     -5.64733e-05      1.3432e-05        -0.797033       -0.451907     -1.24811e-05    -5.23071e-05
                    -5.82724e-05     1.99011e-05         0.256124        0.141486      4.33134e-05    -3.38282e-05        -0.875324       -0.370607
                        -0.79704       -0.451922      5.67999e-05    -3.99607e-05       -0.0472652         0.38249      3.12997e-05       6.083e-05
                    -1.35702e-05    -3.68396e-05        -0.875328       -0.370615      2.51657e-05      5.7969e-05        -0.261576       -0.113703
486800                 -0.238491        0.184289     -5.53344e-05     1.50375e-05        -0.783052       -0.454069     -1.51627e-05    -5.36134e-05
                    -5.71355e-05     2.15727e-05         0.247736        0.151792      4.74372e-05    -3.78453e-05        -0.877153       -0.364926
                       -0.783057       -0.454083      6.18732e-05    -4.39596e-05       -0.0616797         0.40709      3.22525e-05     6.13612e-05
                    -1.63793e-05    -3.80517e-05        -0.877157       -0.364934      2.59469e-05     5.84572e-05        -0.259376       -0.109525
490000                 -0.237435        0.190859      -5.4106e-05     1.67632e-05        -0.768639       -0.456027     -1.80279e-05    -5.50355e-05
                    -5.59089e-05     2.33685e-05         0.237559        0.162321      5.21942e-05    -4.22409e-05        -0.879104       -0.358724
                       -0.768643        -0.45604      6.77276e-05    -4.82869e-05       -0.0767483        0.430147      3.32978e-05     6.19361e-05
                    -1.93825e-05     -3.9377e-05        -0.879109       -0.358732      2.68029e-05     5.89866e-05        -0.256979       -0.105254
493200                 -0.236438        0.197817     -5.27773e-05     1.86232e-05        -0.753783       -0.457761     -2.10959e-05    -5.65886e-05
                    -5.45814e-05      2.5303e-05         0.225295        0.172826      5.77295e-05    -4.70584e-05        -0.881188       -0.351926
                       -0.753786       -0.457773      7.45399e-05    -5.29623e-05       -0.0923307        0.451698      3.44495e-05     6.25602e-05
                    -2.26002e-05    -4.08313e-05        -0.881193       -0.351934      2.77451e-05     5.95626e-05         -0.25437       -0.100896
496400                 -0.235514        0.205195     -5.13356e-05     2.06338e-05        -0.738472       -0.459249     -2.43884e-05     -5.8291e-05
                    -5.31402e-05     2.73927e-05         0.210645        0.182947      6.42322e-05    -5.23418e-05        -0.883417       -0.344444
                       -0.738473        -0.45926      8.25394e-05    -5.79948e-05          -0.1083        0.471789      3.57247e-05     6.32398e-05
                    -2.60558e-05    -4.24332e-05        -0.883422       -0.344453       2.8787e-05     6.01915e-05        -0.251533      -0.0964541
499600                 -0.234684        0.213028     -4.97656e-05     2.28141e-05        -0.722693       -0.460464     -2.79306e-05     -6.0164e-05
                      -5.157e-05     2.96573e-05         0.193344         0.19218      7.19526e-05    -5.81317e-05        -0.885804        -0.33617
                       -0.722692       -0.460474      9.20261e-05    -6.33717e-05        -0.124542        0.490477      3.71443e-05     6.39825e-05
                     -2.9776e-05    -4.42045e-05        -0.885809       -0.336179      2.99453e-05     6.08807e-05        -0.248452      -0.0919348
502800                  -0.23397        0.221354     -4.80496e-05     2.51864e-05        -0.706435       -0.461382     -3.17512e-05    -6.22332e-05
                    -4.98528e-05     3.21194e-05          0.17322        0.199858      8.12263e-05    -6.44557e-05        -0.888361       -0.326972
                       -0.706433       -0.461391      0.000103397    -6.90393e-05        -0.140957         0.50782       3.8734e-05     6.47969e-05
                    -3.37914e-05    -4.61719e-05        -0.888366       -0.326981      3.12406e-05     6.16392e-05        -0.245109      -0.0873456
506000                 -0.233401        0.230217     -4.61662e-05     2.77773e-05        -0.689687       -0.461973     -3.58836e-05    -6.45297e-05
                    -4.79669e-05     3.48061e-05          0.15027        0.205151      9.25094e-05    -7.13094e-05        -0.891101       -0.316688
                       -0.689684       -0.461981      0.000117179    -7.48665e-05        -0.157454        0.523883       4.0526e-05     6.56936e-05
                    -3.81375e-05    -4.83673e-05        -0.891106       -0.316697      3.26983e-05     6.24778e-05        -0.241485      -0.0826956
509200                 -0.233008        0.239661     -4.40898e-05     3.06183e-05        -0.672438       -0.462207     -4.03663e-05    -6.70906e-05
                    -4.58864e-05     3.77495e-05         0.124764        0.207105      0.000106429    -7.86191e-05        -0.894035       -0.305116
                       -0.672434       -0.462213      0.000134078    -8.05797e-05        -0.173958        0.538731      4.25612e-05     6.66848e-05
                    -4.28553e-05    -5.08298e-05        -0.894041       -0.305126      3.43511e-05     6.34093e-05        -0.237562      -0.0779962
512400                 -0.232833        0.249738     -4.17892e-05     3.37475e-05        -0.654679       -0.462051     -4.52442e-05    -6.99617e-05
                    -4.35796e-05     4.09881e-05        0.0973336        0.204743      0.000123857    -8.61676e-05        -0.897172       -0.292003
                       -0.654675       -0.462056      0.000155025    -8.56432e-05          -0.1904         0.55243      4.48921e-05     6.77851e-05
                    -4.79929e-05     -5.3607e-05        -0.897178       -0.292013      3.62403e-05     6.44496e-05         -0.23332      -0.0732607
515600                 -0.232923        0.260503      -3.9226e-05     3.72109e-05        -0.636402       -0.461469     -5.05702e-05    -7.31993e-05
                    -4.10075e-05     4.45687e-05        0.0690329        0.197226      0.000146003    -9.34466e-05        -0.900514       -0.277022
                       -0.636396       -0.461473      0.000181218    -8.90404e-05        -0.206723        0.565047      4.75873e-05     6.90118e-05
                     -5.3606e-05    -5.67585e-05         -0.90052       -0.277032      3.84202e-05      6.5618e-05        -0.228738      -0.0685053
518800                 -0.233336        0.272016     -3.63527e-05     4.10652e-05        -0.617598       -0.460424     -5.64059e-05    -7.68734e-05
                     -3.8122e-05     4.85482e-05        0.0412999        0.184066      0.000174516    -9.93616e-05        -0.904048       -0.259753
                       -0.617592       -0.460426      0.000214074    -8.88839e-05        -0.222879        0.576647      5.07381e-05     7.03851e-05
                    -5.97604e-05    -6.03585e-05        -0.904055       -0.259764      4.09627e-05     6.69384e-05        -0.223797      -0.0637486
522000                 -0.234144        0.284343     -3.31096e-05     4.53802e-05        -0.598263       -0.458874     -6.28244e-05    -8.10722e-05
                    -3.48623e-05     5.29969e-05        0.0157988        0.165326      0.000211509    -0.000101652        -0.907741        -0.23964
                       -0.598255       -0.458875      0.000254908    -8.17688e-05        -0.238827        0.587294      5.44683e-05     7.19283e-05
                    -6.65333e-05    -6.45008e-05        -0.907749       -0.239651      4.39651e-05       6.844e-05        -0.218475      -0.0590125
525200                  -0.23543        0.297554     -2.94208e-05     5.02436e-05         -0.57839       -0.456778     -6.99122e-05     -8.5908e-05
                    -3.11512e-05     5.80028e-05      -0.00585395        0.141721       0.00025918    -9.58191e-05        -0.911515       -0.215937
                       -0.578382       -0.456778      0.000303845    -6.19113e-05        -0.254532         0.59705      5.89505e-05     7.36668e-05
                    -7.40159e-05    -6.93059e-05        -0.911524       -0.215949      4.75628e-05     7.01592e-05        -0.212752      -0.0543222
528400                 -0.237299        0.311723      -2.5188e-05     5.57666e-05         -0.55798       -0.454089     -7.77719e-05    -9.15254e-05
                    -2.68884e-05     6.36769e-05       -0.0224005        0.114551      0.000318132    -7.35211e-05        -0.915215        -0.18762
                       -0.557971       -0.454087      0.000357114    -2.08136e-05        -0.269967        0.605974      6.44312e-05     7.56258e-05
                    -8.23158e-05    -7.49295e-05        -0.915224       -0.187632      5.19487e-05     7.21404e-05         -0.20661      -0.0497067
531600                 -0.239876        0.326928     -2.02818e-05      6.2093e-05        -0.537031       -0.450757     -8.65257e-05    -9.81137e-05
                    -2.19421e-05     7.01618e-05       -0.0331754       0.0854711      0.000382493    -2.18359e-05        -0.918534       -0.153251
                       -0.537021       -0.450753       0.00040249     4.98394e-05         -0.28511        0.614124      7.12747e-05     7.78224e-05
                    -9.15599e-05    -8.15767e-05        -0.918545       -0.153264      5.74076e-05     7.44356e-05        -0.200029      -0.0451988
534800                 -0.243314        0.343249     -1.45286e-05     6.94108e-05        -0.515547       -0.446732     -9.63185e-05    -0.000105924
                    -1.61354e-05     7.76437e-05        -0.038177       0.0561814      0.000431538     7.05174e-05        -0.920883       -0.110758
                       -0.515536       -0.446726      0.000417775     0.000148027        -0.299944        0.621552      8.00391e-05     8.02448e-05
                    -0.000101897    -8.95207e-05        -0.920895       -0.110771      6.43758e-05     7.71007e-05        -0.192992      -0.0408355
538000                 -0.247796        0.360766      -7.6899e-06     7.79718e-05        -0.493533       -0.441958     -0.000107321    -0.000115295
                    -9.22459e-06     8.63697e-05       -0.0379673       0.0281399      0.000430921     0.000192545        -0.921094       -0.057066
                       -0.493522       -0.441951      0.000384376     0.000250116        -0.314455         0.62831      9.16185e-05     8.27976e-05
                    -0.000113498     -9.9132e-05        -0.921108      -0.0570792      7.35549e-05      8.0177e-05        -0.185487       -0.036658
541200                 -0.253549        0.379551      5.71069e-07     8.81204e-05        -0.471001       -0.436377     -0.000119729    -0.000126691
                    -8.65939e-07     9.66749e-05       -0.0334656      0.00239632      0.000366078      0.00029968        -0.916786       0.0125166
                        -0.47099       -0.436368      0.000310153      0.00032264        -0.328634        0.634447      0.000107518     8.51478e-05
                    -0.000126555    -0.000110922        -0.916803        0.012503      8.61374e-05     8.36293e-05        -0.177501       -0.032712
544400                 -0.260844        0.399666      1.07451e-05      0.00010034        -0.447964        -0.42993     -0.000133764    -0.000140766
                     9.44172e-06     0.000109025       -0.0257256      -0.0204439       0.00026832     0.000354322        -0.902854        0.105324
                       -0.447952       -0.429919      0.000224595      0.00035215        -0.342475        0.640007      0.000130414     8.62632e-05
                    -0.000141269    -0.000125608        -0.902874        0.105311      0.000104293     8.71332e-05        -0.169028      -0.0290476
547600                  -0.27001        0.421152      2.35758e-05     0.000115329         -0.42444       -0.422552     -0.000149648    -0.000158451
                     2.24571e-05     0.000124087       -0.0157612      -0.0401598      0.000178017     0.000360629         -0.86763        0.232816
                       -0.424429        -0.42254      0.000150932     0.000349173        -0.355973        0.645033      0.000165258      8.2869e-05
                    -0.000157817    -0.000144219        -0.867657        0.232804      0.000132287     8.92845e-05        -0.160066      -0.0257191
550800                 -0.281441        0.444012      4.02439e-05     0.000134138        -0.400455       -0.414178     -0.000167558     -0.00018111
                     3.93834e-05     0.000142841      -0.00444277      -0.0568109      0.000111037     0.000341576        -0.782462        0.411141
                       -0.400443       -0.414164      9.60816e-05     0.000329838        -0.369127        0.649565      0.000220655     6.36998e-05
                     -0.00017627    -0.000168252        -0.782496        0.411133      0.000179039     8.42507e-05        -0.150618      -0.0227845
554000                 -0.295608        0.468194      6.27397e-05     0.000158412        -0.376037        -0.40474     -0.000187491    -0.000210778
                     6.22413e-05     0.000166791       0.00754182      -0.0706302      6.56592e-05     0.000314245        -0.573609         0.64902
                       -0.376025       -0.404725      5.77978e-05     0.000305117        -0.381938        0.653639      0.000299856    -1.14349e-05
                    -0.000196407     -0.00019992        -0.573651        0.649025      0.000260517     4.53848e-05        -0.140696      -0.0203051
557200                  -0.31306         0.49356       9.4683e-05     0.000190864        -0.351224       -0.394168     -0.000208946     -0.00025054
                     9.46832e-05     0.000198334        0.0196847      -0.0819379      3.57528e-05     0.000286708       -0.0777061        0.853443
                       -0.351212       -0.394151      3.16727e-05     0.000280413        -0.394408        0.657291      0.000299991    -0.000213574
                    -0.000217276    -0.000242509       -0.0777423        0.853473      0.000337734    -0.000131483        -0.130319      -0.0183447
560400                 -0.334432        0.519848      0.000143367     0.000236253        -0.326059        -0.38239      -0.00023015     -0.00030508
                      0.00014398      0.00024144        0.0316331      -0.0910804      1.60388e-05     0.000261852         0.714354        0.547901
                       -0.326048       -0.382371      1.38871e-05      0.00025784         -0.40654        0.660553       7.2824e-05     -0.00030352
                     -0.00023619    -0.000300788         0.714357        0.547935      0.000115321    -0.000318792        -0.119514      -0.0169686
563600                  -0.36043        0.546624      0.000225752      0.00030345        -0.300593       -0.369333     -0.000246193    -0.000381241
                     0.000226644     0.000302746        0.0431571      -0.0983938      2.90191e-06     0.000240317         0.904849       -0.384535
                       -0.300583       -0.369313      1.70489e-06     0.000237966        -0.418339        0.663454     -4.97929e-05    -0.000200501
                    -0.000246539    -0.000381063         0.904852       -0.384533     -4.96437e-05    -0.000205233         -0.10832      -0.0162421
564000                 -0.364042        0.549975      0.000240156       0.0003141        -0.297392       -0.367607     -0.000247351    -0.000392705
                     0.000240969     0.000312148        0.0445601      -0.0991949      1.59618e-06     0.000237853         0.864056       -0.484413
                       -0.297382       -0.367587      4.76747e-07     0.000235671        -0.419791        0.663793     -5.54347e-05    -0.000187973
                    -0.000246622    -0.000392976         0.864056       -0.484413     -5.61741e-05    -0.000190476        -0.106896      -0.0162001
566800                 -0.391802        0.573219       0.00039067     0.000408818        -0.274888       -0.354925     -0.000244822    -0.000487482
                     0.000387817     0.000391045        0.0541189       -0.104183     -5.97044e-06      0.00022192         0.450651         -0.8927
                       -0.274879       -0.354903     -6.71108e-06     0.000220722         -0.42981        0.666023     -7.01403e-05    -0.000119583
                    -0.000233535    -0.000489104         0.450643       -0.892704     -7.05407e-05    -0.000113769       -0.0967849      -0.0162288
570000                 -0.429286        0.598659      0.000834088     0.000552897        -0.249013       -0.339093     -0.000198813    -0.000627541
                     0.000785245     0.000479052        0.0644464       -0.108716     -1.20367e-05      0.00020624        0.0636674       -0.997971
                       -0.249004        -0.33907     -1.25713e-05     0.000205819         -0.44096        0.668285     -6.62729e-05    -7.29835e-05
