! TOUCHSTONE file generated by CST MICROWAVE STUDIO
! Date and time: Mon Oct 20 08:27:14 2025
! Project name: Teste_Macro_Metasurface_Nanopilar.cst
! Parameters = {H=600; L_x=70; L_y=175; Lambda=1064; Max_L=200; Min_L=70; PathPara=1; Phi=0; Step_L=10; Theta=0; p=520; phaseX=180; phaseY=0}
! Header version: 2018
! Port assignment regex: !\s*Touchstone port\s*([0-9]+)\s*=\s*(CST MWS port|CST DS port)\s*([0-9]+|Zmin|Zmax)\s*\(\"(.*)\"\)(\s*mode\s*([0-9]+))?.*
! Touchstone port assignment:
! Touchstone port 1 = CST MWS port Zmax ("") mode 1
! Touchstone port 2 = CST MWS port Zmax ("") mode 2
! Touchstone port 3 = CST MWS port Zmin ("") mode 1
! Touchstone port 4 = CST MWS port Zmin ("") mode 2
! S-Parameters are not renormalized. Each port impedance will be approximated by the real part at minimum frequency. The values are described via the [Reference] keyword.
! Default impedance is overridden by [Reference]
[Version] 2.0
# GHz S RI R 376.73
[Number of Ports] 4
[Reference]
376.73 376.73 259.888 259.888 
[Number of Frequencies] 52
[Network Data]
474000                  0.227042       -0.117682      6.70794e-05     2.90592e-05           0.9025        0.306111       5.3148e-05     -6.9804e-05
                     4.74363e-05     2.69969e-05         0.360247        -0.20724      2.95743e-05     8.02439e-05        -0.877213        0.188005
                        0.902486        0.306131      2.04883e-05     7.51489e-05        -0.109672       -0.227828      4.97667e-05     1.40777e-05
                     5.73683e-05    -8.08325e-05        -0.877216        0.188008      1.96249e-05     2.47542e-05        -0.419809      -0.0385079
477200                  0.226823       -0.124416      6.62654e-05     2.94601e-05         0.898611        0.308834      5.36447e-05    -6.84155e-05
                     4.67596e-05     2.74238e-05         0.359023       -0.205404      2.87832e-05     8.01517e-05        -0.877744        0.203291
                        0.898597        0.308854      1.98391e-05     7.50907e-05        -0.103948       -0.230001      4.98104e-05     1.45806e-05
                     5.79541e-05    -7.92202e-05        -0.877748        0.203294      2.00707e-05     2.50627e-05        -0.416519      -0.0326624
480400                  0.226501       -0.131514      6.54086e-05     2.98818e-05         0.894553        0.311643      5.41444e-05    -6.69624e-05
                     4.60494e-05     2.78729e-05         0.357716       -0.203483      2.79559e-05     8.00531e-05        -0.878067        0.219898
                         0.89454        0.311662      1.91605e-05     7.50286e-05       -0.0978648       -0.232253      4.98545e-05     1.51053e-05
                     5.85409e-05    -7.75324e-05        -0.878071        0.219902      2.05366e-05     2.53858e-05        -0.413004      -0.0266275
483600                   0.22606       -0.139003      6.45054e-05      3.0326e-05         0.890315         0.31454      5.46461e-05    -6.54405e-05
                     4.53031e-05     2.83461e-05         0.356319       -0.201471      2.70899e-05     7.99474e-05        -0.878118        0.237998
                        0.890302        0.314558      1.84507e-05     7.49622e-05       -0.0913897       -0.234587      4.98987e-05     1.56531e-05
                     5.91271e-05    -7.57643e-05        -0.878121        0.238002      2.10238e-05     2.57243e-05        -0.409244      -0.0203969
486800                  0.225481       -0.146914       6.3552e-05     3.07945e-05         0.885885        0.317528      5.51485e-05    -6.38451e-05
                     4.45179e-05     2.88453e-05         0.354821       -0.199361      2.61825e-05      7.9834e-05        -0.877812        0.257793
                        0.885872        0.317546      1.77074e-05     7.48911e-05       -0.0844841       -0.237004      4.99431e-05     1.62258e-05
                     5.97107e-05    -7.39107e-05        -0.877816        0.257796       2.1534e-05     2.60794e-05        -0.405219      -0.0139643
490000                  0.224741       -0.155282      6.25441e-05     3.12893e-05         0.881251        0.320613      5.56498e-05    -6.21713e-05
                     4.36906e-05     2.93727e-05         0.353213       -0.197147      2.52306e-05     7.97121e-05        -0.877043        0.279518
                        0.881238        0.320631      1.69281e-05     7.48148e-05       -0.0771047       -0.239506      4.99874e-05     1.68248e-05
                     6.02895e-05    -7.19661e-05        -0.877047        0.279522      2.20688e-05     2.64525e-05        -0.400906     -0.00732346
493200                  0.223815       -0.164143      6.14769e-05     3.18127e-05         0.876397        0.323798      5.61484e-05    -6.04139e-05
                     4.28177e-05     2.99309e-05         0.351483       -0.194821      2.42308e-05     7.95809e-05        -0.875669        0.303456
                        0.876385        0.323815      1.61102e-05     7.47328e-05       -0.0692026       -0.242094      5.00316e-05     1.74523e-05
                     6.08607e-05    -6.99245e-05        -0.875673         0.30346      2.26299e-05     2.68448e-05        -0.396282    -0.000468496
496400                   0.22267       -0.173538      6.03449e-05     3.23673e-05         0.871309        0.327087       5.6642e-05    -5.85672e-05
                     4.18954e-05     3.05225e-05         0.349618       -0.192377      2.31796e-05     7.94393e-05        -0.873503        0.329939
                        0.871297        0.327103      1.52509e-05     7.46445e-05       -0.0607217       -0.244766      5.00754e-05     1.81101e-05
                     6.14212e-05    -6.77794e-05        -0.873506        0.329943      2.32195e-05     2.72579e-05        -0.391318      0.00660603
499600                  0.221272       -0.183514      5.91421e-05     3.29559e-05         0.865971        0.330484      5.71279e-05    -5.66248e-05
                     4.09194e-05     3.11506e-05         0.347603       -0.189804      2.20729e-05     7.92863e-05        -0.870294        0.359366
                        0.865959          0.3305      1.43467e-05     7.45492e-05       -0.0515982       -0.247521      5.01186e-05     1.88005e-05
                     6.19675e-05    -6.55239e-05        -0.870298         0.35937      2.38397e-05     2.76936e-05        -0.385984        0.013905
502800                  0.219577       -0.194118      5.78617e-05     3.35819e-05         0.860362        0.333995      5.76032e-05      -5.458e-05
                     3.98849e-05     3.18188e-05          0.34542       -0.187095      2.09061e-05     7.91205e-05        -0.865707        0.392212
                         0.86035         0.33401      1.33942e-05     7.44462e-05       -0.0417587       -0.250354      5.01609e-05      1.9526e-05
                      6.2495e-05    -6.31505e-05        -0.865711        0.392217       2.4493e-05     2.81536e-05        -0.380248       0.0214324
506000                  0.217533       -0.205406      5.64958e-05     3.42487e-05         0.854464        0.337623      5.80641e-05    -5.24257e-05
                     3.87864e-05     3.25309e-05         0.343049        -0.18424      1.96742e-05     7.89406e-05        -0.859283        0.429051
                        0.854453        0.337638      1.23894e-05     7.43347e-05       -0.0311188        -0.25326      5.02022e-05     2.02894e-05
                      6.2999e-05    -6.06514e-05        -0.859287        0.429057      2.51821e-05     2.86402e-05        -0.374074       0.0291913
509200                  0.215081       -0.217437      5.50357e-05     3.49607e-05         0.848254        0.341373      5.85065e-05    -5.01538e-05
                     3.76177e-05     3.32914e-05         0.340468       -0.181228      1.83718e-05     7.87449e-05        -0.850391        0.470568
                        0.848243        0.341388      1.13279e-05     7.42136e-05       -0.0195806       -0.256226      5.02419e-05     2.10936e-05
                     6.34734e-05    -5.80179e-05        -0.850394        0.470574        2.591e-05     2.91555e-05        -0.367421       0.0371833
512400                  0.212148       -0.230276      5.34712e-05     3.57225e-05         0.841708        0.345251      5.89253e-05     -4.7756e-05
                     3.63721e-05     3.41055e-05         0.337649       -0.178047      1.69925e-05     7.85315e-05        -0.838149        0.517581
                        0.841697        0.345264      1.02047e-05     7.40818e-05      -0.00703039       -0.259238      5.02796e-05      2.1942e-05
                     6.39115e-05     -5.5241e-05        -0.838152        0.517588      2.66801e-05     2.97024e-05        -0.360246       0.0454082
515600                  0.208647       -0.243995      5.17906e-05     3.65395e-05         0.834798         0.34926      5.93145e-05     -4.5223e-05
                     3.50417e-05      3.4979e-05         0.334562       -0.174688      1.55294e-05     7.82981e-05        -0.821041         0.57087
                        0.834788        0.349273      9.01435e-06     7.39381e-05       0.00666468       -0.262272      5.03149e-05     2.28382e-05
                     6.43052e-05    -5.23108e-05        -0.821039        0.570873      2.74961e-05     3.02838e-05        -0.352499       0.0538636
518800                  0.204473       -0.258669      4.99807e-05      3.7418e-05         0.827496        0.353406      5.96672e-05     -4.2545e-05
                     3.36174e-05     3.59186e-05          0.33117       -0.171136      1.39748e-05     7.80422e-05        -0.783911        0.620874
                        0.827485        0.353418      7.75064e-06     7.37809e-05        0.0216605       -0.265295      5.03472e-05     2.37865e-05
                     6.46454e-05     -4.9217e-05        -0.783908        0.620877      2.83623e-05      3.0903e-05        -0.344129       0.0625443
522000                  0.199501       -0.274382      4.80259e-05     3.83651e-05         0.819767        0.357693      5.99752e-05    -3.97112e-05
                      3.2089e-05      3.6932e-05         0.327431        -0.16738      1.23197e-05     7.77609e-05        -0.737223         0.67565
                        0.819757        0.357704       6.4066e-06     7.36085e-05        0.0381409       -0.268262      5.03755e-05     2.47913e-05
                      6.4921e-05    -4.59486e-05         -0.73722        0.675653      2.92835e-05     3.15638e-05        -0.335077       0.0714413
525200                  0.193578        -0.29122       4.5908e-05     3.93893e-05         0.811575        0.362125      6.02287e-05    -3.67103e-05
                     3.04447e-05     3.80284e-05         0.323295       -0.163408      1.05543e-05     7.74506e-05        -0.677967        0.735092
                        0.811565        0.362135      4.97436e-06     7.34188e-05        0.0563237       -0.271108      5.03991e-05      2.5858e-05
                     6.51195e-05    -4.24942e-05        -0.677964        0.735095      3.02651e-05     3.22705e-05        -0.325279       0.0805414
528400                   0.18652       -0.309275      4.36058e-05     4.05004e-05         0.802879        0.366706      6.04164e-05    -3.35299e-05
                     2.86707e-05     3.92182e-05         0.318702       -0.159207      8.66719e-06     7.71072e-05        -0.602087        0.798431
                        0.802869        0.366716      3.44499e-06     7.32096e-05        0.0764682       -0.273743      5.04169e-05     2.69923e-05
                      6.5226e-05    -3.88414e-05        -0.602083        0.798434      3.13131e-05     3.30282e-05        -0.314663       0.0898259
531600                    0.1781       -0.328639       4.1094e-05     4.17098e-05         0.793633        0.371441      6.05247e-05    -3.01572e-05
                     2.67513e-05      4.0514e-05         0.313583       -0.154767      6.64548e-06      7.6726e-05        -0.504194        0.863591
                        0.793625         0.37145      1.80831e-06     7.29778e-05        0.0988848       -0.276043      5.04275e-05     2.82008e-05
                     6.52234e-05     -3.4978e-05        -0.504189        0.863593      3.24345e-05     3.38425e-05        -0.303155       0.0992695
534800                  0.168045       -0.349399      3.83428e-05     4.30313e-05         0.783788         0.37633      6.05379e-05    -2.65783e-05
                     2.46677e-05     4.19304e-05         0.307853        -0.15008      4.47439e-06      7.6301e-05        -0.377416        0.926044
                        0.783779        0.376338      5.26803e-08     7.27204e-05         0.123946       -0.277831      5.04294e-05     2.94908e-05
                     6.50917e-05    -3.08909e-05        -0.377411        0.926046      3.36375e-05       3.472e-05         -0.29067        0.108838
538000                   0.15602       -0.371634      3.53162e-05     4.44811e-05         0.773284        0.381377      6.04373e-05    -2.27787e-05
                      2.2398e-05      4.3485e-05         0.301412       -0.145142      2.13694e-06     7.58254e-05        -0.213814        0.976874
                        0.773276        0.381384     -1.83527e-06     7.24331e-05         0.152101       -0.278862      5.04206e-05     3.08709e-05
                     6.48074e-05    -2.65673e-05        -0.213808        0.976876       3.4931e-05     3.56684e-05        -0.277118        0.118489
541200                  0.141614       -0.395403      3.19707e-05     4.60788e-05         0.762059         0.38658      6.02007e-05    -1.87435e-05
                     1.99163e-05     4.51989e-05         0.294138       -0.139955     -3.86533e-07     7.52909e-05      -0.00646992        0.999979
                        0.762052        0.386587     -3.87099e-06     7.21114e-05          0.18389       -0.278785      5.03988e-05     3.23505e-05
                     6.43436e-05    -2.19945e-05      -0.00646335        0.999979      3.63259e-05     3.66964e-05        -0.262401        0.128165
544400                  0.124329       -0.420725       2.8253e-05     4.78484e-05         0.750039        0.391938      5.98023e-05    -1.44573e-05
                     1.71913e-05      4.7098e-05         0.285886       -0.134534     -3.11882e-06     7.46872e-05           0.2447        0.969599
                        0.750032        0.391944     -6.07242e-06     7.17493e-05         0.219968       -0.277105      5.03609e-05     3.39408e-05
                     6.36689e-05    -1.71603e-05         0.244707        0.969597      3.78343e-05     3.78147e-05        -0.246415        0.137796
547600                  0.103557       -0.447559      2.40974e-05     4.98191e-05         0.737142        0.397447      5.92115e-05    -9.90484e-06
                     1.41858e-05     4.92136e-05         0.276478        -0.12891     -6.08658e-06     7.40021e-05         0.521903        0.853005
                        0.737137        0.397451     -8.46046e-06       7.134e-05         0.261116       -0.273104      5.03035e-05     3.56544e-05
                     6.27468e-05    -1.20537e-05         0.521909        0.853001      3.94709e-05     3.90355e-05        -0.229049        0.147294
550800                 0.0785666       -0.475766      1.94218e-05     5.20272e-05         0.723277        0.403097      5.83923e-05    -5.07118e-06
                     1.08541e-05     5.15847e-05         0.265702       -0.123139     -9.32109e-06     7.32203e-05         0.779143        0.626846
                        0.723272        0.403101     -1.10597e-05     7.08748e-05          0.30826       -0.265747      5.02221e-05     3.75059e-05
                     6.15354e-05    -6.66565e-06         0.779147        0.626841      4.12524e-05     4.03736e-05        -0.210189         0.15655
554000                 0.0484854       -0.505055      1.41219e-05     5.45183e-05         0.708337        0.408877      5.73026e-05     5.73657e-08
                      7.1404e-06     5.42602e-05         0.253299       -0.117315     -1.28593e-05     7.23227e-05         0.952419        0.304791
                        0.708333        0.408879     -1.38992e-05     7.03429e-05         0.362463       -0.253514      5.01111e-05     3.95122e-05
                     5.99865e-05    -9.89968e-07         0.952421        0.304786      4.31992e-05     4.18467e-05        -0.189714        0.165429
557200                 0.0122971        -0.53491      8.06406e-06     5.73503e-05         0.692203        0.414766      5.58931e-05      5.4924e-06
                      2.9754e-06     5.73023e-05         0.238959       -0.111591     -1.67453e-05     7.12855e-05         0.998471      -0.0552768
                          0.6922        0.414768     -1.70135e-05     6.97311e-05         0.424873       -0.234167      4.99634e-05     4.16932e-05
                      5.8045e-05     4.97539e-06         0.998471      -0.0552804      4.53351e-05     4.34761e-05        -0.167506        0.173767
560400                -0.0311433       -0.564484      1.07301e-06     6.05983e-05         0.674736        0.420738      5.41061e-05     1.12422e-05
                    -1.72793e-06      6.0791e-05         0.222315       -0.106208     -2.10316e-05     7.00784e-05         0.922871        -0.38511
                        0.674735        0.420739      -2.0444e-05     6.90226e-05         0.496564       -0.204398      4.97702e-05     4.40721e-05
                     5.56482e-05     1.12267e-05          0.92287       -0.385112      4.76891e-05     4.52881e-05         -0.14345        0.181369
563600                -0.0830512       -0.592472     -7.08472e-06     6.43611e-05         0.655782        0.426755      5.18748e-05     1.73098e-05
                    -7.08038e-06     6.48313e-05          0.20294       -0.101535     -2.57819e-05     6.86622e-05         0.748708       -0.628609
                        0.655781        0.426754     -2.42409e-05     6.81957e-05         0.578146        -0.15933      4.95202e-05     4.66763e-05
                     5.27257e-05     1.77524e-05         0.748707       -0.628609      5.02962e-05     4.73149e-05        -0.117438        0.187998
564000                -0.0901946       -0.595771     -8.20115e-06     6.48737e-05         0.653299        0.427508      5.15609e-05     1.80904e-05
                    -7.80177e-06     6.53817e-05         0.200303       -0.101026      -2.6412e-05     6.84682e-05         0.719088       -0.648048
                        0.653299        0.427507     -2.47442e-05     6.80828e-05         0.589027       -0.152298      4.94843e-05     4.70192e-05
                     5.23196e-05     1.85864e-05         0.719088       -0.648047      5.06419e-05     4.75853e-05        -0.114045        0.188745
566800                 -0.144583       -0.616949     -1.67276e-05      6.8771e-05         0.635158        0.432764      4.91222e-05     2.36909e-05
                     -1.3225e-05     6.95636e-05         0.180362      -0.0981283     -3.10734e-05     6.69865e-05         0.520598       -0.745722
                        0.635159        0.432763     -2.84652e-05     6.72228e-05         0.668892      -0.0919236      4.91988e-05     4.95383e-05
                     4.91991e-05     2.45304e-05         0.520597       -0.745721      5.31993e-05      4.9597e-05       -0.0893831        0.193376
570000                 -0.216596       -0.635222     -2.83014e-05     7.40102e-05         0.612659        0.438695      4.57606e-05     3.03708e-05
                    -2.03497e-05     7.51797e-05         0.154098      -0.0968184     -3.70008e-05     6.49842e-05         0.322882       -0.796756
                        0.612661        0.438693     -3.31922e-05     6.60673e-05         0.764969      0.00748515       4.8787e-05     5.26969e-05
