! TOUCHSTONE file generated by CST MICROWAVE STUDIO
! Date and time: Mon Oct 20 08:27:31 2025
! Project name: Teste_Macro_Metasurface_Nanopilar.cst
! Parameters = {H=600; L_x=130; L_y=100; Lambda=1064; Max_L=200; Min_L=70; PathPara=1; Phi=0; Step_L=10; Theta=0; p=520; phaseX=180; phaseY=0}
! Header version: 2018
! Port assignment regex: !\s*Touchstone port\s*([0-9]+)\s*=\s*(CST MWS port|CST DS port)\s*([0-9]+|Zmin|Zmax)\s*\(\"(.*)\"\)(\s*mode\s*([0-9]+))?.*
! Touchstone port assignment:
! Touchstone port 1 = CST MWS port Zmax ("") mode 1
! Touchstone port 2 = CST MWS port Zmax ("") mode 2
! Touchstone port 3 = CST MWS port Zmin ("") mode 1
! Touchstone port 4 = CST MWS port Zmin ("") mode 2
! S-Parameters are not renormalized. Each port impedance will be approximated by the real part at minimum frequency. The values are described via the [Reference] keyword.
! Default impedance is overridden by [Reference]
[Version] 2.0
# GHz S RI R 376.73
[Number of Ports] 4
[Reference]
376.73 376.73 259.888 259.888 
[Number of Frequencies] 52
[Network Data]
474000                 0.0779711        0.112886     -6.27119e-05     0.000235638         -0.93503       -0.208593      -0.00015786    -4.87641e-05
                    -6.27139e-05     0.000235679        -0.845218       -0.241801     -0.000155892     0.000173953        -0.287105        -0.30574
                        -0.93503       -0.208593     -0.000155903     0.000173911       -0.0827907        0.119345     -6.11315e-05    -0.000114601
                    -0.000163429    -8.72857e-05        -0.287117       -0.305749     -4.98603e-05     -0.00016266         0.106045        0.882047
477200                 0.0760807        0.106485     -6.09809e-05     0.000232383        -0.951531       -0.214493      -0.00015384    -4.71999e-05
                    -6.10916e-05     0.000232399        -0.845278       -0.232807     -0.000151224     0.000170495        -0.289148       -0.310188
                        -0.95153       -0.214493     -0.000150159      0.00017012       -0.0820128        0.115329     -5.92688e-05    -0.000112833
                    -0.000159993    -8.49126e-05         -0.28916       -0.310198     -4.76076e-05    -0.000159613         0.103892        0.855166
480400                 0.0740639       0.0999239     -5.91718e-05     0.000228962        -0.969535       -0.221161     -0.000149653    -4.56148e-05
                    -5.93977e-05     0.000228951        -0.845165       -0.223233     -0.000146411     0.000166915        -0.291338       -0.314875
                       -0.969535       -0.221161     -0.000144247     0.000166194       -0.0812491        0.111158     -5.73401e-05    -0.000110984
                    -0.000156396    -8.24796e-05         -0.29135       -0.314885      -4.5288e-05    -0.000156435         0.101138        0.828072
483600                 0.0719123       0.0931978     -5.72793e-05     0.000225362        -0.974294       -0.225281     -0.000145289      -4.401e-05
                    -5.76274e-05     0.000225323        -0.844842       -0.213028     -0.000141444     0.000163206        -0.293691       -0.319821
                       -0.974294       -0.225281     -0.000138159     0.000162126       -0.0805029        0.106823      -5.5342e-05    -0.000109051
                    -0.000152628    -7.99857e-05        -0.293703        -0.31983     -4.28988e-05     -0.00015312        0.0977672         0.80078
486800                 0.0696172        0.086302     -5.52977e-05     0.000221569        -0.973514       -0.228628     -0.000140738    -4.23871e-05
                    -5.57755e-05     0.000221501        -0.844266       -0.202132     -0.000136317      0.00015936        -0.296224       -0.325045
                       -0.973514       -0.228628     -0.000131887     0.000157908       -0.0797779        0.102315     -5.32707e-05    -0.000107027
                    -0.000148677    -7.74297e-05        -0.296237       -0.325055     -4.04371e-05    -0.000149657         0.093764        0.773308
490000                 0.0671689       0.0792316     -5.32206e-05     0.000217567         -0.97259       -0.232527     -0.000135988    -4.07481e-05
                    -5.38365e-05     0.000217469        -0.843387       -0.190483     -0.000131022     0.000155372        -0.298959       -0.330573
                        -0.97259       -0.232526     -0.000125424     0.000153531       -0.0790786       0.0976248     -5.11225e-05    -0.000104907
                    -0.000144531     -7.4811e-05        -0.298972       -0.330583     -3.79003e-05    -0.000146038         0.089114        0.745675
493200                 0.0645573       0.0719818     -5.10411e-05     0.000213338        -0.971487       -0.237092     -0.000131026    -3.90952e-05
                    -5.18041e-05     0.000213209        -0.842142        -0.17801     -0.000125551     0.000151231        -0.301919       -0.336431
                       -0.971487       -0.237092      -0.00011876     0.000148988       -0.0784098       0.0927418      -4.8893e-05    -0.000102682
                    -0.000140176    -7.21288e-05        -0.301931        -0.33644     -3.52852e-05    -0.000142252        0.0838031        0.717901
496400                 0.0617715       0.0645476     -4.87515e-05     0.000208862         -0.97016       -0.242467      -0.00012584    -3.74313e-05
                    -4.96716e-05     0.000208701        -0.840454       -0.164635     -0.000119895     0.000146931         -0.30513       -0.342648
                        -0.97016       -0.242467     -0.000111886     0.000144268       -0.0777771       0.0876552     -4.65778e-05    -0.000100345
                    -0.000135597    -6.93831e-05        -0.305142       -0.342657      -3.2589e-05    -0.000138288         0.077818        0.690005
499600                 0.0587997       0.0569243     -4.63434e-05     0.000204117        -0.968546       -0.248835     -0.000120414    -3.57597e-05
                    -4.74317e-05     0.000203923        -0.838231       -0.150274     -0.000114043      0.00014246        -0.308624       -0.349257
                       -0.968546       -0.248835     -0.000104792     0.000139361       -0.0771867       0.0823531     -4.41721e-05    -9.78887e-05
                    -0.000130778    -6.65737e-05        -0.308636       -0.349267     -2.98084e-05    -0.000134133        0.0711458        0.662009
502800                 0.0556294       0.0491068     -4.38076e-05     0.000199078        -0.966562       -0.256432     -0.000114733    -3.40845e-05
                    -4.50762e-05     0.000198851        -0.835362       -0.134835     -0.000107987     0.000137809        -0.312437       -0.356295
                       -0.966562       -0.256431     -9.74675e-05     0.000134256       -0.0766459       0.0768232     -4.16708e-05     -9.5303e-05
                    -0.000125701    -6.37013e-05        -0.312449       -0.356305     -2.69404e-05    -0.000129774        0.0637747        0.633937
506000                 0.0522469       0.0410904      -4.1134e-05     0.000193718        -0.964092       -0.265567     -0.000108781    -3.24105e-05
                    -4.25964e-05     0.000193455        -0.831708       -0.118217     -0.000101716     0.000132968        -0.316612       -0.363804
                       -0.964092       -0.265567     -8.99014e-05     0.000128942       -0.0761626        0.071052     -3.90684e-05     -9.2578e-05
                    -0.000120346    -6.07668e-05        -0.316624       -0.363814     -2.39815e-05    -0.000125195        0.0556937        0.605811
509200                 0.0486379       0.0328704     -3.83112e-05     0.000188005         -0.96097       -0.276652     -0.000102538    -3.07434e-05
                    -3.99825e-05     0.000187705        -0.827099       -0.100315     -9.52165e-05     0.000127924        -0.321198       -0.371831
                        -0.96097       -0.276651     -8.20818e-05     0.000123405       -0.0757461       0.0650253      -3.6359e-05    -8.97024e-05
                    -0.000114693    -5.77721e-05        -0.321211        -0.37184     -2.09287e-05    -0.000120382        0.0468925        0.577655
512400                 0.0447866       0.0244423     -3.53267e-05     0.000181902        -0.956954        -0.29024     -9.59863e-05    -2.90899e-05
                    -3.72236e-05     0.000181564        -0.821329      -0.0810167     -8.84774e-05     0.000122664        -0.326257       -0.380427
                       -0.956954        -0.29024      -7.3996e-05     0.000117631       -0.0754068        0.058728     -3.35363e-05    -8.66638e-05
                    -0.000108718    -5.47198e-05        -0.326269       -0.380437     -1.77785e-05    -0.000115315         0.037362        0.549495
515600                 0.0406764       0.0158015     -3.21669e-05     0.000175368        -0.951679       -0.307094     -8.91029e-05    -2.74579e-05
                    -3.43081e-05     0.000174992         -0.81414      -0.0602114     -8.14852e-05     0.000117175        -0.331856       -0.389654
                       -0.951679       -0.307093     -6.56305e-05     0.000111606       -0.0751568       0.0521437     -3.05935e-05    -8.34485e-05
                    -0.000102397    -5.16133e-05        -0.331869       -0.389663     -1.45279e-05    -0.000109976        0.0270941        0.521356
518800                 0.0362892      0.00694407     -2.88162e-05     0.000168357        -0.944581       -0.328278      -8.1865e-05    -2.58569e-05
                    -3.12229e-05     0.000167942        -0.805216      -0.0377911     -7.42253e-05     0.000111441        -0.338083       -0.399578
                       -0.944582       -0.328277     -5.69707e-05     0.000105314       -0.0750094       0.0452552     -2.75234e-05    -8.00411e-05
                    -9.56998e-05    -4.84576e-05        -0.338095       -0.399587     -1.11735e-05    -0.000104342        0.0160819        0.493266
522000                 0.0316056     -0.00213381     -2.52574e-05     0.000160815        -0.934748       -0.355311     -7.42476e-05     -2.4298e-05
                    -2.79535e-05      0.00016036        -0.794166      -0.0136624     -6.66822e-05     0.000105445        -0.345038       -0.410275
                       -0.934749        -0.35531     -4.80014e-05     9.87354e-05       -0.0749802       0.0380442     -2.43184e-05    -7.64245e-05
                    -8.85973e-05    -4.52589e-05         -0.34505       -0.410285     -7.71247e-06    -9.83907e-05       0.00431949        0.465252
525200                 0.0266049      -0.0114355     -2.14716e-05      0.00015268        -0.920645         -0.3904     -6.62234e-05    -2.27942e-05
                    -2.44841e-05     0.000152184        -0.780507       0.0122389     -5.88393e-05     9.91704e-05        -0.352845       -0.421834
                       -0.920646       -0.390398     -3.87061e-05     9.18525e-05       -0.0750867        0.030491       -2.097e-05    -7.25797e-05
                    -8.10557e-05    -4.20256e-05        -0.352857       -0.421844     -4.14199e-06    -9.20952e-05       -0.0081976        0.437341
528400                 0.0212648      -0.0209638     -1.74372e-05     0.000143878        -0.899568       -0.436782     -5.77627e-05     -2.1361e-05
                     -2.0797e-05     0.000143342        -0.763649       0.0399248     -5.06785e-05     9.25967e-05        -0.361657       -0.434353
                       -0.899569       -0.436779     -2.90671e-05     8.46437e-05       -0.0753491       0.0225749     -1.74695e-05    -6.84851e-05
                    -7.30379e-05    -3.87679e-05        -0.361668       -0.434363     -4.59651e-07    -8.54266e-05       -0.0214726        0.409562
531600                 0.0155613      -0.0307208     -1.31305e-05     0.000134326        -0.866503       -0.499172     -4.88335e-05    -2.00164e-05
                    -1.68728e-05      0.00013375        -0.742871       0.0693198     -4.21804e-05     8.57023e-05         -0.37166       -0.447942
                       -0.866505       -0.499168     -1.90656e-05     7.70863e-05       -0.0757902        0.014274     -1.38075e-05    -6.41168e-05
                    -6.45033e-05    -3.54991e-05        -0.371671       -0.447953      3.33651e-06    -7.83527e-05       -0.0355074        0.381944
534800                0.00946868      -0.0407081     -8.52445e-06     0.000123923        -0.811763       -0.583987     -3.94011e-05     -1.8782e-05
                    -1.26901e-05     0.000123309        -0.717303         0.10021     -3.33238e-05     7.84636e-05        -0.383087       -0.462729
                       -0.811767       -0.583981     -8.68135e-06     6.91551e-05       -0.0764363      0.00556512     -9.97388e-06    -5.94474e-05
                    -5.54071e-05    -3.22357e-05        -0.383099       -0.462739      7.24779e-06    -7.08375e-05       -0.0503025        0.354517
538000                0.00295928       -0.050926     -3.58924e-06     0.000112552         -0.71642       -0.697669     -2.94279e-05    -1.76829e-05
                    -8.22555e-06     0.000111902        -0.685922        0.132169      -2.4086e-05     7.08546e-05        -0.396233       -0.478854
                       -0.716428       -0.697661      2.10723e-06     6.08226e-05       -0.0773172     -0.00357602     -5.95802e-06    -5.44462e-05
                    -4.57003e-05    -2.89983e-05        -0.396244       -0.478864      1.12746e-05    -6.28411e-05       -0.0658567        0.327311
541200               -0.00399647      -0.0613739      1.70873e-06     0.000100074        -0.547152       -0.837033     -1.88732e-05    -1.67488e-05
                    -3.45334e-06       9.939e-05        -0.647561        0.164454     -1.44422e-05     6.28466e-05        -0.411468       -0.496472
                       -0.547167       -0.837024      1.33234e-05     5.20588e-05       -0.0784674      -0.0131748     -1.74868e-06    -4.90783e-05
                    -3.53288e-05    -2.58123e-05        -0.411479       -0.496482      1.54164e-05    -5.43188e-05       -0.0821678        0.300354
544400                -0.0114303      -0.0720498      7.40688e-06     8.63179e-05        -0.269805       -0.962915     -7.69303e-06    -1.60149e-05
                     1.65423e-06     8.56073e-05        -0.600961        0.195876     -4.36535e-06     5.44078e-05        -0.429271       -0.515749
                       -0.269828       -0.962909      2.49923e-05     4.28304e-05       -0.0799261      -0.0232576      2.66593e-06    -4.33039e-05
                    -2.42335e-05    -2.27094e-05        -0.429282       -0.515761      1.96707e-05    -4.52209e-05       -0.0992315        0.273679
547600                -0.0193761      -0.0829501      1.35468e-05     7.10814e-05        0.0813663       -0.996684      4.15972e-06    -1.55225e-05
                     7.12679e-06     7.03521e-05        -0.544896         0.22464       6.1738e-06     4.55031e-05        -0.450261       -0.536859
                       0.0813418       -0.996686      3.71406e-05      3.3101e-05       -0.0817382      -0.0338515      7.29808e-06    -3.70774e-05
                    -1.23492e-05    -1.97286e-05        -0.450271       -0.536871      2.40336e-05    -3.54912e-05        -0.117042        0.247315
550800                -0.0278703      -0.0940695      2.01742e-05     5.41143e-05         0.386012       -0.922494      1.67357e-05    -1.53207e-05
                     1.29952e-05     5.33788e-05        -0.478406        0.248194      1.72072e-05     3.60936e-05        -0.475248       -0.559962
                        0.385994       -0.922501      4.97973e-05     2.28302e-05       -0.0839553       -0.044984      1.21604e-05    -3.03465e-05
                     3.94798e-07    -1.69177e-05        -0.475258       -0.559974      2.84983e-05    -2.50668e-05        -0.135593        0.221292
554000                -0.0369516         -0.1054      2.73389e-05     3.51086e-05          0.58249       -0.812838      3.00891e-05    -1.54673e-05
                     1.92903e-05     3.43848e-05        -0.401182        0.263142      2.87699e-05     2.61358e-05        -0.505308       -0.585177
                        0.582479       -0.812846      6.29936e-05     1.19733e-05       -0.0866365      -0.0566827      1.72657e-05    -2.30512e-05
                     1.40759e-05    -1.43359e-05        -0.505318        -0.58519      3.30549e-05    -1.38768e-05        -0.154875        0.195641
557200                -0.0466613       -0.116933      3.50934e-05     1.36796e-05         0.693953        -0.72002      4.42771e-05    -1.60307e-05
                     2.60407e-05     1.29934e-05        -0.314098        0.265347         4.09e-05     1.55815e-05        -0.541881       -0.612523
                        0.693947       -0.720026      7.67631e-05     4.80722e-07       -0.0898495      -0.0689744      2.26264e-05    -1.51216e-05
                     2.87777e-05    -1.20553e-05        -0.541891       -0.612537       3.7689e-05    -1.84116e-06        -0.174878         0.17039
560400                -0.0570434       -0.128653      4.34911e-05     -1.0659e-05         0.754728       -0.656038        5.936e-05    -1.70919e-05
                     3.32686e-05    -1.12699e-05        -0.219812         0.25038      5.36394e-05     4.37636e-06         -0.58691       -0.641803
                        0.754725       -0.656042      9.11418e-05    -1.17025e-05        -0.093672      -0.0818847      2.82547e-05    -6.47695e-06
                     4.45901e-05    -1.01648e-05        -0.586919       -0.641819      4.23811e-05     1.11307e-05         -0.19559        0.145571
563600                -0.0681446       -0.140546      5.25811e-05    -3.85303e-05         0.785889       -0.618368      7.54003e-05    -1.87468e-05
                     4.09826e-05    -3.90108e-05        -0.123183        0.214426      6.70341e-05    -7.54041e-06        -0.643024        -0.67239
                        0.785887        -0.61837      0.000106169    -2.46379e-05       -0.0981926      -0.0954366       3.4161e-05      2.9773e-06
                     6.16088e-05    -8.77299e-06        -0.643032       -0.672407      4.71043e-05     2.51413e-05        -0.216997        0.121212
564000                -0.0695852       -0.142043       5.3768e-05    -4.23005e-05         0.766475       -0.598243      7.74759e-05    -1.90008e-05
                     4.19806e-05    -4.27597e-05        -0.111267         0.20833       6.8757e-05    -9.08336e-06        -0.650982       -0.676245
                        0.766486       -0.598255      0.000108095    -2.63111e-05       -0.0988117      -0.0971767      3.49192e-05     4.22132e-06
                     6.38259e-05    -8.64039e-06         -0.65099       -0.676263      4.76953e-05     2.69713e-05        -0.219721          0.1182
566800                -0.0800141        -0.15259      6.23994e-05    -7.07446e-05          0.63433       -0.479065       9.2462e-05    -2.11086e-05
                     4.91647e-05    -7.10134e-05       -0.0311281        0.155567      8.11347e-05    -2.02373e-05        -0.712549       -0.701622
                         0.63434       -0.479073      0.000121887    -3.83942e-05        -0.103513       -0.109649      4.03535e-05     1.33518e-05
                      7.9934e-05    -8.01256e-06        -0.712543       -0.701629      5.18228e-05      4.0307e-05        -0.239084       0.0973406
570000                -0.0927042       -0.164761      7.29514e-05    -0.000108373         0.506253       -0.385512      0.000110609    -2.43117e-05
                     5.77473e-05    -0.000108309        0.0484161        0.075015      9.59969e-05    -3.37917e-05        -0.740254       -0.672327
                        0.506261       -0.385517      0.000138341    -5.30482e-05        -0.109749       -0.124535      4.68366e-05      2.4777e-05
