! TOUCHSTONE file generated by CST MICROWAVE STUDIO
! Date and time: Mon Oct 20 08:27:25 2025
! Project name: Teste_Macro_Metasurface_Nanopilar.cst
! Parameters = {H=600; L_x=100; L_y=200; Lambda=1064; Max_L=200; Min_L=70; PathPara=1; Phi=0; Step_L=10; Theta=0; p=520; phaseX=180; phaseY=0}
! Header version: 2018
! Port assignment regex: !\s*Touchstone port\s*([0-9]+)\s*=\s*(CST MWS port|CST DS port)\s*([0-9]+|Zmin|Zmax)\s*\(\"(.*)\"\)(\s*mode\s*([0-9]+))?.*
! Touchstone port assignment:
! Touchstone port 1 = CST MWS port Zmax ("") mode 1
! Touchstone port 2 = CST MWS port Zmax ("") mode 2
! Touchstone port 3 = CST MWS port Zmin ("") mode 1
! Touchstone port 4 = CST MWS port Zmin ("") mode 2
! S-Parameters are not renormalized. Each port impedance will be approximated by the real part at minimum frequency. The values are described via the [Reference] keyword.
! Default impedance is overridden by [Reference]
[Version] 2.0
# GHz S RI R 376.73
[Number of Ports] 4
[Reference]
376.73 376.73 259.888 259.888 
[Number of Frequencies] 52
[Network Data]
474000                 0.0987625        0.202483     -1.15295e-05     1.28663e-05        -0.942406       -0.182018     -6.58764e-05     8.59395e-06
                     -1.6144e-05     1.49535e-05         0.862679        0.314879     -3.52571e-06     7.26489e-06       -0.0554951       -0.284804
                       -0.942387        -0.18201     -8.94693e-06      1.0501e-05        -0.148898        0.146694     -7.18777e-05     2.93372e-05
                    -7.41147e-05     2.24445e-05       -0.0555338       -0.284811     -7.18627e-05     2.93734e-05         0.812678       -0.392028
477200                 0.0917543        0.199229     -3.44511e-05      1.1374e-05        -0.929429      -0.0987922     -7.10844e-05     3.51386e-06
                    -3.93358e-05     1.33936e-05         0.865869        0.308754     -2.45198e-06     7.84502e-06       -0.0516003       -0.288823
                       -0.929403      -0.0987978     -7.96524e-06     1.11906e-05          -0.1427          0.1417     -7.07979e-05     3.47455e-05
                    -7.95023e-05      1.7262e-05        -0.051639       -0.288829     -7.09317e-05     3.48634e-05          0.78574       -0.331844
480400                  0.084248        0.195879     -5.98742e-05     9.23177e-06        -0.901294      -0.0202679     -7.65495e-05    -1.94046e-06
                    -6.50634e-05     1.11618e-05         0.869151        0.302154     -1.29221e-06     8.46345e-06       -0.0474929       -0.293081
                       -0.901268      -0.0202887     -6.90355e-06     1.19281e-05         -0.13606        0.136448     -6.98601e-05     4.06374e-05
                    -8.51553e-05     1.16926e-05       -0.0475315       -0.293087     -7.01658e-05     4.08327e-05         0.758467       -0.275325
483600                 0.0761922        0.192437     -8.82134e-05     6.23693e-06        -0.860262       0.0497725      -8.2289e-05     -7.8094e-06
                    -9.37474e-05     8.04835e-06         0.872517        0.295026     -3.56841e-08     9.12394e-06        -0.043155       -0.297602
                        -0.86024       0.0497379     -5.75175e-06     1.27186e-05        -0.128933        0.130919     -6.91157e-05     4.70632e-05
                    -9.10908e-05     5.69401e-06       -0.0431935       -0.297608     -6.96195e-05     4.73287e-05         0.731025       -0.222222
486800                 0.0675285        0.188908     -0.000119975     2.11449e-06        -0.809625        0.108756     -8.83209e-05    -1.41391e-05
                    -0.000125902     3.76885e-06         0.875959        0.287313      1.33012e-06     9.83075e-06       -0.0385667        -0.30241
                        -0.80961        0.108711     -4.49795e-06     1.35679e-05        -0.121263        0.125093     -6.86294e-05     5.40771e-05
                    -9.73273e-05    -7.81781e-07       -0.0386052       -0.302416      -6.9361e-05     5.44012e-05         0.703555         -0.1723
490000                 0.0581908        0.185301     -0.000155783     -3.5135e-06        -0.753042        0.155523     -9.46646e-05    -2.09823e-05
                    -0.000162157    -2.06793e-06         0.879464        0.278945      2.81996e-06     1.05887e-05        -0.033706       -0.307533
                       -0.753037        0.155471     -3.12811e-06     1.44826e-05        -0.112989        0.118948     -6.84838e-05     6.17358e-05
                    -0.000103884       -7.79e-06       -0.0337443       -0.307539     -6.94762e-05     6.21009e-05          0.67617        -0.12534
493200                 0.0481035        0.181629     -0.000196406    -1.11741e-05        -0.693944        0.190187      -0.00010134       -2.84e-05
                    -0.000203295    -1.00077e-05         0.883012        0.269847      4.45139e-06     1.14031e-05       -0.0285478       -0.313004
                        -0.69395        0.190132     -1.62549e-06     1.54703e-05        -0.104039        0.112461     -6.87829e-05     7.00962e-05
                    -0.000110782    -1.53941e-05       -0.0285861        -0.31301     -7.00725e-05     7.04769e-05         0.648967       -0.081136
496400                 0.0371805         0.17791     -0.000242805    -2.16142e-05        -0.635144        0.213782     -0.000108369    -3.64621e-05
                    -0.000250285    -2.08239e-05         0.886577        0.259929      6.24537e-06     1.22803e-05       -0.0230643       -0.318859
                        -0.63516        0.213727      2.99864e-08     1.65398e-05       -0.0943303        0.105607     -6.96575e-05     7.92121e-05
                    -0.000118041    -2.36676e-05       -0.0231025       -0.318864     -7.12832e-05     7.95732e-05         0.622022      -0.0394977
499600                 0.0253233        0.174169     -0.000296178     -3.5911e-05        -0.578686        0.227862     -0.000115773    -4.52502e-05
                    -0.000304339    -3.56326e-05         0.890123         0.24909      8.22717e-06     1.32271e-05       -0.0172239       -0.325139
                       -0.578711        0.227809       1.8626e-06     1.77013e-05       -0.0837664       0.0983591     -7.12708e-05     8.91289e-05
                    -0.000125682    -3.26954e-05       -0.0172619       -0.325144     -7.32727e-05      8.9422e-05         0.595399    -0.000247899
502800                 0.0124189         0.17044     -0.000358019    -5.56483e-05        -0.525879         0.23416     -0.000123574    -5.48588e-05
                    -0.000366959    -5.60749e-05         0.893599        0.237216      1.04275e-05     1.42514e-05       -0.0109909       -0.331892
                        -0.52591        0.234112      3.90201e-06     1.89665e-05       -0.0722339       0.0906903     -7.38251e-05     9.98747e-05
                    -0.000133728    -4.25767e-05       -0.0110287       -0.331898     -7.62415e-05     0.000100035         0.569147       0.0367777
506000                -0.0016627        0.166769     -0.000430172    -8.32039e-05         -0.47742        0.234355     -0.000131793    -6.53988e-05
                    -0.000439996    -8.46144e-05          0.89694        0.224173      1.28842e-05      1.5362e-05      -0.00432452       -0.339174
                       -0.477456        0.234312       6.1848e-06     2.03493e-05       -0.0595998       0.0825718     -7.75666e-05     0.000111448
                    -0.000142197    -5.34274e-05      -0.00436213       -0.339179     -8.04303e-05     0.000111392         0.543306       0.0717315
509200                -0.0170707        0.163219     -0.000514855    -0.000122226        -0.433556        0.229936      -0.00014045    -7.70003e-05
                    -0.000525649     -0.00012503         0.900056        0.209811       1.5644e-05     1.65688e-05       0.00282147       -0.347049
                       -0.433596        0.229899      8.75659e-06     2.18657e-05       -0.0457067       0.0739751       -8.279e-05     0.000123799
                    -0.000151108    -6.53835e-05       0.00278409       -0.347054     -8.61212e-05      0.00012342         0.517907        0.104755
512400                -0.0339771        0.159872     -0.000614541    -0.000178438        -0.394232        0.222154     -0.000149562    -8.98166e-05
                    -0.000626333    -0.000183241         0.902827        0.193958      1.87657e-05     1.78827e-05        0.0105003       -0.355592
                       -0.394274        0.222122       1.1675e-05     2.35344e-05        -0.030367       0.0648726     -8.98372e-05     0.000136807
                    -0.000160474    -7.86055e-05        0.0104632       -0.355596     -9.36343e-05     0.000135973         0.492974        0.135977
515600                -0.0525794        0.156842     -0.000731469     -0.00026098        -0.359204        0.212015      -0.00015914     -0.00010403
                    -0.000744111    -0.000268684         0.905094        0.176422       2.2324e-05     1.93152e-05         0.018773        -0.36489
                       -0.359247        0.211989      1.50137e-05     2.53772e-05       -0.0133562       0.0552401     -9.90876e-05     0.000150245
                    -0.000170302    -9.32836e-05        0.0187363       -0.364894     -0.000103314     0.000148803         0.468523        0.165521
518800                -0.0731043        0.154276     -0.000866084    -0.000384597        -0.328132        0.200307     -0.000169186    -0.000119856
                    -0.000878998    -0.000396507         0.906642        0.156987      2.64154e-05     2.08783e-05        0.0277107       -0.375048
                       -0.328174        0.200285      1.88684e-05     2.74193e-05       0.00559671       0.0450593     -0.000110934      0.00016375
                    -0.000180588    -0.000109644        0.0276743       -0.375052     -0.000115504      0.00016153         0.444567        0.193496
522000                -0.0958108        0.152376      -0.00101274    -0.000572695        -0.300632        0.187629      -0.00017969    -0.000137554
                     -0.00102436    -0.000590531          0.90719         0.13542      3.11659e-05      2.2583e-05        0.0373954        -0.38619
                       -0.300673        0.187612      2.33657e-05     2.96892e-05        0.0268205       0.0343232     -0.000125735     0.000176781
                    -0.000191312    -0.000127956        0.0373595       -0.386194     -0.000130496     0.000173613         0.421113        0.220007
525200                 -0.120992        0.151409      -0.00114889    -0.000859411        -0.276317        0.174431     -0.000190619    -0.000157434
                     -0.00115561    -0.000884765         0.906361        0.111472      3.67441e-05      2.4437e-05        0.0479236       -0.398465
                       -0.276358        0.174417      2.86758e-05     3.22182e-05        0.0507171       0.0230425     -0.000143742     0.000188599
                    -0.000202429    -0.000148544        0.0478882       -0.398469     -0.000148464      0.00018434         0.398165        0.245149
528400                 -0.148976        0.151733      -0.00121259     -0.00128086         -0.25482        0.161039     -0.000201909    -0.000179872
                     -0.00120766     -0.00131285         0.903656       0.0848962      4.33788e-05     2.64396e-05        0.0594083       -0.412052
                       -0.254859        0.161029       3.5033e-05     3.50382e-05        0.0777817       0.0112584     -0.000164997     0.000198277
                    -0.000213856    -0.000171796        0.0593735       -0.412056     -0.000169372     0.000192849         0.375723        0.269012
531600                 -0.180119        0.153831      -0.00107842     -0.00182675        -0.235799        0.147692     -0.000213447    -0.000205317
                     -0.00105417     -0.00185667         0.898422       0.0554713      5.13884e-05     2.85719e-05        0.0719834       -0.427173
                       -0.235836        0.147684      4.27678e-05     3.81758e-05         0.108628    -0.000940274     -0.000189221     0.000204761
                    -0.000225458     -0.00019818        0.0719494       -0.427177     -0.000192881     0.000198197         0.353787        0.291676
534800                 -0.214797        0.158346     -0.000612879     -0.00233783        -0.218949        0.134555      -0.00022505    -0.000234317
                    -0.000572699     -0.00234813         0.889807       0.0230458      6.12266e-05     3.07762e-05        0.0858081       -0.444099
                       -0.218984        0.134549      5.23586e-05     4.16377e-05         0.144021      -0.0133883     -0.000215714     0.000207013
                    -0.000237015    -0.000228257        0.0857751       -0.444102     -0.000218286     0.000199488         0.332351        0.313217
538000                 -0.253375        0.166139      0.000106651     -0.00252922        -0.203997        0.121742     -0.000236427    -0.000267531
                     0.000141325     -0.00251312         0.876724      -0.0123883      7.35576e-05     3.29117e-05         0.101073       -0.463169
                        -0.20403        0.121738      6.45208e-05     4.53766e-05         0.184923      -0.0257985      -0.00024334     0.000204208
                    -0.000248189    -0.000262701         0.101041       -0.463172     -0.000244512     0.000196052         0.311412        0.333707
541200                  -0.29616        0.178356      0.000756904     -0.00232207        -0.190705        0.109328     -0.000247126    -0.000305748
                     0.000771387     -0.00229537         0.857815      -0.0505809       8.9382e-05     3.46578e-05         0.118009       -0.484813
                       -0.190736        0.109326      8.03605e-05      4.9207e-05         0.232544      -0.0376895     -0.000270622     0.000195954
                    -0.000258462    -0.000302311         0.117978       -0.484815     -0.000270217      0.00018762         0.290961        0.353209
544400                 -0.343302        0.196505       0.00114118     -0.00192809        -0.178863       0.0973593     -0.000256459    -0.000349907
                       0.0011403     -0.00190592         0.831464      -0.0908559      0.000110248     3.52884e-05         0.136894       -0.509579
                       -0.178892       0.0973589       0.00010165      5.2593e-05         0.288408      -0.0482677     -0.000295963      0.00018245
                    -0.000267056    -0.000348022         0.136865       -0.509581     -0.000293996     0.000174435         0.270991        0.371786
547600                 -0.394649        0.222529       0.00129963     -0.00154345        -0.168291        0.085861     -0.000263383    -0.000401095
                      0.00129243     -0.00152932         0.795876       -0.131885      0.000138588     3.31137e-05         0.158069       -0.538183
                       -0.168319       0.0858616      0.000131312     5.40769e-05         0.354426      -0.0562359     -0.000317941     0.000164495
                    -0.000272808    -0.000400892         0.158043       -0.538185     -0.000314616     0.000157248         0.251494        0.389492
550800                  -0.44949         0.25886       0.00133196     -0.00123537        -0.158831       0.0748431     -0.000266337    -0.000460514
                      0.00132356      -0.0012275         0.749308       -0.171432      0.000178118     2.40206e-05         0.181953       -0.571573
                       -0.158857       0.0748446      0.000174162     4.96444e-05         0.432947      -0.0594789     -0.000335563     0.000143335
                    -0.000274001    -0.000462049          0.18193       -0.571575     -0.000331226     0.000137179         0.232459        0.406381
554000                 -0.506187        0.308363       0.00130655     -0.00100365        -0.150348       0.0643054     -0.000263008    -0.000529386
                       0.0012989    -0.000999768         0.690515       -0.206144      0.000233345    -2.45586e-06         0.209062       -0.611029
                       -0.150372       0.0643076      0.000237024     2.78349e-05         0.526739       -0.054553     -0.000348396     0.000120411
                    -0.000268134    -0.000532556         0.209042       -0.611031     -0.000343455     0.000115502         0.213877          0.4225
557200                 -0.561689        0.374083       0.00125859    -0.000831248        -0.142723       0.0542397     -0.000250027    -0.000608702
                      0.00125219    -0.000829721         0.619434       -0.231573      0.000301959    -7.21858e-05         0.240029       -0.658322
                       -0.142745       0.0542425      0.000320275    -4.31639e-05         0.638746      -0.0358746     -0.000356538       9.709e-05
                    -0.000251643    -0.000613113         0.240013       -0.658324     -0.000351387     9.34287e-05         0.195738        0.437894
560400                 -0.611015        0.458604       0.00120433    -0.000701775        -0.135854       0.0446333     -0.000222637    -0.000698725
                      0.00119913    -0.000701585         0.537998       -0.242665      0.000335733    -0.000225777         0.275627       -0.715963
                       -0.135874       0.0446365       0.00036399    -0.000217312          0.77129       0.0054847     -0.000360487     7.44829e-05
                    -0.000219633     -0.00070349         0.275618       -0.715965     -0.000355449     7.19507e-05         0.178031        0.452606
563600                 -0.646998        0.562869        0.0011508    -0.000602902        -0.129652       0.0354699     -0.000174471    -0.000798067
                      0.00114663    -0.000603451         0.450689       -0.234879      0.000212998    -0.000400666         0.316773       -0.787624
                       -0.129671       0.0354734      0.000218924    -0.000403991         0.923999       0.0832867     -0.000360955     5.33628e-05
                    -0.000165816    -0.000801548         0.316772       -0.787627     -0.000356261     5.17751e-05         0.160745        0.466675
564000                 -0.650127        0.577221       0.00114432    -0.000592232         -0.12892       0.0343547     -0.000166614    -0.000810962
                      0.00114027    -0.000592844         0.439683       -0.232423      0.000186748    -0.000412256         0.322356       -0.797816
                       -0.128939       0.0343582      0.000190109    -0.000413747         0.944252        0.096486     -0.000360808     5.08528e-05
                      -0.0001572     -0.00081412         0.322357        -0.79782     -0.000356168     4.93688e-05         0.158614         0.46839
566800                 -0.660821         0.68452       0.00110079    -0.000525991        -0.124042       0.0267311     -9.78248e-05    -0.000902204
                      0.00109745    -0.000526926         0.364303       -0.205756      1.29056e-05      -0.0004066         0.364468       -0.878867
                       -0.124059       0.0267348      1.54007e-05    -0.000393391         0.980733        0.195354     -0.000358717     3.41772e-05
                    -8.30462e-05    -0.000901809          0.36448       -0.878873     -0.000354507     3.33273e-05          0.14387        0.480136
570000                 -0.619299        0.785156        0.0010552    -0.000465072        -0.118955       0.0183977       1.4869e-05     -0.00100159
                      0.00105252    -0.000466188         0.286576       -0.156221     -8.94703e-05     -0.00031732         0.387393       -0.921915
                       -0.118971       0.0184015     -7.74276e-05    -0.000303479         0.945458        0.325745     -0.000354499     1.71095e-05
