! TOUCHSTONE file generated by CST MICROWAVE STUDIO
! Date and time: Mon Oct 20 08:27:28 2025
! Project name: Teste_Macro_Metasurface_Nanopilar.cst
! Parameters = {H=600; L_x=115; L_y=175; Lambda=1064; Max_L=200; Min_L=70; PathPara=1; Phi=0; Step_L=10; Theta=0; p=520; phaseX=180; phaseY=0}
! Header version: 2018
! Port assignment regex: !\s*Touchstone port\s*([0-9]+)\s*=\s*(CST MWS port|CST DS port)\s*([0-9]+|Zmin|Zmax)\s*\(\"(.*)\"\)(\s*mode\s*([0-9]+))?.*
! Touchstone port assignment:
! Touchstone port 1 = CST MWS port Zmax ("") mode 1
! Touchstone port 2 = CST MWS port Zmax ("") mode 2
! Touchstone port 3 = CST MWS port Zmin ("") mode 1
! Touchstone port 4 = CST MWS port Zmin ("") mode 2
! S-Parameters are not renormalized. Each port impedance will be approximated by the real part at minimum frequency. The values are described via the [Reference] keyword.
! Default impedance is overridden by [Reference]
[Version] 2.0
# GHz S RI R 376.73
[Number of Ports] 4
[Reference]
376.73 376.73 259.888 259.888 
[Number of Frequencies] 52
[Network Data]
474000                  0.211306        0.759586        -1.66e-06     3.42337e-05        -0.155942       -0.435896       3.5775e-05    -3.13748e-05
                    -1.30868e-06     3.41276e-05         0.346722       -0.249662      6.51034e-05    -9.96302e-06        -0.776174       -0.380851
                       -0.155942       -0.435896      6.52479e-05    -9.96596e-06        -0.281299       -0.803842      1.51454e-05     -3.3518e-05
                     3.59161e-05    -3.12998e-05        -0.776174       -0.380851      1.50462e-05    -3.35364e-05        0.0566932       -0.412231
477200                  0.221227        0.769071      9.56627e-08     3.53866e-05        -0.150001       -0.428625       3.5853e-05    -3.29223e-05
                     4.45186e-07     3.52831e-05          0.34141       -0.252267      6.68057e-05     -1.2565e-05        -0.772623       -0.390553
                       -0.150001       -0.428625      6.69499e-05    -1.25694e-05        -0.276716       -0.827235      1.36081e-05    -3.13856e-05
                     3.59913e-05    -3.28431e-05        -0.772623       -0.390553      1.35091e-05    -3.14066e-05        0.0537559       -0.407179
480400                  0.232167        0.778858      1.93565e-06     3.66225e-05        -0.143933       -0.420835      3.59658e-05    -3.45464e-05
                     2.28316e-06     3.65217e-05         0.335952       -0.255167      6.85932e-05    -1.53315e-05        -0.768718       -0.400545
                       -0.143933       -0.420835      6.87373e-05    -1.53376e-05        -0.271417       -0.853051      1.19366e-05    -2.91451e-05
                     3.61011e-05    -3.44628e-05        -0.768718       -0.400545       1.1838e-05    -2.91689e-05        0.0506988       -0.401704
483600                  0.244249        0.788921      3.86569e-06       3.795e-05        -0.137749       -0.412483      3.61185e-05    -3.62519e-05
                     4.21095e-06      3.7852e-05         0.330357       -0.258391      7.04723e-05    -1.82785e-05        -0.764431       -0.410833
                       -0.137749       -0.412483      7.06162e-05    -1.82863e-05        -0.265244       -0.881686      1.01148e-05    -2.67898e-05
                     3.62504e-05    -3.61638e-05        -0.764431       -0.410833      1.00167e-05    -2.68165e-05        0.0475212       -0.395755
486800                  0.257615         0.79922      5.89197e-06     3.93788e-05        -0.131461       -0.403517       3.6317e-05     -3.8044e-05
                     6.23471e-06     3.92836e-05         0.324633       -0.261968      7.24498e-05    -2.14239e-05        -0.759727       -0.421418
                       -0.131461       -0.403517      7.25933e-05    -2.14336e-05        -0.257989        -0.91362      8.12409e-06    -2.43126e-05
                     3.64453e-05    -3.79513e-05        -0.759727       -0.421418      8.02669e-06    -2.43424e-05        0.0442242       -0.389273
490000                  0.272424        0.809698      8.02117e-06     4.09198e-05        -0.125087       -0.393883      3.65681e-05     -3.9928e-05
                     8.36108e-06     4.08276e-05         0.318791       -0.265929       7.4533e-05    -2.47883e-05        -0.754571       -0.432304
                       -0.125087       -0.393883      7.46763e-05    -2.47999e-05         -0.24938        -0.94945      5.94317e-06    -2.17062e-05
                     3.66923e-05    -3.98307e-05        -0.754571       -0.432304      5.84663e-06    -2.17393e-05         0.040812       -0.382188
493200                  0.288852        0.820271      1.02605e-05     4.25857e-05        -0.118652       -0.383522      3.68795e-05    -4.19096e-05
                     1.05972e-05     4.24965e-05         0.312848       -0.270307      7.67302e-05    -2.83948e-05        -0.748924       -0.443491
                       -0.118652       -0.383522       7.6873e-05    -2.84086e-05        -0.234739       -0.972058      3.54722e-06    -1.89632e-05
                     3.69992e-05    -4.18075e-05        -0.748924       -0.443491      3.45175e-06    -1.89998e-05        0.0372933       -0.374421
496400                  0.307096        0.830829      1.26177e-05     4.43907e-05        -0.112184       -0.372369        3.726e-05    -4.39946e-05
                     1.29508e-05     4.43047e-05         0.306823       -0.275137      7.90501e-05    -3.22702e-05        -0.742744       -0.454976
                       -0.112183       -0.372369      7.91925e-05    -3.22862e-05        -0.213598       -0.976922      9.07424e-07    -1.60764e-05
                     3.73749e-05    -4.38877e-05        -0.742744       -0.454976      8.13292e-07    -1.61168e-05        0.0336824       -0.365877
499600                  0.327369        0.841218       1.5101e-05     4.63514e-05         -0.10572       -0.360353        3.772e-05    -4.61892e-05
                     1.54301e-05     4.62686e-05         0.300742       -0.280456      8.15025e-05    -3.64451e-05        -0.735985       -0.466755
                        -0.10572       -0.360354      8.16443e-05    -3.64636e-05        -0.190304       -0.981725      -2.0098e-06     -1.3039e-05
                     3.78295e-05    -4.60775e-05        -0.735985       -0.466755     -2.10229e-06    -1.30834e-05        0.0300021       -0.356445
502800                  0.349904        0.851236      1.77193e-05     4.84867e-05       -0.0993084         -0.3474      3.82713e-05    -4.84995e-05
                     1.80439e-05     4.84072e-05         0.294634         -0.2863      8.40978e-05    -4.09549e-05        -0.728598       -0.478822
                      -0.0993083       -0.347401      8.42389e-05     -4.0976e-05        -0.164454       -0.986385     -5.24372e-06    -9.84496e-06
                     3.83749e-05     -4.8383e-05        -0.728598       -0.478822     -5.33419e-06    -9.89362e-06        0.0262868       -0.345997
506000                  0.374943        0.860618      2.04821e-05     5.08187e-05       -0.0930065       -0.333428      3.89274e-05    -5.09317e-05
                     2.08016e-05     5.07426e-05         0.288536       -0.292707      8.68475e-05    -4.58407e-05        -0.720531       -0.491164
                      -0.0930064       -0.333428      8.69878e-05    -4.58647e-05        -0.135524       -0.990774     -8.84039e-06    -6.48985e-06
                     3.90246e-05    -5.08104e-05        -0.720531       -0.491164     -8.92841e-06      -6.543e-06        0.0225872        -0.33438
509200                  0.402734        0.869018      2.33993e-05     5.33729e-05       -0.0868865       -0.318351      3.97042e-05    -5.34918e-05
                     2.37129e-05     5.33001e-05         0.282493       -0.299714      8.97639e-05    -5.11506e-05        -0.711728       -0.503766
                      -0.0868863       -0.318351      8.99033e-05    -5.11777e-05        -0.102809       -0.994701      -1.2854e-05    -2.97144e-06
                     3.97942e-05    -5.33659e-05        -0.711728       -0.503766      -1.2939e-05    -3.02931e-06        0.0189769       -0.321413
512400                   0.43351        0.875997      2.64812e-05      5.6179e-05       -0.0810363       -0.302077      4.06196e-05    -5.61857e-05
                     2.67882e-05     5.61095e-05         0.276556       -0.307357      9.28601e-05    -5.69408e-05        -0.702128       -0.516609
                      -0.0810362       -0.302078      9.29985e-05    -5.69713e-05         -0.06534       -0.997863     -1.73483e-05     7.08921e-07
                     4.07019e-05    -5.60552e-05        -0.702128       -0.516609     -1.74297e-05     6.46084e-07        0.0155617       -0.306885
515600                  0.467474        0.881001      2.97385e-05     5.92719e-05       -0.0755638       -0.284513      4.16946e-05    -5.90184e-05
                      3.0038e-05     5.92056e-05         0.270786       -0.315669      9.61504e-05    -6.32779e-05        -0.691668       -0.529665
                      -0.0755636       -0.284513      9.62874e-05    -6.33121e-05         -0.02173       -0.999764     -2.23986e-05      4.5445e-06
                     4.17684e-05    -5.88836e-05        -0.691668       -0.529665     -2.24757e-05      4.4765e-06        0.0124924       -0.290544
518800                  0.496132        0.868247      3.31817e-05     6.26925e-05       -0.0705993       -0.265563      4.29533e-05    -6.19939e-05
                     3.34727e-05     6.26291e-05         0.265252       -0.324679      9.96494e-05     -7.0241e-05         -0.68028       -0.542902
                      -0.0705991       -0.265563      9.97847e-05    -7.02792e-05        0.0300758       -0.999548     -2.80939e-05     8.52069e-06
                     4.30178e-05    -6.18551e-05         -0.68028       -0.542902     -2.81658e-05      8.4474e-06       0.00998404       -0.272101
522000                   0.52584        0.850584      3.68211e-05     6.64891e-05       -0.0663002       -0.245132       4.4423e-05     -6.5115e-05
                     3.71024e-05     6.64284e-05         0.260033       -0.334409      0.000103372    -7.79247e-05        -0.667895       -0.556278
                         -0.0663       -0.245132      0.000103505    -7.79673e-05        0.0932637       -0.995641     -3.45392e-05     1.26115e-05
                     4.44775e-05    -6.49726e-05        -0.667895       -0.556278     -3.46048e-05     1.25328e-05       0.00834157       -0.251218
525200                  0.557843        0.829947      4.06658e-05      7.0719e-05       -0.0628548       -0.223132      4.61356e-05    -6.83819e-05
                     4.09361e-05     7.06606e-05         0.255217       -0.344874      0.000107333    -8.64432e-05        -0.654438       -0.569742
                      -0.0628546       -0.223132      0.000107464    -8.64906e-05         0.173011        -0.98492      -4.1858e-05     1.67743e-05
                     4.61791e-05    -6.82366e-05        -0.654438       -0.569742      -4.1916e-05     1.66903e-05       0.00799769       -0.227517
528400                  0.592049        0.805902      4.47231e-05     7.54504e-05       -0.0604866       -0.199482      4.81268e-05    -7.17922e-05
                     4.49808e-05     7.53936e-05         0.250903       -0.356079      0.000111546    -9.59351e-05        -0.639834       -0.583233
                      -0.0604865       -0.199482      0.000111674     -9.5988e-05         0.278097       -0.960553     -5.01949e-05      2.0943e-05
                     4.81586e-05    -7.16447e-05        -0.639834       -0.583233     -5.02438e-05      2.0854e-05       0.00956449       -0.200588
531600                  0.628241        0.778019      4.89969e-05     8.07646e-05       -0.0594589       -0.174123      5.04377e-05    -7.53392e-05
                     4.92403e-05     8.07084e-05         0.247194       -0.368014       0.00011602    -0.000106571        -0.624006       -0.596678
                      -0.0594587       -0.174123      0.000116145    -0.000106629         0.423483       -0.905904     -5.97172e-05     2.50179e-05
                     5.04569e-05    -7.51903e-05        -0.624006       -0.596678     -5.97554e-05     2.49246e-05        0.0139039       -0.170021
534800                  0.666051        0.745906      5.34857e-05     8.67592e-05       -0.0600775       -0.147021       5.3114e-05    -7.90104e-05
                     5.37126e-05     8.67024e-05         0.244205       -0.380655      0.000120761     -0.00011856        -0.606877       -0.609992
                      -0.0600773       -0.147021      0.000120882    -0.000118626         0.630005       -0.776591     -7.06156e-05     2.88524e-05
                     5.31197e-05    -7.88613e-05        -0.606877       -0.609992     -7.06411e-05     2.87556e-05        0.0222182       -0.135477
538000                  0.704934        0.709273      5.81794e-05     9.35516e-05       -0.0626935       -0.118183       5.6207e-05    -8.27864e-05
                     5.83876e-05     9.34923e-05          0.24205       -0.393958      0.000125763    -0.000132167        -0.588372       -0.623072
                      -0.0626934       -0.118183      0.000125878    -0.000132239         0.885113       -0.465377     -8.31009e-05     3.22337e-05
                     5.61985e-05    -8.26383e-05        -0.588372       -0.623072     -8.31116e-05     3.21352e-05         0.036156      -0.0968184
541200                  0.744165        0.667996       6.3055e-05     0.000101283       -0.0677027      -0.0876693      5.97726e-05    -8.66378e-05
                      6.3242e-05     0.000101219         0.240846        -0.40786      0.000131001    -0.000147722        -0.568419       -0.635802
                      -0.0677026      -0.0876691       0.00013111    -0.000147802         0.995844       0.0910777     -9.73948e-05     3.48596e-05
                     5.97493e-05    -8.64925e-05        -0.568419       -0.635802     -9.73885e-05     3.47616e-05        0.0579058      -0.0543541
544400                   0.78286        0.622197      6.80696e-05     0.000110123       -0.0755414      -0.0556154      6.38712e-05    -9.05234e-05
                     6.82325e-05     0.000110051         0.240709       -0.422273      0.000136422    -0.000165649        -0.546951       -0.648046
                      -0.0755413      -0.0556152      0.000136523    -0.000165739         0.820265        0.571983      -0.00011371     3.63068e-05
                     6.38326e-05    -9.03828e-05        -0.546951       -0.648046     -0.000113684     3.62129e-05        0.0902084     -0.00923501
547600                  0.820037         0.57231      7.31508e-05     0.000120277       -0.0866766      -0.0222485      6.85655e-05    -9.43866e-05
                     7.32866e-05     0.000120192         0.241743        -0.43709      0.000141921    -0.000186494        -0.523911       -0.659651
                      -0.0866765      -0.0222484      0.000142011    -0.000186594         0.588311        0.808635      -0.00013221     3.59978e-05
                     6.85116e-05    -9.42529e-05        -0.523911       -0.659651     -0.000132164     3.59128e-05         0.136137       0.0359659
550800                  0.854707         0.51911      7.81818e-05     0.000131989        -0.101589       0.0120892      7.39186e-05    -9.81525e-05
                     7.82876e-05     0.000131885         0.244041       -0.452177      0.000147305     -0.00021097        -0.499256       -0.670445
                       -0.101589       0.0120894      0.000147381    -0.000211081         0.405228        0.914216     -0.000152946     3.31683e-05
                     7.38497e-05    -9.80279e-05        -0.499256       -0.670445      -0.00015288     3.30984e-05         0.198396        0.076599
554000                   0.88599        0.463703      8.29803e-05     0.000145548        -0.120748       0.0469217      7.99893e-05    -0.000101724
                     8.30537e-05     0.000145416         0.247679       -0.467381      0.000152236    -0.000240016        -0.472956       -0.680235
                       -0.120748       0.0469219      0.000152294    -0.000240138         0.264089        0.964498     -0.000175749     2.68551e-05
                     7.99063e-05    -0.000101611        -0.472956       -0.680235     -0.000175663      2.6808e-05         0.277881        0.105612
557200                  0.913228        0.407448      8.72679e-05     0.000161287        -0.144573       0.0816237      8.68269e-05    -0.000104979
                     8.73072e-05     0.000161117         0.252705       -0.482528      0.000156118    -0.000274878        -0.445005        -0.68881
                       -0.144573       0.0816239      0.000156151    -0.000275012         0.148483        0.988915      -0.00020008     1.59327e-05
                     8.67312e-05    -0.000104881        -0.445006        -0.68881     -0.000199981     1.59166e-05         0.371636         0.11437
560400                  0.929694         0.34944      9.06259e-05     0.000179578        -0.173386        0.115416      9.44627e-05     -0.00010777
                     9.06319e-05     0.000179355          0.25914       -0.497435      0.000157903    -0.000317216        -0.415424       -0.695942
                       -0.173386        0.115416      0.000157905    -0.000317362        0.0477347         0.99886     -0.000224864    -7.54249e-07
                     9.43566e-05    -0.000107688        -0.415424       -0.695942     -0.000224761    -7.32113e-07         0.471332       0.0953929
563600                  0.907399        0.283625      9.24369e-05     0.000200802        -0.207361        0.147377        0.0001029    -0.000109921
                     9.24141e-05     0.000200508         0.266972       -0.511907      0.000155736     -0.00036922        -0.384262       -0.701389
                       -0.207361        0.147377      0.000155693    -0.000369373       -0.0427554        0.963307     -0.000248349    -2.41147e-05
                     0.000102787    -0.000109859        -0.384262       -0.701389     -0.000248256    -2.40508e-05         0.564274       0.0464001
564000                  0.903946         0.27584      9.25136e-05     0.000203679        -0.211971        0.151193       0.00010401    -0.000110136
                     9.24879e-05     0.000203375         0.268047       -0.513676      0.000155044    -0.000376532         -0.38026       -0.701939
                       -0.211971        0.151193      0.000154995    -0.000376686       -0.0523866        0.943554     -0.000251079    -2.75265e-05
                     0.000103896    -0.000110075         -0.38026       -0.701939     -0.000250989    -2.74575e-05         0.574746       0.0383536
566800                  0.876258        0.224585      9.18091e-05     0.000225296         -0.24646        0.176473      0.000112103    -0.000111236
                     9.17691e-05     0.000224908         0.276153       -0.525753      0.000146281    -0.000433664        -0.351608       -0.704897
                        -0.24646        0.176473      0.000146179    -0.000433817        -0.108522        0.819687     -0.000268132    -5.43867e-05
                     0.000111986    -0.000111194        -0.351609       -0.704897     -0.000268067    -5.42845e-05         0.637806      -0.0271951
570000                  0.838538        0.173608      8.74954e-05     0.000253228         -0.29039        0.201615      0.000121984    -0.000111505
                     8.74604e-05     0.000252723         0.286602       -0.538786      0.000123496    -0.000513685        -0.317592       -0.706208
                        -0.29039        0.201615      0.000123315    -0.000513818        -0.154792        0.703498     -0.000281494    -9.06769e-05
