! TOUCHSTONE file generated by CST MICROWAVE STUDIO
! Date and time: Mon Oct 20 08:27:27 2025
! Project name: Teste_Macro_Metasurface_Nanopilar.cst
! Parameters = {H=600; L_x=115; L_y=130; Lambda=1064; Max_L=200; Min_L=70; PathPara=1; Phi=0; Step_L=10; Theta=0; p=520; phaseX=180; phaseY=0}
! Header version: 2018
! Port assignment regex: !\s*Touchstone port\s*([0-9]+)\s*=\s*(CST MWS port|CST DS port)\s*([0-9]+|Zmin|Zmax)\s*\(\"(.*)\"\)(\s*mode\s*([0-9]+))?.*
! Touchstone port assignment:
! Touchstone port 1 = CST MWS port Zmax ("") mode 1
! Touchstone port 2 = CST MWS port Zmax ("") mode 2
! Touchstone port 3 = CST MWS port Zmin ("") mode 1
! Touchstone port 4 = CST MWS port Zmin ("") mode 2
! S-Parameters are not renormalized. Each port impedance will be approximated by the real part at minimum frequency. The values are described via the [Reference] keyword.
! Default impedance is overridden by [Reference]
[Version] 2.0
# GHz S RI R 376.73
[Number of Ports] 4
[Reference]
376.73 376.73 259.888 259.888 
[Number of Frequencies] 52
[Network Data]
474000                  0.226388       0.0062419     -1.34466e-06    -3.88713e-06        -0.966002      -0.0300025       2.1453e-05     1.97179e-05
                    -1.35127e-06    -3.94406e-06         0.201302        0.142855     -1.95827e-05     1.97971e-05        -0.960334        0.111163
                       -0.966002      -0.0300025     -1.96136e-05     1.97279e-05        -0.215534      -0.0130398      7.82255e-06     8.23345e-06
                     2.15214e-05     1.97536e-05        -0.960334        0.111163      7.80255e-06     8.29054e-06        -0.163429        0.186909
477200                  0.223992       0.0116728     -1.94715e-06    -3.91497e-06        -0.958838      -0.0106719      2.21775e-05     1.77388e-05
                    -1.96005e-06     -3.9135e-06         0.199134        0.140293     -2.14939e-05     2.23972e-05        -0.978618       0.0658484
                       -0.958838      -0.0106708     -2.13879e-05     2.24032e-05        -0.221119        -0.01288      7.54558e-06     6.05269e-06
                     2.24176e-05      1.7403e-05        -0.978618        0.065851      7.52661e-06     6.10541e-06        -0.160984        0.185769
480400                  0.221357       0.0174811     -2.59856e-06    -3.95261e-06        -0.950319      0.00965465      2.29873e-05     1.56755e-05
                    -2.61884e-06      -3.886e-06         0.196849        0.137579     -2.34919e-05     2.52624e-05        -0.994723       0.0174126
                        -0.95032      0.00965703     -2.32294e-05     2.53442e-05        -0.227036      -0.0127189      7.23702e-06     3.74187e-06
                     2.34298e-05     1.49546e-05        -0.994722        0.017418      7.21907e-06     3.78999e-06        -0.158435        0.184605
483600                  0.218448       0.0237062     -3.30494e-06    -4.00229e-06        -0.940233       0.0309834      2.38923e-05     1.35247e-05
                    -3.33398e-06    -3.86271e-06         0.194435        0.134701     -2.55762e-05     2.84306e-05        -0.999428      -0.0338184
                       -0.940234       0.0309871     -2.51341e-05     2.85872e-05        -0.233315      -0.0125571      6.89248e-06     1.28916e-06
                     2.45718e-05     1.24058e-05        -0.999428      -0.0338103      6.87556e-06     1.33244e-06        -0.155775        0.183417
486800                  0.215222       0.0303927     -4.07336e-06    -4.06683e-06        -0.928337       0.0532994      2.49036e-05     1.12831e-05
                    -4.11291e-06    -3.84511e-06         0.191882        0.131641     -2.77438e-05     3.19462e-05        -0.996235      -0.0866965
                       -0.928337       0.0533047     -2.70951e-05     3.21747e-05         -0.23999      -0.0123956      6.50686e-06    -1.31873e-06
                     2.58593e-05     9.75478e-06        -0.996236      -0.0866856      6.49094e-06    -1.28054e-06        -0.152999        0.182206
490000                  0.211632       0.0375919      -4.9121e-06    -4.14981e-06        -0.914352       0.0765587      2.60338e-05       8.948e-06
                    -4.96443e-06    -3.83511e-06         0.189176        0.128384     -2.99878e-05     3.58614e-05        -0.990015       -0.140962
                       -0.914352       0.0765656     -2.91011e-05     3.61561e-05        -0.247099      -0.0122353      6.07413e-06    -4.09674e-06
                     2.73096e-05     7.00039e-06        -0.990017       -0.140948      6.05921e-06    -4.06392e-06        -0.150098        0.180972
493200                  0.207617        0.045362     -5.83091e-06    -4.25581e-06        -0.897969        0.100678      2.72971e-05     6.51678e-06
                    -5.89897e-06    -3.83525e-06         0.186305        0.124908     -3.22963e-05     4.02383e-05        -0.980524         -0.1964
                       -0.897968        0.100687     -3.11348e-05     4.05894e-05        -0.254688      -0.0120776      5.58721e-06    -7.06179e-06
                     2.89422e-05      4.1428e-06        -0.980527       -0.196384      5.57324e-06    -7.03464e-06        -0.147064        0.179715
496400                  0.203104       0.0537701     -6.84138e-06    -4.39071e-06        -0.878838        0.125522      2.87093e-05     3.98765e-06
                    -6.92907e-06    -3.84889e-06         0.183253        0.121192     -3.46494e-05     4.51499e-05        -0.967531       -0.252752
                       -0.878837        0.125533     -3.31703e-05     4.55419e-05        -0.262805      -0.0119243      5.03765e-06    -1.02331e-05
                     3.07789e-05     1.18361e-06        -0.967536       -0.252733      5.02461e-06    -1.02119e-05        -0.143888        0.178435
499600                  0.198005       0.0628933      -7.9573e-06    -4.56216e-06        -0.856582        0.150888      3.02884e-05     1.35961e-06
                    -8.06982e-06    -3.88049e-06         0.180001         0.11721     -3.70165e-05     5.06829e-05        -0.950831       -0.309711
                        -0.85658        0.150901     -3.51701e-05     5.10923e-05        -0.271508      -0.0117775       4.4154e-06    -1.36324e-05
                     3.28436e-05    -1.87359e-06        -0.950837       -0.309691      4.40322e-06    -1.36176e-05        -0.140561        0.177135
502800                  0.192211       0.0728204     -9.19522e-06    -4.78022e-06        -0.830794        0.176485      3.20544e-05    -1.36715e-06
                    -9.33958e-06     -3.9361e-06          0.17653        0.112932     -3.93511e-05     5.69393e-05         -0.93025       -0.366927
                        -0.83079          0.1765     -3.70801e-05     5.73316e-05        -0.280862      -0.0116401      3.70838e-06    -1.72847e-05
                     3.51631e-05    -5.02272e-06        -0.930259       -0.366904        3.697e-06    -1.72766e-05        -0.137073        0.175813
506000                  0.185584       0.0836535     -1.05751e-05    -5.05827e-06        -0.801054        0.201918      3.40297e-05    -4.19092e-06
                    -1.07609e-05    -4.02392e-06         0.172817        0.108324     -4.15844e-05      6.4039e-05        -0.905659       -0.424007
                       -0.801049        0.201935     -3.88237e-05     6.43641e-05        -0.290944      -0.0115155        2.902e-06    -2.12187e-05
                     3.77666e-05    -8.25449e-06        -0.905671       -0.423982      2.89131e-06    -2.12177e-05        -0.133412        0.174473
509200                  0.177952       0.0955105     -1.21211e-05     -5.4143e-06        -0.766949        0.226657      3.62395e-05    -7.10797e-06
                    -1.23618e-05    -4.15531e-06         0.168837        0.103346     -4.36156e-05     7.21211e-05        -0.876984        -0.48052
                       -0.766941        0.226676     -4.02931e-05     7.23075e-05        -0.301842      -0.0114084      1.97852e-06    -2.54673e-05
                     4.06861e-05    -1.15556e-05        -0.876998       -0.480494      1.96842e-06    -2.54738e-05        -0.129566        0.173116
512400                  0.169097        0.108527     -1.38627e-05    -5.87285e-06        -0.728105        0.250023      3.87116e-05     -1.0112e-05
                     -1.4177e-05    -4.34615e-06         0.164559       0.0979534     -4.52987e-05     8.13435e-05         -0.84421       -0.536013
                       -0.728094        0.250044     -4.13376e-05     8.12907e-05        -0.313659      -0.0113245      9.16237e-07    -3.00687e-05
                     4.39562e-05     -1.4908e-05        -0.844227       -0.535986       9.0657e-07    -3.00831e-05        -0.125521        0.171745
515600                  0.158739        0.122858     -1.58357e-05    -6.46791e-06        -0.684229        0.271167      4.14768e-05    -1.31932e-05
                    -1.62509e-05    -4.61904e-06         0.159948       0.0920906     -4.64242e-05     9.18804e-05        -0.807394       -0.590013
                       -0.684215         0.27119     -4.17478e-05     9.14484e-05        -0.326515      -0.0112713     -3.11614e-07    -3.50672e-05
                     4.76135e-05    -1.82873e-05        -0.807414       -0.589986     -3.21035e-07      -3.509e-05        -0.121263        0.170361
518800                  0.146511        0.138677     -1.80838e-05    -7.24728e-06         -0.63517        0.289064      4.45689e-05    -1.63378e-05
                    -1.86399e-05    -5.00672e-06         0.154966       0.0856943     -4.66941e-05     0.000103912        -0.766664       -0.642048
                       -0.635152        0.289088     -4.12371e-05     0.000102908        -0.340555      -0.0112587     -1.73832e-06    -4.05147e-05
                     5.16965e-05    -2.16618e-05        -0.766687       -0.642021     -1.74773e-06    -4.05464e-05        -0.116776        0.168969
522000                  0.131933        0.156178     -2.06599e-05    -8.27936e-06        -0.580991        0.302526      4.80247e-05    -1.95265e-05
                    -2.14167e-05    -5.55763e-06         0.149565       0.0786886     -4.56907e-05     0.000117601        -0.722224       -0.691659
                       -0.580969         0.30255     -3.94179e-05     0.000115769         -0.35595      -0.0112993     -3.40561e-06     -4.6472e-05
                     5.62446e-05    -2.49914e-05         -0.72225       -0.691632      -3.4153e-06     -4.6513e-05        -0.112043        0.167574
525200                  0.114363        0.175562     -2.36266e-05    -9.66381e-06        -0.522049        0.310241      5.18836e-05    -2.27336e-05
                    -2.46762e-05    -6.34507e-06         0.143692       0.0709826     -4.28401e-05     0.000133052        -0.674349       -0.738413
                       -0.522021        0.310264     -3.57787e-05     0.000130059        -0.372904        -0.01141     -5.36632e-06    -5.30105e-05
                     6.12967e-05    -2.82254e-05        -0.674377       -0.738387     -5.37666e-06    -5.30615e-05        -0.107043        0.166181
528400                 0.0929352        0.197028      -2.7055e-05    -1.15485e-05        -0.459069        0.310852      5.61874e-05     -2.5925e-05
                    -2.85426e-05    -7.48294e-06         0.137282       0.0624664     -3.73796e-05     0.000150236        -0.623378       -0.781921
                       -0.459036        0.310874      -2.9669e-05      0.00014567        -0.391667       -0.011613       -7.688e-06    -6.02153e-05
                     6.68891e-05    -3.13015e-05        -0.623409       -0.781896     -7.69943e-06    -6.02766e-05        -0.101757        0.164796
531600                 0.0664625        0.220721     -3.10174e-05    -1.41569e-05        -0.393206        0.303078      6.09789e-05    -2.90572e-05
                    -3.31782e-05    -9.15343e-06          0.13026       0.0530063     -2.83488e-05      0.00016886        -0.569705        -0.82185
                       -0.393169        0.303097     -2.03106e-05     0.000162258        -0.412545      -0.0119385      -1.0458e-05     -6.8187e-05
                     7.30535e-05    -3.41443e-05        -0.569738       -0.821827      -1.0471e-05    -6.82592e-05       -0.0961604        0.163428
534800                 0.0333029        0.246658     -3.55653e-05    -1.78306e-05        -0.326055        0.285863      6.63009e-05    -3.20749e-05
                    -3.87909e-05    -1.16575e-05         0.122535       0.0424372      -1.4648e-05     0.000188198        -0.513766        -0.85793
                       -0.326012        0.285879     -6.86413e-06     0.000179122        -0.435915      -0.0124272     -1.37905e-05    -7.70459e-05
                      7.9813e-05    -3.66643e-05        -0.513801       -0.857909     -1.38058e-05    -7.71293e-05       -0.0902291        0.162087
538000               -0.00883448        0.274549     -4.06719e-05     -2.3095e-05        -0.259594        0.258556      7.21939e-05    -3.49093e-05
                    -4.56301e-05     -1.5509e-05         0.113999       0.0305539       4.7709e-06     0.000206887        -0.456027       -0.889966
                       -0.259548        0.258566      1.14045e-05      0.00019507         -0.46225      -0.0131355     -1.78369e-05     -8.6936e-05
                     8.71786e-05    -3.87579e-05        -0.456063       -0.889947     -1.78553e-05    -8.70308e-05       -0.0839347        0.160784
541200                -0.0631442        0.303451     -4.60908e-05    -3.07405e-05        -0.196062        0.221064       7.8693e-05    -3.74763e-05
                    -5.39337e-05    -2.16125e-05         0.104519       0.0170973      3.05138e-05     0.000222797        -0.396962       -0.917835
                       -0.196014        0.221067      3.48312e-05     0.000208375        -0.492152      -0.0141421     -2.28005e-05    -9.80293e-05
                     9.51437e-05    -4.03076e-05        -0.396999       -0.917819     -2.28228e-05    -9.81354e-05       -0.0772469        0.159535
544400                 -0.134001        0.331061     -5.10366e-05    -4.18643e-05        -0.137746        0.173955      8.58242e-05    -3.96753e-05
                    -6.37051e-05    -3.15866e-05        0.0939348      0.00173644      6.21743e-05     0.000233188        -0.337045       -0.941489
                       -0.137697        0.173952      6.29669e-05     0.000216926        -0.526393      -0.0155594     -2.89585e-05    -0.000110531
                     0.000103679     -4.1185e-05        -0.337083       -0.941475     -2.89858e-05    -0.000110648       -0.0701321        0.158356
547600                 -0.227052        0.352364     -5.35666e-05    -5.76223e-05       -0.0867391        0.118469      9.35989e-05    -4.13882e-05
                    -7.39451e-05    -4.82328e-05        0.0820496      -0.0159584       9.7824e-05     0.000235341        -0.276735       -0.960946
                      -0.0866901         0.11846      9.42651e-05     0.000218685        -0.565989       -0.017551      -3.6695e-05    -0.000124682
                     0.000112725    -4.12547e-05        -0.276774       -0.960935     -3.67283e-05    -0.000124809       -0.0625534        0.157269
550800                 -0.348421        0.357178     -4.98678e-05    -7.80137e-05       -0.0447022       0.0564217      0.000102008    -4.24804e-05
                    -8.04214e-05    -7.54807e-05        0.0686185      -0.0365552      0.000134031      0.00022761        -0.216462       -0.976291
                      -0.0446554       0.0564055      0.000126121     0.000212398        -0.612295      -0.0203606     -4.65511e-05    -0.000140761
                     0.000122192    -4.03811e-05          -0.2165       -0.976283     -4.65912e-05    -0.000140895       -0.0544703        0.156301
554000                 -0.501116        0.326622     -3.51546e-05    -9.90952e-05       -0.0126875     -0.00999581      0.000111015    -4.28035e-05
                    -7.17281e-05     -0.00011413        0.0533367      -0.0608194      0.000166736     0.000210343         -0.15662       -0.987659
                      -0.0126442      -0.0100176      0.000155445     0.000198207        -0.667164      -0.0243616     -5.93025e-05    -0.000159074
                      0.00013195    -3.84375e-05        -0.156658       -0.987653     -5.93496e-05    -0.000159211       -0.0458386        0.155481
557200                 -0.675072        0.231394     -9.10787e-06    -0.000111796       0.00893857      -0.0784568      0.000120548    -4.22006e-05
                    -3.41655e-05    -0.000148273        0.0358225      -0.0898067      0.000192644     0.000185922        -0.097562       -0.995229
                      0.00897741      -0.0784829      0.000179584     0.000177737        -0.733192      -0.0301455     -7.60795e-05    -0.000179914
                     0.000141833    -3.53176e-05       -0.0975993       -0.995226     -7.61322e-05    -0.000180049       -0.0366097        0.154849
560400                 -0.830542       0.0429546      1.93737e-05    -0.000109475        0.0204633       -0.146745      0.000130493    -4.05146e-05
                     1.88019e-05    -0.000149979        0.0155988       -0.125012      0.000210234     0.000157811       -0.0390829       -0.986286
                        0.020497       -0.146774      0.000197065     0.000153538        -0.814135      -0.0386865     -9.85537e-05     -0.00020347
                     0.000151638    -3.09479e-05       -0.0391192       -0.986301     -9.86068e-05    -0.000203593       -0.0267308         0.15445
563600                 -0.896686        -0.22928      4.01433e-05    -9.59737e-05        0.0227073       -0.212947       0.00014069    -3.76012e-05
                     5.45043e-05    -0.000124147      -0.00792402        -0.16862      0.000219809       0.0001293        0.0165209       -0.970528
                       0.0227359       -0.212978      0.000207769     0.000128241        -0.915621      -0.0516673     -0.000129216    -0.000229593
                     0.000161139    -2.53001e-05        0.0164873       -0.970544     -0.000129256     -0.00022969       -0.0161446        0.154339
564000                 -0.895424       -0.265954      4.20039e-05    -9.39338e-05        0.0223916       -0.220997      0.000141972    -3.71445e-05
                     5.72025e-05    -0.000120331       -0.0111302        -0.17481      0.000220508     0.000125836        0.0232376       -0.968326
                       0.0224195       -0.221028      0.000208667     0.000125113        -0.930142      -0.0537326     -0.000133792    -0.000233004
                     0.000162293    -2.45049e-05        0.0232044       -0.968343     -0.000133829    -0.000233096       -0.0147685        0.154349
566800                 -0.824695       -0.508849      5.09924e-05    -7.95141e-05        0.0168565       -0.275571      0.000150931    -3.33431e-05
                     6.78707e-05    -9.52051e-05        -0.035446       -0.223938       0.00022282     0.000102709         0.068762       -0.951628
                       0.0168799       -0.275603      0.000212572     0.000103909         -0.99763      -0.0688033     -0.000171748     -0.00025725
                     0.000170092     -1.8401e-05        0.0687314       -0.951646     -0.000171747    -0.000257305      -0.00478924        0.154586
570000                 -0.648223       -0.706424      5.48994e-05    -6.49097e-05       0.00428462       -0.333581      0.000160965    -2.76679e-05
                     6.94306e-05    -7.30534e-05        -0.067705       -0.296201      0.000221079     7.92535e-05         0.117547       -0.930118
                      0.00430344       -0.333612      0.000212807     8.18078e-05        -0.996234      -0.0867034     -0.000231352    -0.000283317
