! TOUCHSTONE file generated by CST MICROWAVE STUDIO
! Date and time: Mon Oct 20 08:27:41 2025
! Project name: Teste_Macro_Metasurface_Nanopilar.cst
! Parameters = {H=600; L_x=160; L_y=145; Lambda=1064; Max_L=200; Min_L=70; PathPara=1; Phi=0; Step_L=10; Theta=0; p=520; phaseX=180; phaseY=0}
! Header version: 2018
! Port assignment regex: !\s*Touchstone port\s*([0-9]+)\s*=\s*(CST MWS port|CST DS port)\s*([0-9]+|Zmin|Zmax)\s*\(\"(.*)\"\)(\s*mode\s*([0-9]+))?.*
! Touchstone port assignment:
! Touchstone port 1 = CST MWS port Zmax ("") mode 1
! Touchstone port 2 = CST MWS port Zmax ("") mode 2
! Touchstone port 3 = CST MWS port Zmin ("") mode 1
! Touchstone port 4 = CST MWS port Zmin ("") mode 2
! S-Parameters are not renormalized. Each port impedance will be approximated by the real part at minimum frequency. The values are described via the [Reference] keyword.
! Default impedance is overridden by [Reference]
[Version] 2.0
# GHz S RI R 376.73
[Number of Ports] 4
[Reference]
376.73 376.73 259.888 259.888 
[Number of Frequencies] 52
[Network Data]
474000                  0.101177      0.00489204      8.55684e-05     1.65394e-05         -0.54355        0.820324      3.27906e-05     1.72033e-06
                     8.55522e-05     3.12637e-05        -0.159597      -0.0586695      3.35151e-05     1.21266e-05         0.294733        0.912785
                        -0.54356        0.820338      2.46724e-05     2.11134e-05        0.0407268       0.0846086      9.41633e-05     -4.5124e-06
                     4.43408e-05    -4.06219e-06         0.294727        0.912797      8.75006e-05    -5.95175e-06       -0.0997374        0.150611
477200                  0.104495       0.0130317      8.27927e-05     1.71364e-05        -0.520678        0.818861      3.48855e-05     3.16337e-06
                     8.29372e-05     3.14214e-05        -0.158373      -0.0601861      3.08584e-05     1.18409e-05         0.317999        0.904957
                       -0.520685        0.818876      2.21092e-05     2.04666e-05         0.043266       0.0909941      9.45294e-05    -4.35886e-06
                     4.62095e-05    -2.63761e-06         0.317994        0.904969      8.79628e-05      -5.774e-06       -0.0982916        0.149072
480400                  0.108231       0.0216852      7.98863e-05      1.7775e-05        -0.496961        0.816375      3.70719e-05     4.65452e-06
                     8.01959e-05     3.15984e-05        -0.157078      -0.0617792      2.80959e-05     1.15073e-05         0.342129         0.89611
                       -0.496965        0.816391      1.94504e-05      1.9764e-05        0.0460158        0.097751      9.49112e-05    -4.19875e-06
                     4.81608e-05    -1.16363e-06         0.342125        0.896122      8.84451e-05    -5.58864e-06       -0.0967679        0.147428
483600                  0.112451       0.0308951      7.68398e-05     1.84592e-05        -0.472416         0.81275      3.93561e-05     6.19604e-06
                     7.73188e-05     3.17969e-05        -0.155704      -0.0634545      2.52221e-05     1.11206e-05          0.36714        0.886134
                       -0.472416        0.812766      1.66914e-05     1.90006e-05        0.0490014        0.104912        9.531e-05    -4.03165e-06
                     5.02003e-05     3.62228e-07         0.367137        0.886145      8.89491e-05    -5.39517e-06         -0.09516        0.145666
486800                  0.117231       0.0407073      7.36431e-05     1.91934e-05        -0.447072        0.807861      4.17445e-05     7.79036e-06
                      7.4296e-05     3.20196e-05        -0.154246      -0.0652186       2.2231e-05     1.06749e-05         0.393043        0.874905
                       -0.447069        0.807878       1.3827e-05     1.81707e-05        0.0522518        0.112513      9.57267e-05    -3.85709e-06
                      5.2334e-05     1.94262e-06          0.39304        0.874917       8.9476e-05    -5.19305e-06       -0.0934612        0.143776
490000                  0.122663       0.0511706      7.02847e-05     1.99828e-05        -0.420973        0.801579      4.42443e-05     9.43999e-06
                     7.11159e-05     3.22696e-05        -0.152696      -0.0670786      1.91162e-05     1.01635e-05         0.419841         0.86229
                       -0.420966        0.801595      1.08517e-05     1.72679e-05        0.0558007        0.120595      9.61628e-05    -3.67456e-06
                     5.45683e-05     3.58033e-06         0.419839        0.862301      9.00275e-05    -4.98169e-06       -0.0916639        0.141741
493200                  0.128859       0.0623364      6.67524e-05     2.08331e-05        -0.394177        0.793766      4.68634e-05     1.11476e-05
                     6.77662e-05     3.25502e-05        -0.151043      -0.0690425      1.58711e-05     9.57913e-06         0.447529         0.84814
                       -0.394166        0.793782      7.75994e-06     1.62852e-05        0.0596874        0.129203      9.66195e-05    -3.48349e-06
                     5.69105e-05     5.27837e-06         0.447529        0.848151      9.06054e-05    -4.76042e-06       -0.0897598        0.139547
496400                   0.13595       0.0742579      6.30325e-05     2.17508e-05        -0.366764        0.784282      4.96102e-05     1.29161e-05
                     6.42331e-05     3.28655e-05        -0.149278       -0.071119      1.24887e-05     8.91353e-06         0.476093        0.832293
                       -0.366749        0.784297      4.54564e-06     1.52148e-05        0.0639581        0.138389      9.70983e-05    -3.28328e-06
                     5.93684e-05     7.03988e-06         0.476094        0.832303      9.12117e-05    -4.52856e-06       -0.0877397        0.137173
499600                  0.144096       0.0869882      5.91097e-05     2.27436e-05        -0.338831        0.772984      5.24941e-05     1.47484e-05
                     6.05014e-05     3.32201e-05         -0.14739      -0.0733181      8.96163e-06     8.15741e-06         0.505503         0.81457
                       -0.338812        0.772998      1.20249e-06     1.40481e-05         0.068667        0.148209      9.76009e-05    -3.07326e-06
                     6.19506e-05     8.86826e-06         0.505504        0.814579      9.18484e-05     -4.2853e-06       -0.0855935        0.134597
502800                  0.153491        0.100578      5.49673e-05     2.38197e-05        -0.310501        0.759729      5.55254e-05     1.66476e-05
                     5.65538e-05     3.36194e-05        -0.145365      -0.0756506       5.2821e-06     7.30034e-06         0.535712        0.794777
                       -0.310478        0.759741     -2.27613e-06     1.27754e-05        0.0738786        0.158731      9.81291e-05    -2.85267e-06
                     6.46666e-05     1.07671e-05         0.535714        0.794785      9.25179e-05     -4.0298e-06       -0.0833099        0.131794
506000                   0.16437         0.11507      5.05866e-05     2.49891e-05        -0.281921        0.744379      5.87155e-05     1.86171e-05
                     5.23715e-05     3.40696e-05        -0.143187       -0.078129      1.44208e-06     6.33059e-06         0.566651        0.772705
                       -0.281894        0.744388     -5.89715e-06     1.13858e-05        0.0796696        0.170026      9.86849e-05    -2.62071e-06
                     6.75267e-05     1.27401e-05         0.566654        0.772713      9.32228e-05     -3.7611e-06       -0.0808766        0.128732
509200                  0.177018        0.130495      4.59468e-05     2.62629e-05        -0.253264        0.726802      6.20768e-05     2.06602e-05
                     4.79332e-05      3.4578e-05         -0.14084      -0.0807671     -2.56682e-06     5.23497e-06         0.598229        0.748127
                       -0.253233        0.726809     -9.66778e-06     9.86729e-06        0.0861321        0.182179      9.92706e-05    -2.37647e-06
                     7.05425e-05     1.47915e-05         0.598233        0.748134       9.3966e-05    -3.47816e-06         -0.07828        0.125377
512400                  0.191785        0.146859      4.10247e-05     2.76541e-05        -0.224731         0.70688      6.56231e-05     2.27806e-05
                     4.32149e-05     3.51531e-05        -0.138304      -0.0835806     -6.75326e-06     3.99857e-06         0.630321        0.720804
                       -0.224696        0.706884     -1.35955e-05     8.20638e-06        0.0933775        0.195285      9.98886e-05    -2.11896e-06
                     7.37268e-05     1.69254e-05         0.630326         0.72081      9.47508e-05    -3.17981e-06       -0.0755053        0.121684
515600                  0.209095         0.16413      3.57942e-05     2.91778e-05        -0.196552        0.684514      6.93696e-05     2.49821e-05
                     3.81898e-05      3.5805e-05        -0.135553       -0.086587     -1.11261e-05     2.60459e-06         0.662767        0.690481
                       -0.196514        0.684513     -1.76881e-05      6.3879e-06         0.101541        0.209453      0.000100542    -1.84706e-06
                     7.70936e-05     1.91464e-05         0.662772        0.690486      9.55806e-05    -2.86477e-06       -0.0725362        0.117603
518800                  0.229463        0.182213       3.0226e-05     3.08516e-05        -0.168982        0.659625      7.33333e-05     2.72686e-05
                     3.28275e-05     3.65456e-05        -0.132562      -0.0898064     -1.56944e-05     1.03405e-06         0.695364        0.656893
                       -0.168941         0.65962     -2.19534e-05     4.39484e-06         0.110789        0.224805      0.000101233    -1.55952e-06
                     8.06588e-05     2.14594e-05         0.695369        0.656897      9.64595e-05    -2.53158e-06       -0.0693553        0.113072
522000                  0.253511        0.200915      2.42872e-05     3.26961e-05        -0.142303        0.632169      7.75331e-05      2.9644e-05
                     2.70935e-05     3.73891e-05        -0.129297      -0.0932617      -2.0467e-05    -7.34499e-07         0.727858        0.619771
                        -0.14226        0.632159     -2.63995e-05     2.20808e-06         0.121325        0.241482      0.000101966    -1.25497e-06
                     8.44397e-05     2.38693e-05         0.727864        0.619774       9.7392e-05    -2.17864e-06       -0.0659442        0.108015
525200                  0.281977        0.219897      1.79403e-05     3.47355e-05        -0.116816        0.602135      8.19901e-05     3.21125e-05
                     2.09485e-05     3.83523e-05        -0.125721       -0.096979      -2.5453e-05    -2.72534e-06         0.759939        0.578846
                       -0.116771         0.60212     -3.10344e-05     -1.9389e-07         0.133407        0.259644      0.000102744    -9.31837e-07
                     8.84561e-05     2.63814e-05         0.759945        0.578848      9.83832e-05    -1.80413e-06       -0.0622838        0.102342
528400                   0.31572        0.238598      1.11431e-05     3.69984e-05       -0.0928405        0.569556      8.67277e-05     3.46783e-05
                     1.43478e-05     3.94558e-05        -0.121787       -0.100988     -3.06607e-05    -4.96594e-06          0.79123        0.533856
                      -0.0927949        0.569535      -3.5866e-05    -2.83531e-06         0.147354         0.27947      0.000103572     -5.8838e-07
                       9.273e-05     2.90015e-05         0.791237        0.533857      9.94386e-05    -1.40603e-06       -0.0583557       0.0959383
531600                  0.355701        0.256135      3.84728e-06     3.95192e-05       -0.0707041        0.534511      9.17723e-05     3.73455e-05
                     7.24003e-06      4.0724e-05        -0.117441       -0.105323     -3.60981e-05    -7.48738e-06         0.821286        0.484562
                      -0.0706583        0.534486     -4.09019e-05     -5.7435e-06         0.163576        0.301161      0.000104454    -2.22615e-07
                     9.72861e-05     3.17351e-05         0.821292        0.484562      0.000100565    -9.82029e-07       -0.0541432       0.0886624
534800                  0.402915        0.271172     -4.00213e-06     4.23386e-05       -0.0507356        0.497135      9.71538e-05     4.01182e-05
                    -4.34065e-07     4.21871e-05        -0.112615       -0.110024     -4.17719e-05    -1.03248e-05         0.849581        0.430761
                      -0.0506903        0.497103      -4.6149e-05    -8.94932e-06         0.182597        0.324939      0.000105397     1.67703e-07
                     0.000102152     3.45883e-05         0.849587         0.43076      0.000101769    -5.29517e-07       -0.0496349       0.0803362
538000                  0.458254        0.281753     -1.24683e-05     4.55061e-05       -0.0332549        0.457612      0.000102906     4.30002e-05
                     -8.7429e-06     4.38816e-05         -0.10723       -0.115137     -4.76874e-05    -1.35181e-05         0.875509        0.372301
                       -0.033211        0.457575     -5.16137e-05    -1.24876e-05         0.205095        0.351036      0.000106407     5.85131e-07
                      0.00010736     3.75672e-05         0.875515        0.372299       0.00010306    -4.55233e-08       -0.0448289       0.0707331
541200                  0.522233        0.285157     -2.16237e-05     4.90816e-05       -0.0185625        0.416184      0.000109066     4.59952e-05
                     -1.7766e-05     4.58531e-05        -0.101184       -0.120715     -5.38477e-05    -1.71122e-05         0.898385        0.309106
                      -0.0185208        0.416142     -5.73005e-05    -1.63977e-05         0.231962        0.379691      0.000107491      1.0326e-06
                     0.000112946     4.06778e-05          0.89839        0.309103      0.000104448     4.73353e-07       -0.0397424       0.0595618
544400                  0.594544        0.277824     -3.15523e-05     5.31384e-05      -0.00692786        0.373145      0.000115678     4.91059e-05
                    -2.75962e-05     4.81579e-05       -0.0943523       -0.126819      -6.0253e-05    -2.11577e-05         0.917446        0.241198
                      -0.0068892        0.373098     -6.32126e-05    -2.07241e-05         0.264378        0.411109      0.000108658     1.51346e-06
                      0.00011895     4.39262e-05         0.917451        0.241195      0.000105943     1.03102e-06       -0.0344255        0.046444
547600                  0.673416        0.255524     -4.23509e-05      5.7767e-05       0.00142075        0.328834       0.00012279     5.23346e-05
                    -3.83424e-05     5.08669e-05       -0.0865784       -0.133521     -6.68994e-05    -2.57119e-05         0.931867        0.168726
                      0.00145565        0.328782     -6.93503e-05    -2.55169e-05         0.303921        0.445413      0.000109916      2.0316e-06
                     0.000125419      4.7318e-05          0.93187        0.168722      0.000107558     1.63199e-06       -0.0289882       0.0308839
550800                  0.754909           0.214     -5.41322e-05     6.30798e-05        0.0063068        0.283631      0.000130459     5.56821e-05
                    -5.01328e-05     5.40698e-05       -0.0776613       -0.140903     -7.37777e-05    -3.08389e-05         0.940776       0.0919891
                      0.00633729        0.283576     -7.57104e-05     -3.0833e-05         0.352724        0.482528      0.000111279     2.59153e-06
                     0.000132407     5.08585e-05         0.940778       0.0919853      0.000109309      2.2815e-06       -0.0236459       0.0122263
554000                    0.8325        0.150237     -6.70274e-05     6.92179e-05       0.00761332        0.237947       0.00013875     5.91475e-05
                    -6.31192e-05     5.78814e-05       -0.0673413       -0.149062     -8.08717e-05    -3.66102e-05         0.943287       0.0114632
                      0.00763889        0.237888      -8.2285e-05    -3.67359e-05         0.413672        0.521969      0.000112759     3.19851e-06
                     0.000139976     5.45516e-05         0.943288       0.0114598      0.000111214     2.98568e-06       -0.0188014      -0.0103972
557200                  0.897579       0.0642166     -8.11893e-05     7.63603e-05       0.00528872        0.192208      0.000147737     6.27275e-05
                    -7.74821e-05     6.24501e-05       -0.0552778       -0.158102     -8.81561e-05    -4.31053e-05         0.938537       -0.072179
                      0.00530898        0.192148     -8.90603e-05    -4.32975e-05         0.490664        0.562441      0.000114372     3.85874e-06
                     0.000148198     5.84002e-05         0.938538      -0.0721817      0.000113293     3.75171e-06       -0.0151939      -0.0381315
560400                  0.941312      -0.0396442     -9.67962e-05     8.47365e-05     -0.000650433        0.146847      0.000157505     6.64151e-05
                     -9.3437e-05       6.797e-05       -0.0410161       -0.168143     -9.55941e-05    -5.04118e-05         0.925736       -0.158059
                      -0.0006357        0.146785     -9.60141e-05     -5.0598e-05         0.588862        0.601084      0.000116136     4.57953e-06
                     0.000157156     6.24045e-05         0.925736       -0.158061      0.000115572     4.58811e-06       -0.0141689       -0.072448
563600                  0.957494       -0.152577     -0.000114056     9.46434e-05       -0.0101198        0.102287      0.000168155     7.01989e-05
                    -0.000111241     7.46981e-05       -0.0239382       -0.179304     -0.000103134    -5.86251e-05         0.904218       -0.245096
                      -0.0101106        0.102224     -0.000103114    -5.87268e-05         0.714743        0.632109      0.000118075     5.36961e-06
                     0.000166948     6.65615e-05         0.904218       -0.245096      0.000118081     5.50501e-06       -0.0181658       -0.115108
564000                  0.957457       -0.166788     -0.000116341     9.60076e-05       -0.0115449       0.0967931      0.000169554     7.06778e-05
                    -0.000113612     7.56401e-05       -0.0215661       -0.180784     -0.000104081    -5.97205e-05         0.900889       -0.255995
                      -0.0115364       0.0967309     -0.000104009    -5.98059e-05         0.732782        0.634979      0.000118331     5.47374e-06
                     0.000168236     6.70916e-05         0.900889       -0.255995      0.000118413     5.62587e-06       -0.0192073       -0.121117
566800                  0.944904       -0.263654     -0.000133208     0.000106471       -0.0229706       0.0589277      0.000179804     7.40606e-05
                    -0.000131204     8.29797e-05      -0.00318809        -0.19169     -0.000110707    -6.78476e-05         0.873504       -0.332023
                      -0.0229669       0.0588661     -0.000110313    -6.77825e-05         0.805283        0.592891      0.000120215     6.23948e-06
                     0.000177687     7.08635e-05         0.873503       -0.332022      0.000120857      6.5146e-06        -0.031553       -0.167806
570000                  0.907574       -0.363097     -0.000154526     0.000120737       -0.0389962       0.0171379      0.000192587      7.7973e-05
                    -0.000153694     9.32849e-05        0.0224462       -0.205347     -0.000118219     -7.8187e-05         0.833354       -0.417433
                      -0.0389978       0.0170776     -0.000117549    -7.78734e-05         0.866795        0.498665       0.00012259     7.20184e-06
