! TOUCHSTONE file generated by CST MICROWAVE STUDIO
! Date and time: Mon Oct 20 08:27:11 2025
! Project name: Teste_Macro_Metasurface_Nanopilar.cst
! Parameters = {H=600; L_x=70; L_y=70; Lambda=1064; Max_L=200; Min_L=70; PathPara=1; Phi=0; Step_L=10; Theta=0; p=520; phaseX=180; phaseY=0}
! Header version: 2018
! Port assignment regex: !\s*Touchstone port\s*([0-9]+)\s*=\s*(CST MWS port|CST DS port)\s*([0-9]+|Zmin|Zmax)\s*\(\"(.*)\"\)(\s*mode\s*([0-9]+))?.*
! Touchstone port assignment:
! Touchstone port 1 = CST MWS port Zmax ("") mode 1
! Touchstone port 2 = CST MWS port Zmax ("") mode 2
! Touchstone port 3 = CST MWS port Zmin ("") mode 1
! Touchstone port 4 = CST MWS port Zmin ("") mode 2
! S-Parameters are not renormalized. Each port impedance will be approximated by the real part at minimum frequency. The values are described via the [Reference] keyword.
! Default impedance is overridden by [Reference]
[Version] 2.0
# GHz S RI R 376.73
[Number of Ports] 4
[Reference]
376.73 376.73 259.888 259.888 
[Number of Frequencies] 52
[Network Data]
474000                -0.0709147       0.0838818     -6.64506e-05    -7.53756e-05          -0.5505       -0.821422      3.80234e-05    -8.72689e-05
                    -6.28811e-05    -7.60973e-05       -0.0710453       0.0839097      8.03443e-05     8.67719e-06         -0.54986       -0.821827
                       -0.550502       -0.821426      9.49098e-05    -9.72356e-08        -0.106095       0.0347821      3.00621e-05     7.22225e-05
                     2.15502e-05    -7.50016e-05        -0.549863       -0.821824      3.39611e-05     7.46776e-05        -0.106228       0.0347303
477200                -0.0717905       0.0825424      -6.9348e-05     -7.5365e-05        -0.551235       -0.821069      3.61722e-05     -8.5515e-05
                    -6.57519e-05    -7.63597e-05       -0.0719139       0.0825778      7.94625e-05     9.91449e-06        -0.550596       -0.821474
                       -0.551237       -0.821073      9.38178e-05     8.77982e-07        -0.106051       0.0358922      3.34339e-05     6.91834e-05
                     1.99976e-05     -7.2332e-05        -0.550599       -0.821471      3.73625e-05     7.14965e-05        -0.106183       0.0358384
480400                -0.0727237       0.0810862     -7.23591e-05    -7.53172e-05        -0.552027       -0.820687      3.42307e-05     -8.3596e-05
                    -6.87403e-05    -7.65976e-05       -0.0728395       0.0811298       7.8546e-05     1.12329e-05        -0.551387       -0.821093
                       -0.552028       -0.820691      9.26725e-05     1.92794e-06        -0.106012       0.0370731      3.69112e-05      6.5926e-05
                     1.84144e-05    -6.94505e-05        -0.551391       -0.821091      4.08709e-05     6.80877e-05        -0.106144       0.0370172
483600                -0.0737199       0.0794974       -7.549e-05    -7.52279e-05        -0.552881       -0.820274       3.2195e-05    -8.14906e-05
                    -7.18531e-05    -7.68071e-05       -0.0738275       0.0795501      7.75934e-05     1.26402e-05        -0.552242       -0.820681
                       -0.552883       -0.820278      9.14705e-05     3.06086e-06         -0.10598       0.0383316      4.04952e-05     6.24302e-05
                     1.68064e-05    -6.63349e-05        -0.552246       -0.820679      4.44871e-05     6.44302e-05         -0.10611       0.0382735
486800                -0.0747848       0.0777576     -7.87471e-05     -7.5092e-05        -0.553808       -0.819826       3.0062e-05    -7.91742e-05
                    -7.50974e-05    -7.69842e-05       -0.0748837       0.0778204      7.66032e-05     1.41451e-05        -0.553169       -0.820234
                        -0.55381        -0.81983      9.02084e-05     4.28616e-06        -0.105955       0.0396756      4.41861e-05      5.8674e-05
                     1.51813e-05    -6.29602e-05        -0.553173       -0.820232      4.82114e-05     6.05008e-05        -0.106084       0.0396152
490000                -0.0759251       0.0758446     -8.21372e-05     -7.4904e-05        -0.554814       -0.819337      2.78292e-05    -7.66183e-05
                    -7.84808e-05    -7.71239e-05       -0.0760147       0.0759187      7.55741e-05     1.57575e-05        -0.554176       -0.819746
                       -0.554817       -0.819341      8.88822e-05     5.61463e-06        -0.105939        0.041114      4.79832e-05     5.46332e-05
                     1.35496e-05    -5.92985e-05        -0.554181       -0.819745       5.2043e-05      5.6274e-05        -0.106067       0.0410511
493200                -0.0771479       0.0737318     -8.56678e-05    -7.46574e-05        -0.555913       -0.818802      2.54957e-05    -7.37894e-05
                    -8.20114e-05     -7.7221e-05       -0.0772276       0.0738188       7.4505e-05     1.74886e-05        -0.555274       -0.819212
                       -0.555916       -0.818807      8.74882e-05     7.05869e-06        -0.105935       0.0426568      5.18844e-05     5.02807e-05
                     1.19254e-05    -5.53186e-05         -0.55528       -0.819212      5.59795e-05     5.17215e-05        -0.106062       0.0425913
496400                -0.0784611       0.0713873     -8.93463e-05    -7.43454e-05        -0.557116       -0.818214      2.30625e-05    -7.06485e-05
                     -8.5698e-05    -7.72693e-05       -0.0785302       0.0714887       7.3395e-05      1.9351e-05        -0.556478       -0.818626
                       -0.557119       -0.818219      8.60225e-05     8.63267e-06        -0.105946       0.0443158      5.58862e-05     4.55867e-05
                     1.03269e-05    -5.09857e-05        -0.556484       -0.818626       6.0017e-05     4.68117e-05        -0.106072       0.0442475
499600                 -0.079873       0.0687717     -9.31811e-05    -7.39599e-05         -0.55844       -0.817566      2.05336e-05    -6.71502e-05
                    -8.95499e-05    -7.72617e-05       -0.0799309       0.0688897      7.22434e-05     2.13591e-05        -0.557802       -0.817979
                       -0.558443       -0.817571      8.44812e-05     1.03532e-05        -0.105975       0.0461042      5.99828e-05     4.05184e-05
                     8.77795e-06    -4.62611e-05        -0.557809        -0.81798      6.41494e-05     4.15099e-05          -0.1061       0.0460331
502800                -0.0813924        0.065837     -9.71806e-05    -7.34921e-05        -0.559903       -0.816847      1.79173e-05     -6.3241e-05
                     -9.3577e-05    -7.71906e-05       -0.0814383       0.0659738        7.105e-05     2.35294e-05        -0.559265       -0.817261
                       -0.559907       -0.816852      8.28604e-05     1.22396e-05        -0.106027       0.0480376       6.4166e-05     3.50394e-05
                     7.30923e-06    -4.11022e-05        -0.559273       -0.817263      6.83677e-05     3.57776e-05         -0.10615       0.0479634
506000                -0.0830281        0.062523     -0.000101354     -7.2932e-05        -0.561529       -0.816044      1.52282e-05    -5.88584e-05
                    -9.77898e-05    -7.70468e-05       -0.0830611       0.0626816      6.98154e-05     2.58808e-05        -0.560892        -0.81646
                       -0.561533        -0.81605      8.11567e-05     1.43144e-05        -0.106107       0.0501339      6.84241e-05     2.91095e-05
                     5.96047e-06    -3.54622e-05          -0.5609       -0.816463      7.26596e-05     2.95723e-05        -0.106228       0.0500564
509200                -0.0847879       0.0587543     -0.000105711    -7.22683e-05        -0.563346       -0.815143      1.24894e-05    -5.39294e-05
                      -0.0001022    -7.68203e-05       -0.0848075       0.0589384       6.8541e-05     2.84347e-05         -0.56271       -0.815561
                       -0.563351       -0.815149      7.93674e-05     1.66041e-05        -0.106222       0.0524141      7.27418e-05     2.26845e-05
                     4.78249e-06     -2.9291e-05        -0.562719       -0.815564      7.70084e-05     2.28471e-05        -0.106341       0.0523332
512400                -0.0866779       0.0544348     -0.000110261    -7.14883e-05        -0.565391       -0.814125      9.73634e-06    -4.83688e-05
                    -0.000106818    -7.64994e-05       -0.0866834       0.0546488      6.72295e-05     3.12161e-05        -0.564755       -0.814544
                       -0.565397       -0.814131      7.74906e-05     1.91398e-05        -0.106381       0.0549029      7.70983e-05      1.5716e-05
                     3.84019e-06     -2.2535e-05        -0.564766       -0.814549       8.1392e-05     1.55504e-05        -0.106499       0.0548184
515600                -0.0886996        0.049441     -0.000115015    -7.05775e-05        -0.567709       -0.812963      7.02141e-06     -4.2078e-05
                    -0.000111658    -7.60709e-05       -0.0886907       0.0496904      6.58852e-05     3.42537e-05        -0.567074       -0.813386
                       -0.567715        -0.81297      7.55261e-05     2.19584e-05        -0.106595       0.0576295      8.14671e-05     8.15104e-06
                     3.21598e-06    -1.51394e-05        -0.567085       -0.813391      8.57817e-05     7.62569e-06        -0.106711       0.0575411
518800                -0.0908458       0.0436112     -0.000119983    -6.95199e-05        -0.570359       -0.811628      4.42093e-06    -3.49443e-05
                    -0.000116734    -7.55198e-05       -0.0908226       0.0439029      6.45148e-05     3.75807e-05        -0.569724       -0.812053
                       -0.570366       -0.811634      7.34762e-05     2.51032e-05         -0.10688       0.0606285      8.58138e-05    -6.80905e-08
                     3.01394e-06    -7.05033e-06        -0.569737        -0.81206      9.01405e-05    -9.88461e-07        -0.106994       0.0605359
522000                -0.0930933       0.0367315     -0.000125178     -6.8297e-05        -0.573416       -0.810075      2.04407e-06    -2.68409e-05
                    -0.000122058    -7.48288e-05       -0.0930568       0.0370745      6.31284e-05     4.12356e-05        -0.572783       -0.810503
                       -0.573424       -0.810082      7.13469e-05     2.86261e-05        -0.107255       0.0639412      9.00949e-05    -9.00354e-06
                     3.36447e-06     1.78127e-06        -0.572797       -0.810512      9.44215e-05    -1.03586e-05        -0.107365       0.0638443
525200                -0.0953885       0.0285142      -0.00013061    -6.68881e-05        -0.576984       -0.808248      4.49458e-08    -1.76299e-05
                    -0.000127646    -7.39783e-05       -0.0953411       0.0289198      6.17401e-05     4.52631e-05        -0.576352        -0.80868
                       -0.576993       -0.808256      6.91495e-05     3.25886e-05        -0.107745       0.0676177      9.42553e-05    -1.87218e-05
                      4.4294e-06     1.13931e-05        -0.576368        -0.80869       9.8565e-05     -2.0556e-05        -0.107852       0.0675162
528400                -0.0976219       0.0185669     -0.000136291    -6.52697e-05        -0.581202       -0.806067     -1.36178e-06    -7.16871e-06
                    -0.000133513    -7.29458e-05       -0.0975685         0.01905      6.03701e-05     4.97152e-05        -0.580571       -0.806503
                       -0.581212       -0.806075      6.69034e-05     3.70642e-05        -0.108383       0.0717184      9.82263e-05    -2.92929e-05
                     6.40684e-06     2.18027e-05         -0.58059       -0.806516      0.000102497    -3.16558e-05        -0.108488        0.071612
531600                -0.0995782      0.00634799     -0.000142232    -6.34151e-05        -0.586264       -0.803419     -1.88179e-06     4.67554e-06
                    -0.000139675    -7.17055e-05       -0.0995286      0.00692771      5.90466e-05     5.46524e-05        -0.585635       -0.803861
                       -0.586276       -0.803428      6.46397e-05     4.21401e-05        -0.109217        0.076317      0.000101922    -4.07893e-05
                     9.53488e-06     3.29935e-05        -0.585656       -0.803876      0.000106123    -4.37361e-05        -0.109318       0.0762054
534800                 -0.100841     -0.00889573     -0.000148446    -6.12943e-05        -0.592452       -0.800137     -1.11989e-06     1.80011e-05
                    -0.000146149    -7.02279e-05        -0.100813     -0.00819487      5.78089e-05     6.01447e-05        -0.591825       -0.800584
                       -0.592466       -0.800146      6.24063e-05     4.79201e-05        -0.110309       0.0815042      0.000105239    -5.32843e-05
                     1.40922e-05      4.4898e-05         -0.59185       -0.800603       0.00010933    -5.68752e-05        -0.110405       0.0813872
538000                 -0.100597       -0.028204     -0.000154943     -5.8873e-05        -0.600188       -0.795961      1.43911e-06     3.28284e-05
                     -0.00015295    -6.84792e-05        -0.100625      -0.0273521      5.67115e-05      6.6273e-05        -0.599564       -0.796417
                       -0.600204       -0.795972      6.02757e-05     5.45263e-05        -0.111746       0.0873918      0.000108046    -6.68486e-05
                      2.0393e-05     5.73736e-05        -0.599593       -0.796439      0.000111977    -7.11494e-05        -0.111838       0.0872691
541200                -0.0972484      -0.0529511     -0.000161733    -5.61123e-05        -0.610135       -0.790475      6.43778e-06     4.90345e-05
                    -0.000160096    -6.64205e-05       -0.0973931      -0.0519169      5.58293e-05     7.31298e-05        -0.609514        -0.79094
                       -0.610154       -0.790486      5.83557e-05     6.21007e-05        -0.113652       0.0941185       0.00011019    -8.15469e-05
                     2.87717e-05     7.01764e-05        -0.609549       -0.790968      0.000113892    -8.66273e-05        -0.113739       0.0939899
544400                -0.0876178      -0.0846891     -0.000168825    -5.29686e-05        -0.622886       -0.782313      1.46238e-05     6.62601e-05
                    -0.000167602    -6.40074e-05       -0.0879894      -0.0834569      5.52659e-05     8.08195e-05        -0.622276       -0.782798
                       -0.622894       -0.782306       5.6805e-05      7.0804e-05        -0.116205        0.101856      0.000111483    -9.74314e-05
                     3.95538e-05     8.29322e-05        -0.622285        -0.78279      0.000114871    -0.000103364        -0.116288        0.101721
547600                -0.0655126       -0.124143     -0.000176225    -4.93919e-05        -0.639361       -0.768907       2.6771e-05     8.38018e-05
                    -0.000175482    -6.11889e-05       -0.0662919       -0.122766      5.51635e-05     8.94572e-05        -0.638758       -0.769407
                       -0.639371       -0.768898      5.58543e-05     8.08107e-05        -0.119668        0.110817      0.000111704    -0.000114535
                     5.30071e-05     9.51156e-05        -0.638769       -0.769398      0.000114671    -0.000121393        -0.119744        0.110676
550800                -0.0201072       -0.167461     -0.000183938    -4.53262e-05         -0.66373       -0.747972      4.35138e-05      0.00010052
                     -0.00018375    -5.79066e-05       -0.0215094       -0.166191      5.57171e-05      9.9164e-05        -0.663141       -0.748495
                       -0.663744        -0.74796       5.5835e-05     9.22937e-05        -0.124431        0.121257      0.000110598    -0.000132859
                     6.92727e-05     0.000106046        -0.663154       -0.748483      0.000113006     -0.00014071        -0.124503         0.12111
554000                 0.0607354       -0.196918     -0.000191963    -4.07081e-05        -0.703301       -0.710892      6.50861e-05     0.000114835
                    -0.000192415    -5.40936e-05        0.0587535       -0.196335      5.71927e-05     0.000110058        -0.702736       -0.711451
                        -0.70332       -0.710873      5.72135e-05     0.000105394        -0.131097        0.133473       0.00010787    -0.000152365
                     8.82831e-05     0.000114918        -0.702752       -0.711435      0.000109554    -0.000161266        -0.131164         0.13332
557200                  0.167941       -0.175762     -0.000200294    -3.54665e-05        -0.777623       -0.628731      9.10193e-05     0.000124903
                    -0.000201483    -4.96737e-05         0.166198       -0.176283      5.99495e-05     0.000122234        -0.777116       -0.629358
                        -0.77765       -0.628697      6.06288e-05     0.000120163        -0.140606        0.147767      0.000103197    -0.000172952
                     0.000109685     0.000120876        -0.777136       -0.629333      0.000103954    -0.000182941        -0.140671        0.147607
560400                  0.247574      -0.0884846     -0.000208919    -2.95215e-05        -0.944918       -0.327307      0.000119944      0.00012902
                    -0.000210953    -4.45599e-05         0.246907      -0.0893174      6.44651e-05     0.000135731        -0.944653       -0.328072
                       -0.944951       -0.327211      6.69158e-05     0.000136456        -0.154451        0.164334       9.6228e-05    -0.000194447
                     0.000132794     0.000123146        -0.944674        -0.32801      9.58203e-05     -0.00020553         -0.15452        0.164166
563600                  0.259693       0.0157795     -0.000217817    -2.27844e-05         0.972336        0.233588      0.000149689     0.000126159
                    -0.000220816    -3.86539e-05         0.259601       0.0155598      7.13572e-05     0.000150476         0.972351        0.233523
                         0.97237        0.233444       7.7082e-05     0.000153783        -0.175009        0.182946      8.66061e-05    -0.000216581
                     0.000156622     0.000121181         0.972397        0.233334      8.47624e-05    -0.000228717         -0.17509        0.182762
564000                  0.257288       0.0271123     -0.000218947    -2.18818e-05          0.90483       -0.331646      0.000153339     0.000125301
                    -0.000222075    -3.78545e-05         0.257207       0.0269759      7.24223e-05     0.000152396         0.904891        -0.33156
                        0.904822       -0.331648       7.8679e-05     0.000155977        -0.178217        0.185366      8.51994e-05    -0.000219375
                     0.000159594     0.000120624         0.904897        -0.33156      8.31557e-05    -0.000231637          -0.1783        0.185179
566800                  0.228171       0.0900996     -0.000226953    -1.51571e-05       -0.0314451       -0.929199      0.000177745     0.000116388
                    -0.000231052    -3.18446e-05         0.227959       0.0903863      8.13888e-05     0.000166189       -0.0308735       -0.929164
                      -0.0313829       -0.929114      9.21764e-05     0.000171103        -0.205928        0.202119      7.39903e-05    -0.000238974
                      0.00017999     0.000114807       -0.0308142       -0.928923      7.04123e-05    -0.000252061        -0.206035        0.201902
570000                  0.186761        0.131404     -0.000236279    -6.53197e-06        -0.264075       -0.913468      0.000201933     0.000100893
                    -0.000241626    -2.40078e-05         0.186281        0.131842      9.54281e-05     0.000182254        -0.263431       -0.913605
                       -0.264023       -0.913423      0.000112974     0.000186658        -0.252079        0.217181      5.80903e-05    -0.000261128
