! TOUCHSTONE file generated by CST MICROWAVE STUDIO
! Date and time: Mon Oct 20 08:27:37 2025
! Project name: Teste_Macro_Metasurface_Nanopilar.cst
! Parameters = {H=600; L_x=145; L_y=145; Lambda=1064; Max_L=200; Min_L=70; PathPara=1; Phi=0; Step_L=10; Theta=0; p=520; phaseX=180; phaseY=0}
! Header version: 2018
! Port assignment regex: !\s*Touchstone port\s*([0-9]+)\s*=\s*(CST MWS port|CST DS port)\s*([0-9]+|Zmin|Zmax)\s*\(\"(.*)\"\)(\s*mode\s*([0-9]+))?.*
! Touchstone port assignment:
! Touchstone port 1 = CST MWS port Zmax ("") mode 1
! Touchstone port 2 = CST MWS port Zmax ("") mode 2
! Touchstone port 3 = CST MWS port Zmin ("") mode 1
! Touchstone port 4 = CST MWS port Zmin ("") mode 2
! S-Parameters are not renormalized. Each port impedance will be approximated by the real part at minimum frequency. The values are described via the [Reference] keyword.
! Default impedance is overridden by [Reference]
[Version] 2.0
# GHz S RI R 376.73
[Number of Ports] 4
[Reference]
376.73 376.73 259.888 259.888 
[Number of Frequencies] 52
[Network Data]
474000                  0.147924       0.0444507     -2.56783e-06     2.78863e-05        -0.751968         0.62661      2.92947e-05     2.56253e-05
                    -2.46746e-06     2.78561e-05         0.147919       0.0443454      2.49741e-05     2.89102e-05        -0.752068        0.626499
                       -0.751968         0.62661        2.489e-05     2.89077e-05        0.0170109        0.141951      3.89908e-05    -4.87215e-06
                     2.92817e-05     2.56782e-05        -0.752069        0.626499      3.89876e-05    -4.85499e-06        0.0168634        0.141932
477200                  0.150867       0.0488954     -1.71462e-06     3.36222e-05        -0.722805        0.637309      3.10798e-05     3.30871e-05
                    -7.67663e-07     3.37297e-05         0.150857       0.0488244      6.55912e-05    -6.98769e-06        -0.722974        0.637258
                       -0.722804         0.63731       7.2336e-05     9.15742e-06        0.0195132        0.141633      3.94464e-05    -1.42341e-05
                     3.09433e-05      3.2973e-05        -0.722975        0.637258      3.90636e-05    -1.41898e-05        0.0193686        0.141605
480400                  0.153953       0.0536756     -8.19868e-07     3.98128e-05        -0.692012         0.64728       3.2762e-05     4.09465e-05
                     1.04135e-06     4.00766e-05         0.153936       0.0536416      0.000114727     -5.2693e-05        -0.692249        0.647297
                       -0.692011        0.647282      0.000131167    -1.39435e-05        0.0222053        0.141308      4.00788e-05    -2.42688e-05
                     3.25079e-05     4.06563e-05        -0.692251        0.647296      3.92894e-05    -2.42072e-05         0.022064        0.141271
483600                  0.157189        0.058829      1.18232e-07      4.6514e-05        -0.659536        0.656376      3.43183e-05     4.92283e-05
                     2.96975e-06     4.69562e-05         0.157165       0.0588353       0.00017522    -0.000112679        -0.659837         0.65647
                       -0.659533        0.656379      0.000205965    -4.11528e-05        0.0251094        0.140979      4.09246e-05    -3.50477e-05
                     3.39537e-05      4.8753e-05         -0.65984        0.656468       3.9699e-05    -3.49811e-05        0.0249718        0.140931
486800                  0.160585       0.0643992      1.10121e-06     5.37917e-05        -0.625328        0.664434      3.57219e-05     5.79582e-05
                     5.02884e-06     5.44384e-05         0.160551       0.0644492      0.000251182    -0.000194495         -0.62569        0.664612
                       -0.625324        0.664438      0.000304092     -7.3293e-05        0.0282513        0.140648      4.20288e-05    -4.66522e-05
                     3.52554e-05     5.72888e-05        -0.625695         0.66461      4.03345e-05    -4.65959e-05        0.0281179        0.140589
490000                  0.164147       0.0704363      2.13012e-06     6.17232e-05        -0.589354        0.671271      3.69419e-05      6.7163e-05
                     7.23121e-06     6.26054e-05         0.164103        0.070534      0.000348573    -0.000311798        -0.589772        0.671542
                       -0.589348        0.671276      0.000438114    -0.000110905        0.0316611        0.140317      4.34466e-05    -5.91752e-05
                     3.63835e-05      6.6291e-05        -0.589778        0.671541      4.12481e-05    -5.91482e-05        0.0315324        0.140247
493200                  0.167884       0.0769986      3.20525e-06     7.04004e-05        -0.551591        0.676689      3.79426e-05     7.68702e-05
                     9.59075e-06     7.15555e-05         0.167826       0.0771484      0.000475505    -0.000491586         -0.55206        0.677062
                       -0.551585        0.676694      0.000631161    -0.000152857        0.0353743        0.139991      4.52466e-05    -7.27227e-05
                     3.73042e-05     7.57876e-05        -0.552067        0.677061      4.25052e-05    -7.27487e-05        0.0352509        0.139908
496400                  0.171803       0.0841539      4.32565e-06      7.9933e-05        -0.512036        0.680468       3.8683e-05     8.71081e-05
                     1.21228e-05     8.14063e-05         0.171728       0.0843609      0.000639067    -0.000793501        -0.512549        0.680953
                       -0.512029        0.680474      0.000930071    -0.000190617        0.0394324        0.139675      4.75141e-05    -8.74162e-05
                     3.79782e-05     8.58078e-05        -0.512557        0.680951      4.41876e-05    -8.75247e-05        0.0393151        0.139578
499600                  0.175909       0.0919816      5.48852e-06     9.04534e-05        -0.470708        0.682374      3.91158e-05     9.79048e-05
                     1.48441e-05     9.23002e-05         0.175814       0.0922514      0.000815388      -0.0013672        -0.471255        0.682978
                       -0.470699         0.68238       0.00144114    -0.000181264        0.0438853        0.139377      5.03563e-05    -0.000103395
                     3.83603e-05      9.6381e-05        -0.471264        0.682977      4.63988e-05    -0.000103623         0.043775        0.139266
502800                  0.180205        0.100575      6.68824e-06     0.000102122        -0.427652        0.682155      3.91866e-05     0.000109288
                     1.77728e-05     0.000104411         0.180085        0.100914      0.000705069     -0.00259509        -0.428223        0.682886
                       -0.427641        0.682161       0.00242178     0.000112554        0.0487925        0.139108      5.39082e-05     -0.00012082
                     3.83981e-05     0.000107537        -0.428233        0.682885      4.92706e-05    -0.000121213        0.0486902         0.13898
506000                   0.18469        0.110045      7.91481e-06     0.000115138        -0.382943        0.679542      3.88332e-05     0.000121286
                     2.09278e-05     0.000117954         0.184539         0.11046      -0.00156041     -0.00415873        -0.383525        0.680408
                       -0.382931        0.679548       0.00392085      0.00216473        0.0542258        0.138881      5.83417e-05    -0.000139875
                     3.80318e-05     0.000119304        -0.383536        0.680408      5.29713e-05     -0.00014049        0.0541329        0.138736
509200                  0.189357        0.120522      9.15162e-06     0.000129745        -0.336694        0.674259      3.79846e-05     0.000133921
                     2.43282e-05     0.000133196         0.189169        0.121022      -0.00390534     -0.00153913        -0.337274        0.675266
                       -0.336681        0.674265      0.000544099      0.00538922        0.0602728        0.138717      6.38767e-05    -0.000160771
                     3.71922e-05     0.000131711        -0.337286        0.675266      5.77187e-05     -0.00016168        0.0601908        0.138553
512400                  0.194192        0.132164      1.03719e-05     0.000146252        -0.289061        0.666019      3.65596e-05     0.000147217
                     2.79919e-05     0.000150476         0.193957        0.132758      -0.00294188      0.00014799        -0.289622        0.667172
                       -0.289047        0.666025      -0.00163792      0.00316991        0.0670412        0.138644      7.07971e-05    -0.000183748
                     3.58005e-05     0.000144781        -0.289635        0.667173      6.37954e-05     -0.00018504         0.066972         0.13846
515600                  0.199165        0.145158      1.15329e-05     0.000165052        -0.240243        0.654537      3.44663e-05      0.00016119
                     3.19322e-05     0.000170228         0.198873        0.145856      -0.00215819     0.000525328        -0.240769        0.655838
                       -0.240228        0.654542      -0.00160618      0.00194123        0.0746645        0.138702      7.94723e-05    -0.000209079
                     3.37665e-05     0.000158538        -0.240782         0.65584      7.15723e-05    -0.000210867        0.0746106        0.138495
518800                  0.204231        0.159731      1.25667e-05     0.000186652        -0.190492        0.639533      3.16008e-05      0.00017585
                     3.61528e-05     0.000193016         0.203867        0.160546       -0.0017067     0.000602386        -0.190963        0.640981
                       -0.190475        0.639536      -0.00140595      0.00139094        0.0833105        0.138946      9.03864e-05    -0.000237067
                     3.09876e-05     0.000172995        -0.190977        0.640984      8.15394e-05    -0.000239493        0.0832748        0.138715
522000                  0.209312        0.176159      1.33652e-05     0.000211718        -0.140111         0.62074      2.78464e-05     0.000191197
                     4.06379e-05     0.000219589         0.208858        0.177104       -0.0014293     0.000606437        -0.140509        0.622334
                       -0.140095        0.620743      -0.00124187      0.00109906         0.093192        0.139459      0.000104179    -0.000268042
                     2.73481e-05      0.00018816        -0.140523        0.622338      9.43497e-05    -0.000271282        0.0931782        0.139201
525200                  0.214293        0.194776      1.37533e-05     0.000241145       -0.0894623        0.597919      2.30731e-05     0.000207221
                      4.5333e-05      0.00025096         0.213724        0.195865      -0.00124508     0.000591223       -0.0897653        0.599653
                      -0.0894449        0.597921      -0.00111865     0.000922575         0.104582         0.14036      0.000121703    -0.000302344
                     2.27176e-05     0.000204029       -0.0897789        0.599658       0.00011088    -0.000306618         0.104595        0.140074
528400                  0.218992         0.21599      1.34429e-05     0.000276154       -0.0389585        0.570867      1.71374e-05     0.000223895
                     5.01089e-05     0.000288532         0.218279        0.217238      -0.00111494     0.000571716       -0.0391467        0.572732
                       -0.038941        0.570868      -0.00102527     0.000805697         0.117837         0.14183      0.000144099    -0.000340293
                      1.6951e-05     0.000220584         -0.03916        0.572738      0.000132313     -0.00034587         0.117883        0.141513
531600                  0.223138        0.240297      1.19472e-05      0.00031846        0.0109339        0.539431      9.88221e-06     0.000241172
                     5.46907e-05     0.000334297         0.222238        0.241719      -0.00101853      0.00055247        0.0108803        0.541413
                       0.0109512         0.53943     -0.000952815     0.000723101         0.133425        0.144146        0.0001729    -0.000382117
                     9.88776e-06     0.000237787        0.0108676         0.54142      0.000160256    -0.000389325         0.133512        0.143796
534800                  0.226316        0.268299      8.41682e-06     0.000370533        0.0597033        0.503517      1.13882e-06      0.00025898
                       5.851e-05     0.000391182         0.225176         0.26991     -0.000944406     0.000534832        0.0598027          0.5056
                       0.0597201        0.503515     -0.000895255     0.000661855          0.15197        0.147743      0.000210167    -0.000427833
                     1.35328e-06     0.000255578        0.0597908        0.505608      0.000196883    -0.000437049         0.152109         0.14736
538000                  0.227901        0.300716      1.30548e-06     0.000436052         0.106802        0.463108     -9.27126e-06     0.000277216
                     6.03855e-05      0.00046363         0.226448        0.302525      -0.00088574     0.000519078          0.10707        0.465272
                        0.106818        0.463105     -0.000848548     0.000614735         0.174311        0.153326      0.000258645    -0.000477006
                     -8.8399e-06     0.000273864         0.107059         0.46528       0.00024512    -0.000488636         0.174516        0.152912
541200                  0.226945        0.338388     -1.23545e-05     0.000520687         0.151658        0.418271     -2.15322e-05     0.000295744
                     5.77824e-05     0.000558678         0.225084        0.340393     -0.000838196     0.000505125         0.152109        0.420492
                        0.151673        0.418267     -0.000809949     0.000577415         0.201577         0.16208      0.000321916    -0.000528332
                    -2.08886e-05     0.000292519         0.152099          0.4205      0.000308807    -0.000542745         0.201867        0.161639
544400                  0.222013        0.382243     -3.86526e-05     0.000633501         0.193692        0.369164     -3.58277e-05     0.000314381
                     4.49508e-05     0.000687976         0.219619        0.384421     -0.000798911     0.000492778         0.194334        0.371415
                        0.193706        0.369159     -0.000777547     0.000547158         0.235252        0.176061      0.000404427    -0.000578933
                    -3.49935e-05      0.00031137         0.194326        0.371423      0.000392736    -0.000596309         0.235651        0.175609
547600                  0.210948         0.43319     -9.11824e-05     0.000789394         0.232336        0.316042     -5.23334e-05     0.000332899
                     7.75502e-06     0.000871638         0.207857        0.435477      -0.00076592     0.000481829         0.233173        0.318295
                        0.232347        0.316037      -0.00074998      0.00052215         0.277144        0.198984      0.000511147     -0.00062324
                    -5.13519e-05     0.000330197         0.233166        0.318303      0.000502244    -0.000643291         0.277678        0.198554
550800                   0.19054        0.491847     -0.000203613      0.00101242         0.267049         0.25926      -7.1205e-05     0.000351019
                    -9.24943e-05       0.0011446         0.186555        0.494105     -0.000737833     0.000472084         0.268081        0.261485
                        0.267058        0.259255      -0.00072625     0.000501145         0.328852        0.237792      0.000646301    -0.000651535
                     -7.0146e-05      0.00034872         0.268076        0.261493       0.00064173    -0.000673075          0.32954        0.237449
554000                  0.156164        0.557956     -0.000469306      0.00133108         0.297344        0.199264     -9.25657e-05     0.000368404
                    -0.000375355      0.00155489         0.151068        0.559925     -0.000713636     0.000463372         0.298566        0.201432
                        0.297351         0.19926     -0.000705616     0.000483261         0.389342        0.305549      0.000810345    -0.000648794
                    -9.15298e-05     0.000366601         0.298562        0.201438      0.000811152    -0.000669323         0.390153        0.305412
557200                  0.101577        0.629233      -0.00115325      0.00167673         0.322803        0.136583     -0.000116489     0.000384666
                     -0.00121301      0.00201241        0.0951997        0.630464     -0.000692579     0.000455549         0.324203        0.138665
                        0.322808         0.13658     -0.000687512     0.000467854         0.446094        0.424817      0.000994722    -0.000595839
                    -0.000115611     0.000383439         0.324201         0.13867       0.00100016    -0.000611714         0.446832        0.425022
560400                 0.0194705        0.699455      -0.00251615       0.0012414         0.343096       0.0718157     -0.000142982     0.000399369
                     -0.00282551       0.0013349        0.0118286        0.699265      -0.00067409     0.000448493         0.344658       0.0737859
                        0.343098       0.0718133     -0.000671504     0.000454448         0.451142        0.618636       0.00117647    -0.000476103
                     -0.00014243     0.000398775         0.344656       0.0737885       0.00118278    -0.000484193         0.451329        0.619027
563600                -0.0960274        0.756163      -0.00266874    -0.000555486         0.357992      0.00560931     -0.000171967     0.000412041
                     -0.00268451    -0.000581499         -0.10448        0.753709     -0.000657728     0.000442102         0.359695      0.00744516
                        0.357992      0.00560887     -0.000657248     0.000442677         0.308105        0.842684       0.00131973    -0.000288639
                    -0.000171942     0.000412101         0.359695      0.00744555       0.00132089    -0.000289245         0.307703        0.842247
564000                 -0.112881        0.761398       -0.0025443    -0.000718892         0.359468     -0.00273409     -0.000175757     0.000413458
                     -0.00254459    -0.000719325        -0.121371        0.758605     -0.000655814     0.000441345         0.361186    -0.000916416
                        0.359468     -0.00273425     -0.000655575     0.000441306         0.276954        0.864423       0.00133307    -0.000261395
                    -0.000175814     0.000413599         0.361186    -0.000916328       0.00133319    -0.000261336         0.276571        0.863809
566800                 -0.243669        0.780129      -0.00162758     -0.00120401         0.367372      -0.0613588     -0.000203261     0.000422195
                      -0.0016564     -0.00109844        -0.251815        0.774764     -0.000643147     0.000436289         0.369191      -0.0596757
                         0.36737      -0.0613568     -0.000644474     0.000432262        0.0194273        0.921644       0.00139083    -5.79829e-05
                     -0.00020399     0.000422881         0.369192      -0.0596779       0.00138233     -5.6089e-05         0.020019        0.920148
570000                  -0.40792        0.751015     -0.000988918     -0.00114148         0.371226       -0.128406     -0.000236572     0.000429349
                     -0.00106937     -0.00104125        -0.414137        0.742916     -0.000630073     0.000430981         0.373135       -0.126889
                        0.371222       -0.128401     -0.000632963     0.000422982        -0.212682        0.806831       0.00137886     0.000173843
