! TOUCHSTONE file generated by CST MICROWAVE STUDIO
! Date and time: Mon Oct 20 08:27:43 2025
! Project name: Teste_Macro_Metasurface_Nanopilar.cst
! Parameters = {H=600; L_x=160; L_y=200; Lambda=1064; Max_L=200; Min_L=70; PathPara=1; Phi=0; Step_L=10; Theta=0; p=520; phaseX=180; phaseY=0}
! Header version: 2018
! Port assignment regex: !\s*Touchstone port\s*([0-9]+)\s*=\s*(CST MWS port|CST DS port)\s*([0-9]+|Zmin|Zmax)\s*\(\"(.*)\"\)(\s*mode\s*([0-9]+))?.*
! Touchstone port assignment:
! Touchstone port 1 = CST MWS port Zmax ("") mode 1
! Touchstone port 2 = CST MWS port Zmax ("") mode 2
! Touchstone port 3 = CST MWS port Zmin ("") mode 1
! Touchstone port 4 = CST MWS port Zmin ("") mode 2
! S-Parameters are not renormalized. Each port impedance will be approximated by the real part at minimum frequency. The values are described via the [Reference] keyword.
! Default impedance is overridden by [Reference]
[Version] 2.0
# GHz S RI R 376.73
[Number of Ports] 4
[Reference]
376.73 376.73 259.888 259.888 
[Number of Frequencies] 52
[Network Data]
474000                  0.161934       -0.830333      8.80929e-05    -0.000185667        -0.417729        0.213302      0.000231096     0.000144085
                     7.74767e-05    -0.000202557       -0.0200414        0.784106     -5.28345e-05    -5.22183e-05         0.185274       -0.534361
                        -0.41771        0.213305     -7.04136e-05    -5.76047e-05         -0.79927       -0.333888      5.07655e-05    -6.05369e-05
                     0.000233416     0.000128157         0.185274       -0.534361      6.05681e-05    -6.39666e-05         0.416363        -0.65612
477200                  0.170645       -0.824305      9.00544e-05    -0.000183538        -0.419605        0.209573      0.000227645     0.000143691
                     7.95444e-05    -0.000200383        -0.015565        0.858133      -4.9927e-05     -5.2515e-05         0.152564       -0.478377
                       -0.419586        0.209576     -6.76357e-05    -5.79448e-05        -0.793448       -0.337116      5.17459e-05    -6.76221e-05
                     0.000230075     0.000127686         0.152564       -0.478377      6.16162e-05    -7.12892e-05         0.460778       -0.711942
480400                  0.179405       -0.818249      9.21124e-05    -0.000181289        -0.421509        0.205688      0.000223972     0.000143247
                     8.17152e-05    -0.000198086      -0.00157005        0.943814     -4.68256e-05    -5.28314e-05         0.122915       -0.425095
                       -0.421491        0.205691     -6.46707e-05     -5.8307e-05        -0.787382       -0.340423      5.26442e-05    -7.52523e-05
                     0.000226519     0.000127163         0.122915       -0.425095      6.25785e-05    -7.91776e-05         0.517902       -0.772161
483600                  0.188214       -0.812166      9.42742e-05     -0.00017891        -0.423441        0.201639      0.000220053     0.000142744
                     8.39969e-05    -0.000195653        0.0257342        0.999669       -4.351e-05    -5.31694e-05        0.0959844       -0.374367
                       -0.423424        0.201642     -6.14987e-05    -5.86934e-05        -0.781056       -0.343811      5.34318e-05    -8.34868e-05
                     0.000222726     0.000126579        0.0959847       -0.374366      6.34247e-05    -8.76938e-05         0.577888       -0.816116
486800                  0.197072       -0.806054      9.65477e-05    -0.000176391        -0.425399        0.197415      0.000215863     0.000142173
                     8.63982e-05    -0.000193072        0.0662415        0.997804     -3.99573e-05    -5.35312e-05        0.0714735       -0.326045
                       -0.425382        0.197418     -5.80976e-05    -5.91064e-05        -0.774454       -0.347282      5.40725e-05    -9.23934e-05
                     0.000218673     0.000125926        0.0714738       -0.326044      6.41165e-05    -9.69079e-05         0.607009       -0.794695
490000                   0.20598       -0.799914      9.89417e-05    -0.000173717        -0.427382        0.193007      0.000211375     0.000141525
                     8.89285e-05     -0.00019033         0.122202        0.992505     -3.61413e-05    -5.39196e-05        0.0491213        -0.27999
                       -0.427365         0.19301     -5.44414e-05     -5.9549e-05        -0.767559       -0.350836      5.45204e-05    -0.000102049
                     0.000214332     0.000125193        0.0491217        -0.27999      6.46053e-05      -0.0001069          0.64537        -0.76387
493200                  0.214939       -0.793746      0.000101466    -0.000170875        -0.429387        0.188403      0.000206556     0.000140784
                     9.15984e-05    -0.000187412         0.195658        0.980672     -3.20314e-05    -5.43376e-05        0.0286996        -0.23607
                       -0.429371        0.188407     -5.05004e-05    -6.00244e-05        -0.760351       -0.354475      5.47173e-05     -0.00011254
                     0.000209672     0.000124368        0.0287001        -0.23607      6.48293e-05    -0.000117759         0.693516       -0.720441
496400                  0.223948       -0.787549      0.000104131    -0.000167848        -0.431413        0.183591      0.000201368     0.000139937
                     9.44195e-05    -0.000184299         0.287379        0.957817     -2.75923e-05    -5.47886e-05        0.0100083       -0.194159
                       -0.431397        0.183595       -4.624e-05    -6.05364e-05         -0.75281         -0.3582      5.45889e-05    -0.000123965
                     0.000204656     0.000123436        0.0100088       -0.194159      6.47097e-05    -0.000129589         0.750928       -0.660384
499600                  0.233008       -0.781323      0.000106949    -0.000164618        -0.433455        0.178559      0.000195768     0.000138962
                     9.74049e-05    -0.000180972         0.395325        0.918541     -2.27829e-05    -5.52768e-05      -0.00712887       -0.154139
                        -0.43344        0.178563     -4.16196e-05    -6.10895e-05        -0.744913       -0.362012      5.40403e-05    -0.000136436
                     0.000199243     0.000122377      -0.00712836       -0.154139      6.41459e-05    -0.000142503         0.815071       -0.579361
502800                   0.24212       -0.775068      0.000109933    -0.000161163        -0.435511        0.173292      0.000189706     0.000137838
                     0.000100569    -0.000177408         0.513158        0.858294     -1.75548e-05    -5.58069e-05       -0.0228671       -0.115899
                       -0.435497        0.173296     -3.65916e-05    -6.16886e-05        -0.736636       -0.365911      5.29496e-05    -0.000150078
                     0.000193385     0.000121169       -0.0228666       -0.115898      6.30085e-05    -0.000156632         0.880426       -0.474184
506000                  0.251284       -0.768784      0.000113099    -0.000157461        -0.437577        0.167775      0.000183124     0.000136534
                     0.000103928    -0.000173581         0.630389         0.77628     -1.18508e-05    -5.63846e-05       -0.0373436      -0.0793341
                       -0.437563        0.167779     -3.10997e-05    -6.23398e-05        -0.727952       -0.369897      5.11599e-05     -0.00016503
                     0.000187026     0.000119785        -0.037343      -0.0793333       6.1131e-05    -0.000172118         0.938469       -0.345363
509200                  0.260501        -0.76247      0.000116462    -0.000153483        -0.439647        0.161992      0.000175954     0.000135015
                       0.0001075    -0.000169463         0.735491        0.677534     -5.60295e-06    -5.70166e-05       -0.0506797      -0.0443473
                       -0.439634        0.161996     -2.50765e-05    -6.30503e-05        -0.718833        -0.37397      4.84684e-05    -0.000181446
                       0.0001801     0.000118191       -0.0506791      -0.0443465      5.82983e-05    -0.000189117         0.979905       -0.199464
512400                   0.26977       -0.756127      0.000120042    -0.000149198        -0.441715        0.155926      0.000168117     0.000133236
                     0.000111306    -0.000165017         0.820488        0.571663      1.27057e-06    -5.77109e-05       -0.0629832      -0.0108474
                       -0.441702         0.15593     -1.84411e-05    -6.38283e-05        -0.709246       -0.378128      4.46119e-05    -0.000199491
                     0.000172529     0.000116344       -0.0629827      -0.0108466      5.42317e-05    -0.000207798         0.998817      -0.0486265
515600                  0.279093       -0.749753      0.000123859    -0.000144569        -0.443774        0.149558      0.000159516     0.000131139
                     0.000115368    -0.000160205         0.883337        0.468739      8.86864e-06    -5.84772e-05       -0.0743501        0.021251
                       -0.443762        0.149562     -1.10949e-05     -6.4684e-05        -0.699157       -0.382369      3.92489e-05    -0.000219336
                     0.000164223      0.00011419       -0.0743495       0.0212517      4.85695e-05     -0.00022833         0.995588       0.0938288
518800                  0.288469        -0.74335      0.000127937    -0.000139554        -0.445816        0.142868      0.000150041     0.000128652
                     0.000119712     -0.00015498         0.926698        0.375806      1.73122e-05    -5.93274e-05       -0.0848658       0.0520273
                       -0.445805        0.142872      -2.9175e-06    -6.56295e-05        -0.688528       -0.386689      3.19347e-05    -0.000241146
                     0.000155071     0.000111661       -0.0848652        0.052028      4.08423e-05    -0.000250875          0.97584        0.218485
522000                    0.2979       -0.736916      0.000132303    -0.000134103         -0.44783        0.135834      0.000139555      0.00012568
                     0.000124369    -0.000149287         0.955178        0.296031      2.67507e-05    -6.02759e-05       -0.0946065       0.0815559
                        -0.44782        0.135838      6.24074e-06    -6.66797e-05        -0.677317       -0.391084      2.20917e-05     -0.00026506
                     0.000144942     0.000108668       -0.0946059       0.0815566      3.04418e-05    -0.000275559         0.946835         0.32172
525200                  0.307386       -0.730452      0.000136988    -0.000128158        -0.449806        0.128432      0.000127898     0.000122101
                     0.000129371    -0.000143062         0.973261        0.229701       3.7371e-05    -6.13409e-05        -0.103641        0.109906
                       -0.449797        0.128437      1.65675e-05    -6.78528e-05         -0.66548       -0.395547      8.97307e-06    -0.000291153
                     0.000133679     0.000105099         -0.10364        0.109907      1.65847e-05    -0.000302438         0.914606        0.404346
528400                  0.316926       -0.723958      0.000142027    -0.000121649        -0.451729        0.120639      0.000114873     0.000117751
                     0.000134756    -0.000136227         0.984465         0.17558      4.94099e-05    -6.25452e-05        -0.112029        0.137143
                       -0.451721        0.120643      2.83017e-05    -6.91716e-05        -0.652965        -0.40007     -8.37717e-06    -0.000319376
                     0.000121089       0.0001008        -0.112029        0.137144     -1.72557e-06    -0.000331424         0.883033        0.469311
531600                  0.326523       -0.717432      0.000147459    -0.000114494        -0.453584        0.112426      0.000100241     0.000112411
                     0.000140569     -0.00012869         0.991265        0.131887      6.31719e-05    -6.39182e-05        -0.119827        0.163327
                       -0.453576        0.112431      4.17519e-05    -7.06646e-05        -0.639717       -0.404643     -3.11596e-05    -0.000349455
                     0.000106936     9.55706e-05        -0.119827        0.163327     -2.57298e-05    -0.000362181         0.854139        0.520045
534800                  0.336176       -0.710875       0.00015333    -0.000106593        -0.455351        0.103765      8.37118e-05     0.000105783
                     0.000146859     -0.00012034         0.995302       0.0968181      7.90555e-05    -6.54977e-05        -0.127085        0.188514
                       -0.455344         0.10377      5.73244e-05    -7.23684e-05        -0.625676       -0.409252     -6.08315e-05    -0.000380739
                       9.093e-05     8.91337e-05        -0.127084        0.188515     -5.69149e-05    -0.000393964         0.828726        0.559654
538000                  0.345885       -0.704287      0.000159691    -9.78264e-05        -0.457008       0.0946252      6.49311e-05     9.74527e-05
                     0.000153682    -0.000111042         0.997633       0.0687668      9.75924e-05    -6.73343e-05        -0.133846        0.212758
                       -0.457002       0.0946294      7.55642e-05    -7.43302e-05        -0.610774       -0.413879     -9.90576e-05    -0.000411979
                     7.27148e-05     8.11075e-05        -0.133845        0.212758     -9.69449e-05    -0.000425392         0.806913         0.59067
541200                  0.355651       -0.697668      0.000166603    -8.80458e-05        -0.458529       0.0849726      4.34675e-05     8.68354e-05
                     0.000161105    -0.000100627         0.998923        0.046388      0.000119508    -6.94962e-05         -0.14015        0.236107
                       -0.458524       0.0849766      9.72209e-05    -7.66121e-05        -0.594937       -0.418504     -0.000147531    -0.000441043
                     5.18482e-05     7.09521e-05         -0.14015        0.236108     -0.000147451    -0.000454165          0.78848        0.615061
544400                  0.365476       -0.691016      0.000174135    -7.70696e-05        -0.459885       0.0747722      1.88049e-05     7.30884e-05
                     0.000169202    -8.88894e-05         0.999591       0.0285869      0.000145818     -7.2078e-05        -0.146036        0.258609
                       -0.459881        0.074776      0.000123353    -7.92971e-05        -0.578083       -0.423099     -0.000207568    -0.000464625
                     2.77874e-05     5.78888e-05        -0.146035         0.25861     -0.000209582    -0.000476801         0.773067        0.634324
547600                  0.375358       -0.684333      0.000182364    -6.46706e-05        -0.461039       0.0639865     -9.65512e-06      5.4972e-05
                     0.000178056    -7.55669e-05         0.999895       0.0144853      0.000177992    -7.52152e-05        -0.151535        0.280306
                       -0.461036         0.06399      0.000155509    -8.24983e-05         -0.56012        -0.42763     -0.000279377    -0.000478115
                     -1.2301e-07     4.07671e-05        -0.151534        0.280307     -0.000283246    -0.000488578         0.760286        0.649589
550800                  0.385299       -0.677617       0.00019138    -5.05616e-05        -0.461951       0.0525759     -4.25505e-05     3.06238e-05
                     0.000187764    -6.03275e-05         0.963601      0.00325885      0.000218237    -7.91082e-05        -0.156677        0.301239
                       -0.461949       0.0525791       0.00019604    -8.63721e-05        -0.540948       -0.432057     -0.000361032     -0.00047595
                    -3.26388e-05     1.78466e-05        -0.156676         0.30124     -0.000366105    -0.000483993          0.74976         0.66171
554000                  0.395299       -0.670869      0.000201283    -3.43751e-05        -0.462571       0.0404989     -8.04171e-05    -2.80992e-06
                      0.00019843    -4.27424e-05         0.926926     -0.00489647      0.000270025    -8.40669e-05         -0.16149        0.321446
                        -0.46257       0.0405016      0.000248707    -9.11377e-05        -0.520454       -0.436327     -0.000447517    -0.000452814
                     -7.0532e-05    -1.35725e-05        -0.161489        0.321447     -0.000452745    -0.000458077         0.725939        0.657557
557200                  0.405359       -0.664089      0.000212183    -1.56338e-05        -0.462842       0.0277121      -0.00012329    -4.97622e-05
                     0.000210164      -2.225e-05         0.893983      -0.0106884      0.000339152    -9.05966e-05        -0.165998        0.340963
                       -0.462842       0.0277144      0.000319915    -9.70998e-05        -0.498516       -0.440377     -0.000530638    -0.000405732
                    -0.000114305    -5.77722e-05        -0.165998        0.340964     -0.000534825    -0.000408468         0.689559        0.637713
560400                   0.41548       -0.657275      0.000224196      6.2917e-06          -0.4627       0.0141711     -0.000169665    -0.000117108
                     0.000223075     1.89723e-06         0.864308       -0.014691      0.000436077    -9.95804e-05        -0.170224        0.359823
                       -0.462701       0.0141729      0.000421538    -0.000104652        -0.474995       -0.444129      -0.00060064    -0.000336211
                    -0.000163358    -0.000121632        -0.170224        0.359823     -0.000602884    -0.000337315         0.657988        0.618639
563600                  0.425661       -0.650428      0.000237432     3.22464e-05        -0.462065    -0.000168945     -0.000213947    -0.000215059
                     0.000237249      3.0713e-05         0.837495      -0.0173331      0.000581788    -0.000112709        -0.174189        0.378057
                       -0.462067    -0.000167855      0.000578312    -0.000114104        -0.449739       -0.447484      -0.00064935     -0.00025083
                    -0.000213714    -0.000216046        -0.174189        0.378058     -0.000649411    -0.000251514         0.630423        0.600468
564000                  0.426938        -0.64957      0.000239177     3.58273e-05        -0.461947     -0.00201988     -0.000218735    -0.000230093
                     0.000239112     3.47077e-05         0.834326      -0.0175847      0.000605325    -0.000114787        -0.174668        0.380294
                       -0.461949     -0.00201888      0.000604097    -0.000115403        -0.446452        -0.44787     -0.000653698    -0.000239516
                    -0.000219613    -0.000230735        -0.174667        0.380295     -0.000653506    -0.000240229         0.627225        0.598263
566800                  0.435903       -0.643548      0.000251971     6.33866e-05        -0.460849      -0.0153528     -0.000240742    -0.000356459
                     0.000252707     6.55987e-05         0.813188      -0.0189367      0.000825497    -0.000133657        -0.177912        0.395696
                       -0.460852      -0.0153524       0.00085167    -0.000124219        -0.422582       -0.450324     -0.000673078    -0.000159334
                    -0.000252223    -0.000356683        -0.177912        0.395696     -0.000671399    -0.000160634         0.606214        0.583252
570000                  0.446207       -0.636635      0.000267811     0.000101328        -0.458946      -0.0314232     -0.000215303     -0.00054827
                     0.000269318     0.000108533         0.791083      -0.0197457       0.00131613    -0.000171997        -0.181409        0.412766
                        -0.45895      -0.0314237       0.00144708    -0.000118329        -0.393337       -0.452499     -0.000673359    -7.12717e-05
