! TOUCHSTONE file generated by CST MICROWAVE STUDIO
! Date and time: Mon Oct 20 08:27:53 2025
! Project name: Teste_Macro_Metasurface_Nanopilar.cst
! Parameters = {H=600; L_x=200; L_y=100; Lambda=1064; Max_L=200; Min_L=70; PathPara=1; Phi=0; Step_L=10; Theta=0; p=520; phaseX=180; phaseY=0}
! Header version: 2018
! Port assignment regex: !\s*Touchstone port\s*([0-9]+)\s*=\s*(CST MWS port|CST DS port)\s*([0-9]+|Zmin|Zmax)\s*\(\"(.*)\"\)(\s*mode\s*([0-9]+))?.*
! Touchstone port assignment:
! Touchstone port 1 = CST MWS port Zmax ("") mode 1
! Touchstone port 2 = CST MWS port Zmax ("") mode 2
! Touchstone port 3 = CST MWS port Zmin ("") mode 1
! Touchstone port 4 = CST MWS port Zmin ("") mode 2
! S-Parameters are not renormalized. Each port impedance will be approximated by the real part at minimum frequency. The values are described via the [Reference] keyword.
! Default impedance is overridden by [Reference]
[Version] 2.0
# GHz S RI R 376.73
[Number of Ports] 4
[Reference]
376.73 376.73 259.888 259.888 
[Number of Frequencies] 52
[Network Data]
474000                  0.862809        0.315435     -1.91295e-05    -1.99064e-05       -0.0550155       -0.283958     -5.21132e-05     3.81515e-05
                     -2.8432e-05    -1.95531e-05        0.0988701        0.202256      -2.7272e-05     1.22009e-06        -0.942332       -0.182725
                      -0.0550256       -0.283946     -2.18412e-05     1.16179e-05         0.813896       -0.390148     -2.39557e-05     3.44952e-05
                    -3.18546e-05     3.98071e-05        -0.942304       -0.182747     -1.83851e-05     2.47442e-05        -0.149199        0.146256
477200                  0.865994        0.309272     -2.06658e-05    -2.19956e-05       -0.0511149       -0.287971     -5.49106e-05      3.5565e-05
                    -3.01229e-05    -2.17141e-05        0.0918556        0.198868     -3.10654e-05    -9.88119e-07        -0.932921      -0.0983517
                      -0.0511251        -0.28796     -2.57661e-05     9.55659e-06          0.78703       -0.330166      -2.4756e-05     3.28195e-05
                    -3.45586e-05     3.75101e-05        -0.932899      -0.0983766     -1.91231e-05     2.30586e-05        -0.142973        0.141343
480400                  0.869269        0.302632     -2.23065e-05    -2.42575e-05       -0.0470015       -0.292225     -5.78283e-05     3.27825e-05
                    -3.19294e-05    -2.40564e-05        0.0843392        0.195378     -3.50673e-05    -3.40449e-06        -0.907442      -0.0175753
                      -0.0470117       -0.292213     -2.99131e-05     7.29222e-06          0.75981       -0.273818     -2.55982e-05     3.10341e-05
                    -3.73849e-05     3.50368e-05        -0.907426      -0.0176021     -1.98998e-05     2.12645e-05        -0.136306        0.136177
483600                  0.872626        0.295463     -2.40625e-05    -2.67143e-05       -0.0426574       -0.296741      -6.0872e-05     2.97833e-05
                    -3.38633e-05    -2.66034e-05        0.0762685        0.191788     -3.92929e-05    -6.05562e-06        -0.867838       0.0553036
                      -0.0426677       -0.296729      -3.4299e-05     4.79808e-06         0.732404       -0.220858     -2.64854e-05      2.9128e-05
                    -4.03404e-05     3.23681e-05        -0.867828       0.0552768     -2.07179e-05     1.93511e-05         -0.12915        0.130738
486800                  0.876058        0.287706     -2.59459e-05     -2.9392e-05       -0.0380628       -0.301544     -6.40473e-05     2.65439e-05
                     -3.5938e-05    -2.93827e-05        0.0675846        0.188104     -4.37586e-05     -8.9724e-06        -0.817377        0.117147
                      -0.0380731       -0.301533     -3.89421e-05     2.04301e-06         0.704953       -0.171058     -2.74211e-05     2.70886e-05
                    -4.34319e-05     2.94827e-05        -0.817372        0.117122     -2.15808e-05     1.73063e-05        -0.121452        0.125009
490000                  0.879549        0.279293     -2.79703e-05    -3.23214e-05       -0.0331955       -0.306663     -6.73597e-05     2.30379e-05
                    -3.81687e-05    -3.24272e-05        0.0582202        0.184334     -4.84816e-05    -1.21908e-05        -0.759939        0.166338
                      -0.0332058       -0.306652     -4.38619e-05    -1.00945e-06         0.677572         -0.1242     -2.84092e-05     2.49016e-05
                    -4.66662e-05      2.6356e-05        -0.759939        0.166316     -2.24919e-05     1.51161e-05         -0.11315        0.118967
493200                  0.883082        0.270147     -3.01515e-05     -3.5539e-05       -0.0280306        -0.31213     -7.08141e-05     1.92348e-05
                    -4.05729e-05    -3.57758e-05        0.0480989        0.180491     -5.34803e-05    -1.57528e-05        -0.699304        0.202724
                       -0.028041       -0.312119     -4.90792e-05    -4.40204e-06         0.650357      -0.0800828     -2.94537e-05     2.25505e-05
                    -5.00502e-05       2.296e-05        -0.699307        0.202705     -2.34553e-05     1.27646e-05        -0.104172         0.11259
496400                  0.886627         0.26018     -3.25073e-05     -3.9089e-05       -0.0225401        -0.31798     -7.44148e-05     1.51001e-05
                    -4.31704e-05    -3.94758e-05        0.0371333        0.176591     -5.87737e-05    -1.97079e-05        -0.638645        0.227266
                      -0.0225506       -0.317969      -5.4616e-05    -8.18519e-06         0.623388      -0.0385187     -3.05593e-05     2.00164e-05
                    -5.35904e-05     1.92627e-05         -0.63865         0.22725     -2.44751e-05     1.02333e-05       -0.0944364        0.105852
499600                   0.89015         0.24929     -3.50584e-05    -4.30247e-05       -0.0166926       -0.324257     -7.81652e-05     1.05942e-05
                    -4.59838e-05    -4.35842e-05        0.0252232         0.17266     -6.43811e-05     -2.4114e-05        -0.580303        0.241582
                      -0.0167032       -0.324245     -6.04949e-05    -1.24185e-05         0.596728     0.000667248     -3.17309e-05     1.72772e-05
                    -5.72929e-05     1.52273e-05         -0.58031        0.241569      -2.5556e-05     7.50117e-06       -0.0838455       0.0987298
502800                  0.893599        0.237363     -3.78281e-05    -4.74112e-05       -0.0104523       -0.331007     -8.20669e-05     5.67194e-06
                     -4.9039e-05    -4.81711e-05        0.0122541        0.168732     -7.03219e-05    -2.90401e-05        -0.525787        0.247547
                      -0.0104629       -0.330995     -6.67389e-05    -1.71728e-05         0.570428       0.0376376      -3.2974e-05     1.43073e-05
                    -6.11627e-05     1.08113e-05        -0.525794        0.247537     -2.67031e-05     4.54335e-06       -0.0722872       0.0911947
506000                  0.896907        0.224266     -4.08431e-05    -5.23292e-05      -0.00377859       -0.338285     -8.61193e-05     2.81054e-07
                    -5.23653e-05    -5.33231e-05      -0.00190603        0.164853     -7.66143e-05    -3.45676e-05        -0.475904        0.246999
                      -0.0037893       -0.338275     -7.33707e-05    -2.25327e-05          0.54453       0.0725429     -3.42943e-05     1.10766e-05
                    -6.52035e-05     5.96588e-06        -0.475911        0.246991      -2.7922e-05     1.33103e-06       -0.0596289       0.0832196
509200                  0.899985        0.209849     -4.41338e-05    -5.78789e-05       0.00337483       -0.346158     -9.03189e-05    -5.63834e-06
                    -5.59962e-05    -5.91484e-05       -0.0174087        0.161086     -8.32744e-05    -4.07939e-05        -0.430942        0.241577
                      0.00336402       -0.346147     -8.04111e-05    -2.85991e-05         0.519065        0.105523     -3.56981e-05     7.54981e-06
                    -6.94167e-05     6.34281e-07        -0.430948        0.241571     -2.92187e-05    -2.16976e-06       -0.0457137       0.0747767
512400                  0.902712        0.193942     -4.77346e-05     -6.4187e-05         0.011061       -0.354699     -9.46573e-05    -1.21553e-05
                    -5.99691e-05     -6.5784e-05       -0.0344286        0.157515     -9.03141e-05     -4.7835e-05        -0.390837        0.232653
                       0.0110501       -0.354688     -8.78769e-05    -3.54936e-05         0.494059        0.136707      -3.7192e-05     3.68482e-06
                    -7.38004e-05    -5.24922e-06        -0.390842        0.232649     -3.05998e-05    -5.99923e-06       -0.0303548       0.0658396
515600                  0.904928        0.176352     -5.16836e-05    -7.14159e-05        0.0193411       -0.363996     -9.91205e-05    -1.93496e-05
                    -6.43253e-05    -7.34056e-05        -0.053166        0.154253     -9.77379e-05    -5.58302e-05        -0.355315        0.221326
                       0.0193301       -0.363986     -9.57787e-05    -4.33625e-05         0.469528        0.166215     -3.87829e-05    -5.68617e-07
                    -7.83479e-05     -1.1761e-05         -0.35532        0.221323      -3.2072e-05    -1.02053e-05       -0.0133285        0.056385
518800                  0.906418        0.156866     -5.60219e-05    -7.97758e-05        0.0282858       -0.374155     -0.000103686    -2.73131e-05
                    -6.91086e-05    -8.22417e-05       -0.0738512        0.151452     -0.000105539    -6.49467e-05        -0.323994        0.208446
                       0.0282747       -0.374145     -0.000104115    -5.23825e-05         0.445486        0.194158     -4.04779e-05    -5.27106e-06
                    -8.30463e-05      -1.899e-05        -0.323998        0.208443     -3.36426e-05    -1.48457e-05       0.00563473       0.0463957
522000                  0.906899        0.135251     -6.07914e-05    -8.95443e-05        0.0379772       -0.385299     -0.000108319    -3.61518e-05
                    -7.43624e-05    -9.25945e-05       -0.0967466        0.149314     -0.000113693    -7.53852e-05        -0.296444        0.194651
                       0.0379659       -0.385289     -0.000112867    -6.27671e-05          0.42194        0.220638     -4.22835e-05    -1.04961e-05
                    -8.78728e-05    -2.70397e-05        -0.296448        0.194649     -3.53187e-05    -1.99903e-05        0.0268623       0.0358655
525200                  0.905994        0.111262     -6.60296e-05    -0.000101094        0.0485114       -0.397578      -0.00011297    -4.59876e-05
                     -8.0123e-05     -0.00010487        -0.122149        0.148113     -0.000122147    -8.73868e-05        -0.272239        0.180414
                       0.0484999       -0.397569     -0.000121988    -7.47741e-05         0.398896        0.245752     -4.42056e-05    -1.63339e-05
                    -9.27921e-05    -3.60306e-05        -0.272242        0.180413     -3.71072e-05    -2.57244e-05        0.0507543       0.0248066
528400                  0.903207       0.0846548     -7.17581e-05    -0.000114934         0.060001       -0.411173      -0.00011757    -5.69598e-05
                    -8.64049e-05    -0.000119627        -0.150389        0.148214     -0.000130808     -0.00010124        -0.250971        0.166076
                       0.0599893       -0.411164     -0.000131387    -8.87138e-05         0.376356        0.269585     -4.62478e-05    -2.28962e-05
                    -9.77505e-05    -4.61022e-05        -0.250973        0.166075     -3.90138e-05    -3.21536e-05        0.0778033       0.0132605
531600                  0.897885       0.0552113     -7.79584e-05    -0.000131779        0.0725795       -0.426304     -0.000122017    -6.92272e-05
                    -9.31707e-05    -0.000137644        -0.181828        0.150105     -0.000139523    -0.000117287         -0.23227        0.151875
                       0.0725676       -0.426295     -0.000140909    -0.000104957         0.354316        0.292222     -4.84105e-05     -3.0323e-05
                    -0.000102669    -5.74163e-05        -0.232272        0.151875     -4.10419e-05    -3.94096e-05          0.10862      0.00131678
534800                   0.88918       0.0227839     -8.45207e-05    -0.000152649        0.0864054       -0.443245     -0.000126175    -8.29675e-05
                    -0.000100266    -0.000160041        -0.216839        0.154445     -0.000148048    -0.000135929        -0.215804        0.137978
                       0.0863932       -0.443237     -0.000150301    -0.000123939         0.332776        0.313736     -5.06872e-05    -3.87915e-05
                    -0.000107435    -7.01579e-05        -0.215805        0.137978     -4.31907e-05     -4.7659e-05         0.143967      -0.0108596
538000                   0.87601      -0.0126317     -9.11317e-05    -0.000179042         0.101668       -0.462335     -0.000129855     -9.8377e-05
                    -0.000107284    -0.000188453        -0.255787        0.162108     -0.000156009    -0.000157622        -0.201281        0.124493
                        0.101656       -0.462328     -0.000159169    -0.000146163         0.311729        0.334198     -5.30601e-05    -4.85292e-05
                    -0.000111889    -8.45365e-05        -0.201282        0.124492      -4.5451e-05    -5.71148e-05         0.184802      -0.0229831
541200                  0.857028      -0.0507835     -9.70234e-05    -0.000213209         0.118597       -0.484006     -0.000132799    -0.000115665
                    -0.000113251    -0.000225322        -0.298968        0.174259     -0.000162846    -0.000182869        -0.188446        0.111488
                        0.118584          -0.484     -0.000166914    -0.000172177         0.291169        0.353674     -5.54919e-05     -5.9832e-05
                    -0.000115804    -0.000100784        -0.188447        0.111487     -4.78002e-05     -6.8054e-05         0.232329      -0.0345752
544400                   0.83063       -0.090997     -0.000100388    -0.000258582         0.137469        -0.50881     -0.000134662    -0.000135045
                    -0.000115922    -0.000274315        -0.346514        0.192427     -0.000167742    -0.000212174        -0.177078        0.099002
                        0.137455       -0.508804     -0.000172649    -0.000202538         0.271089        0.372223      -5.7911e-05    -7.30909e-05
                     -0.00011887    -0.000119149        -0.177079       0.0990019     -5.01905e-05    -8.08417e-05         0.288072      -0.0448489
547600                  0.795037       -0.131953     -9.69501e-05    -0.000320349         0.158621       -0.537464     -0.000134983    -0.000156715
                    -0.000110086    -0.000340773        -0.398238        0.218574     -0.000169535    -0.000245967        -0.166987       0.0870536
                        0.158607       -0.537459     -0.000175103    -0.000237714          0.25148        0.389902     -6.01862e-05     -8.8831e-05
                     -0.00012066     -0.00013988        -0.166987       0.0870536     -5.25308e-05    -9.59684e-05         0.353936      -0.0525175
550800                  0.748521       -0.171434     -7.64192e-05    -0.000405614         0.182467       -0.570921      -0.00013316    -0.000180822
                    -8.35433e-05    -0.000431266        -0.453374        0.255139     -0.000166632    -0.000284453        -0.158008       0.0756456
                        0.182453       -0.570918     -0.000172527     -0.00027791         0.232333        0.406762     -6.20801e-05    -0.000107769
                    -0.000120599    -0.000163201        -0.158008       0.0756455     -5.46514e-05    -0.000114105         0.432276      -0.0554825
554000                  0.689844       -0.206123     -1.41631e-05    -0.000519661         0.209516       -0.610468     -0.000128424    -0.000207413
                    -8.71588e-06    -0.000547606         -0.51021        0.304971     -0.000156966    -0.000327356            -0.15       0.0647708
                          0.2095       -0.610466     -0.000162653    -0.000322777         0.213639        0.422852     -6.31606e-05    -0.000130898
                    -0.000117928    -0.000189259            -0.15       0.0647707     -5.62385e-05    -0.000136186         0.525874      -0.0503242
557200                   0.61893       -0.231616      0.000140557    -0.000642936         0.240389       -0.657882     -0.000119823    -0.000236351
                     0.000163611    -0.000659153        -0.565605         0.37105     -0.000138083    -0.000373561        -0.142841       0.0544151
                        0.240373       -0.657883     -0.000142821    -0.000370993         0.195387        0.438217     -6.26296e-05    -0.000159615
                    -0.000111668    -0.000218044        -0.142842       0.0544151     -5.67046e-05    -0.000163545         0.637718      -0.0314867
560400                  0.537667       -0.242901      0.000427275    -0.000665204         0.275842       -0.715689     -0.000106237    -0.000267204
                     0.000447275    -0.000649145        -0.614502        0.455818     -0.000107475    -0.000420682        -0.136427       0.0445602
                        0.275824       -0.715692     -0.000110399    -0.000419803         0.177567        0.452899     -5.89757e-05    -0.000195892
                    -0.000100623    -0.000249268        -0.136428       0.0445602     -5.49243e-05    -0.000198107         0.770219      0.00994153
563600                  0.450459       -0.235453      0.000688656     -0.00044381         0.316758       -0.787576     -8.64552e-05      -0.0002991
                     0.000671094    -0.000422413        -0.649742        0.559989     -6.33136e-05     -0.00046476        -0.130667       0.0351847
                        0.316737       -0.787583     -6.36595e-05    -0.000464743          0.16017        0.466937     -4.92459e-05    -0.000242458
                    -8.34195e-05    -0.000282202        -0.130668       0.0351847     -4.86663e-05    -0.000242681         0.923168       0.0877669
564000                  0.439456       -0.233048      0.000704991    -0.000404096         0.322304       -0.797802     -8.34874e-05    -0.000303096
                     0.000683671    -0.000385714        -0.652762        0.574292     -5.68095e-05      -0.0004698        -0.129989       0.0340454
                        0.322283        -0.79781     -5.67982e-05    -0.000469807         0.158024        0.468649     -4.73558e-05    -0.000249169
                    -8.07649e-05    -0.000286379         -0.12999       0.0340453       -4.738e-05    -0.000249141         0.943482        0.100974
566800                  0.364013       -0.206774      0.000709972    -0.000143968         0.364081        -0.87913      -5.9335e-05     -0.00033059
                     0.000681548    -0.000151186        -0.662679        0.680945     -5.52305e-06    -0.000500452        -0.125484        0.026266
                        0.364056       -0.879142     -2.98682e-06    -0.000500006         0.143183        0.480368     -2.74845e-05    -0.000302752
                    -5.86589e-05    -0.000315482        -0.125484       0.0262659     -3.33182e-05    -0.000301265         0.979915        0.199417
570000                  0.286008       -0.157694      0.000598459     3.49763e-05         0.386373       -0.922343     -2.40936e-05    -0.000359558
                        0.000583     1.37903e-05        -0.622378        0.782717      6.31888e-05    -0.000522076        -0.120808       0.0177807
                        0.386343       -0.922355      6.81364e-05    -0.000519782         0.126597        0.493225      1.85284e-05    -0.000379569
