! TOUCHSTONE file generated by CST MICROWAVE STUDIO
! Date and time: Mon Oct 20 08:27:20 2025
! Project name: Teste_Macro_Metasurface_Nanopilar.cst
! Parameters = {H=600; L_x=85; L_y=200; Lambda=1064; Max_L=200; Min_L=70; PathPara=1; Phi=0; Step_L=10; Theta=0; p=520; phaseX=180; phaseY=0}
! Header version: 2018
! Port assignment regex: !\s*Touchstone port\s*([0-9]+)\s*=\s*(CST MWS port|CST DS port)\s*([0-9]+|Zmin|Zmax)\s*\(\"(.*)\"\)(\s*mode\s*([0-9]+))?.*
! Touchstone port assignment:
! Touchstone port 1 = CST MWS port Zmax ("") mode 1
! Touchstone port 2 = CST MWS port Zmax ("") mode 2
! Touchstone port 3 = CST MWS port Zmin ("") mode 1
! Touchstone port 4 = CST MWS port Zmin ("") mode 2
! S-Parameters are not renormalized. Each port impedance will be approximated by the real part at minimum frequency. The values are described via the [Reference] keyword.
! Default impedance is overridden by [Reference]
[Version] 2.0
# GHz S RI R 376.73
[Number of Ports] 4
[Reference]
376.73 376.73 259.888 259.888 
[Number of Frequencies] 52
[Network Data]
474000                 -0.553349       -0.576654      8.81356e-06     -3.3536e-06        0.0642907       -0.564359       3.1512e-05     0.000136959
                    -4.32675e-05     7.68728e-05        -0.110772        0.236899     -5.94705e-05    -0.000122467        -0.913973        -0.29417
                       0.0642907       -0.564359     -2.73243e-05    -2.45175e-05        -0.690957        0.427052     -6.16623e-05    -8.88869e-05
                     3.20635e-05     0.000136534        -0.913986       -0.294192     -6.18412e-05    -8.83284e-05       -0.0517244        0.260288
477200                 -0.552452       -0.554008      2.83891e-06    -4.41453e-06         0.072289       -0.570015      3.81695e-05      0.00013897
                    -4.80441e-05     7.26487e-05        -0.109194        0.237728     -5.71602e-05    -0.000118445        -0.916033       -0.282383
                        0.072289       -0.570015     -2.67555e-05    -2.17647e-05        -0.656791        0.431353     -5.66023e-05    -9.43526e-05
                     3.87103e-05     0.000138537        -0.916047       -0.282405      -5.6733e-05    -9.38187e-05       -0.0500668        0.261972
480400                 -0.550975       -0.530844      -3.2602e-06    -5.57182e-06        0.0808312       -0.575816      4.52539e-05     0.000140993
                    -5.28967e-05      6.8321e-05        -0.107499        0.238613     -5.48217e-05    -0.000114219        -0.918024       -0.269614
                       0.0808312       -0.575816     -2.61925e-05    -1.88964e-05        -0.622046        0.434487     -5.14033e-05    -0.000100273
                     4.57832e-05     0.000140551        -0.918039       -0.269635     -5.14852e-05    -9.97666e-05       -0.0483124        0.263771
483600                 -0.548877       -0.507167      -9.4863e-06    -6.83114e-06        0.0899672       -0.581757      5.28046e-05     0.000143019
                     -5.7827e-05     6.38862e-05        -0.105674        0.239562     -5.24585e-05    -0.000109777        -0.919905       -0.255741
                       0.0899672       -0.581757     -2.56374e-05    -1.59056e-05        -0.586774        0.436399     -4.60732e-05    -0.000106693
                     5.33215e-05     0.000142568         -0.91992       -0.255763     -4.61058e-05    -0.000106219       -0.0464526        0.265699
486800                 -0.546115       -0.482983     -1.58419e-05    -8.19845e-06        0.0997518       -0.587831      6.08654e-05     0.000145035
                    -6.28366e-05     5.93403e-05        -0.103705         0.24058      -5.0075e-05    -0.000105104        -0.921623       -0.240627
                       0.0997518       -0.587831     -2.50928e-05    -1.27848e-05        -0.551033        0.437042     -4.06234e-05    -0.000113665
                     6.13689e-05     0.000144574        -0.921639       -0.240648     -4.06067e-05    -0.000113226       -0.0444779        0.267769
490000                 -0.542647       -0.458298     -2.23295e-05    -9.68009e-06         0.110246       -0.594026      6.94855e-05     0.000147025
                     -6.7927e-05     5.46796e-05        -0.101571        0.241677     -4.76763e-05    -0.000100184        -0.923109        -0.22411
                        0.110246       -0.594026     -2.45615e-05    -9.52619e-06        -0.514886        0.436368     -3.50705e-05    -0.000121245
                     6.99744e-05     0.000146555        -0.923125       -0.224131     -3.50048e-05    -0.000120847       -0.0423774        0.269997
493200                 -0.538426       -0.433126     -2.89516e-05    -1.12827e-05         0.121518       -0.600326      7.87199e-05     0.000148969
                       -7.31e-05        4.99e-05        -0.099254         0.24286     -4.52687e-05    -9.49998e-05         -0.92427       -0.206002
                        0.121518       -0.600326     -2.40471e-05    -6.12092e-06        -0.478402        0.434335     -2.94369e-05    -0.000129496
                      7.9193e-05      0.00014849        -0.924287       -0.206024      -2.9323e-05    -0.000129143       -0.0401389        0.272401
496400                 -0.533406       -0.407479     -3.57104e-05    -1.30135e-05         0.133642        -0.60671      8.86301e-05     0.000150842
                    -7.83574e-05     4.49971e-05       -0.0967273        0.244141     -4.28597e-05    -8.95346e-05        -0.924985       -0.186086
                        0.133642        -0.60671     -2.35532e-05    -2.55972e-06        -0.441652        0.430904     -2.37527e-05    -0.000138487
                     8.90861e-05     0.000150354        -0.925003       -0.186108     -2.35921e-05    -0.000138183       -0.0377489        0.275003
499600                 -0.527539       -0.381376     -4.26083e-05    -1.48798e-05         0.146702        -0.61315      9.92855e-05     0.000152613
                    -8.37008e-05     3.99665e-05       -0.0939615        0.245532     -4.04583e-05    -8.37685e-05        -0.925093       -0.164106
                        0.146702        -0.61315     -2.30846e-05     1.16748e-06        -0.404713        0.426043     -1.80574e-05    -0.000148293
                     9.97227e-05     0.000152116        -0.925113       -0.164128     -1.78522e-05    -0.000148045       -0.0351918        0.277829
502800                 -0.520775       -0.354838     -4.96475e-05    -1.68896e-05          0.16079       -0.619609      0.000110764     0.000154242
                     -8.9132e-05     3.48036e-05       -0.0909212        0.247048     -3.80751e-05     -7.7681e-05        -0.924378       -0.139764
                         0.16079       -0.619609     -2.26463e-05     5.07152e-06        -0.367666        0.419723     -1.24022e-05    -0.000158997
                      0.00011118     0.000153736          -0.9244       -0.139786     -1.21556e-05    -0.000158809         -0.03245        0.280907
506000                 -0.513063       -0.327889       -5.683e-05    -1.90513e-05         0.176008       -0.626038      0.000123151     0.000155679
                    -9.46528e-05     2.95034e-05       -0.0875636        0.248706     -3.57228e-05    -7.12499e-05        -0.922554       -0.112715
                        0.176008       -0.626038     -2.22443e-05     9.16413e-06        -0.330592        0.411921     -6.85295e-06    -0.000170687
                     0.000123546     0.000155165        -0.922577       -0.112737     -6.56898e-06    -0.000170566       -0.0295034        0.284273
509200                 -0.504352       -0.300559     -6.41578e-05    -2.13736e-05         0.192468       -0.632378      0.000136547     0.000156862
                    -0.000100265     2.40608e-05       -0.0838361        0.250527     -3.34164e-05    -6.44515e-05        -0.919228      -0.0825578
                        0.192468       -0.632378     -2.18856e-05      1.3458e-05        -0.293581        0.402622     -1.49313e-06    -0.000183458
                     0.000136918     0.000156339        -0.919253      -0.0825791     -1.17727e-06    -0.000183409       -0.0263291        0.287969
512400                 -0.494591       -0.272881     -7.16325e-05     -2.3866e-05         0.210293       -0.638551       0.00015106      0.00015771
                    -0.000105971     1.84705e-05       -0.0796744        0.252536     -3.11735e-05    -5.72608e-05        -0.913873      -0.0488342
                        0.210293       -0.638551      -2.1578e-05     1.79667e-05        -0.256719        0.391817      3.57195e-06     -0.00019741
                     0.000151404     0.000157181          -0.9139       -0.048855      3.91288e-06    -0.000197437       -0.0229009        0.292042
515600                 -0.483728       -0.244895     -7.92557e-05    -2.65383e-05         0.229619       -0.644458      0.000166813     0.000158125
                    -0.000111772     1.27268e-05       -0.0749982        0.254764     -2.90148e-05     -4.9651e-05        -0.905764      -0.0110309
                        0.229619       -0.644458      -2.1331e-05      2.2705e-05        -0.220097        0.379502      8.21084e-06    -0.000212642
                     0.000167128     0.000157589        -0.905793      -0.0110508      8.56844e-06    -0.000212751       -0.0191886        0.296555
518800                  -0.47171       -0.216644     -8.70287e-05    -2.94009e-05          0.25059       -0.649975      0.000183941     0.000157979
                     -0.00011767     6.82391e-06       -0.0697059        0.257247     -2.69649e-05    -4.15939e-05        -0.893908       0.0314062
                         0.25059       -0.649975     -2.11551e-05     2.76889e-05        -0.183806        0.365683      1.22608e-05    -0.000229256
                     0.000184224     0.000157439        -0.893939       0.0313874      1.26249e-05    -0.000229449       -0.0151574        0.301579
522000                 -0.458487       -0.188178     -9.49525e-05    -3.24648e-05         0.273362       -0.654947      0.000202594     0.000157112
                    -0.000123667     7.55579e-07       -0.0636678        0.260031     -2.50524e-05    -3.30599e-05        -0.876933       0.0790316
                        0.273362       -0.654947     -2.10628e-05     3.29356e-05        -0.147939         0.35037      1.55222e-05    -0.000247345
                     0.000202843      0.00015657        -0.876967       0.0790145      1.58811e-05    -0.000247624       -0.0107675        0.307205
525200                 -0.444008        -0.15955     -0.000103028    -3.57416e-05         0.298101       -0.659181      0.000222935      0.00015532
                    -0.000129765    -5.48464e-06        -0.056715        0.263172     -2.33107e-05     -2.4018e-05         -0.85295        0.132314
                        0.298101        -0.65918     -2.10685e-05     3.84636e-05        -0.112585        0.333585      1.77533e-05    -0.000266988
                     0.000223148     0.000154779        -0.852987        0.132299      1.80935e-05    -0.000267352      -0.00597276        0.313545
528400                 -0.428227       -0.130822     -0.000111255    -3.92434e-05         0.324976       -0.662433      0.000245138     0.000152344
                    -0.000135965    -1.19035e-05       -0.0486236        0.266743      -2.1779e-05    -1.44362e-05        -0.819366        0.191459
                        0.324976       -0.662433     -2.11889e-05     4.42928e-05        -0.077836        0.315352      1.86649e-05    -0.000288239
                     0.000245311     0.000151807        -0.819405        0.191447      1.89715e-05    -0.000288683     -0.000720198        0.320737
531600                 -0.411096       -0.102059     -0.000119634    -4.29832e-05         0.354154       -0.664406      0.000269383     0.000147856
                    -0.000142271    -1.85082e-05       -0.0390907        0.270833      -2.0503e-05    -4.28179e-06        -0.772678        0.256079
                        0.354154       -0.664406     -2.14436e-05     5.04448e-05       -0.0437788        0.295707      1.79166e-05    -0.000311113
                     0.000269513     0.000147327         -0.77272        0.256072      1.81742e-05     -0.00031163       0.00505067        0.328962
534800                 -0.392572      -0.0733348     -0.000128164    -4.69744e-05         0.385794       -0.664732      0.000295847     0.000141435
                    -0.000148684    -2.53062e-05       -0.0276961        0.275559     -1.95359e-05     6.47802e-06        -0.708316        0.324597
                        0.385794       -0.664732     -2.18552e-05     5.69425e-05       -0.0104989        0.274689      1.51168e-05    -0.000335567
                     0.000295932      0.00014092        -0.708359        0.324596      1.53103e-05    -0.000336144        0.0114082        0.338449
538000                 -0.372617      -0.0447274     -0.000136844    -5.12313e-05         0.420031       -0.662961      0.000324689      0.00013255
                    -0.000155205    -3.23054e-05       -0.0138403        0.281071     -1.89391e-05     1.78756e-05        -0.620714        0.393259
                        0.420031       -0.662961     -2.24502e-05     6.38105e-05        0.0219216        0.252347      9.82638e-06    -0.000361481
                     0.000324725     0.000132056        -0.620758        0.393265      9.94236e-06    -0.000362098        0.0184277        0.349499
541200                 -0.351196      -0.0163214     -0.000145672    -5.57688e-05         0.456957       -0.658551       0.00035602     0.000120528
                    -0.000161838     -3.9514e-05       0.00336206        0.287562     -1.87841e-05     2.99419e-05        -0.504059        0.454711
                        0.456957       -0.658551     -2.32596e-05     7.10749e-05        0.0534048        0.228735      1.57099e-06    -0.000388627
                     0.000356008     0.000120064        -0.504102        0.454725      1.60019e-06    -0.000389259        0.0261886        0.362512
544400                 -0.328279        0.011793     -0.000154646    -6.06026e-05         0.496592       -0.650856      0.000389866     0.000104528
                    -0.000168583    -4.69407e-05        0.0252731        0.295278      -1.9153e-05     4.27048e-05        -0.354431        0.496475
                        0.496592       -0.650856     -2.43197e-05     7.87635e-05        0.0838776        0.203914     -1.01366e-05    -0.000416648
                     0.000389808     0.000104103        -0.354468        0.496497     -1.01969e-05    -0.000417264        0.0347665        0.378031
547600                 -0.303842       0.0395196     -0.000163763     -6.5749e-05          0.53885       -0.639117      0.000426102     8.35097e-05
                    -0.000175442    -5.45947e-05        0.0540969        0.304512       -2.014e-05     5.61881e-05         -0.17406        0.500697
                         0.53885       -0.639117     -2.56728e-05     8.69053e-05         0.113272        0.177948      -2.5761e-05    -0.000445031
                     0.000425999     8.31348e-05        -0.174087        0.500726     -2.59039e-05    -0.000445596        0.0442153        0.396804
550800                 -0.277868       0.0667572     -0.000173019    -7.12252e-05         0.583489        -0.62247      0.000464351     5.62151e-05
                    -0.000182418    -6.24856e-05        0.0936333        0.315536     -2.18529e-05     7.04089e-05        0.0230797        0.447889
                        0.583489        -0.62247     -2.73685e-05     9.55302e-05         0.141525        0.150909     -4.56939e-05    -0.000473093
                     0.000464212     5.59031e-05        0.0230644         0.44792     -4.59002e-05    -0.000473571         0.054527         0.41989
554000                 -0.250349       0.0933999     -0.000182409    -7.70492e-05          0.63005       -0.599957      0.000503851     2.11819e-05
                    -0.000189513    -7.06235e-05         0.150987        0.328277     -2.44137e-05     8.53749e-05         0.208915        0.326712
                         0.63005       -0.599956     -2.94653e-05     0.000104669         0.168582        0.122871      -7.0191e-05    -0.000499986
                     0.000503688      2.0945e-05         0.208912        0.326739     -7.04273e-05    -0.000500342        0.0655454        0.448815
557200                 -0.221283        0.119337     -0.000191926    -8.32395e-05         0.677797        -0.57057      0.000543273    -2.31895e-05
                    -0.000196727    -7.90191e-05         0.240927         0.34083     -2.79596e-05     0.000101081         0.349058        0.145443
                        0.677797        -0.57057     -3.20315e-05     0.000114353         0.194392       0.0939138     -9.93023e-05     -0.00052472
                     0.000543104    -2.33415e-05         0.349061         0.14546     -9.95204e-05    -0.000524931        0.0767718        0.485831
560400                 -0.190679        0.144456     -0.000201564    -8.98157e-05         0.725641       -0.533328      0.000580509    -7.84624e-05
                    -0.000204064    -8.76836e-05         0.398667        0.341741     -3.26438e-05     0.000117506         0.419834      -0.0667836
                        0.725641       -0.533328     -3.51473e-05     0.000124611         0.218912       0.0641182     -0.000132806    -0.000546229
                     0.000580361    -7.85254e-05         0.419838      -0.0667763     -0.000132946    -0.000546284        0.0869252        0.534321
563600                 -0.158556        0.168639     -0.000211314    -9.67978e-05         0.772092       -0.487387      0.000612482    -0.000145829
                    -0.000211524    -9.66289e-05         0.719517        0.257507     -3.86345e-05     0.000134606         0.420253       -0.274059
                        0.772092       -0.487387     -3.89069e-05     0.000135472         0.242107        0.033568     -0.000170167    -0.000563458
                     0.000612385    -0.000145809         0.420254       -0.274058     -0.000170162    -0.000563369        0.0929092        0.599378
564000                 -0.154436         0.17159      -0.00021254    -9.77002e-05          0.77771       -0.481001      0.000615915    -0.000155129
                    -0.000212465    -9.77675e-05         0.780282        0.226539     -3.94841e-05     0.000136787          0.41612       -0.298158
                         0.77771       -0.481001     -3.94275e-05     0.000136873         0.244912       0.0297004     -0.000175069    -0.000565262
                     0.000615826      -0.0001551          0.41612       -0.298158     -0.000175041    -0.000565157        0.0930718        0.609016
566800                 -0.124943        0.191769     -0.000221165    -0.000104207         0.815241       -0.432202      0.000635083    -0.000225574
                    -0.000219109    -0.000105868         0.931955       -0.362574     -4.61139e-05     0.000152309         0.367885       -0.450641
                        0.815241       -0.432202     -4.34207e-05     0.000146957         0.263947      0.00234868     -0.000210527    -0.000575481
                     0.000635068    -0.000225493         0.367881       -0.450644     -0.000210313    -0.000575283        0.0873344        0.688347
570000                -0.0898799        0.213727     -0.000231108    -0.000112064         0.852808       -0.367719      0.000643418    -0.000316368
                     -0.00022682    -0.000115413        -0.116038       -0.993245     -5.52754e-05     0.000170512         0.285727       -0.586873
                        0.852808       -0.367719     -4.88174e-05     0.000159084         0.284412      -0.0294537     -0.000252752    -0.000581618
