! TOUCHSTONE file generated by CST MICROWAVE STUDIO
! Date and time: Mon Oct 20 08:27:15 2025
! Project name: Teste_Macro_Metasurface_Nanopilar.cst
! Parameters = {H=600; L_x=70; L_y=200; Lambda=1064; Max_L=200; Min_L=70; PathPara=1; Phi=0; Step_L=10; Theta=0; p=520; phaseX=180; phaseY=0}
! Header version: 2018
! Port assignment regex: !\s*Touchstone port\s*([0-9]+)\s*=\s*(CST MWS port|CST DS port)\s*([0-9]+|Zmin|Zmax)\s*\(\"(.*)\"\)(\s*mode\s*([0-9]+))?.*
! Touchstone port assignment:
! Touchstone port 1 = CST MWS port Zmax ("") mode 1
! Touchstone port 2 = CST MWS port Zmax ("") mode 2
! Touchstone port 3 = CST MWS port Zmin ("") mode 1
! Touchstone port 4 = CST MWS port Zmin ("") mode 2
! S-Parameters are not renormalized. Each port impedance will be approximated by the real part at minimum frequency. The values are described via the [Reference] keyword.
! Default impedance is overridden by [Reference]
[Version] 2.0
# GHz S RI R 376.73
[Number of Ports] 4
[Reference]
376.73 376.73 259.888 259.888 
[Number of Frequencies] 52
[Network Data]
474000                  0.804166        -0.48981      3.92362e-05     0.000144082        -0.287657      -0.0381165     -0.000210525    -4.05849e-05
                     3.91999e-05     0.000144216         0.739363       -0.527038      1.29774e-05    -7.62048e-05        -0.367291       0.0750822
                       -0.287657      -0.0381165      1.30079e-05    -7.62027e-05        -0.688492       -0.643473      0.000141229    -0.000200578
                    -0.000245214    -1.93308e-05        -0.367264       0.0750868       0.00014713     -0.00021872        -0.896638       -0.145279
477200                  0.791508       -0.493174      4.06951e-05     0.000142334        -0.290493      -0.0372426     -0.000211065    -3.89126e-05
                      4.0585e-05     0.000142644         0.741744       -0.519468       1.6149e-05    -7.58952e-05        -0.362303       0.0777029
                       -0.290493      -0.0372423      1.60076e-05    -7.59508e-05        -0.673607       -0.646314      0.000135428    -0.000188458
                    -0.000245077    -1.82006e-05        -0.362276       0.0777073      0.000141566     -0.00020565        -0.894731       -0.130881
480400                  0.778228       -0.496396      4.22044e-05     0.000140517        -0.293556      -0.0362895     -0.000211621    -3.71787e-05
                     4.20189e-05     0.000141009         0.744009       -0.511345      1.94341e-05    -7.55873e-05        -0.356929       0.0804643
                       -0.293557      -0.0362889      1.91139e-05    -7.57015e-05        -0.658002       -0.648922      0.000129424    -0.000176161
                    -0.000244935    -1.70277e-05        -0.356902       0.0804684      0.000135782    -0.000192396         -0.89234       -0.115765
483600                  0.764287       -0.499445      4.37668e-05     0.000138628        -0.296874      -0.0352461     -0.000212194    -3.53796e-05
                     4.35042e-05     0.000139307         0.746117        -0.50262      2.28388e-05    -7.52817e-05        -0.351123       0.0833761
                       -0.296877      -0.0352451      2.23324e-05    -7.54559e-05        -0.641638       -0.651252       0.00012321    -0.000163684
                    -0.000244788    -1.58095e-05        -0.351095       0.0833799      0.000129768    -0.000178954        -0.889396      -0.0998923
486800                   0.74965       -0.502284       4.5385e-05     0.000136661        -0.300482       -0.034099     -0.000212784    -3.35117e-05
                     4.50437e-05     0.000137535         0.748016       -0.493247      2.63697e-05    -7.49795e-05        -0.344832       0.0864485
                       -0.300486      -0.0340976      2.56691e-05    -7.52147e-05        -0.624476       -0.653257      0.000116777    -0.000151025
                    -0.000244636    -1.45434e-05        -0.344804        0.086452      0.000123514    -0.000165322        -0.885819       -0.083224
490000                  0.734276       -0.504872      4.70621e-05     0.000134613        -0.304418      -0.0328324     -0.000213393     -3.1571e-05
                     4.66403e-05     0.000135687         0.749643       -0.483173      3.00338e-05    -7.46816e-05        -0.337993        0.089692
                       -0.304423      -0.0328305      2.91307e-05     -7.4979e-05        -0.606472        -0.65488      0.000110117    -0.000138181
                    -0.000244478    -1.32265e-05        -0.337965       0.0896952      0.000117013      -0.0001515        -0.881519      -0.0657223
493200                  0.718126       -0.507161      4.88014e-05     0.000132477         -0.30873      -0.0314267     -0.000214021    -2.95531e-05
                     4.82972e-05      0.00013376         0.750926       -0.472345      3.38387e-05    -7.43892e-05        -0.330536       0.0931174
                       -0.308736      -0.0314244      3.27242e-05    -7.47499e-05        -0.587586        -0.65606      0.000103221    -0.000125151
                    -0.000244314    -1.18557e-05        -0.330507       0.0931201      0.000110253    -0.000137485        -0.876391      -0.0473508
496400                  0.701157       -0.509098      5.06062e-05     0.000130249        -0.313473      -0.0298582      -0.00021467    -2.74534e-05
                      5.0018e-05     0.000131747         0.751772       -0.460712      3.77926e-05    -7.41037e-05        -0.322373       0.0967349
                        -0.31348      -0.0298553      3.64572e-05    -7.45287e-05        -0.567775       -0.656725      9.60802e-05    -0.000111931
                    -0.000244144    -1.04277e-05        -0.322344       0.0967371      0.000103225    -0.000123277        -0.870317      -0.0280762
499600                  0.683327       -0.510621      5.24804e-05     0.000127921        -0.318716      -0.0280974     -0.000215339    -2.52667e-05
                     5.18062e-05     0.000129643         0.752074       -0.448222      4.19042e-05    -7.38266e-05        -0.313403        0.100554
                       -0.318724      -0.0280938      4.03379e-05     -7.4317e-05        -0.546998       -0.656793      8.86848e-05    -9.85204e-05
                    -0.000243968    -8.93861e-06        -0.313374        0.100556      9.59185e-05    -0.000108872        -0.863159     -0.00786998
502800                  0.664593       -0.511659      5.44278e-05     0.000125488        -0.324541      -0.0261073     -0.000216031    -2.29876e-05
                     5.36659e-05     0.000127441         0.751702       -0.434831       4.6183e-05    -7.35595e-05        -0.303505        0.104583
                       -0.324551       -0.026103      4.43749e-05    -7.41163e-05        -0.525214       -0.656174      8.10248e-05    -8.49161e-05
                    -0.000243784    -7.38463e-06        -0.303476        0.104584      8.83219e-05    -9.42716e-05        -0.854765       0.0132891
506000                  0.644915       -0.512134      5.64529e-05     0.000122942        -0.331052      -0.0238412     -0.000216746    -2.06101e-05
                     5.56015e-05     0.000125135         0.750503       -0.420501      5.06392e-05    -7.33045e-05        -0.292533        0.108826
                       -0.331063      -0.0238361      4.85779e-05    -7.39287e-05        -0.502384       -0.654764      7.30897e-05    -7.11162e-05
                    -0.000243593    -5.76136e-06        -0.292503        0.108827       8.0424e-05    -7.94733e-05        -0.844957       0.0354119
509200                   0.62425       -0.511954      5.85603e-05     0.000120275        -0.338376      -0.0212388     -0.000217485    -1.81278e-05
                     5.76175e-05     0.000122718         0.748297        -0.40521      5.52839e-05    -7.30638e-05        -0.280308        0.113284
                       -0.338389      -0.0212326      5.29571e-05    -7.37562e-05        -0.478476       -0.652447      6.48687e-05     -5.7119e-05
                    -0.000243394    -4.06407e-06        -0.280278        0.113283      7.22128e-05    -6.44767e-05        -0.833538       0.0584949
512400                   0.60256       -0.511016      6.07549e-05     0.000117478        -0.346674      -0.0182211     -0.000218249    -1.55336e-05
                      5.9719e-05     0.000120181         0.744874       -0.388958      6.01292e-05      -7.284e-05        -0.266614        0.117945
                        -0.34669      -0.0182138      5.75236e-05    -7.36014e-05         -0.45346       -0.649093      5.63504e-05    -4.29226e-05
                    -0.000243187    -2.28757e-06        -0.266583        0.117945      6.36761e-05    -4.92812e-05        -0.820283       0.0825151
515600                  0.579811       -0.509206      6.30424e-05     0.000114542        -0.356155      -0.0146834      -0.00021904    -1.28197e-05
                     6.19115e-05     0.000117514         0.739993       -0.371775       6.5188e-05     -7.2636e-05        -0.251184        0.122789
                       -0.356174      -0.0146746      6.22894e-05    -7.34671e-05        -0.427316       -0.644555       4.7523e-05    -2.85254e-05
                     -0.00024297    -4.26182e-07        -0.251152        0.122788      5.48008e-05    -3.38867e-05        -0.804942        0.107424
518800                  0.555975       -0.506392      6.54284e-05     0.000111456        -0.367089      -0.0104829     -0.000219859    -9.97788e-06
                     6.42008e-05     0.000114709         0.733386       -0.353734      7.04744e-05    -7.24552e-05        -0.233684         0.12777
                       -0.367111      -0.0104725      6.72677e-05    -7.33565e-05        -0.400032       -0.638671      3.83741e-05    -1.39259e-05
                    -0.000242745     1.52632e-06        -0.233652        0.127767      4.55736e-05    -1.82931e-05        -0.787235        0.133139
522000                  0.531032       -0.502429      6.79194e-05     0.000108209        -0.379835     -0.00542132     -0.000220707    -6.99874e-06
                     6.65934e-05     0.000111753         0.724754       -0.334966      7.60039e-05    -7.23016e-05        -0.213696        0.132809
                        -0.37986     -0.00540878      7.24726e-05    -7.32732e-05        -0.371612        -0.63126      2.88908e-05     8.76984e-07
                    -0.000242509     3.57679e-06        -0.213663        0.132805      3.59806e-05    -2.50067e-06        -0.766857        0.159534
525200                  0.504971       -0.497153      7.05224e-05     0.000104787         -0.39488     0.000785183     -0.000221585    -3.87221e-06
                     6.90964e-05     0.000108635         0.713784       -0.315674      8.17933e-05    -7.21795e-05        -0.190691         0.13777
                       -0.394909     0.000800368      7.79197e-05    -7.32217e-05        -0.342077       -0.622124      1.90597e-05     1.58844e-05
                    -0.000242262     5.73279e-06        -0.190658        0.137764      2.60073e-05     1.34898e-05        -0.743476        0.186429
528400                  0.477796       -0.490383      7.32448e-05     0.000101176          -0.4129      0.00855569     -0.000222495    -5.87119e-07
                     7.17173e-05     0.000105341         0.700158        -0.29615      8.78607e-05    -7.20941e-05        -0.163992         0.14243
                       -0.412934      0.00857428      8.36259e-05    -7.32065e-05        -0.311467       -0.611046      8.86686e-06     3.10972e-05
                    -0.000242004     8.00269e-06        -0.163958        0.142423      1.56385e-05     2.96772e-05         -0.71674        0.213574
531600                  0.449533        -0.48192      7.60948e-05     9.73613e-05         -0.43486       0.0185333     -0.000223439     2.86882e-06
                     7.44644e-05     0.000101856         0.683582       -0.276794      9.42264e-05    -7.20513e-05        -0.132727         0.14642
                       -0.434901       0.0185564      8.96097e-05    -7.32334e-05        -0.279853        -0.59779     -1.70244e-06     4.65159e-05
                    -0.000241733     1.03958e-05        -0.132692        0.146411      4.85882e-06     4.60602e-05        -0.686286        0.240638
534800                  0.420225       -0.471544      7.90814e-05     9.33238e-05        -0.462188       0.0317518     -0.000224418     6.50921e-06
                     7.73468e-05     9.81624e-05         0.663811       -0.258119      0.000100912    -7.20579e-05       -0.0957657        0.149134
                       -0.462236       0.0317811      9.58913e-05    -7.33088e-05        -0.247337       -0.582105     -1.26634e-05     6.21406e-05
                     -0.00024145     1.29223e-05       -0.0957312        0.149123     -6.34808e-06     6.26368e-05        -0.651753        0.267188
538000                  0.389948       -0.459021      8.22143e-05     8.90442e-05        -0.497068       0.0499699     -0.000225433     1.03491e-05
                     8.03746e-05     9.42419e-05         0.640699       -0.240755      0.000107942    -7.21219e-05       -0.0516467        0.149566
                       -0.497127       0.0500081      0.000102493    -7.34401e-05        -0.214062       -0.563724     -2.40319e-05     7.79713e-05
                    -0.000241152     1.55938e-05       -0.0516121        0.149552      -1.7999e-05     7.94045e-05          -0.6128        0.292678
541200                  0.358812       -0.444099      8.55041e-05     8.45004e-05        -0.543007       0.0764029     -0.000226487     1.44053e-05
                     8.35586e-05     9.00731e-05         0.614242       -0.225431      0.000115343    -7.22525e-05       0.00150422        0.146031
                       -0.543079       0.0764546      0.000109439    -7.36358e-05        -0.180215       -0.542372     -3.58244e-05     9.40076e-05
                    -0.000240839      1.8423e-05       0.00153849        0.146014     -3.01114e-05     9.63603e-05        -0.569142        0.316432
544400                  0.326969       -0.426512      8.89624e-05     7.96675e-05        -0.605904        0.117499     -0.000227581     1.86964e-05
                     8.69107e-05     8.56319e-05         0.584628       -0.212941      0.000123144    -7.24602e-05        0.0660067        0.135675
                       -0.605993        0.117573      0.000116756    -7.39059e-05        -0.146042        -0.51777     -4.80583e-05     0.000110248
                    -0.000240509     2.14245e-05        0.0660399        0.135653     -4.27033e-05     0.000113501        -0.520578        0.337637
547600                   0.29462       -0.405987       9.2602e-05     7.45172e-05        -0.696124        0.187887     -0.000228716     2.32432e-05
                     9.04442e-05     8.08909e-05         0.552277        -0.20408      0.000131376    -7.27576e-05         0.144474         0.11361
                       -0.696237        0.188001      0.000124474     -7.4262e-05        -0.111847       -0.489644     -6.07516e-05     0.000126693
                    -0.000240161     2.46143e-05         0.144506        0.113584     -5.57934e-05     0.000130821        -0.467046        0.355344
550800                  0.262024       -0.382253       9.6437e-05     6.90179e-05        -0.831366        0.326827     -0.000229895     2.80692e-05
                     9.41736e-05     7.58194e-05         0.517854       -0.199568      0.000140077    -7.31592e-05         0.239073       0.0714783
                       -0.831505        0.327026      0.000132626    -7.47175e-05       -0.0780043       -0.457738     -7.39228e-05     0.000143338
                    -0.000239795     2.80109e-05           0.2391       0.0714484     -6.94012e-05     0.000148317        -0.408673        0.368486
554000                  0.229501       -0.355045      0.000100483     6.31333e-05        -0.838122        0.545483     -0.000231119     3.32006e-05
                     9.81148e-05     7.03821e-05         0.482252       -0.199953      0.000149285    -7.36822e-05         0.349143     -0.00462577
                       -0.837995        0.545677      0.000141248    -7.52882e-05       -0.0449604       -0.421827     -8.75916e-05     0.000160183
                    -0.000239407     3.16349e-05         0.349164     -0.00465947     -8.35468e-05     0.000165983        -0.345832        0.375911
557200                  0.197446       -0.324124      0.000104756     5.68221e-05        -0.486987        0.873409     -0.000232389     3.86671e-05
                     0.000102286     6.45386e-05         0.446534       -0.205528      0.000159044    -7.43465e-05         0.464957       -0.135671
                       -0.486626         0.87361       0.00015038    -7.59926e-05        -0.013237       -0.381737     -0.000101778     0.000177223
                    -0.000238997       3.551e-05          0.46497       -0.135706     -9.82507e-05     0.000183812        -0.279198        0.376446
560400                  0.166323       -0.289287      0.000109275     5.00371e-05         0.510831        0.859681     -0.000233706     4.45022e-05
                     0.000106705     5.82425e-05         0.411835       -0.216272      0.000169404    -7.51759e-05         0.555194       -0.344701
                        0.511065        0.859542      0.000160067    -7.68525e-05        0.0165717       -0.337361     -0.000116504     0.000194456
                    -0.000238562     3.96633e-05         0.555199       -0.344732     -0.000113535     0.000201796        -0.209782        0.368985
563600                  0.136671       -0.250391      0.000114061     4.27238e-05         0.931362        0.364094     -0.000235073     5.07442e-05
                     0.000111395     5.14401e-05         0.379246       -0.231842      0.000180418    -7.61985e-05         0.555974        -0.63091
                        0.931367        0.364082      0.000170358    -7.78935e-05        0.0438057       -0.288687      -0.00013179     0.000211877
                    -0.000238101     4.41257e-05         0.555975       -0.630932      -0.00012942     0.000219928        -0.138942        0.352601
564000                  0.133097        -0.24524      0.000114679     4.17695e-05         0.900114        0.303462     -0.000235247     5.15551e-05
                     0.000112002     5.05512e-05          0.37537       -0.234098      0.000181843    -7.63415e-05         0.545929       -0.669557
                        0.900126        0.303464       0.00017169    -7.80378e-05        0.0469939       -0.282304     -0.000133742     0.000214068
                    -0.000238042      4.4707e-05         0.545931       -0.669577     -0.000131449     0.000222205        -0.130066         0.34989
566800                  0.109098       -0.207373      0.000119135     3.48194e-05         0.583401       0.0488393     -0.000236488     5.74366e-05
                      0.00011638     4.40691e-05         0.349705       -0.251599      0.000192147    -7.74476e-05         0.398386       -0.917218
                        0.583478       0.0488694       0.00018131    -7.91461e-05        0.0677545       -0.235817     -0.000147661     0.000229481
                    -0.000237611     4.89332e-05         0.398386       -0.917218     -0.000145931     0.000238198       -0.0683425        0.326664
570000                 0.0842708       -0.160271      0.000124523     2.62505e-05         0.369606      -0.0400785     -0.000237952     6.46293e-05
                     0.000121685     3.60566e-05         0.323911       -0.274698      0.000204661     -7.8963e-05         0.102542       -0.994729
                        0.369697       -0.040061      0.000192986    -8.06466e-05        0.0876786       -0.178991     -0.000164139     0.000247262
