! TOUCHSTONE file generated by CST MICROWAVE STUDIO
! Date and time: Mon Oct 20 08:27:29 2025
! Project name: Teste_Macro_Metasurface_Nanopilar.cst
! Parameters = {H=600; L_x=115; L_y=190; Lambda=1064; Max_L=200; Min_L=70; PathPara=1; Phi=0; Step_L=10; Theta=0; p=520; phaseX=180; phaseY=0}
! Header version: 2018
! Port assignment regex: !\s*Touchstone port\s*([0-9]+)\s*=\s*(CST MWS port|CST DS port)\s*([0-9]+|Zmin|Zmax)\s*\(\"(.*)\"\)(\s*mode\s*([0-9]+))?.*
! Touchstone port assignment:
! Touchstone port 1 = CST MWS port Zmax ("") mode 1
! Touchstone port 2 = CST MWS port Zmax ("") mode 2
! Touchstone port 3 = CST MWS port Zmin ("") mode 1
! Touchstone port 4 = CST MWS port Zmin ("") mode 2
! S-Parameters are not renormalized. Each port impedance will be approximated by the real part at minimum frequency. The values are described via the [Reference] keyword.
! Default impedance is overridden by [Reference]
[Version] 2.0
# GHz S RI R 376.73
[Number of Ports] 4
[Reference]
376.73 376.73 259.888 259.888 
[Number of Frequencies] 52
[Network Data]
474000                  0.466035       -0.110723     -2.81997e-06     2.68951e-05        -0.857416        0.118572     -2.64479e-05      1.8846e-05
                     4.22892e-07     3.13696e-05         0.460597       -0.105243      1.48548e-05     1.66435e-05        -0.864893      -0.0446172
                       -0.857413        0.118569      1.88909e-05     1.91801e-05        -0.480805       0.0195032      2.84764e-06     5.60358e-05
                    -2.15692e-05     1.87545e-05         -0.86489      -0.0446172      1.28577e-06     5.24463e-05        -0.450564       -0.157901
477200                  0.465635       -0.116266      6.43007e-07     2.53806e-05        -0.869745        0.177373      -2.2564e-05     1.83267e-05
                     3.80723e-06     2.97842e-05         0.456898       -0.113227      1.22059e-05     1.30019e-05        -0.876251      -0.0616424
                       -0.869742         0.17737      1.61914e-05     1.54643e-05        -0.484691       0.0421514      2.87066e-06     5.30717e-05
                    -1.78046e-05     1.82392e-05        -0.876249      -0.0616423      1.30113e-06     4.95157e-05        -0.440927       -0.165314
480400                  0.465201       -0.122128       4.2447e-06     2.38204e-05        -0.875361        0.240354      -1.8552e-05      1.7793e-05
                     7.32797e-06       2.815e-05         0.452974       -0.121409      9.42665e-06     9.23192e-06        -0.887548      -0.0801774
                       -0.875358        0.240351      1.33589e-05      1.1618e-05        -0.487917       0.0663853      2.87376e-06     4.99552e-05
                    -1.39151e-05     1.77095e-05        -0.887546      -0.0801772      1.29675e-06     4.64351e-05        -0.430513       -0.172941
483600                  0.464729       -0.128336      7.99351e-06     2.22125e-05        -0.873071        0.306455     -1.44055e-05     1.72443e-05
                     1.09934e-05     2.64649e-05         0.448813       -0.129791      6.50785e-06     5.32704e-06        -0.898674       -0.100355
                       -0.873069        0.306451      1.03837e-05     7.63442e-06        -0.490318       0.0923156      2.85367e-06     4.66747e-05
                    -9.89422e-06     1.71648e-05        -0.898672       -0.100355      1.26941e-06     4.31928e-05        -0.419238       -0.180772
486800                  0.464214       -0.134922      1.18986e-05      2.0555e-05        -0.861897        0.374233     -1.01177e-05       1.668e-05
                     1.48126e-05     2.47267e-05         0.444396        -0.13838      3.43927e-06     1.28032e-06        -0.909492       -0.122313
                       -0.861895         0.37423      7.25546e-06     3.50672e-06        -0.491698        0.120053      2.80655e-06     4.32171e-05
                     -5.7353e-06     1.66044e-05         -0.90949       -0.122313      1.21538e-06      3.9776e-05        -0.407009       -0.188789
490000                   0.46365       -0.141921      1.59697e-05     1.88457e-05        -0.841211         0.44192     -5.68125e-06     1.60994e-05
                     1.87953e-05     2.29331e-05         0.439709       -0.147178      2.09744e-07     -2.9156e-06        -0.919835       -0.146193
                       -0.841209        0.441917      3.96279e-06     -7.7259e-07        -0.491822        0.149703      2.72793e-06      3.9568e-05
                    -1.43108e-06     1.60277e-05        -0.919833       -0.146193      1.13028e-06     3.61706e-05        -0.393725       -0.196967
493200                  0.463032       -0.149374      2.02177e-05     1.70824e-05        -0.810863        0.507528     -1.08821e-06     1.55018e-05
                     2.29521e-05     2.10817e-05         0.434733        -0.15619     -3.19296e-06    -7.26857e-06        -0.929498       -0.172136
                       -0.810862        0.507525      4.93154e-07    -5.21141e-06        -0.490416        0.181361      2.61259e-06     3.57115e-05
                     3.02619e-06      1.5434e-05        -0.929496       -0.172135      1.00902e-06     3.23608e-05        -0.379268       -0.205272
496400                  0.462351       -0.157325      2.46541e-05      1.5263e-05        -0.771261        0.569021      3.66983e-06     1.48866e-05
                     2.72946e-05     1.91699e-05         0.429447        -0.16542      -6.7823e-06    -1.17869e-05        -0.938235       -0.200274
                        -0.77126        0.569018      -3.1672e-06    -9.81815e-06        -0.487153        0.215107      2.45437e-06     3.16297e-05
                     7.64482e-06     1.48226e-05        -0.938233       -0.200273       8.4558e-07     2.83293e-05        -0.363508       -0.213656
499600                    0.4616       -0.165828      2.92916e-05      1.3385e-05        -0.723374        0.624507       8.6019e-06      1.4253e-05
                     3.18352e-05     1.71951e-05         0.423832        -0.17487     -1.05731e-05    -1.64795e-05        -0.945751       -0.230727
                       -0.723373        0.624504     -7.03342e-06    -1.46017e-05        -0.481656         0.25099      2.24605e-06     2.73031e-05
                     1.24337e-05     1.41927e-05        -0.945749       -0.230726      6.32917e-07     2.40566e-05        -0.346302       -0.222054
502800                  0.460768        -0.17494      3.41441e-05      1.1446e-05        -0.668659        0.672427      1.37177e-05     1.36002e-05
                     3.65878e-05     1.51545e-05         0.417865       -0.184544     -1.45817e-05    -2.13557e-05        -0.951699        -0.26359
                       -0.668659        0.672424     -1.11222e-05    -1.95716e-05        -0.473487        0.289021      1.97905e-06     2.27094e-05
                     1.74025e-05     1.35435e-05        -0.951698       -0.263589      3.62691e-07     1.95211e-05        -0.327487        -0.23038
506000                  0.459842        -0.18473      3.92265e-05     9.44352e-06         -0.60892        0.711698      1.90278e-05     1.29273e-05
                     4.15672e-05     1.30453e-05         0.411522       -0.194443     -1.88262e-05    -2.64256e-05        -0.954403       -0.298522
                       -0.608919        0.711695     -1.54521e-05    -2.47378e-05        -0.462145         0.32915      1.64322e-06     1.78239e-05
                     2.25614e-05     1.28741e-05        -0.954403       -0.298521       2.5017e-08     1.46985e-05        -0.306885       -0.238522
509200                  0.458808       -0.195277      4.45555e-05     7.37489e-06        -0.546115        0.741784      2.45433e-05     1.22335e-05
                       4.679e-05     1.08645e-05         0.404776       -0.204569     -2.33266e-05    -3.16997e-05        -0.943337       -0.331836
                       -0.546115        0.741782     -2.00435e-05    -3.01111e-05        -0.447067        0.371247      1.22647e-06      1.2619e-05
                     2.79217e-05     1.21837e-05        -0.943337       -0.331836     -3.91865e-07     9.56155e-06        -0.284301       -0.246333
512400                  0.457649        -0.20667      5.01492e-05     5.23746e-06        -0.482175        0.762688      3.02765e-05     1.15177e-05
                      5.2274e-05      8.6091e-06         0.397601       -0.214922     -2.81052e-05    -3.71893e-05         -0.93028       -0.366851
                       -0.482175        0.762686     -2.49191e-05    -3.57026e-05        -0.427632        0.415076      7.14352e-07     7.06346e-06
                     3.34953e-05     1.14712e-05         -0.93028        -0.36685     -9.02006e-07     4.07961e-06        -0.259524       -0.253622
515600                  0.456343       -0.219017      5.60275e-05     3.02853e-06         -0.41884        0.774878      3.62405e-05     1.07792e-05
                     5.80391e-05     6.27582e-06         0.389967       -0.225502     -3.31867e-05    -4.29063e-05        -0.914974       -0.403513
                        -0.41884        0.774877     -3.01043e-05    -4.15243e-05        -0.403175        0.460264       8.9486e-08     1.12194e-06
                     3.92951e-05     1.07358e-05        -0.914974       -0.403512     -1.52227e-06    -1.78191e-06        -0.232328       -0.260146
518800                  0.454864       -0.232441      6.22122e-05     7.45344e-07        -0.357555        0.779168      4.24494e-05     1.00167e-05
                     6.41072e-05     3.86148e-06         0.381842       -0.236307     -3.85988e-05    -4.88633e-05        -0.897153        -0.44172
                       -0.357555        0.779166     -3.56272e-05    -4.75889e-05        -0.373008        0.506268     -6.69074e-07    -5.24538e-06
                     4.53354e-05     9.97621e-06        -0.897153        -0.44172     -2.27298e-06    -8.06214e-06        -0.202479       -0.265593
522000                   0.45318        -0.24709      6.87277e-05    -1.61483e-06        -0.299417        0.776588      4.89187e-05     9.22922e-06
                     7.05022e-05      1.3628e-06         0.373192       -0.247334     -4.43722e-05    -5.50736e-05        -0.876549       -0.481313
                       -0.299417        0.776586     -4.15194e-05    -5.39094e-05        -0.336459        0.552342     -1.58673e-06    -1.20838e-05
                     5.16312e-05     9.19149e-06        -0.876549       -0.481312     -3.17878e-06    -1.48055e-05        -0.169745       -0.269568
525200                  0.451251       -0.263138      7.56008e-05    -4.05469e-06        -0.245179        0.768262      5.56652e-05     8.41561e-06
                      7.7251e-05    -1.22351e-06         0.363981       -0.258578     -5.05416e-05    -6.15512e-05        -0.852908       -0.522061
                       -0.245179        0.768261     -4.78161e-05    -6.04998e-05        -0.292927        0.597512     -2.69445e-06    -1.94448e-05
                     5.81992e-05      8.3804e-06        -0.852909        -0.52206     -4.26965e-06    -2.20627e-05        -0.133909       -0.271575
528400                  0.449026       -0.280796       8.2861e-05    -6.57685e-06        -0.195279        0.755311      6.27069e-05     7.57466e-06
                     8.43831e-05    -3.90071e-06          0.35417       -0.270031     -5.71459e-05    -6.83105e-05        -0.826005       -0.563662
                       -0.195279         0.75531      -5.4557e-05    -6.73745e-05        -0.241952        0.640556     -4.03018e-06    -2.73872e-05
                     6.50574e-05     7.54172e-06        -0.826006       -0.563662     -5.58233e-06    -2.98912e-05       -0.0947919       -0.270998
531600                  0.446442       -0.300316      9.05415e-05    -9.18377e-06        -0.149898        0.738784      7.00637e-05     6.70509e-06
                     9.19315e-05    -6.67199e-06         0.343717       -0.281684     -6.42288e-05    -7.53667e-05        -0.795665       -0.605737
                       -0.149898        0.738782     -6.17868e-05    -7.45486e-05        -0.183307         0.68002     -5.64072e-06    -3.59783e-05
                     7.22254e-05     6.67414e-06        -0.795666       -0.605736     -7.16209e-06    -3.83572e-05       -0.0522866       -0.267083
534800                  0.443416        -0.32201       9.8679e-05    -1.18776e-05        -0.109016        0.719613      7.77572e-05     5.80557e-06
                     9.99329e-05    -9.54033e-06         0.332578       -0.293525     -7.18397e-05    -8.27356e-05        -0.761785        -0.64783
                       -0.109016        0.719612     -6.95559e-05    -8.20373e-05        -0.117097        0.714255     -7.58413e-06    -4.52951e-05
                     7.97248e-05     5.77629e-06        -0.761786       -0.647829     -9.06505e-06    -4.75365e-05      -0.00640646       -0.258925
538000                  0.439842       -0.346259      0.000107315    -1.46603e-05       -0.0724709        0.698599       8.5811e-05      4.8747e-06
                     0.000108428    -1.25085e-05         0.320707       -0.305538     -8.00347e-05     -9.0433e-05        -0.724356       -0.689426
                      -0.0724709        0.698599     -7.79213e-05    -8.98563e-05       -0.0438507        0.741505     -9.93297e-06    -5.54263e-05
                     8.75789e-05     4.84674e-06        -0.724357       -0.689426     -1.13613e-05     -5.7516e-05         0.042652       -0.245461
541200                  0.435577       -0.373539      0.000116495    -1.75331e-05        -0.040008        0.676409      9.42511e-05     3.91102e-06
                     0.000117464    -1.55787e-05         0.308054       -0.317705     -8.88774e-05     -9.8475e-05        -0.683482       -0.729967
                      -0.0400081        0.676408     -8.69479e-05    -9.80212e-05         0.035404        0.760035     -1.27785e-05    -6.64737e-05
                     9.58136e-05     3.88398e-06        -0.683483       -0.729967     -1.41388e-05    -6.83958e-05        0.0944268       -0.225493
544400                  0.430431       -0.404453      0.000126272    -2.04966e-05       -0.0113179        0.653578      0.000103106       2.913e-06
                     0.000127092    -1.87527e-05         0.294565       -0.330002     -9.84402e-05    -0.000106877        -0.639394       -0.768879
                      -0.0113179        0.653577     -9.67094e-05    -0.000106547         0.119121        0.768303     -1.62364e-05    -7.85542e-05
                     0.000104457     2.88644e-06        -0.639395       -0.768878     -1.75093e-05    -8.02911e-05         0.148095       -0.197732
547600                  0.424142       -0.439771      0.000136703    -2.35505e-05        0.0139336        0.630531      0.000112407     1.87904e-06
                     0.000137371    -2.20314e-05         0.280187       -0.342401     -0.000108806    -0.000115655        -0.592452       -0.805606
                       0.0139336         0.63053      -0.00010729    -0.000115449         0.205281        0.765147     -2.04546e-05    -9.18021e-05
                     0.000113541     1.85248e-06        -0.592453       -0.805605     -2.16151e-05    -9.33344e-05         0.202374       -0.160903
550800                  0.416344       -0.480498      0.000147855    -2.66931e-05        0.0360841        0.607593      0.000122188       8.075e-07
                     0.000148368    -2.54144e-05         0.264859       -0.354867     -0.000120069    -0.000124822        -0.543134       -0.839646
                       0.0360841        0.607593     -0.000118786    -0.000124738         0.291514        0.749954     -2.56237e-05    -0.000106371
                     0.000123099     7.80393e-07        -0.543135       -0.839645     -2.66399e-05    -0.000107677         0.255444       -0.113902
554000                  0.406513       -0.527964      0.000159804     -2.9921e-05        0.0554606        0.585008      0.000132488    -3.03322e-07
                     0.000160157    -2.88998e-05         0.248522       -0.367362     -0.000132339     -0.00013439        -0.481622       -0.852187
                       0.0554606        0.585008     -0.000131308    -0.000134426         0.375299        0.722775     -3.19912e-05    -0.000122434
                      0.00013317     -3.3158e-07        -0.481622       -0.852186     -3.28219e-05    -0.000123492         0.304923      -0.0560239
557200                  0.393873       -0.583965      0.000172635    -3.32283e-05        0.0723712        0.562955      0.000143349    -1.45517e-06
                     0.000172825    -3.24834e-05         0.231113       -0.379837      -0.00014574    -0.000144367        -0.417707       -0.853096
                       0.0723713        0.562954     -0.000144983    -0.000144518         0.454196        0.684362     -3.98818e-05    -0.000140186
                     0.000143796    -1.48524e-06        -0.417707       -0.853096     -4.04735e-05    -0.000140972         0.347953       0.0127613
560400                  0.377247       -0.650989      0.000186446    -3.66062e-05        0.0871001        0.541556      0.000154818    -2.64982e-06
                     0.000186471    -3.61583e-05         0.212565       -0.392237     -0.000160418    -0.000154755        -0.355182       -0.846253
                       0.0871001        0.541556     -0.000159958    -0.000155016          0.52608        0.636093      -4.9725e-05    -0.000159838
                     0.000155024    -2.68244e-06        -0.355182       -0.846253     -5.00078e-05    -0.000160328         0.381424       0.0915419
563600                  0.354766       -0.732566       0.00020135    -4.00416e-05        0.0999053        0.520896      0.000166947    -3.88904e-06
                     0.000201209    -3.99133e-05         0.192813       -0.404496     -0.000176541    -0.000165549        -0.295354       -0.832255
                       0.0999054        0.520896     -0.000176404    -0.000165911         0.589324        0.579824     -6.20934e-05    -0.000181605
                     0.000166906    -3.92501e-06        -0.295354       -0.832255     -6.19759e-05    -0.000181782         0.402364         0.17829
564000                  0.351409        -0.74402      0.000203296    -4.04742e-05         0.101382        0.518368      0.000168512    -4.04717e-06
                     0.000203134    -4.03876e-05         0.190256       -0.406016     -0.000178668    -0.000166926        -0.288121       -0.830043
                        0.101383        0.518368     -0.000178572      -0.0001673         0.596565        0.572332     -6.38528e-05    -0.000184486
                     0.000168441    -4.08362e-06        -0.288121       -0.830043     -6.36774e-05    -0.000184623         0.403973        0.189549
566800                  0.323337       -0.833861      0.000217477    -4.35159e-05         0.111019        0.501024      0.000179796    -5.17459e-06
                     0.000217168    -4.37322e-05         0.171789       -0.416541     -0.000194304    -0.000176734        -0.239297       -0.811953
                        0.111019        0.501024     -0.000194516    -0.000177184         0.642904        0.517679     -7.77563e-05    -0.000205691
                     0.000179503     -5.2148e-06        -0.239297       -0.811953     -7.71181e-05    -0.000205547         0.408425        0.269884
570000                  0.277016       -0.960865      0.000234977     -4.7003e-05         0.120647        0.481966      0.000193429    -6.50817e-06
                     0.000234502    -4.75916e-05         0.149425       -0.428284     -0.000213932    -0.000188277         -0.18781       -0.786363
                        0.120647        0.481966     -0.000214525    -0.000188799         0.686408        0.451841     -9.77518e-05    -0.000232237
