! TOUCHSTONE file generated by CST MICROWAVE STUDIO
! Date and time: Mon Oct 20 08:27:46 2025
! Project name: Teste_Macro_Metasurface_Nanopilar.cst
! Parameters = {H=600; L_x=175; L_y=160; Lambda=1064; Max_L=200; Min_L=70; PathPara=1; Phi=0; Step_L=10; Theta=0; p=520; phaseX=180; phaseY=0}
! Header version: 2018
! Port assignment regex: !\s*Touchstone port\s*([0-9]+)\s*=\s*(CST MWS port|CST DS port)\s*([0-9]+|Zmin|Zmax)\s*\(\"(.*)\"\)(\s*mode\s*([0-9]+))?.*
! Touchstone port assignment:
! Touchstone port 1 = CST MWS port Zmax ("") mode 1
! Touchstone port 2 = CST MWS port Zmax ("") mode 2
! Touchstone port 3 = CST MWS port Zmin ("") mode 1
! Touchstone port 4 = CST MWS port Zmin ("") mode 2
! S-Parameters are not renormalized. Each port impedance will be approximated by the real part at minimum frequency. The values are described via the [Reference] keyword.
! Default impedance is overridden by [Reference]
[Version] 2.0
# GHz S RI R 376.73
[Number of Ports] 4
[Reference]
376.73 376.73 259.888 259.888 
[Number of Frequencies] 52
[Network Data]
474000                 -0.194902        0.158115     -5.77387e-05    -0.000164146         0.917429      -0.0660794      0.000182456    -0.000118751
                    -5.77512e-05     -0.00016414         0.517084        0.630258      0.000133474     1.50286e-05        -0.216216       -0.509633
                        0.917429      -0.0660794      0.000133473     1.50232e-05         0.252965       0.0940077     -0.000107589      0.00018594
                     0.000182464    -0.000118748        -0.216216       -0.509633     -0.000107583     0.000185939       -0.0837525       -0.799256
477200                 -0.196403         0.15351      -5.5909e-05    -0.000163388         0.890339       -0.061329      0.000176318    -0.000121207
                    -5.59214e-05    -0.000163382         0.511024        0.635901      0.000131718     1.58119e-05        -0.202118       -0.520384
                        0.890339      -0.0613285      0.000131712      1.5805e-05         0.263926        0.102391      -0.00010779     0.000182889
                     0.000176343     -0.00012127        -0.202118       -0.520384     -0.000107772     0.000182896       -0.0565228       -0.782813
480400                 -0.197975        0.148548     -5.40027e-05    -0.000162587         0.862981      -0.0568075      0.000170002    -0.000123622
                    -5.40151e-05    -0.000162582         0.504395        0.641911      0.000129867     1.66363e-05        -0.186675       -0.531511
                        0.862982      -0.0568066      0.000129856     1.66279e-05         0.275382        0.111706     -0.000107971      0.00017971
                      0.00017004    -0.000123749        -0.186675       -0.531511     -0.000107942     0.000179725        -0.029611       -0.765554
483600                 -0.199621        0.143187     -5.20149e-05     -0.00016174         0.835356      -0.0525218      0.000163501     -0.00012599
                    -5.20274e-05    -0.000161736         0.497115        0.648318      0.000127911     1.75052e-05         -0.16972       -0.542995
                        0.835357      -0.0525205      0.000127896     1.74952e-05         0.287336         0.12208     -0.000108128     0.000176396
                      0.00016355    -0.000126179         -0.16972       -0.542995     -0.000108087      0.00017642      -0.00305239       -0.747487
486800                 -0.201344        0.137378     -4.99404e-05    -0.000160844         0.807463      -0.0484787       0.00015681    -0.000128303
                    -4.99531e-05     -0.00016084         0.489089        0.655159      0.000125843     1.84221e-05        -0.151055       -0.554801
                        0.807465      -0.0484769      0.000125823     1.84104e-05         0.299786        0.133655     -0.000108257     0.000172939
                     0.000156869    -0.000128553        -0.151055         -0.5548     -0.000108205     0.000172971        0.0231176        -0.72862
490000                 -0.203146        0.131063     -4.77736e-05    -0.000159893         0.779304      -0.0446851      0.000149925    -0.000130556
                    -4.77865e-05     -0.00015989         0.480203        0.662472      0.000123652     1.93913e-05        -0.130459       -0.566872
                        0.779307       -0.044683      0.000123626     1.93778e-05         0.312715        0.146598     -0.000108354      0.00016933
                      0.00014999    -0.000130863        -0.130459       -0.566872     -0.000108291     0.000169371        0.0488638       -0.708965
493200                 -0.205029        0.124174     -4.55083e-05    -0.000158884         0.750879      -0.0411483       0.00014284    -0.000132741
                    -4.55214e-05    -0.000158881         0.470319        0.670297      0.000121328     2.04172e-05        -0.107674       -0.579129
                        0.750882      -0.0411458      0.000121296     2.04019e-05         0.326092        0.161098     -0.000108415     0.000165559
                     0.000142908    -0.000133104        -0.107674       -0.579128     -0.000108342      0.00016561        0.0741518       -0.688537
496400                 -0.206992        0.116631     -4.31377e-05    -0.000157811         0.722189      -0.0378754       0.00013555    -0.000134851
                    -4.31512e-05    -0.000157808         0.459271        0.678677      0.000118856     2.15051e-05       -0.0824071       -0.591451
                        0.722192      -0.0378726      0.000118819     2.14877e-05         0.339862        0.177373     -0.000108433     0.000161616
                     0.000135619    -0.000135266        -0.082407       -0.591451      -0.00010835     0.000161676        0.0989474       -0.667351
499600                 -0.209033        0.108339     -4.06545e-05    -0.000156668         0.693234      -0.0348737      0.000128049    -0.000136877
                    -4.06684e-05    -0.000156666         0.446854        0.687655      0.000116223     2.26607e-05       -0.0543244       -0.603674
                        0.693237      -0.0348706       0.00011618     2.26412e-05          0.35394        0.195669     -0.000108404      0.00015749
                     0.000128118     -0.00013734       -0.0543243       -0.603674     -0.000108312     0.000157559         0.123217       -0.645424
502800                 -0.211143       0.0991826     -3.80507e-05    -0.000155448         0.664016      -0.0321507      0.000120333     -0.00013881
                    -3.80652e-05    -0.000155447         0.432818         0.69727      0.000113413     2.38905e-05       -0.0230479       -0.615566
                        0.664019      -0.0321473      0.000113364     2.38688e-05         0.368197        0.216266      -0.00010832     0.000153168
                     0.000120398    -0.000139319       -0.0230478       -0.615566     -0.000108218     0.000153247         0.146929       -0.622776
506000                 -0.213313        0.089024     -3.53175e-05    -0.000154145         0.634535      -0.0297138      0.000112397     -0.00014064
                    -3.53327e-05    -0.000154144          0.41685        0.707559      0.000110407     2.52019e-05        0.0118453       -0.626808
                        0.634539      -0.0297101      0.000110352     2.51777e-05         0.382453        0.239476     -0.000108173     0.000148637
                     0.000112456     -0.00014119        0.0118454       -0.626808     -0.000108063     0.000148726          0.17005       -0.599429
509200                  -0.21552       0.0776945     -3.24453e-05    -0.000152749         0.604794      -0.0275706      0.000104235    -0.000142359
                    -3.24613e-05    -0.000152749         0.398559        0.718542      0.000107184     2.66032e-05        0.0508205        -0.63697
                        0.604798      -0.0275668      0.000107123     2.65765e-05         0.396454         0.26564     -0.000107954     0.000143883
                     0.000104287    -0.000142945        0.0508206        -0.63697     -0.000107836     0.000143982         0.192552       -0.575406
512400                 -0.217734       0.0649865     -2.94236e-05    -0.000151251         0.574794      -0.0257288      9.58438e-05    -0.000143953
                    -2.94406e-05    -0.000151252         0.377451        0.730214       0.00010372     2.81041e-05        0.0943764       -0.645469
                        0.574798      -0.0257248      0.000103652     2.80747e-05         0.409852        0.295129     -0.000107652     0.000138892
                     9.58858e-05    -0.000144571        0.0943765       -0.645469     -0.000107528        0.000139         0.214404       -0.550732
515600                 -0.219902        0.050643     -2.62407e-05    -0.000149641         0.544536      -0.0241963      8.72178e-05    -0.000145414
                    -2.62588e-05    -0.000149643         0.352897        0.742521      9.99857e-05     2.97154e-05         0.143026       -0.651529
                         0.54454      -0.0241921      9.99119e-05     2.96831e-05         0.422178        0.328322     -0.000107256     0.000133645
                     8.72487e-05    -0.000146057         0.143026       -0.651529     -0.000107125     0.000133763         0.235578       -0.525433
518800                 -0.221946       0.0343415     -2.28839e-05    -0.000147907         0.514024      -0.0229807      7.83531e-05    -0.000146726
                    -2.29034e-05    -0.000147909         0.324087         0.75533      9.59491e-05     3.14499e-05         0.197256       -0.654125
                        0.514027      -0.0229765      9.58688e-05     3.14144e-05         0.432815         0.36559     -0.000106751     0.000128126
                     7.83717e-05     -0.00014739         0.197256       -0.654125     -0.000106615     0.000128254         0.256049       -0.499538
522000                 -0.223742       0.0156742     -1.93391e-05    -0.000146033         0.483258      -0.0220902       6.9246e-05    -0.000147879
                    -1.93602e-05    -0.000146036         0.289975        0.768364      9.15719e-05      3.3322e-05         0.257469       -0.651925
                        0.483261      -0.0220859      9.14852e-05     3.32833e-05         0.440964        0.407258     -0.000106121     0.000122315
                     6.92513e-05    -0.000148556         0.257469       -0.651925     -0.000105982     0.000122451         0.275791       -0.473077
525200                   -0.2251     -0.00588106     -1.55907e-05    -0.000144005         0.452241      -0.0215326      5.98929e-05    -0.000148858
                    -1.56136e-05    -0.000144009         0.249205        0.781102       8.6809e-05     3.53489e-05         0.323871       -0.643229
                        0.452245      -0.0215283      8.67159e-05     3.53066e-05         0.445612        0.453546     -0.000105348      0.00011619
                     5.98844e-05    -0.000149541         0.323871       -0.643229     -0.000105207     0.000116334         0.294782        -0.44608
528400                 -0.225721      -0.0309987     -1.16213e-05    -0.000141804         0.420977      -0.0213161      5.02908e-05    -0.000149647
                    -1.16465e-05    -0.000141809         0.200025        0.792601      8.16072e-05     3.75505e-05         0.396323       -0.625927
                         0.42098      -0.0213119      8.15079e-05     3.75044e-05         0.445518        0.504488      -0.00010441     0.000109729
                     5.02685e-05    -0.000150329         0.396323       -0.625927     -0.000104269     0.000109881            0.313        -0.41858
531600                 -0.225129      -0.0605587       -7.412e-06    -0.000139408         0.389467      -0.0214489      4.04373e-05    -0.000150233
                    -7.43977e-06    -0.000139415         0.140207        0.801192      7.59029e-05     3.99503e-05         0.474111       -0.597506
                         0.38947      -0.0214447      7.57977e-05     3.99001e-05         0.439219        0.559823     -0.000103281     0.000102908
                     4.04017e-05    -0.000150905         0.474111       -0.597505     -0.000103143     0.000103066         0.330426        -0.39061
534800                 -0.222555      -0.0957162      -2.9414e-06    -0.000136793         0.357715       -0.021939      3.03305e-05    -0.000150597
                    -2.97219e-06    -0.000136802        0.0670303        0.803956      6.96195e-05     4.25761e-05         0.555665       -0.555149
                        0.357718       -0.021935      6.95091e-05     4.25215e-05         0.425079        0.618859     -0.000101934     9.57001e-05
                     3.02828e-05    -0.000151252         0.555665       -0.555149     -0.000101799     9.58622e-05         0.347042       -0.362205
538000                 -0.216735       -0.137989      1.81408e-06     -0.00013393         0.325724      -0.0227949      1.99693e-05    -0.000150724
                     1.77978e-06    -0.000133941       -0.0224906        0.795852      6.26645e-05     4.54613e-05         0.638233       -0.496006
                        0.325727       -0.022791      6.25495e-05     4.54019e-05         0.401414        0.680329     -0.000100333     8.80773e-05
                     1.99113e-05    -0.000151351         0.638232       -0.496006     -0.000100205     8.82415e-05         0.362832       -0.333399
541200                 -0.205533       -0.189343      6.88071e-06    -0.000130785         0.293498      -0.0240248      9.35335e-06    -0.000150594
                     6.84231e-06    -0.000130798        -0.130724        0.768383      5.49239e-05     4.86461e-05         0.717619       -0.417689
                        0.293501      -0.0240211      5.48056e-05     4.85816e-05         0.366705        0.742282     -9.84391e-05     8.00094e-05
                     9.28774e-06    -0.000151184         0.717618       -0.417689     -9.83207e-05      8.0173e-05         0.377784        -0.30423
544400                 -0.185268       -0.252212      1.22878e-05    -0.000127318         0.261041       -0.025637     -1.51675e-06    -0.000150188
                     1.22446e-05    -0.000127333        -0.256939        0.708004      4.62571e-05     5.21792e-05         0.788141       -0.319026
                        0.261044      -0.0256337      4.61371e-05     5.21093e-05         0.319899        0.802046     -9.62055e-05     7.14645e-05
                    -1.58635e-06    -0.000150732          0.78814       -0.319025     -9.60996e-05      7.1624e-05         0.391886       -0.274732
547600                 -0.149452       -0.329205      1.80678e-05    -0.000123482         0.228356        -0.02764     -1.26394e-05    -0.000149487
                      1.8019e-05      -0.0001235        -0.391752        0.595784      3.64873e-05     5.61207e-05         0.843025       -0.200965
                        0.228359       -0.027637      3.63681e-05      5.6045e-05         0.260771        0.856355     -9.35776e-05     6.24092e-05
                    -1.27084e-05    -0.000149973         0.843024       -0.200965     -9.34874e-05       6.256e-05         0.405128       -0.244943
550800                -0.0865998       -0.421752      2.42571e-05     -0.00011922         0.195449      -0.0300422     -2.40117e-05    -0.000148469
                     2.42018e-05    -0.000119242        -0.508256         0.41315      2.53899e-05      6.0545e-05         0.875409      -0.0673293
                         0.19545      -0.0300397      2.52749e-05     6.04632e-05         0.190251        0.901676      -9.0491e-05     5.28086e-05
                    -2.40744e-05    -0.000148887         0.875408      -0.0673292       -9.042e-05     5.29452e-05         0.417503       -0.214899
554000                 0.0228939       -0.525574      3.08958e-05    -0.000114465         0.162323      -0.0328521     -3.56296e-05    -0.000147113
                     3.08329e-05    -0.000114492         -0.55783        0.160956      1.26752e-05     6.55453e-05         0.879863       0.0750386
                        0.162324        -0.03285      1.25694e-05     6.54572e-05         0.110575        0.934724     -8.68699e-05     4.26272e-05
                    -3.56791e-05    -0.000147452         0.879863       0.0750386     -8.68219e-05     4.27425e-05         0.429006       -0.184639
557200                  0.207394       -0.618219      3.80286e-05    -0.000109135         0.128983      -0.0360781     -4.74877e-05    -0.000145396
                     3.79567e-05    -0.000109167        -0.492091       -0.115365     -2.03758e-06     7.12403e-05         0.853966        0.217104
                        0.128984      -0.0360766     -2.12696e-06      7.1146e-05        0.0251701        0.953059     -8.26251e-05     3.18296e-05
                    -4.75157e-05    -0.000145644         0.853966        0.217104     -8.26038e-05     3.19148e-05         0.439634       -0.154198
560400                   0.48549         -0.6365      4.57043e-05    -0.000103132        0.0954344      -0.0397287     -5.95788e-05    -0.000143296
                     4.56219e-05    -0.000103171         -0.31163       -0.336652     -1.92585e-05      7.7783e-05         0.799219        0.349378
                       0.0954349      -0.0397278     -1.93209e-05     7.76829e-05       -0.0617999         0.95558     -7.76512e-05     2.03819e-05
                    -5.95756e-05     -0.00014344         0.799219        0.349378     -7.76602e-05     2.04262e-05         0.449386       -0.123615
563600                  0.800123       -0.482576      5.39764e-05     -9.6334e-05         0.061683      -0.0438124     -7.18941e-05    -0.000140787
                     5.38816e-05    -9.63814e-05       -0.0773606       -0.451203     -3.96868e-05     8.53732e-05          0.72077        0.463943
                        0.061683      -0.0438122     -3.97065e-05     8.52685e-05        -0.146082        0.942728     -7.18237e-05     8.25364e-06
                    -7.18485e-05    -0.000140817          0.72077        0.463943     -7.18661e-05     8.24345e-06         0.458263      -0.0929242
564000                   0.83408       -0.448655      5.50551e-05    -9.54213e-05          0.05745      -0.0443537     -7.34488e-05    -0.000140443
                     5.49587e-05    -9.54698e-05       -0.0479902        -0.45793     -4.25109e-05      8.6408e-05         0.709655        0.476737
                         0.05745      -0.0443537     -4.25238e-05     8.63028e-05        -0.156235        0.940119     -7.10282e-05     6.68845e-06
                     -7.3397e-05    -0.000140459         0.709655        0.476737     -7.10749e-05     6.67036e-06         0.459311      -0.0890823
566800                  0.985395        -0.15045       6.2902e-05    -8.85922e-05        0.0277342      -0.0483376      -8.4423e-05    -0.000137845
                     6.27927e-05    -8.86499e-05         0.143157       -0.467652     -6.43077e-05     9.42768e-05         0.626052        0.555902
                       0.0277337      -0.0483383     -6.42607e-05     9.41701e-05        -0.223996        0.916333     -6.49956e-05    -4.57957e-06
                     -8.4322e-05     -0.00013775         0.626052        0.555902     -6.50737e-05    -4.66076e-06         0.466267      -0.0621635
570000                  0.953313        0.192592      7.25412e-05    -7.97212e-05      -0.00640608      -0.0533129     -9.71529e-05    -0.000134445
                     7.24148e-05    -7.97921e-05         0.317531       -0.424759     -9.45543e-05     0.000104853         0.522997        0.623759
                     -0.00640703      -0.0533144     -9.44028e-05      0.00010475        -0.292899        0.879167     -5.69936e-05    -1.81319e-05
