! TOUCHSTONE file generated by CST MICROWAVE STUDIO
! Date and time: Mon Oct 20 08:27:55 2025
! Project name: Teste_Macro_Metasurface_Nanopilar.cst
! Parameters = {H=600; L_x=200; L_y=175; Lambda=1064; Max_L=200; Min_L=70; PathPara=1; Phi=0; Step_L=10; Theta=0; p=520; phaseX=180; phaseY=0}
! Header version: 2018
! Port assignment regex: !\s*Touchstone port\s*([0-9]+)\s*=\s*(CST MWS port|CST DS port)\s*([0-9]+|Zmin|Zmax)\s*\(\"(.*)\"\)(\s*mode\s*([0-9]+))?.*
! Touchstone port assignment:
! Touchstone port 1 = CST MWS port Zmax ("") mode 1
! Touchstone port 2 = CST MWS port Zmax ("") mode 2
! Touchstone port 3 = CST MWS port Zmin ("") mode 1
! Touchstone port 4 = CST MWS port Zmin ("") mode 2
! S-Parameters are not renormalized. Each port impedance will be approximated by the real part at minimum frequency. The values are described via the [Reference] keyword.
! Default impedance is overridden by [Reference]
[Version] 2.0
# GHz S RI R 376.73
[Number of Ports] 4
[Reference]
376.73 376.73 259.888 259.888 
[Number of Frequencies] 52
[Network Data]
474000                  0.898384       0.0449129      6.16529e-05     8.96116e-05        -0.373629       -0.122079      0.000160348    -3.33661e-05
                     6.16518e-05      8.9629e-05         0.655717       0.0997541      6.81044e-06    -4.31867e-05        -0.720166       -0.113182
                       -0.373629       -0.122079      6.81371e-06    -4.32035e-05        -0.732321       -0.484043      8.87235e-07    -6.01054e-05
                     0.000160376    -3.33408e-05        -0.720166       -0.113182      8.72344e-07    -6.00681e-05        -0.646355       -0.121305
477200                  0.891757       0.0769862      5.68519e-05     8.58686e-05        -0.395269       -0.120027      0.000159101    -3.10627e-05
                     5.68196e-05     8.59008e-05         0.717727        0.117536      5.82981e-06    -4.09657e-05        -0.719793       -0.104396
                       -0.395269       -0.120027      5.83165e-06    -4.09801e-05        -0.780244       -0.400758      -4.9658e-07    -6.06691e-05
                     0.000159136    -3.10314e-05        -0.719793       -0.104396     -5.22051e-07    -6.06419e-05        -0.644894       -0.140192
480400                   0.88279        0.112915      5.21409e-05     8.19601e-05        -0.420417        -0.11641      0.000157729    -2.86891e-05
                     5.20779e-05     8.20048e-05         0.785657        0.149139       4.7938e-06    -3.86213e-05        -0.719283      -0.0952622
                       -0.420417        -0.11641      4.79411e-06    -3.86334e-05        -0.822817       -0.303726     -1.91508e-06    -6.12751e-05
                      0.00015777    -2.86513e-05        -0.719283      -0.0952622     -1.95078e-06    -6.12586e-05        -0.642742       -0.160662
483600                  0.870693         0.15331      4.75278e-05     7.78891e-05        -0.449866       -0.110452       0.00015622    -2.62459e-05
                     4.74352e-05     7.79441e-05         0.856415         0.19929      3.69757e-06    -3.61429e-05        -0.718617      -0.0857632
                       -0.449866       -0.110452      3.69625e-06    -3.61526e-05        -0.856585       -0.192087     -3.36882e-06    -6.19264e-05
                     0.000156267    -2.62013e-05        -0.718617      -0.0857632     -3.41433e-06    -6.19212e-05        -0.639731       -0.182892
486800                  0.854376        0.198862      4.30209e-05     7.36591e-05        -0.484593       -0.100943      0.000154559    -2.37349e-05
                     4.28998e-05     7.37223e-05         0.923902        0.272401      2.53573e-06    -3.35187e-05         -0.71778      -0.0758793
                       -0.484593       -0.100943      2.53267e-06    -3.35259e-05        -0.877238      -0.0658258     -4.85827e-06    -6.26261e-05
                     0.000154612     -2.3683e-05         -0.71778      -0.0758793      -4.9131e-06     -6.2633e-05        -0.635646       -0.207083
490000                   0.83231        0.250323      3.86282e-05     6.92742e-05        -0.525751      -0.0859647      0.000152733    -2.11589e-05
                     3.84798e-05     6.93435e-05         0.935206        0.354104       1.3022e-06    -3.07356e-05         -0.71675      -0.0655902
                       -0.525751      -0.0859645      1.29727e-06    -3.07401e-05        -0.879778       0.0737256     -6.38381e-06    -6.33777e-05
                     0.000152793    -2.10991e-05         -0.71675      -0.0655902     -6.44741e-06    -6.33974e-05        -0.630216       -0.233456
493200                  0.802337         0.30844      3.43573e-05      6.4739e-05        -0.574549      -0.0624297      0.000150727    -1.85218e-05
                     3.41831e-05     6.48125e-05         0.899296        0.437341     -9.86703e-09    -2.77785e-05        -0.715505      -0.0548744
                       -0.574549      -0.0624294     -1.68031e-08    -2.77802e-05        -0.858962        0.223366     -7.94573e-06     -6.4185e-05
                     0.000150792    -1.84537e-05        -0.715505      -0.0548745     -8.01744e-06    -6.42181e-05        -0.623096       -0.262254
496400                  0.761399        0.373798      3.02158e-05     6.00584e-05        -0.631826      -0.0253258      0.000148523    -1.58292e-05
                     3.00175e-05     6.01345e-05         0.850023        0.526746     -1.40821e-06    -2.46306e-05         -0.71402      -0.0437095
                       -0.631827      -0.0253253      -1.4173e-06    -2.46296e-05         -0.81011        0.377653     -9.54415e-06    -6.50518e-05
                     0.000148594    -1.57524e-05         -0.71402      -0.0437095     -9.62324e-06    -6.50991e-05        -0.613843       -0.293736
499600                  0.705161        0.446475      2.62109e-05     5.52382e-05        -0.696824       0.0333787      0.000146104    -1.30886e-05
                     2.59902e-05     5.53151e-05         0.788526        0.615001     -2.90162e-06     -2.1273e-05        -0.712267      -0.0320717
                       -0.696825       0.0333797     -2.91305e-06    -2.12689e-05        -0.730216         0.52894     -1.11791e-05    -6.59825e-05
                      0.00014618    -1.30026e-05        -0.712267      -0.0320718     -1.12647e-05    -6.60446e-05        -0.601892       -0.328174
502800                   0.62757        0.525351      2.23496e-05     5.02842e-05        -0.764058        0.125752      0.000143449    -1.03098e-05
                     2.21083e-05     5.03605e-05         0.718724        0.695296     -4.50014e-06    -1.76838e-05        -0.710214      -0.0199364
                       -0.764058        0.125753     -4.51409e-06    -1.76767e-05        -0.619114        0.668073     -1.28503e-05    -6.69815e-05
                     0.000143531     -1.0214e-05        -0.710214      -0.0199365     -1.29415e-05     -6.7059e-05        -0.586516       -0.365833
506000                  0.520509        0.606739      1.86384e-05      4.5203e-05        -0.816609        0.266415       0.00014054    -7.50496e-06
                     1.83785e-05     4.52775e-05         0.646099        0.763253     -6.21526e-06    -1.38382e-05        -0.707824     -0.00727779
                        -0.81661        0.266417     -6.23196e-06     -1.3828e-05        -0.480244        0.785771     -1.45573e-05    -6.80537e-05
                     0.000140626      -7.399e-06        -0.707824     -0.00727783      -1.4653e-05    -6.81473e-05        -0.566779       -0.406941
509200                  0.374098        0.681977      1.50835e-05     4.00015e-05        -0.817103        0.461044      0.000137354     -4.6897e-06
                      1.4807e-05     4.00731e-05          0.57586        0.817548     -8.06022e-06    -9.70791e-06        -0.705058      0.00593086
                       -0.817102        0.461047      -8.0799e-06     -9.6944e-06        -0.320568        0.874397     -1.62995e-05    -6.92042e-05
                     0.000137444    -4.57311e-06        -0.705058      0.00593082     -1.63985e-05    -6.93146e-05        -0.541476       -0.451643
512400                  0.179085        0.733813      1.16905e-05      3.4687e-05        -0.714122        0.676766      0.000133869     -1.8831e-06
                     1.13997e-05     3.47548e-05          0.51166        0.859188     -1.00503e-05    -5.25994e-06        -0.701872       0.0197171
                       -0.714119        0.676769     -1.00733e-05    -5.24304e-06        -0.149483        0.929499     -1.80759e-05    -7.04385e-05
                     0.000133964    -1.75548e-06        -0.701872        0.019717     -1.81769e-05    -7.05662e-05        -0.509072       -0.499913
515600                 -0.066119         0.73317      8.46479e-06     2.92671e-05        -0.496705        0.826852      0.000130064      8.9155e-07
                     8.16178e-06     2.93304e-05         0.455331        0.890322     -1.22034e-05    -4.56203e-07        -0.698212       0.0341091
                         -0.4967        0.826853       -1.223e-05    -4.35812e-07        0.0229451        0.950515     -1.98851e-05    -7.17626e-05
                     0.000130161     1.03055e-06        -0.698212        0.034109     -1.99866e-05     -7.1908e-05        -0.467624       -0.551418
518800                  -0.34216         0.64244      5.41111e-06     2.37499e-05        -0.243098        0.843858      0.000125915     3.60616e-06
                     5.09815e-06     2.38081e-05         0.407275        0.913306     -1.45404e-05     4.74775e-06        -0.694024       0.0491354
                       -0.243094        0.843857     -1.45708e-05     4.77172e-06         0.187768        0.940426     -2.17254e-05    -7.31825e-05
                     0.000126016     3.75683e-06        -0.694023       0.0491354     -2.18258e-05     -7.3346e-05        -0.414737       -0.605296
522000                 -0.597193        0.435371      2.53374e-06     1.81435e-05       -0.0460045         0.75605      0.000121403     6.22731e-06
                     2.21308e-06     1.81964e-05         0.367028         0.93021     -1.70857e-05     1.04041e-05         -0.68924       0.0648247
                      -0.0460021        0.756048     -1.71206e-05     1.04317e-05         0.338364        0.904634     -2.35945e-05    -7.47049e-05
                     0.000121505     6.38986e-06         -0.68924       0.0648246     -2.36921e-05    -7.48867e-05        -0.347573       -0.659829
525200                 -0.760681        0.129534     -1.63574e-07     1.24564e-05        0.0701162        0.632496      0.000116506     8.71565e-06
                    -4.89683e-07     1.25039e-05         0.323435        0.913628     -1.98687e-05     1.65745e-05         -0.68379        0.081205
                       0.0701174        0.632494     -1.99084e-05     1.66059e-05         0.470839        0.849583     -2.54898e-05    -7.63367e-05
                      0.00011661     8.89021e-06         -0.68379        0.081205     -2.55826e-05     -7.6537e-05        -0.263016       -0.711982
528400                 -0.790167       -0.207152     -2.67765e-06     6.69731e-06         0.126035         0.51586      0.000111209     1.10255e-05
                    -3.00697e-06     6.73965e-06         0.285241        0.886316     -2.29241e-05     2.33324e-05        -0.677589       0.0983034
                        0.126035        0.515858     -2.29693e-05     2.33675e-05         0.583757        0.781593     -2.74079e-05    -7.80851e-05
                     0.000111313     1.12121e-05        -0.677589       0.0983034     -2.74937e-05    -7.83039e-05        -0.158135       -0.756839
531600                 -0.702218       -0.500005     -5.00583e-06      8.7513e-07         0.146891        0.419435      0.000105499     1.31044e-05
                    -5.33617e-06     9.12553e-07          0.25455         0.85945     -2.62941e-05     3.07658e-05        -0.670546        0.116145
                        0.146891        0.419433     -2.63453e-05     3.08046e-05         0.677517        0.706139     -2.93446e-05    -7.99577e-05
                     0.000105603     1.33029e-05        -0.670546        0.116145     -2.94212e-05    -8.01948e-05       -0.0311574       -0.787091
534800                 -0.548957       -0.712196     -7.14606e-06    -5.00124e-06         0.149458        0.343217      9.93702e-05     1.48932e-05
                    -7.47527e-06    -4.96821e-06         0.229849        0.833784     -3.00297e-05     3.89813e-05        -0.662556        0.134752
                        0.149458        0.343216     -3.00878e-05     3.90238e-05         0.753667        0.627534     -3.12952e-05    -8.19626e-05
                      9.9474e-05     1.51034e-05        -0.662556        0.134752     -3.13602e-05    -8.22174e-05         0.116893       -0.792989
538000                 -0.378177       -0.845881     -9.09683e-06    -1.09228e-05         0.143106        0.283527       9.2824e-05     1.63263e-05
                    -9.42284e-06    -1.08934e-05         0.209903        0.809684     -3.41939e-05     4.81093e-05        -0.653501        0.154141
                        0.143106        0.283526     -3.42599e-05     4.81552e-05         0.814328         0.54893     -3.32539e-05    -8.41079e-05
                     9.29267e-05     1.65479e-05        -0.653501        0.154141     -3.33046e-05    -8.43797e-05         0.280067       -0.763477
541200                 -0.217306       -0.920234     -1.08572e-05    -1.68804e-05         0.132751        0.236519      8.58719e-05     1.73323e-05
                     -1.1178e-05    -1.68539e-05         0.193729        0.787287     -3.88648e-05     5.83106e-05        -0.643247        0.174325
                        0.132751        0.236518     -3.89398e-05     5.83596e-05         0.861785        0.472466      -3.5214e-05     -8.6402e-05
                     8.59732e-05     1.75649e-05        -0.643247        0.174325     -3.52477e-05    -8.66899e-05         0.445852       -0.689223
544400                -0.0770083       -0.955205     -1.24268e-05    -2.28652e-05         0.120904        0.199068       7.8538e-05     1.78354e-05
                    -1.27406e-05    -2.28405e-05         0.180553        0.766595     -4.41408e-05     6.97864e-05        -0.631647        0.195306
                        0.120904        0.199067     -4.42262e-05     6.98379e-05         0.898235        0.399483     -3.71676e-05    -8.88536e-05
                     7.86376e-05     1.80786e-05        -0.631647        0.195305     -3.71815e-05    -8.91561e-05         0.595892       -0.567252
547600                 0.0411175       -0.965872     -1.38058e-05    -2.88682e-05         0.108828        0.168827      7.08605e-05     1.77576e-05
                    -1.41108e-05    -2.88441e-05         0.169766        0.747539     -5.01474e-05     8.27912e-05        -0.618533        0.217074
                        0.108828        0.168827      -5.0245e-05     8.28444e-05         0.925655        0.330734     -3.91056e-05    -9.14715e-05
                     7.09583e-05     1.80107e-05        -0.618533        0.217074     -3.90967e-05    -9.17867e-05         0.710547       -0.404843
550800                  0.139207       -0.962251     -1.49949e-05    -3.48806e-05        0.0971346        0.144075      6.28939e-05     1.70212e-05
                    -1.52895e-05    -3.48556e-05         0.160894        0.730014     -5.70476e-05     9.76525e-05        -0.603719        0.239608
                       0.0971344        0.144075     -5.71596e-05     9.77059e-05         0.945758        0.266555     -4.10175e-05    -9.42642e-05
                     6.29901e-05     1.72839e-05        -0.603719        0.239608     -4.09828e-05    -9.45898e-05         0.775964       -0.219185
554000                   0.22044         -0.9506     -1.59954e-05    -4.08936e-05         0.086102        0.123551      5.47103e-05     1.55529e-05
                    -1.62781e-05    -4.08664e-05         0.153566        0.713898     -6.50563e-05     0.000114798        -0.586998        0.262864
                       0.0861018        0.123551     -6.51856e-05      0.00011485         0.959982        0.207006     -4.28915e-05    -9.72403e-05
                     5.48054e-05     1.58248e-05        -0.586997        0.262864     -4.28279e-05    -9.75735e-05         0.789195       -0.031743
557200                  0.287924       -0.934721      -1.6809e-05    -4.68987e-05        0.0758332        0.106327      4.64001e-05     1.32878e-05
                    -1.70784e-05    -4.68678e-05         0.147487        0.699071     -7.44636e-05     0.000134798         -0.56814        0.286773
                        0.075833        0.106327     -7.46138e-05     0.000134845         0.969514        0.151973     -4.47139e-05    -0.000100408
                     4.64946e-05     1.35687e-05         -0.56814        0.286773     -4.46184e-05    -0.000100745         0.757808        0.139148
560400                  0.344328       -0.916883      -1.7438e-05    -5.28877e-05        0.0663424       0.0917142      3.80708e-05     1.01744e-05
                     -1.7693e-05    -5.28513e-05         0.142427        0.685412       -8.567e-05      0.00015843        -0.546897        0.311238
                       0.0663422       0.0917141     -8.58459e-05     0.000158467         0.975325        0.101233     -4.64694e-05    -0.000103775
                     3.81653e-05     1.04645e-05        -0.546897        0.311237     -4.63392e-05    -0.000104112         0.695074        0.282741
563600                  0.391821       -0.898419     -1.78851e-05    -5.88526e-05        0.0575997       0.0791917      2.98449e-05     6.17963e-06
                    -1.81246e-05     -5.8809e-05           0.1382        0.672811     -9.92446e-05     0.000186781        -0.522995        0.336117
                       0.0575996       0.0791917      -9.9453e-05       0.0001868         0.978197       0.0545123     -4.81408e-05    -0.000107347
                     2.99403e-05     6.47947e-06        -0.522995        0.336117     -4.79733e-05    -0.000107681         0.614641        0.395943
564000                  0.397221        -0.89611     -1.79283e-05    -5.95961e-05        0.0565571       0.0777526      2.88305e-05     5.61754e-06
                    -1.81658e-05    -5.95514e-05         0.137722        0.671305     -0.000101146     0.000190728        -0.519806        0.339248
                        0.056557       0.0777525     -0.000101359     0.000190744         0.978382       0.0489398     -4.83429e-05    -0.000107809
                     2.89261e-05     5.91864e-06        -0.519806        0.339248     -4.81705e-05    -0.000108141         0.603924        0.408024
566800                   0.43213       -0.880101     -1.81533e-05    -6.47856e-05        0.0495554       0.0683634      2.18564e-05     1.29349e-06
                    -1.83765e-05    -6.47329e-05         0.134659        0.661166     -0.000116024     0.000221421        -0.496144        0.361226
                       0.0495553       0.0683633     -0.000116275     0.000221409          0.97876       0.0115085     -4.97091e-05    -0.000111132
                     2.19535e-05     1.60387e-06        -0.496144        0.361225     -4.95019e-05    -0.000111455         0.527377        0.480832
570000                  0.466612       -0.862361     -1.82463e-05    -7.06792e-05        0.0421521       0.0589229      1.42451e-05    -4.46743e-06
                    -1.84524e-05    -7.06156e-05         0.131687        0.650386     -0.000137292     0.000264699        -0.466039        0.386315
                       0.0421521       0.0589229     -0.000137597     0.000264636          0.97752      -0.0280817     -5.11532e-05    -0.000115133
