! TOUCHSTONE file generated by CST MICROWAVE STUDIO
! Date and time: Mon Oct 20 08:27:21 2025
! Project name: Teste_Macro_Metasurface_Nanopilar.cst
! Parameters = {H=600; L_x=100; L_y=100; Lambda=1064; Max_L=200; Min_L=70; PathPara=1; Phi=0; Step_L=10; Theta=0; p=520; phaseX=180; phaseY=0}
! Header version: 2018
! Port assignment regex: !\s*Touchstone port\s*([0-9]+)\s*=\s*(CST MWS port|CST DS port)\s*([0-9]+|Zmin|Zmax)\s*\(\"(.*)\"\)(\s*mode\s*([0-9]+))?.*
! Touchstone port assignment:
! Touchstone port 1 = CST MWS port Zmax ("") mode 1
! Touchstone port 2 = CST MWS port Zmax ("") mode 2
! Touchstone port 3 = CST MWS port Zmin ("") mode 1
! Touchstone port 4 = CST MWS port Zmin ("") mode 2
! S-Parameters are not renormalized. Each port impedance will be approximated by the real part at minimum frequency. The values are described via the [Reference] keyword.
! Default impedance is overridden by [Reference]
[Version] 2.0
# GHz S RI R 376.73
[Number of Ports] 4
[Reference]
376.73 376.73 259.888 259.888 
[Number of Frequencies] 52
[Network Data]
474000                -0.0288072        0.213437     -4.25089e-05     0.000101367        -0.914882       -0.327971     -2.92622e-05     1.31435e-05
                     -4.2428e-05     0.000112677       -0.0289185        0.213424      5.14557e-05     4.51016e-05        -0.914918       -0.327894
                       -0.914871       -0.327965      5.94745e-05     4.87052e-05        -0.118334        0.187029     -2.01684e-05     0.000113716
                    -1.79662e-05     1.74531e-05        -0.914892       -0.327884     -3.19326e-05     0.000119198        -0.118208        0.187102
477200                 -0.026446        0.212159     -3.82967e-05     0.000103501        -0.918726       -0.321277     -3.01476e-05     1.57674e-05
                    -3.82141e-05     0.000114743       -0.0265568        0.212134      5.02176e-05     4.72086e-05        -0.918769        -0.32121
                       -0.918714        -0.32127      5.82515e-05     5.06542e-05        -0.106808        0.184985     -1.99268e-05     0.000116926
                    -1.89766e-05     2.01268e-05        -0.918743       -0.321201     -3.20014e-05     0.000122034        -0.106454        0.184865
480400                -0.0239286        0.210792     -3.38634e-05     0.000105775        -0.922825          -0.314     -3.10592e-05     1.85221e-05
                    -3.37783e-05     0.000116944       -0.0240389        0.210755      4.89221e-05     4.94243e-05        -0.922877       -0.313946
                       -0.922813       -0.313993       5.6971e-05     5.27027e-05       -0.0933956         0.18258     -1.97135e-05     0.000120231
                    -2.00191e-05     2.29364e-05         -0.92285       -0.313937     -3.20977e-05     0.000124951       -0.0927514        0.182213
483600                 -0.021239        0.209326     -2.91913e-05       0.0001082        -0.927205       -0.306063     -3.19978e-05     2.14176e-05
                    -2.91028e-05     0.000119292       -0.0213488        0.209276       4.7565e-05     5.17572e-05        -0.927267       -0.306023
                       -0.927191       -0.306056      5.56288e-05     5.48585e-05       -0.0775903         0.17971     -1.95316e-05     0.000123635
                    -2.10948e-05     2.58925e-05        -0.927239       -0.306013     -3.22241e-05     0.000127953       -0.0765725        0.179019
486800                -0.0183587         0.20775     -2.42608e-05     0.000110792        -0.931891       -0.297374     -3.29639e-05     2.44648e-05
                     -2.4168e-05     0.000121803       -0.0184682        0.207686      4.61419e-05     5.42169e-05        -0.931965       -0.297347
                       -0.931877       -0.297366      5.42204e-05     5.71303e-05       -0.0586899        0.176225     -1.93841e-05     0.000127141
                    -2.22047e-05     2.90067e-05        -0.931936       -0.297339      -3.2383e-05     0.000131045       -0.0571799        0.175104
490000                -0.0152668        0.206051     -1.90503e-05     0.000113569        -0.936915       -0.287821      -3.3958e-05     2.76755e-05
                    -1.89518e-05     0.000124493       -0.0153761        0.205973       4.4648e-05      5.6814e-05        -0.937002        -0.28781
                         -0.9369       -0.287813      5.27408e-05     5.95276e-05       -0.0356869        0.171907     -1.92744e-05     0.000130754
                    -2.33497e-05     3.22916e-05        -0.936972       -0.287802     -3.25773e-05     0.000134228       -0.0335113        0.170196
493200                -0.0119391        0.204214     -1.35355e-05     0.000116551         -0.94231       -0.277272     -3.49806e-05     3.10631e-05
                    -1.34299e-05     0.000127381       -0.0120483         0.20412      4.30778e-05     5.95603e-05        -0.942411       -0.277278
                       -0.942294       -0.277264      5.11845e-05     6.20611e-05      -0.00708357        0.166421     -1.92062e-05     0.000134478
                    -2.45308e-05     3.57614e-05        -0.942381        -0.27727       -3.281e-05     0.000137508       -0.0039792        0.163871
496400               -0.00834764        0.202222     -7.68951e-06      0.00011976        -0.948111       -0.265567     -3.60317e-05     3.46423e-05
                    -7.57492e-06      0.00013049       -0.0084569        0.202111      4.14255e-05      6.2469e-05        -0.948229        -0.26559
                       -0.948093       -0.265558      4.95453e-05     6.47428e-05        0.0294476        0.159223     -1.91837e-05     0.000138317
                    -2.57486e-05     3.94319e-05        -0.948198       -0.265583     -3.30844e-05     0.000140888        0.0338998         0.15543
499600               -0.00445977        0.200055     -1.48195e-06     0.000123221        -0.954358       -0.252507     -3.71115e-05     3.84294e-05
                    -1.35641e-06     0.000133844       -0.0045693        0.199926      3.96846e-05     6.55549e-05        -0.954496        -0.25255
                       -0.954339       -0.252499      4.78167e-05      6.7586e-05        0.0777298        0.149382     -1.92111e-05     0.000142275
                    -2.70037e-05     4.33204e-05        -0.954463       -0.252543     -3.34042e-05     0.000144372        0.0842385        0.143637
502800              -0.000237272        0.197688      5.12107e-06     0.000126966        -0.961092       -0.237851     -3.82196e-05     4.24427e-05
                        5.26e-06     0.000137474     -0.000347327        0.197538      3.78477e-05     6.88345e-05        -0.961252       -0.237915
                       -0.961071       -0.237842       4.5991e-05     7.06056e-05         0.144513        0.135151     -1.92933e-05     0.000146358
                    -2.82962e-05     4.74467e-05        -0.961219       -0.237909     -3.37732e-05     0.000147964         0.154373        0.126103
506000                0.00436496        0.195092      1.21578e-05     0.000131029        -0.968354       -0.221294     -3.93553e-05     4.67025e-05
                      1.2313e-05     0.000141412       0.00425405        0.194921       3.5907e-05     7.23268e-05        -0.968542       -0.221381
                       -0.968332       -0.221285        4.406e-05     7.38187e-05         0.242928         0.11286     -1.94355e-05     0.000150569
                    -2.96262e-05     5.18324e-05        -0.968507       -0.221375     -3.41958e-05     0.000151669         0.258772       0.0975898
509200                0.00940047        0.192233      1.96714e-05      0.00013545        -0.976184       -0.202454     -4.05175e-05     5.12316e-05
                     1.98464e-05     0.000145698       0.00928829        0.192038      3.38534e-05     7.60528e-05        -0.976404       -0.202566
                       -0.976159       -0.202445      4.20144e-05     7.72444e-05         0.402339       0.0733791     -1.96434e-05     0.000154915
                     -3.0993e-05     5.65023e-05        -0.976367       -0.202561     -3.46765e-05     0.000155491         0.430389       0.0442895
512400                 0.0149334        0.189068      2.77109e-05     0.000140276        -0.983548       -0.180646     -4.17044e-05     5.60556e-05
                     2.79098e-05     0.000150379        0.0148194        0.188847       3.1677e-05      8.0037e-05        -0.983532       -0.180733
                       -0.983549       -0.180642      3.98437e-05     8.09044e-05         0.704412      -0.0131398     -1.99232e-05     0.000159399
                    -3.23956e-05     6.14841e-05        -0.983532       -0.180736     -3.52206e-05     0.000159435         0.763146      -0.0830156
515600                 0.0210411        0.185547       3.6332e-05     0.000145564        -0.987927       -0.154922     -4.29134e-05     6.12035e-05
                     3.65598e-05     0.000155509        0.0209246        0.185298      2.93668e-05     8.43068e-05        -0.987909       -0.155037
                       -0.987927       -0.154918      3.75362e-05     8.48234e-05         0.978491       -0.206291     -2.02819e-05     0.000164028
                    -3.38319e-05     6.68089e-05        -0.987908       -0.155041     -3.58336e-05     0.000163507         0.938753       -0.344592
518800                 0.0278178        0.181605      4.55981e-05      0.00015138        -0.992138       -0.125151     -4.41409e-05     6.67079e-05
                     4.58609e-05     0.000161153        0.0276979        0.181324      2.69102e-05      8.8894e-05        -0.992119       -0.125296
                       -0.992138       -0.125146      3.50789e-05     8.90301e-05         0.619561       -0.784949     -2.07267e-05     0.000168806
                     -3.5299e-05     7.25124e-05        -0.992119       -0.125301     -3.65216e-05     0.000167711        -0.146956       -0.989143
522000                 0.0353797        0.177163      5.55819e-05     0.000157802        -0.995911      -0.0903451     -4.53818e-05     7.26059e-05
                     5.58871e-05     0.000167387        0.0352553        0.176848      2.42934e-05     9.38352e-05        -0.995894      -0.0905252
                       -0.995911      -0.0903404      3.24567e-05      9.3557e-05        -0.999545       0.0301642     -2.12659e-05     0.000173739
                    -3.67925e-05     7.86349e-05        -0.995894      -0.0905316     -3.72912e-05     0.000172053         -0.99997     -0.00770631
525200                 0.0438711         0.17212      6.63671e-05     0.000164927        -0.998789      -0.0491923     -4.66295e-05     7.89396e-05
                     6.67238e-05     0.000174304        0.0437406        0.171766      2.15003e-05     9.91727e-05        -0.998778      -0.0494124
                        -0.99879      -0.0491872      2.96527e-05     9.84421e-05        -0.981663        0.190623     -2.19082e-05     0.000178833
                    -3.83062e-05     8.52226e-05        -0.998778      -0.0494202     -3.81498e-05     0.000176538        -0.985555        0.169355
528400                 0.0534741        0.166347      7.80499e-05     0.000172868               -1     8.07315e-05     -4.78751e-05     8.57573e-05
                     7.84692e-05     0.000182018        0.0533356        0.165949      1.85134e-05     0.000104956               -1    -0.000185004
                              -1     8.61005e-05      2.66478e-05      0.00010373        -0.964854        0.262785     -2.26633e-05     0.000184093
                    -3.98316e-05     9.23282e-05               -1    -0.000194432     -3.91052e-05     0.000181173        -0.968064        0.250704
531600                 0.0644216        0.159672      9.07416e-05     0.000181767        -0.998204       0.0599003     -4.91066e-05     9.31141e-05
                     9.12374e-05     0.000190664        0.0642723        0.159225      1.53123e-05     0.000111243        -0.998223       0.0595834
                       -0.998204       0.0599059      2.34199e-05     0.000109471        -0.839528        0.273755     -2.35419e-05     0.000189525
                    -4.13572e-05     0.000100013        -0.998224       0.0595719     -4.01663e-05     0.000185963        -0.815405        0.258854
534800                 0.0770159        0.151869      0.000104571     0.000191796        -0.991033        0.133615     -5.03085e-05     0.000101074
                     0.000105161     0.000200414         0.076852        0.151367      1.18742e-05     0.000118101        -0.991083        0.133242
                       -0.991033        0.133621      1.99437e-05     0.000115726        -0.721182        0.265015     -2.45554e-05     0.000195135
                    -4.28672e-05     0.000108346        -0.991085        0.133228     -4.13427e-05     0.000190914        -0.706271        0.255412
538000                 0.0916567        0.142631      0.000119689      0.00020317        -0.974167        0.225827     -5.14603e-05     0.000109709
                     0.000120395     0.000211477        0.0914732        0.142065      8.17285e-06     0.000125613        -0.974266        0.225399
                       -0.974166        0.225833      1.61902e-05     0.000122569        -0.643559        0.258122     -2.57165e-05     0.000200928
                    -4.43405e-05      0.00011741         -0.97427        0.225382     -4.26447e-05     0.000196033        -0.633556        0.251529
541200                  0.108884        0.131524       0.00013627     0.000216161        -0.939469        0.342633     -5.25348e-05     0.000119107
                      0.00013712     0.000224119         0.108673        0.130884      4.17858e-06     0.000133874        -0.939642         0.34216
                       -0.939467        0.342638      1.21256e-05     0.000130084        -0.588735        0.252697     -2.70388e-05      0.00020691
                    -4.57489e-05     0.000127299        -0.939649        0.342139      -4.4084e-05     0.000201327        -0.581658        0.247979
544400                  0.129444        0.117927      0.000154517     0.000231111         -0.87115        0.491017     -5.34965e-05     0.000129364
                     0.000155547     0.000238677         0.129196        0.117203     -1.42679e-07     0.000143003         -0.87142        0.490538
                       -0.871148        0.491021      7.71075e-06     0.000138375        -0.547957        0.248362     -2.85376e-05     0.000213086
                    -4.70546e-05     0.000138123        -0.871434        0.490513     -4.56732e-05     0.000206801        -0.542766        0.244891
547600                  0.154398        0.100913      0.000174666     0.000248463        -0.738308        0.674463     -5.42981e-05     0.000140597
                     0.000175924     0.000255586         0.154095         0.10009     -4.82978e-06     0.000153142        -0.738668        0.674069
                       -0.738308        0.674464      2.90004e-06     0.000147569        -0.516441        0.244837      -3.0229e-05     0.000219462
                    -4.82067e-05     0.000150014        -0.738694        0.674041     -4.74262e-05     0.000212462        -0.512539        0.242238
550800                  0.185304       0.0790382      0.000196988     0.000268794        -0.484517        0.874782     -5.48773e-05     0.000152943
                     0.000198536     0.000275414         0.184921       0.0780993     -9.92707e-06     0.000164465        -0.484816        0.874616
                       -0.484522        0.874779     -2.36011e-06      0.00015782        -0.491354        0.241922     -3.21311e-05     0.000226042
                    -4.91372e-05     0.000163123        -0.484862        0.874591     -4.93583e-05     0.000218317        -0.488373        0.239958
554000                   0.22454       0.0499303      0.000221793     0.000292864       -0.0389451        0.999241     -5.51511e-05      0.00016656
                     0.000223714     0.000298913         0.224035       0.0488565      -1.5485e-05     0.000177192       -0.0387362        0.999249
                      -0.0389617        0.999241     -8.13269e-06      0.00016932        -0.470912        0.239474     -3.42632e-05     0.000232831
                    -4.97538e-05     0.000177632       -0.0388023        0.999247     -5.14862e-05     0.000224372        -0.468612        0.237988
557200                  0.275906      0.00942578      0.000249418     0.000321699         0.555628        0.831431     -5.50079e-05     0.000181636
                     0.000251828     0.000327096         0.275208      0.00819928     -2.15606e-05     0.000191596         0.556537        0.830823
                        0.555609        0.831444      -1.4492e-05     0.000182309        -0.453934        0.237392     -3.66467e-05     0.000239832
                    -4.99317e-05     0.000193754         0.556483        0.830859     -5.38284e-05     0.000230634        -0.452153        0.236274
560400                  0.345817      -0.0504538      0.000280215     0.000356697         0.923805        0.254304     -5.42981e-05     0.000198394
                     0.000283271      0.00036135         0.344791      -0.0518359      -2.8217e-05     0.000208027          0.92648        0.253353
                        0.923769        0.254306     -2.15258e-05     0.000197093        -0.439608        0.235601     -3.93045e-05     0.000247047
                    -4.95005e-05     0.000211742         0.926448        0.253383     -5.64051e-05     0.000237109        -0.438232        0.234773
563600                  0.445742       -0.146915      0.000314498     0.000399799         0.798676       -0.320831      -5.2818e-05     0.000217097
                     0.000318421     0.000403611          0.44412       -0.148385      -3.5523e-05     0.000226936         0.798996       -0.322578
                        0.798691       -0.320838     -2.93379e-05     0.000214068        -0.427358        0.234044     -4.22618e-05      0.00025448
                     -4.8226e-05     0.000231897         0.799003       -0.322575     -5.92385e-05     0.000243803        -0.426305         0.23345
564000                  0.461253       -0.163186      0.000319039     0.000405882         0.766587       -0.373413     -5.25659e-05     0.000219586
                     0.000323091     0.000409582         0.459525       -0.164652     -3.64854e-05     0.000229502         0.766675       -0.375098
                        0.766605       -0.373424      -3.0375e-05     0.000216368        -0.425951        0.233864     -4.26538e-05     0.000255425
                    -4.79925e-05     0.000234586         0.766684       -0.375098      -5.9612e-05     0.000244655        -0.424933        0.233295
566800                  0.596972        -0.32383      0.000352426     0.000453752         0.520811       -0.631701     -5.02894e-05     0.000238051
                     0.000357536     0.000456624          0.59416       -0.324997     -4.35486e-05     0.000248918         0.519892       -0.632648
                        0.520834       -0.631735     -3.80501e-05     0.000233753        -0.416764        0.232679     -4.55457e-05      0.00026213
                    -4.57842e-05     0.000254573         0.519897       -0.632668     -6.23533e-05     0.000250719        -0.415972        0.232275
570000                  0.753533        -0.65741      0.000393751       0.0005225         0.267374       -0.764727      -4.6329e-05     0.000261618
                      0.00040051     0.000524361         0.752057       -0.659098     -5.23575e-05     0.000274769         0.266181       -0.764876
                        0.267388       -0.764774     -4.78039e-05      0.00025684        -0.407511        0.231472     -4.91858e-05     0.000269997
