! TOUCHSTONE file generated by CST MICROWAVE STUDIO
! Date and time: Mon Oct 20 08:27:14 2025
! Project name: Teste_Macro_Metasurface_Nanopilar.cst
! Parameters = {H=600; L_x=70; L_y=160; Lambda=1064; Max_L=200; Min_L=70; PathPara=1; Phi=0; Step_L=10; Theta=0; p=520; phaseX=180; phaseY=0}
! Header version: 2018
! Port assignment regex: !\s*Touchstone port\s*([0-9]+)\s*=\s*(CST MWS port|CST DS port)\s*([0-9]+|Zmin|Zmax)\s*\(\"(.*)\"\)(\s*mode\s*([0-9]+))?.*
! Touchstone port assignment:
! Touchstone port 1 = CST MWS port Zmax ("") mode 1
! Touchstone port 2 = CST MWS port Zmax ("") mode 2
! Touchstone port 3 = CST MWS port Zmin ("") mode 1
! Touchstone port 4 = CST MWS port Zmin ("") mode 2
! S-Parameters are not renormalized. Each port impedance will be approximated by the real part at minimum frequency. The values are described via the [Reference] keyword.
! Default impedance is overridden by [Reference]
[Version] 2.0
# GHz S RI R 376.73
[Number of Ports] 4
[Reference]
376.73 376.73 259.888 259.888 
[Number of Frequencies] 52
[Network Data]
474000                  0.245962       -0.185564      2.34571e-05    -1.97364e-05        -0.410633        0.849836      4.35551e-05     2.21506e-05
                     2.25904e-05    -1.98258e-05          0.40085      -0.0789121      1.03836e-05     3.03347e-05         -0.90311      -0.0827826
                       -0.410634        0.849838      1.24798e-05     3.05706e-05       0.00777646        0.309805     -1.79133e-05     2.94763e-05
                     4.38273e-05     2.29813e-05        -0.903109      -0.0827817     -1.75941e-05     3.03512e-05         -0.38354        -0.14697
477200                  0.250627        -0.18485      2.23044e-05     -1.6511e-05        -0.383141        0.855554      4.48159e-05     2.19341e-05
                      2.1467e-05    -1.66202e-05         0.387878      -0.0902168      8.46049e-06     2.88022e-05        -0.905581      -0.0717908
                       -0.383142        0.855556      1.04927e-05     2.90085e-05        0.0113226        0.314777     -1.73423e-05     2.97428e-05
                     4.50876e-05     2.27573e-05         -0.90558      -0.0717898     -1.70289e-05     3.06074e-05        -0.382333       -0.135767
480400                  0.255565        -0.18405      2.10576e-05    -1.32216e-05        -0.354221        0.860616       4.6139e-05     2.17032e-05
                     2.02506e-05    -1.33498e-05         0.374384      -0.0995486      6.44788e-06     2.72665e-05        -0.908117      -0.0598566
                       -0.354221        0.860618      8.41445e-06     2.74445e-05        0.0151418         0.32025     -1.67449e-05     3.00237e-05
                     4.64101e-05     2.25185e-05        -0.908116      -0.0598556     -1.64376e-05     3.08776e-05        -0.380694       -0.124372
483600                    0.2608       -0.183153      1.97109e-05    -9.86859e-06        -0.323808        0.864902      4.75291e-05     2.14566e-05
                     1.89353e-05    -1.00147e-05         0.360711       -0.106996      4.34168e-06     2.57308e-05        -0.910708      -0.0468566
                       -0.323809        0.864904      6.24107e-06     2.58816e-05        0.0192647          0.3263     -1.61193e-05     3.03203e-05
                     4.77995e-05     2.22634e-05        -0.910706      -0.0468555     -1.58182e-05     3.11629e-05          -0.3786       -0.112803
486800                  0.266358       -0.182144      1.82583e-05    -6.45242e-06        -0.291844        0.868277      4.89914e-05     2.11926e-05
                      1.7515e-05    -6.61538e-06         0.347144         -0.1127       2.1377e-06     2.41981e-05        -0.913336      -0.0326453
                       -0.291845        0.868279      3.96842e-06     2.43231e-05        0.0237261        0.333022     -1.54634e-05     3.06339e-05
                      4.9261e-05     2.19904e-05        -0.913335      -0.0326442     -1.51687e-05     3.14646e-05        -0.376027       -0.101081
490000                   0.27227       -0.181007      1.66934e-05    -2.97389e-06        -0.258272        0.870589      5.05316e-05     2.09095e-05
                     1.59834e-05    -3.15254e-06         0.333906       -0.116839     -1.68292e-07      2.2672e-05        -0.915978      -0.0170505
                       -0.258272        0.870591      1.59229e-06     2.27727e-05        0.0285651        0.340532     -1.47749e-05      3.0966e-05
                     5.08003e-05     2.16978e-05        -0.915977      -0.0170493      -1.4487e-05      3.1784e-05        -0.372952      -0.0892293
493200                   0.27857       -0.179723      1.50096e-05     5.65886e-07        -0.223043        0.871668      5.21561e-05     2.06053e-05
                     1.43338e-05     3.72857e-07         0.321163       -0.119602     -2.58064e-06     2.11567e-05        -0.918597     0.000133204
                       -0.223044        0.871669     -8.91588e-07     2.12346e-05        0.0338263        0.348972     -1.40514e-05     3.13183e-05
                     5.24237e-05     2.13834e-05        -0.918596     0.000134468     -1.37706e-05     3.21229e-05        -0.369354      -0.0772732
496400                  0.285295       -0.178269      1.31999e-05     4.16544e-06         -0.18612        0.871322       5.3872e-05     2.02778e-05
                     1.25592e-05     3.95943e-06          0.30903       -0.121182     -5.10375e-06     1.96566e-05        -0.921143       0.0191525
                        -0.18612        0.871324     -3.48754e-06     1.97134e-05        0.0395593        0.358523     -1.32902e-05     3.16925e-05
                     5.41383e-05     2.10449e-05        -0.921141       0.0191538     -1.30167e-05      3.2483e-05        -0.365211      -0.0652415
499600                  0.292489       -0.176618       1.1257e-05     7.82289e-06        -0.147475         0.86934      5.56872e-05     1.99243e-05
                     1.06521e-05     7.60543e-06         0.297578       -0.121763     -7.74203e-06     1.81768e-05         -0.92354       0.0403054
                       -0.147476        0.869341      -6.1999e-06     1.82141e-05        0.0458186        0.369412     -1.24883e-05     3.20907e-05
                     5.59521e-05     2.06797e-05        -0.923538       0.0403068     -1.22225e-05     3.28663e-05        -0.360505      -0.0531654
502800                  0.300199       -0.174737      9.17324e-06     1.15359e-05        -0.107101        0.865487      5.76104e-05     1.95419e-05
                     8.60488e-06     1.13086e-05         0.286841       -0.121515     -1.04999e-05     1.67227e-05        -0.925684       0.0639551
                       -0.107102        0.865489       -9.033e-06     1.67423e-05        0.0526626        0.381928     -1.16423e-05     3.25154e-05
                     5.78737e-05     2.02847e-05        -0.925682       0.0639566     -1.13845e-05      3.3275e-05        -0.355218      -0.0410788
506000                  0.308481       -0.172586      6.94072e-06     1.53017e-05       -0.0650101        0.859506      5.96517e-05     1.91271e-05
                     6.40952e-06     1.50664e-05         0.276831       -0.120589     -1.33818e-05     1.53006e-05        -0.927422       0.0905474
                      -0.0650104        0.859508     -1.19911e-05     1.53044e-05        0.0601507        0.396451     -1.07485e-05     3.29691e-05
                      5.9913e-05     1.98564e-05         -0.92742       0.0905489     -1.04991e-05     3.37117e-05        -0.349336      -0.0290181
509200                  0.317398       -0.170119      4.55122e-06     1.91168e-05       -0.0212424        0.851118      6.18222e-05      1.8676e-05
                     4.05766e-06     1.88753e-05         0.267536       -0.119119     -1.63919e-05     1.39171e-05        -0.928536        0.120633
                      -0.0212427        0.851119     -1.50784e-05     1.39071e-05        0.0683357        0.413483     -9.80285e-06     3.34548e-05
                     6.20812e-05     1.93907e-05        -0.928533        0.120635     -9.56215e-06     3.41793e-05        -0.342847      -0.0170222
512400                   0.32702       -0.167278      1.99622e-06     2.29772e-05        0.0241281        0.840019      6.41344e-05     1.81841e-05
                     1.54066e-06     2.27317e-05         0.258933       -0.117218     -1.95346e-05     1.25797e-05        -0.928704          0.1549
                       0.0241278         0.84002     -1.82989e-05     1.25579e-05        0.0772505        0.433696      -8.8007e-06      3.3976e-05
                     6.43907e-05     1.88829e-05          -0.9287        0.154902     -8.56914e-06     3.46811e-05         -0.33574     -0.00513216
515600                   0.33743       -0.163991      -7.3307e-07     2.68783e-05        0.0709874        0.825887      6.66025e-05     1.76458e-05
                    -1.15042e-06     2.66308e-05         0.250988       -0.114983     -2.28136e-05     1.12965e-05        -0.927453        0.194209
                       0.0709872        0.825889     -2.16564e-05     1.12649e-05        0.0868783        0.458014     -7.73689e-06     3.45366e-05
                     6.68558e-05     1.83275e-05         -0.92745        0.194211     -7.51489e-06     3.52209e-05        -0.328011      0.00660911
518800                  0.348721       -0.160172     -3.64567e-06     3.08147e-05         0.119174        0.808385      6.92429e-05     1.70551e-05
                    -4.02476e-06     3.05674e-05         0.243664       -0.112496     -2.62328e-05     1.00763e-05         -0.92408        0.239648
                        0.119174        0.808387     -2.51545e-05     1.00371e-05        0.0970946        0.487728     -6.60563e-06     3.51411e-05
                     6.94926e-05     1.77181e-05        -0.924076        0.239649     -6.39362e-06      3.5803e-05        -0.319658       0.0181569
522000                  0.360999       -0.155711      -6.7508e-06     3.47801e-05         0.168469        0.787164       7.2074e-05     1.64044e-05
                     -7.0918e-06     3.45353e-05         0.236919       -0.109824     -2.97956e-05     8.92886e-06        -0.917512        0.292589
                        0.168469        0.787165     -2.87964e-05     8.88407e-06         0.107544        0.524682     -5.40037e-06     3.57946e-05
                     7.23196e-05     1.70469e-05        -0.917508        0.292591     -5.19883e-06     3.64325e-05        -0.310682       0.0294655
525200                  0.374387       -0.150473     -1.00579e-05     3.87674e-05         0.218593         0.76187      7.51171e-05     1.56849e-05
                    -1.03611e-05     3.85276e-05         0.230711       -0.107023     -3.35048e-05     7.86457e-06          -0.9061        0.354763
                        0.218593        0.761872     -3.25849e-05     7.81623e-06         0.117383        0.571556     -4.11371e-06     3.65033e-05
                     7.53578e-05     1.63051e-05        -0.906095        0.354764     -3.92312e-06     3.71152e-05        -0.301088        0.040488
528400                  0.389026       -0.144285     -1.35763e-05     4.27685e-05         0.269192         0.73216      7.83967e-05     1.48863e-05
                    -1.38425e-05     4.25362e-05         0.224999       -0.104137     -3.73629e-05     6.89473e-06         -0.88725        0.428308
                        0.269192        0.732161     -3.65221e-05     6.84484e-06         0.124712        0.632312     -2.73724e-06     3.72742e-05
                     7.86316e-05     1.54819e-05        -0.887244        0.428309     -2.55811e-06      3.7858e-05        -0.290889       0.0511774
531600                  0.405075       -0.136927     -1.73157e-05     4.67744e-05         0.319837        0.697708      8.19412e-05     1.39957e-05
                    -1.75456e-05     4.65521e-05         0.219743       -0.101203     -4.13717e-05     6.03148e-06        -0.856758        0.515719
                        0.319837        0.697709     -4.06095e-05     5.98194e-06         0.125295        0.712772     -1.26138e-06     3.81155e-05
                     8.21693e-05     1.45642e-05        -0.856756        0.515723     -1.09424e-06     3.86687e-05        -0.280099       0.0614868
534800                  0.422715       -0.128116     -2.12855e-05     5.07747e-05         0.370018        0.658224      8.57837e-05      1.2998e-05
                    -2.14803e-05     5.05651e-05         0.214905      -0.0982508      -4.5532e-05     5.28782e-06        -0.793493        0.608579
                        0.370019        0.658225     -4.48481e-05     5.24043e-06         0.109599        0.821032      3.24821e-07     3.90369e-05
                     8.60037e-05     1.35365e-05         -0.79349        0.608583      4.79442e-07     3.95569e-05        -0.268738       0.0713698
538000                  0.442146       -0.117487     -2.54951e-05     5.47582e-05         0.419143        0.613475      8.99629e-05     1.18745e-05
                    -2.56563e-05     5.45638e-05          0.21045       -0.095303      -4.9844e-05     4.67759e-06        -0.701264        0.712902
                        0.419143        0.613476     -4.92376e-05     4.63397e-06        0.0560914        0.965717      2.03398e-06     4.00501e-05
                     9.01732e-05     1.23796e-05         -0.70126        0.712905      2.17553e-06     4.05338e-05         -0.25683       0.0807814
541200                  0.463586       -0.104557     -2.99536e-05     5.87121e-05         0.466538        0.563302      9.45245e-05     1.06022e-05
                     -3.0083e-05     5.85355e-05         0.206344      -0.0923781     -5.43067e-05     4.21546e-06        -0.566064        0.824361
                        0.466538        0.563302     -5.37769e-05     4.17704e-06         -0.07065        0.997501      3.88062e-06     4.11689e-05
                     9.47233e-05       1.107e-05        -0.566059        0.824364      4.00857e-06     4.16127e-05        -0.244404       0.0896785
544400                  0.487261       -0.088691     -3.46697e-05     6.26225e-05         0.511462        0.507643      9.95228e-05     9.15262e-06
                    -3.47695e-05     6.24662e-05         0.202558      -0.0894903     -5.89178e-05     3.91687e-06        -0.369017        0.929423
                        0.511463        0.507643     -5.84635e-05     3.88482e-06        -0.276776        0.960935      5.88162e-06       4.241e-05
                     9.97075e-05     9.57841e-06        -0.369011        0.929425      5.99545e-06     4.28098e-05        -0.231495       0.0980202
547600                  0.513383      -0.0690383     -3.96518e-05      6.6474e-05         0.553119        0.446557      0.000105022     7.48987e-06
                    -3.97245e-05     6.63405e-05         0.199064      -0.0866506     -6.36737e-05     3.79797e-06       -0.0909552        0.995855
                        0.553119        0.446558     -6.32939e-05     3.77319e-06        -0.547397        0.836873      8.05659e-06     4.37937e-05
                      0.00010519     7.86825e-06       -0.0909486        0.995856      8.15584e-06     4.41448e-05        -0.218138        0.105769
550800                  0.542103      -0.0444568     -4.49073e-05       7.025e-05         0.590678        0.380243      0.000111101     5.56849e-06
                    -4.49558e-05     7.01415e-05         0.195836       -0.083867     -6.85693e-05     3.87551e-06         0.268435        0.963298
                        0.590678        0.380244     -6.82627e-05     3.85858e-06        -0.786874        0.617114      1.04285e-05     4.53447e-05
                     0.000111248       5.893e-06         0.268441        0.963296      1.05128e-05     4.56417e-05        -0.204377        0.112889
554000                  0.573431      -0.0134041     -5.04431e-05      7.3932e-05         0.623304        0.309055      0.000117854     3.33004e-06
                    -5.04707e-05     7.38506e-05          0.19285      -0.0811457     -7.35976e-05     4.16674e-06         0.651477        0.758668
                        0.623304        0.309055      -7.3363e-05     4.15785e-06        -0.918905         0.39448      1.30244e-05     4.70938e-05
                     0.000117975     3.59295e-06         0.651481        0.758665      1.30935e-05     4.73303e-05        -0.190256        0.119352
557200                  0.607066       0.0261997     -5.62649e-05     7.75005e-05         0.650192        0.233509      0.000125396     6.98412e-07
                    -5.62753e-05      7.7448e-05         0.190086      -0.0784908     -7.87498e-05     4.68923e-06         0.929212        0.369547
                        0.650192        0.233509      -7.8586e-05     4.68818e-06        -0.946027        0.232575      1.58762e-05     4.90794e-05
                     0.000125485     8.90378e-07         0.929213        0.369544        1.593e-05     4.92479e-05        -0.175822        0.125131
560400                  0.642097       0.0771252     -6.23771e-05     8.09343e-05         0.670606        0.154288      0.000133871    -2.42696e-06
                    -6.23745e-05     8.09121e-05         0.187525      -0.0759051     -8.40151e-05     5.46067e-06         0.995413      -0.0956746
                        0.670606        0.154289     -8.39209e-05     5.46685e-06        -0.791499        0.119464      1.90217e-05       5.135e-05
                     0.000133918     -2.3173e-06         0.995413      -0.0956758      1.90607e-05     5.14417e-05        -0.161126        0.130203
563600                  0.676455        0.142944     -6.87828e-05     8.42107e-05         0.683918        0.072227      0.000143456    -6.18124e-06
                    -6.87716e-05     8.42199e-05         0.185149      -0.0733903     -8.93804e-05     6.49865e-06         0.856163       -0.485597
                        0.683918        0.072227     -8.93548e-05       6.511e-06        -0.667532       0.0709898      2.25061e-05     5.39677e-05
                     0.000143451    -6.16782e-06         0.856162       -0.485597       2.2531e-05     5.39719e-05         -0.14622        0.134554
564000                  0.680527        0.152426     -6.96042e-05      8.4608e-05         0.685057       0.0618165      0.000144743    -6.70327e-06
                    -6.95923e-05     8.46211e-05         0.184864       -0.073081     -9.00573e-05     6.64801e-06         0.825764       -0.521658
                        0.685057       0.0618165     -9.00402e-05     6.66103e-06        -0.654272       0.0675232      2.29681e-05     5.43231e-05
                     0.000144731    -6.70302e-06         0.825764       -0.521658      2.29913e-05     5.43155e-05        -0.144345        0.135046
566800                  0.705986        0.227912     -7.54832e-05     8.73058e-05         0.689648      -0.0117103      0.000154376    -1.07494e-05
                    -7.54684e-05     8.73469e-05         0.182942      -0.0709471     -9.48301e-05      7.8204e-06         0.605627       -0.708055
                        0.689648      -0.0117104     -9.48725e-05     7.83742e-06        -0.573415       0.0528626      2.63833e-05     5.70132e-05
                     0.000154303    -1.08494e-05         0.605629       -0.708056      2.63959e-05      5.6917e-05        -0.131158        0.138171
570000                  0.723041        0.336188     -8.24778e-05     9.01943e-05         0.687494       -0.096462      0.000166916    -1.63897e-05
                    -8.24644e-05     9.02674e-05          0.18089      -0.0685756     -0.000100346     9.44243e-06         0.373915       -0.814559
                        0.687494      -0.0964621     -0.000100457     9.46219e-06        -0.502005       0.0487897      3.07178e-05     6.05924e-05
