! TOUCHSTONE file generated by CST MICROWAVE STUDIO
! Date and time: Mon Oct 20 08:27:26 2025
! Project name: Teste_Macro_Metasurface_Nanopilar.cst
! Parameters = {H=600; L_x=115; L_y=100; Lambda=1064; Max_L=200; Min_L=70; PathPara=1; Phi=0; Step_L=10; Theta=0; p=520; phaseX=180; phaseY=0}
! Header version: 2018
! Port assignment regex: !\s*Touchstone port\s*([0-9]+)\s*=\s*(CST MWS port|CST DS port)\s*([0-9]+|Zmin|Zmax)\s*\(\"(.*)\"\)(\s*mode\s*([0-9]+))?.*
! Touchstone port assignment:
! Touchstone port 1 = CST MWS port Zmax ("") mode 1
! Touchstone port 2 = CST MWS port Zmax ("") mode 2
! Touchstone port 3 = CST MWS port Zmin ("") mode 1
! Touchstone port 4 = CST MWS port Zmin ("") mode 2
! S-Parameters are not renormalized. Each port impedance will be approximated by the real part at minimum frequency. The values are described via the [Reference] keyword.
! Default impedance is overridden by [Reference]
[Version] 2.0
# GHz S RI R 376.73
[Number of Ports] 4
[Reference]
376.73 376.73 259.888 259.888 
[Number of Frequencies] 52
[Network Data]
474000                -0.0220582        0.190285      2.19314e-05     3.82691e-06        -0.937192       -0.282192      3.68081e-05     -0.00011619
                     2.19177e-05     3.50227e-06         0.358793      -0.0283971     -1.53789e-05    -0.000119203        -0.906669        0.182155
                       -0.937191       -0.282192     -1.59617e-05    -0.000118257       -0.0886386        0.173367     -5.63712e-05    -5.18172e-05
                     3.58316e-05    -0.000117105        -0.906665        0.182154     -5.65185e-05    -5.26378e-05        -0.345028        0.123587
477200                -0.0263021        0.189108       2.5208e-05     5.34906e-06        -0.937394       -0.284569      4.02032e-05    -0.000115881
                     2.51373e-05     4.95646e-06         0.357574        -0.03099     -1.52186e-05    -0.000117187        -0.932191        0.164293
                       -0.937393       -0.284568     -1.56197e-05    -0.000116313        -0.083788        0.173351     -5.57877e-05     -4.9159e-05
                     3.92835e-05      -0.0001168        -0.932186        0.164291     -5.60399e-05    -4.99363e-05        -0.337093        0.121932
480400                 -0.030869        0.187794      2.86744e-05     6.98846e-06        -0.937603       -0.287129      4.37793e-05    -0.000115546
                     2.85471e-05     6.52409e-06         0.356289      -0.0336959     -1.50701e-05    -0.000115058        -0.959155        0.143822
                       -0.937603       -0.287128     -1.52744e-05    -0.000114259       -0.0785147        0.173278     -5.51619e-05    -4.63561e-05
                     4.29185e-05    -0.000116468         -0.95915        0.143819     -5.55223e-05    -4.70876e-05        -0.328772        0.120378
483600                -0.0357964         0.18632      3.23473e-05     8.75843e-06         -0.93782       -0.289895      4.75515e-05    -0.000115182
                      3.2164e-05     8.21827e-06         0.354931      -0.0365225     -1.49362e-05    -0.000112806        -0.987575        0.120294
                       -0.937819       -0.289894     -1.49271e-05    -0.000112084       -0.0727621        0.173133     -5.44894e-05    -4.33965e-05
                     4.67516e-05    -0.000116108        -0.987569        0.120292     -5.49612e-05    -4.40794e-05        -0.320043        0.118945
486800                -0.0411275        0.184659      3.62454e-05     1.06743e-05        -0.938043       -0.292892      5.15361e-05    -0.000114787
                     3.60072e-05     1.00541e-05         0.353495      -0.0394778     -1.48202e-05    -0.000110422        -0.995832       0.0912041
                       -0.938042       -0.292892     -1.45792e-05     -0.00010978       -0.0664632        0.172895      -5.3765e-05    -4.02667e-05
                     5.07993e-05    -0.000115716        -0.995833        0.091201     -5.43517e-05     -4.0898e-05        -0.310881        0.117657
490000                -0.0469128        0.182778      4.03893e-05     1.27539e-05        -0.938272       -0.296152      5.57517e-05    -0.000114356
                      4.0098e-05      1.2049e-05         0.351973      -0.0425706     -1.47263e-05    -0.000107894        -0.998265       0.0588857
                       -0.938271       -0.296151     -1.42324e-05    -0.000107333        -0.059538        0.172539      -5.2983e-05    -3.69517e-05
                     5.50803e-05    -0.000115287        -0.998265       0.0588818     -5.36879e-05    -3.75283e-05        -0.301263        0.116539
493200                 -0.053211        0.180637      4.48026e-05     1.50178e-05        -0.938506       -0.299709      6.02188e-05    -0.000113885
                     4.44606e-05     1.42235e-05         0.350359      -0.0458108     -1.46591e-05    -0.000105208         -0.99972       0.0236552
                       -0.938505       -0.299709     -1.38891e-05    -0.000104731       -0.0518908         0.17203     -5.21367e-05    -3.34346e-05
                     5.96151e-05    -0.000114819         -0.99972       0.0236504      -5.2963e-05     -3.3953e-05        -0.291162        0.115621
496400                -0.0600912        0.178183      4.95117e-05       1.749e-05        -0.938743       -0.303607      6.49605e-05     -0.00011337
                     4.91224e-05     1.66014e-05         0.348644      -0.0492088     -1.46245e-05    -0.000102351         -0.99989      -0.0148226
                       -0.938742       -0.303606     -1.35521e-05     -0.00010196       -0.0434058        0.171322     -5.12183e-05    -2.96965e-05
                     6.44269e-05    -0.000114304         -0.99989      -0.0148282     -5.21694e-05    -3.01531e-05        -0.280554        0.114939
499600                -0.0676347        0.175354      5.45462e-05     2.01988e-05        -0.938981       -0.307896       7.0003e-05    -0.000112804
                     5.41142e-05     1.92109e-05         0.346819      -0.0527763     -1.46296e-05    -9.93051e-05        -0.998379      -0.0569109
                        -0.93898       -0.307896      -1.3225e-05     -9.9001e-05       -0.0339422        0.170354     -5.02188e-05    -2.57161e-05
                     6.95419e-05    -0.000113738        -0.998379      -0.0569173     -5.12978e-05    -2.61069e-05        -0.269409        0.114531
502800                -0.0759379        0.172069        5.994e-05     2.31776e-05        -0.939215       -0.312639      7.53755e-05     -0.00011218
                     5.94712e-05      2.2085e-05         0.344873      -0.0565262     -1.46826e-05    -9.60535e-05        -0.994682       -0.102992
                       -0.939215       -0.312639     -1.29123e-05    -9.58368e-05        -0.023327        0.169045     -4.91279e-05    -2.14692e-05
                     7.49894e-05    -0.000113113        -0.994681          -0.103     -5.03378e-05    -2.17899e-05        -0.257703        0.114441
506000                -0.0851157        0.168224      6.57314e-05     2.64659e-05        -0.939442       -0.317911      8.11116e-05    -0.000111491
                     6.52337e-05     2.52636e-05         0.342794      -0.0604723      -1.4794e-05    -9.25753e-05        -0.988156       -0.153452
                       -0.939441       -0.317911     -1.26197e-05    -9.24454e-05       -0.0113458        0.167278     -4.79334e-05    -1.69283e-05
                     8.08029e-05    -0.000112422        -0.988155        -0.15346     -4.92767e-05    -1.71744e-05        -0.245407        0.114722
509200                -0.0953054        0.163685       7.1964e-05     3.01112e-05        -0.939651       -0.323806      8.72492e-05    -0.000110727
                     7.14475e-05     2.87942e-05          0.34057      -0.0646303      -1.4976e-05    -8.88476e-05        -0.977991       -0.208648
                        -0.93965       -0.323805     -1.23541e-05    -8.88025e-05       0.00226895        0.164896     -4.66209e-05    -1.20622e-05
                     8.70202e-05    -0.000111654        -0.977989       -0.208657     -4.80998e-05    -1.22287e-05        -0.232495         0.11543
512400                 -0.106672        0.158277       7.8688e-05     3.41702e-05        -0.939832       -0.330439      9.38318e-05    -0.000109877
                     7.81655e-05     3.27341e-05         0.338183      -0.0690174      -1.5244e-05    -8.48444e-05        -0.963179       -0.268859
                       -0.939832       -0.330438     -1.21245e-05    -8.48802e-05        0.0178544        0.161673     -4.51734e-05    -6.83496e-06
                     9.36849e-05    -0.000110798        -0.963177       -0.268868     -4.67894e-05    -6.91669e-06        -0.218943        0.116631
515600                 -0.119414        0.151762      8.59603e-05     3.87121e-05        -0.939968       -0.337958      0.000100909    -0.000108927
                     8.54485e-05     3.71535e-05         0.335618      -0.0736524     -1.56165e-05    -8.05363e-05        -0.942498       -0.334213
                       -0.939967       -0.337958      -1.1942e-05    -8.06465e-05        0.0358387         0.15728     -4.35707e-05    -1.20525e-06
                     0.000100847    -0.000109841        -0.942494       -0.334222     -4.53244e-05    -1.19677e-06        -0.204728        0.118401
518800                 -0.133771        0.143825      9.38467e-05     4.38211e-05         -0.93827       -0.345904       0.00010854    -0.000107863
                     9.33668e-05     4.21381e-05         0.332855      -0.0785565     -1.61164e-05    -7.58901e-05        -0.914505       -0.404574
                        -0.93827       -0.345903     -1.18207e-05    -7.60645e-05         0.056768        0.151233     -4.17884e-05     4.87467e-06
                     0.000108563    -0.000108766        -0.914501       -0.404583     -4.36795e-05     4.97905e-06         -0.18983        0.120823
522000                 -0.150028        0.134025      0.000102423     4.96011e-05        -0.935023       -0.354587      0.000116789    -0.000106663
                     0.000102001     4.77943e-05          0.32987      -0.0837532     -1.67724e-05    -7.08681e-05        -0.877594       -0.479404
                       -0.935023       -0.354587     -1.17788e-05    -7.10919e-05        0.0813404        0.142799     -3.97974e-05     1.14603e-05
                       0.0001169    -0.000107553         -0.87759       -0.479412     -4.18236e-05     1.16664e-05        -0.174236        0.123991
525200                 -0.168524        0.121747      0.000111775     5.61813e-05        -0.931142       -0.364656      0.000125737    -0.000105305
                     0.000111447     5.42551e-05         0.326637      -0.0892685     -1.76197e-05    -6.54277e-05        -0.830109       -0.557601
                       -0.931143       -0.364655     -1.18392e-05    -6.56795e-05          0.11044        0.130834     -3.75619e-05     1.86166e-05
                     0.000125936    -0.000106178        -0.830104       -0.557608      -3.9719e-05     1.89302e-05        -0.157937        0.128013
528400                 -0.189645         0.10611      0.000122003     6.37238e-05        -0.926431       -0.376466      0.000135474    -0.000103759
                     0.000121812     6.16888e-05         0.323127      -0.0951319     -1.87026e-05    -5.95206e-05         -0.77057       -0.637356
                       -0.926431       -0.376465     -1.20314e-05    -5.97701e-05         0.145152        0.113517     -3.50381e-05     2.64197e-05
                     0.000135761    -0.000104612        -0.770565       -0.637362      -3.7319e-05     2.68465e-05        -0.140937        0.133006
531600                 -0.213801        0.085828      0.000133221     7.24343e-05          -0.9206       -0.390507       0.00014611     -0.00010199
                     0.000133223     7.03102e-05         0.319304       -0.101376     -2.00768e-05    -5.30921e-05        -0.698001       -0.716097
                         -0.9206       -0.390507     -1.23935e-05    -5.32969e-05         0.186699       0.0878476     -3.21718e-05       3.496e-05
                     0.000146483    -0.000102817        -0.697997       -0.716101     -3.45656e-05     3.55047e-05        -0.123247        0.139102
534800                 -0.241346       0.0589853      0.000145558     8.25765e-05        -0.913218       -0.407472      0.000157772    -9.99534e-05
                     0.000145825     8.03972e-05         0.315125       -0.108038     -2.18129e-05    -4.60809e-05        -0.612323       -0.790608
                       -0.913218       -0.407471     -1.29752e-05    -4.61821e-05         0.236093        0.048783      -2.8895e-05     4.43449e-05
                      0.00015823    -0.000100749        -0.612319       -0.790611     -3.13858e-05      4.5011e-05        -0.104896        0.146446
538000                 -0.272371       0.0226789      0.000159159     9.44931e-05        -0.903608       -0.428361      0.000170616    -9.75921e-05
                     0.000159781     9.23141e-05         0.310544       -0.115158     -2.40006e-05    -3.84186e-05        -0.514673       -0.857387
                       -0.903608        -0.42836     -1.38412e-05    -3.83344e-05          0.29296      -0.0122502     -2.51218e-05     5.47031e-05
                     0.000171153    -9.83498e-05         -0.51467       -0.857388     -2.76868e-05      5.5492e-05        -0.085931        0.155194
541200                 -0.306171      -0.0275233      0.000174181     0.000108634        -0.890653       -0.454684       0.00018483    -9.48339e-05
                     0.000175275     0.000106545         0.305502       -0.122784     -2.67548e-05    -3.00299e-05        -0.407503       -0.913204
                       -0.890653       -0.454683     -1.50775e-05    -2.96468e-05          0.35194       -0.109335     -2.07425e-05     6.61903e-05
                     0.000185436    -9.55455e-05        -0.407502       -0.913204     -2.33494e-05     6.70993e-05       -0.0664227        0.165517
544400                 -0.339962      -0.0982827      0.000190787       0.0001256        -0.872392       -0.488807      0.000200642    -9.15854e-05
                     0.000192498     0.000123741         0.299932       -0.130969     -3.02236e-05    -2.08337e-05        -0.294326       -0.955705
                       -0.872393       -0.488806      -1.6798e-05     -1.9994e-05         0.393169       -0.261869     -1.56143e-05      7.8996e-05
                     0.000201303    -9.22417e-05        -0.294326       -0.955705     -1.82186e-05     8.00161e-05       -0.0464696        0.177592
547600                 -0.365904        -0.19884      0.000209125     0.000146201        -0.845092        -0.53462      0.000218332    -8.77241e-05
                     0.000211633     0.000144796         0.293751       -0.139772     -3.45985e-05    -1.07458e-05        -0.179146       -0.983822
                       -0.845093       -0.534619      -1.9156e-05    -9.23002e-06         0.365062       -0.479069     -9.54986e-06     9.33526e-05
                      0.00021903    -8.83141e-05        -0.179148       -0.983822     -1.20897e-05     9.44646e-05       -0.0262043        0.191607
550800                 -0.365083       -0.338611      0.000229288     0.000171546        -0.800869       -0.598839      0.000238253    -8.30873e-05
                     0.000232807      0.00017095         0.286861       -0.149261     -4.01284e-05     3.15038e-07       -0.0657767       -0.997834
                        -0.80087       -0.598838     -2.23591e-05     2.81371e-06          0.19114       -0.704834     -2.29841e-06     0.000109548
                     0.000238956    -8.35985e-05       -0.0657794       -0.997834     -4.68872e-06     0.000110716      -0.00579885         0.20775
554000                 -0.300044       -0.514624      0.000251233     0.000203173        -0.720607       -0.693343      0.000260845    -7.74543e-05
                     0.000255996      0.00020395         0.279142       -0.159513     -4.71377e-05     1.24166e-05        0.0427089       -0.999088
                       -0.720609       -0.693342     -2.66912e-05     1.63283e-05         -0.11537        -0.79267      6.48112e-06      0.00012794
                      0.00026151    -7.78726e-05         0.042706       -0.999088      4.35774e-06     0.000129102        0.0145298        0.226205
557200                 -0.125316        -0.68053       0.00027461     0.000243226        -0.549016       -0.835812      0.000286672    -7.05211e-05
                     0.000280818      0.00024628         0.270447       -0.170614     -5.60488e-05     2.55935e-05          0.14424       -0.989543
                       -0.549018        -0.83581      -3.2544e-05     3.15231e-05        -0.387856       -0.689088      1.72621e-05     0.000148982
                     0.000287234    -7.08317e-05         0.144237       -0.989543      1.55673e-05      0.00015003        0.0345144         0.24714
560400                  0.146339       -0.736782      0.000298418     0.000294704        -0.102574       -0.994725      0.000316464    -6.18594e-05
                     0.000306093     0.000301475         0.260597       -0.182662     -6.74092e-05     3.98135e-05         0.237732       -0.971331
                       -0.102578       -0.994725     -4.04621e-05     4.86118e-05         -0.52778       -0.510385      3.07164e-05     0.000173243
                     0.000316828    -6.20482e-05         0.237731       -0.971331      2.96725e-05     0.000173997        0.0538344          0.2707
563600                  0.398382       -0.634584      0.000320312      0.00036172         0.582562       -0.361858      0.000351178    -5.08509e-05
                     0.000328932     0.000374466         0.249366       -0.195767     -8.19196e-05       5.492e-05          0.30731       -0.900731
                        0.582562       -0.361858     -5.12061e-05     6.77805e-05        -0.569472       -0.351439      4.78209e-05     0.000201447
                     0.000351204    -5.09079e-05         0.307309        -0.90073      4.77323e-05     0.000201602        0.0721147        0.296991
564000                  0.422506       -0.613825      0.000322706     0.000371443          0.56897       -0.204012      0.000355923    -4.92684e-05
                     0.000331352     0.000385146         0.247852       -0.197486     -8.39965e-05     5.68553e-05         0.313654       -0.888232
                         0.56897       -0.204012     -5.27968e-05     7.03291e-05         -0.57063       -0.334488      5.02815e-05     0.000205293
                     0.000355893    -4.93088e-05         0.313654       -0.888231      5.03387e-05     0.000205342        0.0743059        0.300473
566800                  0.536788       -0.452315      0.000335248     0.000449576       0.00877439        0.390026      0.000392094    -3.65779e-05
                     0.000342877     0.000471622          0.23647       -0.210053     -0.000100454      7.0539e-05          0.35038       -0.802789
                      0.00877262        0.390028     -6.58389e-05     8.91179e-05        -0.565157       -0.233546      7.00373e-05     0.000234507
                     0.000391568     -3.6506e-05         0.350381        -0.80279      7.13147e-05      0.00023354        0.0889281        0.326061
570000                  0.574811       -0.281021      0.000333008     0.000563917        -0.456223        0.361068      0.000440949    -1.76342e-05
                     0.000334475     0.000599354         0.221551       -0.225651     -0.000124048     8.59337e-05         0.378149       -0.710842
                       -0.456226        0.361069     -8.58316e-05     0.000112476        -0.543925       -0.149825      9.96197e-05     0.000273544
