! TOUCHSTONE file generated by CST MICROWAVE STUDIO
! Date and time: Mon Oct 20 08:27:31 2025
! Project name: Teste_Macro_Metasurface_Nanopilar.cst
! Parameters = {H=600; L_x=130; L_y=115; Lambda=1064; Max_L=200; Min_L=70; PathPara=1; Phi=0; Step_L=10; Theta=0; p=520; phaseX=180; phaseY=0}
! Header version: 2018
! Port assignment regex: !\s*Touchstone port\s*([0-9]+)\s*=\s*(CST MWS port|CST DS port)\s*([0-9]+|Zmin|Zmax)\s*\(\"(.*)\"\)(\s*mode\s*([0-9]+))?.*
! Touchstone port assignment:
! Touchstone port 1 = CST MWS port Zmax ("") mode 1
! Touchstone port 2 = CST MWS port Zmax ("") mode 2
! Touchstone port 3 = CST MWS port Zmin ("") mode 1
! Touchstone port 4 = CST MWS port Zmin ("") mode 2
! S-Parameters are not renormalized. Each port impedance will be approximated by the real part at minimum frequency. The values are described via the [Reference] keyword.
! Default impedance is overridden by [Reference]
[Version] 2.0
# GHz S RI R 376.73
[Number of Ports] 4
[Reference]
376.73 376.73 259.888 259.888 
[Number of Frequencies] 52
[Network Data]
474000                  0.201205        0.142652     -3.37799e-06     -1.0547e-05        -0.960364        0.110994      -6.2928e-06     1.58213e-05
                    -3.10202e-05     -1.9007e-06         0.226456      0.00618531       5.9595e-09     5.14211e-05        -0.965968      -0.0300078
                       -0.960445        0.111005      5.68474e-06     1.05449e-05        -0.163448        0.186631      2.35801e-05     2.54719e-05
                    -7.34564e-06      4.7385e-05         -0.96599      -0.0300228       4.5475e-05      1.5303e-05        -0.215667       -0.013127
477200                  0.199035        0.140089     -2.89887e-06    -9.89618e-06        -0.978679       0.0656527     -7.59604e-06     1.70169e-05
                    -3.03984e-05    -1.36284e-06         0.224044       0.0116364     -1.34839e-06     4.93383e-05         -0.95886       -0.010671
                        -0.97876       0.0656588      4.41313e-06     9.28011e-06        -0.161017        0.185506       2.1492e-05     2.53082e-05
                    -8.28056e-06     4.79818e-05        -0.958882      -0.0106853      4.28622e-05     1.53357e-05        -0.221259      -0.0129676
480400                  0.196747        0.137374     -2.39887e-06    -9.20933e-06        -0.994812       0.0171842     -8.93015e-06     1.82696e-05
                    -2.97444e-05    -7.95458e-07         0.221391        0.017466     -2.73978e-06     4.71701e-05        -0.950399      0.00966731
                       -0.994891        0.017185      3.09938e-06     7.95864e-06        -0.158482        0.184358      1.93357e-05     2.51477e-05
                    -9.24704e-06     4.86095e-05        -0.950423      0.00965388      4.01674e-05     1.53785e-05        -0.227183       -0.012807
483600                   0.19433        0.134494     -1.87666e-06    -8.48339e-06        -0.999419      -0.0340793     -1.02957e-05      1.9583e-05
                    -2.90556e-05    -1.96073e-07         0.218462       0.0237134      -4.1695e-06     4.49111e-05        -0.940374       0.0310142
                       -0.999419       -0.034081       1.7415e-06     6.57672e-06        -0.155838        0.183187      1.71078e-05     2.49907e-05
                    -1.02466e-05     4.92703e-05        -0.940398       0.0310018      3.73868e-05     1.54325e-05        -0.233469      -0.0126459
486800                  0.191774        0.131434     -1.33083e-06      -7.715e-06        -0.996209      -0.0869883     -1.16932e-05      2.0961e-05
                    -2.83292e-05       4.381e-07         0.215215       0.0304234     -5.63881e-06     4.25558e-05         -0.92854        0.053356
                       -0.996209      -0.0869912      3.37391e-07     5.13026e-06        -0.153077        0.181993      1.48047e-05     2.48381e-05
                    -1.12807e-05     4.99667e-05        -0.928565       0.0533447      3.45163e-05     1.54988e-05        -0.240151      -0.0124852
490000                  0.189065        0.128176     -7.59826e-07    -6.90037e-06        -0.989969       -0.141285     -1.31232e-05     2.24078e-05
                    -2.75619e-05     1.11017e-06         0.211601       0.0376473     -7.14904e-06     4.00982e-05        -0.914618       0.0766497
                       -0.989968       -0.141289     -1.11518e-06     3.61479e-06        -0.150193        0.180775      1.24227e-05     2.46904e-05
                    -1.23511e-05     5.07013e-05        -0.914644       0.0766397      3.15515e-05     1.55783e-05        -0.247268      -0.0123259
493200                  0.186191        0.124699      -1.6198e-07    -6.03529e-06        -0.980453       -0.196755     -1.45859e-05     2.39278e-05
                    -2.67502e-05     1.82365e-06         0.207559       0.0454435      -8.7015e-06     3.75317e-05        -0.898297        0.100813
                       -0.980452        -0.19676     -2.61857e-06     2.02547e-06        -0.147177        0.179535       9.9577e-06     2.45485e-05
                    -1.34595e-05      5.1477e-05        -0.898323        0.100805      2.84878e-05     1.56724e-05        -0.254864      -0.0121695
496400                  0.183134        0.120982      4.64505e-07    -5.11503e-06         -0.96743       -0.253139     -1.60817e-05     2.55259e-05
                    -2.58902e-05     2.58245e-06         0.203016       0.0538789     -1.02975e-05     3.48492e-05        -0.879227        0.125713
                       -0.967428       -0.253145     -4.17526e-06     3.56963e-07         -0.14402        0.178274      7.40537e-06     2.44134e-05
                    -1.46078e-05     5.22972e-05        -0.879254        0.125706      2.53201e-05     1.57824e-05        -0.262989      -0.0120178
499600                  0.179878        0.116999      1.12157e-06    -4.13425e-06        -0.950695       -0.310128     -1.76107e-05     2.72072e-05
                    -2.49775e-05     3.39104e-06         0.197884       0.0630307     -1.19384e-05     3.20428e-05        -0.857026        0.151146
                       -0.950692       -0.310135     -5.78787e-06    -1.39653e-06        -0.140713        0.176991      4.76106e-06     2.42859e-05
                    -1.57978e-05     5.31653e-05        -0.857054        0.151141      2.20432e-05     1.59098e-05        -0.271701      -0.0118729
502800                  0.176403         0.11272      1.81131e-06     -3.0869e-06        -0.930074       -0.367373     -1.91728e-05     2.89773e-05
                    -2.40071e-05     4.25447e-06         0.192051       0.0729875     -1.36256e-05     2.91044e-05        -0.831286        0.176823
                       -0.930071        -0.36738     -7.45917e-06    -3.24141e-06        -0.137246        0.175687      2.01981e-06     2.41672e-05
                    -1.70316e-05     5.40852e-05        -0.831314         0.17682      1.86515e-05     1.60562e-05        -0.281064      -0.0117378
506000                  0.172685        0.108112      2.53598e-06    -1.96615e-06        -0.905439       -0.424477      -2.0768e-05     3.08424e-05
                    -2.29732e-05      5.1785e-06         0.185381       0.0838516     -1.53602e-05     2.60246e-05        -0.801583        0.202348
                       -0.905435       -0.424485     -9.19209e-06    -5.18468e-06        -0.133608        0.174366     -8.23705e-07     2.40586e-05
                    -1.83113e-05     5.50612e-05        -0.801611        0.202347      1.51389e-05     1.62236e-05        -0.291155       -0.011616
509200                  0.168698        0.103133      3.29801e-06    -7.64196e-07        -0.876714       -0.481012     -2.23957e-05      3.2809e-05
                    -2.18695e-05     6.16971e-06         0.177701       0.0957404     -1.71436e-05     2.27935e-05        -0.767501        0.227191
                        -0.87671        -0.48102     -1.09897e-05    -7.23406e-06        -0.129785        0.173027     -3.77518e-06     2.39615e-05
                    -1.96391e-05     5.60981e-05        -0.767528        0.227192      1.14988e-05     1.64138e-05        -0.302063      -0.0115122
512400                  0.164414       0.0977398      4.09998e-06     5.27885e-07        -0.843887        -0.53652     -2.40554e-05     3.48841e-05
                    -2.06887e-05      7.2357e-06         0.168791        0.108789     -1.89768e-05     1.94002e-05        -0.728659        0.250671
                       -0.843882       -0.536529     -1.28552e-05    -9.39808e-06        -0.125765        0.171674     -6.84077e-06     2.38775e-05
                    -2.10173e-05     5.72012e-05        -0.728686        0.250675      7.72452e-06     1.66291e-05        -0.313889      -0.0114323
515600                  0.159796       0.0918765      4.94468e-06     1.92033e-06        -0.807015       -0.590531      -2.5746e-05     3.70753e-05
                    -1.94225e-05     8.38523e-06         0.158368        0.123152      -2.0861e-05     1.58328e-05        -0.684761        0.271935
                       -0.807009       -0.590539      -1.4792e-05    -1.16862e-05        -0.121534        0.170309      -1.0027e-05     2.38083e-05
                    -2.24483e-05     5.83763e-05        -0.684787        0.271941      3.80847e-06      1.6872e-05        -0.326755       -0.011384
518800                  0.154806       0.0854799      5.83503e-06     3.42494e-06        -0.766227        -0.64257     -2.74661e-05     3.93908e-05
                    -1.80613e-05     9.62847e-06         0.146066        0.139002      -2.2797e-05     1.20782e-05        -0.635653        0.289952
                        -0.76622       -0.642578     -1.68037e-05    -1.41087e-05        -0.117075        0.168936     -1.33411e-05      2.3756e-05
                    -2.39345e-05     5.96299e-05        -0.635677         0.28996     -2.57299e-07     1.71452e-05        -0.340806      -0.0113772
522000                  0.149396       0.0784741      6.77412e-06     5.05539e-06        -0.721728       -0.692177     -2.92141e-05     4.18395e-05
                    -1.65939e-05     1.09773e-05         0.131402        0.156531     -2.47856e-05     8.12202e-06        -0.581393        0.303525
                       -0.721721       -0.692184     -1.88938e-05    -1.66773e-05        -0.112372        0.167559     -1.67906e-05     2.37228e-05
                    -2.54785e-05     6.09692e-05        -0.581415        0.303536     -4.48135e-06     1.74517e-05         -0.35621      -0.0114248
525200                  0.143513       0.0707683      7.76514e-06     6.82763e-06        -0.673793        -0.73892     -3.09876e-05      4.4431e-05
                    -1.50076e-05     1.24458e-05         0.113733         0.17594     -2.68271e-05     3.94855e-06        -0.522336        0.311335
                       -0.673786       -0.738926     -2.10664e-05     -1.9405e-05        -0.107404        0.166184     -2.03839e-05     2.37113e-05
                    -2.70829e-05     6.24023e-05        -0.522357        0.311347     -8.87291e-06     1.77949e-05        -0.373174       -0.011544
528400                  0.137092       0.0622527      8.81135e-06     8.76027e-06        -0.622765       -0.782409     -3.27836e-05     4.71755e-05
                    -1.32873e-05     1.40505e-05        0.0921899         0.19742     -2.89218e-05    -4.59616e-07        -0.459214        0.312012
                       -0.622758       -0.782415     -2.33252e-05    -2.23059e-05        -0.102152        0.164817     -2.41298e-05     2.37243e-05
                    -2.87502e-05     6.39382e-05        -0.459231        0.312026     -1.34419e-05     1.81786e-05        -0.391948      -0.0117574
531600                  0.130056       0.0527936      9.91595e-06     1.08753e-05        -0.569038       -0.822311     -3.45985e-05     5.00843e-05
                    -1.14153e-05     1.58112e-05        0.0655835        0.221114     -3.10692e-05    -5.12165e-06        -0.393187        0.304263
                       -0.569031       -0.822316     -2.56743e-05    -2.53963e-05       -0.0965918        0.163467     -2.80379e-05     2.37652e-05
                     -3.0483e-05     6.55869e-05        -0.393201        0.304278     -1.81991e-05      1.8607e-05        -0.412835      -0.0120955
534800                  0.122315       0.0422261      1.10819e-05     1.31986e-05        -0.513051       -0.858358     -3.64278e-05     5.31691e-05
                    -9.37091e-06     1.77516e-05        0.0322704         0.24703     -3.32686e-05    -1.00588e-05         -0.32586        0.287025
                       -0.513044       -0.858362     -2.81177e-05    -2.86942e-05        -0.090699        0.162143     -3.21188e-05     2.38376e-05
                    -3.22837e-05     6.73598e-05        -0.325871        0.287041     -2.31561e-05     1.90847e-05        -0.436213      -0.0125997
538000                   0.11376       0.0303451      1.23119e-05     1.57612e-05        -0.455267       -0.890355     -3.82659e-05     5.64429e-05
                     -7.1292e-06     1.99007e-05       -0.0100395        0.274866     -3.55184e-05    -1.52944e-05        -0.259231         0.25964
                       -0.455261       -0.890358     -3.06596e-05    -3.22198e-05       -0.0844457        0.160856     -3.63839e-05     2.39456e-05
                    -3.41548e-05     6.92697e-05        -0.259239        0.259655     -2.83253e-05     1.96171e-05        -0.462555       -0.013327
541200                  0.104258       0.0168918      1.36076e-05     1.86001e-05        -0.396165       -0.918179     -4.01061e-05     5.99194e-05
                    -4.66036e-06     2.22937e-05        -0.064534        0.303659     -3.78162e-05    -2.08546e-05        -0.195556        0.222017
                        -0.39616       -0.918182     -3.33039e-05     -3.5996e-05       -0.0778015        0.159622     -4.08453e-05     2.40942e-05
                    -3.60984e-05     7.13307e-05         -0.19556        0.222031     -3.37203e-05     2.02101e-05         -0.49246      -0.0143574
544400                 0.0936483      0.00153562      1.49693e-05       2.176e-05        -0.336219       -0.941784     -4.19403e-05     6.36133e-05
                    -1.92834e-06     2.49743e-05        -0.135569        0.331085     -4.01586e-05    -2.67683e-05        -0.137138        0.174733
                       -0.336214       -0.941785     -3.60542e-05    -4.00485e-05       -0.0707331        0.158457     -4.55166e-05     2.42887e-05
                    -3.81161e-05     7.35592e-05        -0.137141        0.174745     -3.93559e-05     2.08702e-05        -0.526702      -0.0158046
547600                 0.0817311      -0.0161529      1.63952e-05     2.52955e-05        -0.275887        -0.96119     -4.37586e-05     6.75404e-05
                     1.11095e-06     2.79975e-05        -0.228747        0.352105     -4.25407e-05    -3.30678e-05       -0.0860865        0.119046
                       -0.275883       -0.961191      -3.8914e-05    -4.44067e-05       -0.0632037        0.157383     -5.04124e-05     2.45354e-05
                    -4.02093e-05     7.59733e-05        -0.086087        0.119055      -4.5248e-05     2.16051e-05        -0.566292      -0.0178341
550800                 0.0682605      -0.0367411      1.78799e-05     2.92731e-05          -0.2156       -0.976482     -4.55496e-05     7.17173e-05
                     4.51184e-06     3.14327e-05        -0.350106        0.356536     -4.49559e-05     -3.9789e-05       -0.0440676       0.0567876
                       -0.215597       -0.976483      -4.1886e-05    -4.91037e-05       -0.0551731        0.156424     -5.55486e-05     2.48413e-05
                    -4.23783e-05     7.85938e-05       -0.0440669        0.056795      -5.1414e-05     2.24232e-05        -0.612582      -0.0206923
554000                 0.0529289      -0.0609937      1.94121e-05      3.3775e-05        -0.155752       -0.987796     -4.72991e-05     7.61617e-05
                     8.34215e-06     3.53694e-05        -0.502523        0.325579     -4.73956e-05    -4.69719e-05       -0.0121321     -0.00982738
                       -0.155749       -0.987797     -4.49721e-05    -5.41774e-05       -0.0465971        0.155612     -6.09427e-05     2.52147e-05
                    -4.46228e-05      8.1444e-05       -0.0121309     -0.00982228     -5.78727e-05      2.3334e-05         -0.66742      -0.0247567
557200                 0.0353505      -0.0899654      2.09719e-05     3.89034e-05       -0.0966952       -0.995314     -4.89908e-05      8.0892e-05
                     1.26874e-05     3.99249e-05        -0.675848        0.230201     -4.98482e-05    -5.46617e-05       0.00936277      -0.0784548
                      -0.0966936       -0.995314     -4.81728e-05    -5.96711e-05       -0.0374271        0.154985     -6.66136e-05     2.56648e-05
                    -4.69407e-05     8.45506e-05       0.00936392      -0.0784518     -6.46448e-05     2.43485e-05        -0.733392      -0.0306244
560400                 0.0150422        -0.12515      2.25251e-05     4.47863e-05        -0.038238       -0.986387     -5.06051e-05     8.59275e-05
                     1.76571e-05     4.52557e-05        -0.830602       0.0422864     -5.22991e-05    -6.29085e-05        0.0207185       -0.146866
                      -0.0382371       -0.986388     -5.14871e-05    -6.56344e-05       -0.0276105        0.154586     -7.25824e-05     2.62026e-05
                    -4.93285e-05     8.79439e-05        0.0207192       -0.146864     -7.17527e-05     2.54792e-05         -0.81424      -0.0392781
563600               -0.00859577        -0.16873      2.40158e-05     5.15849e-05        0.0173409       -0.970551     -5.21191e-05     9.12882e-05
                     2.33933e-05     5.15751e-05        -0.896753       -0.228767      -5.4729e-05    -7.17689e-05        0.0227724       -0.213142
                       0.0173411       -0.970551     -5.49113e-05    -7.21243e-05       -0.0170898        0.154473     -7.88718e-05     2.68404e-05
                    -5.17798e-05      9.1658e-05        0.0227723       -0.213142     -7.92212e-05       2.674e-05        -0.915561      -0.0524134
564000                -0.0118192       -0.174915      2.41937e-05     5.25087e-05        0.0240539        -0.96834     -5.22999e-05     9.19821e-05
                     2.41729e-05     5.24482e-05        -0.895578       -0.265292     -5.50301e-05    -7.29227e-05        0.0224322       -0.221197
                       0.0240541        -0.96834     -5.53467e-05    -7.29757e-05       -0.0157222        0.154482     -7.96818e-05     2.69279e-05
                    -5.20903e-05     9.21467e-05        0.0224321       -0.221197     -8.01814e-05     2.69076e-05        -0.930055      -0.0545018
566800                -0.0362802        -0.22401      2.53525e-05     5.95033e-05        0.0695489       -0.951581     -5.35056e-05     9.69942e-05
                     3.00828e-05     5.91816e-05        -0.825908       -0.507518     -5.71135e-05    -8.13063e-05         0.016726        -0.27579
                       0.0695486        -0.95158     -5.84381e-05    -7.92065e-05      -0.00580326        0.154711     -8.55072e-05     2.75929e-05
                    -5.42852e-05     9.57321e-05        0.0167251        -0.27579     -8.70771e-05     2.81473e-05        -0.997565       -0.069739
570000                -0.0687785       -0.296224      2.63874e-05     6.88001e-05         0.118294       -0.930006     -5.47333e-05     0.000103066
                     3.79763e-05     6.85047e-05        -0.650831       -0.705452     -5.94212e-05    -9.15921e-05       0.00396657       -0.333778
                        0.118293       -0.930005     -6.20558e-05    -8.69571e-05       0.00631537        0.155382     -9.25162e-05     2.84767e-05
