! TOUCHSTONE file generated by CST MICROWAVE STUDIO
! Date and time: Mon Oct 20 08:27:38 2025
! Project name: Teste_Macro_Metasurface_Nanopilar.cst
! Parameters = {H=600; L_x=145; L_y=200; Lambda=1064; Max_L=200; Min_L=70; PathPara=1; Phi=0; Step_L=10; Theta=0; p=520; phaseX=180; phaseY=0}
! Header version: 2018
! Port assignment regex: !\s*Touchstone port\s*([0-9]+)\s*=\s*(CST MWS port|CST DS port)\s*([0-9]+|Zmin|Zmax)\s*\(\"(.*)\"\)(\s*mode\s*([0-9]+))?.*
! Touchstone port assignment:
! Touchstone port 1 = CST MWS port Zmax ("") mode 1
! Touchstone port 2 = CST MWS port Zmax ("") mode 2
! Touchstone port 3 = CST MWS port Zmin ("") mode 1
! Touchstone port 4 = CST MWS port Zmin ("") mode 2
! S-Parameters are not renormalized. Each port impedance will be approximated by the real part at minimum frequency. The values are described via the [Reference] keyword.
! Default impedance is overridden by [Reference]
[Version] 2.0
# GHz S RI R 376.73
[Number of Ports] 4
[Reference]
376.73 376.73 259.888 259.888 
[Number of Frequencies] 52
[Network Data]
474000                  0.860268       0.0963374       0.00011909    -7.34967e-05        -0.214468       -0.396772      8.50543e-05    -0.000134019
                     0.000109512    -7.36282e-05         0.144968        0.134093     -1.45744e-05    -7.49365e-05        -0.269971        0.932445
                       -0.214477       -0.396748     -1.21554e-05    -9.50115e-05         0.401405        -0.72682      3.76416e-06    -7.21911e-05
                     5.37462e-05     -0.00010625        -0.269971        0.932453     -3.98866e-06    -4.02494e-05         0.190002      -0.0384299
477200                  0.886749        0.104569      0.000118823    -7.19541e-05        -0.217956       -0.393862      8.34696e-05    -0.000132584
                      0.00010932    -7.20265e-05         0.146181        0.132565       -1.608e-05    -7.65129e-05        -0.237255        0.926415
                       -0.217964       -0.393838     -1.35005e-05    -9.62026e-05         0.409763       -0.724618       2.8168e-06    -7.12163e-05
                     5.28895e-05    -0.000105055        -0.237255        0.926424      -4.6458e-06    -3.95961e-05          0.19603      -0.0379093
480400                  0.916335        0.113593      0.000118554    -7.03315e-05        -0.221606       -0.390787      8.18324e-05    -0.000131076
                      0.00010913    -7.03428e-05         0.147482        0.130928     -1.76254e-05     -7.8168e-05        -0.203136        0.918494
                       -0.221614       -0.390763     -1.48874e-05    -9.74554e-05         0.418495       -0.722166      1.83319e-06    -7.01877e-05
                     5.20052e-05    -0.000103805        -0.203135        0.918502     -5.32973e-06    -3.89094e-05         0.202464      -0.0372682
483600                  0.949604        0.123527      0.000118281    -6.86226e-05         -0.22543       -0.387533      8.01405e-05     -0.00012949
                     0.000108943    -6.85708e-05         0.148881        0.129171     -1.92117e-05     -7.9907e-05        -0.167647        0.908426
                       -0.225438       -0.387509     -1.63178e-05    -9.87744e-05         0.427622       -0.719436      8.11439e-07     -6.9101e-05
                     5.10922e-05    -0.000102499        -0.167647        0.908435     -6.04207e-06    -3.81866e-05         0.209346      -0.0364847
486800                  0.987286        0.134505      0.000118007    -6.68204e-05        -0.229442       -0.384084      7.83916e-05     -0.00012782
                     0.000108761    -6.67036e-05         0.150388         0.12728     -2.08397e-05    -8.17357e-05        -0.130856        0.895935
                       -0.229449        -0.38406     -1.77931e-05    -0.000100165         0.437166       -0.716396     -2.50469e-07    -6.79513e-05
                     5.01493e-05    -0.000101132        -0.130855        0.895943     -6.78456e-06    -3.74251e-05         0.216722      -0.0355321
490000                  0.990017        0.140951      0.000117732    -6.49172e-05        -0.233653       -0.380422       7.6583e-05    -0.000126059
                     0.000108585    -6.47334e-05         0.152017        0.125238     -2.25103e-05    -8.36605e-05       -0.0928657        0.880722
                        -0.23366       -0.380399     -1.93151e-05    -0.000101631         0.447152       -0.713009     -1.35464e-06    -6.67333e-05
                      4.9175e-05    -9.96992e-05       -0.0928641         0.88073     -7.55908e-06    -3.66215e-05         0.224643      -0.0343782
493200                  0.989166        0.146801      0.000117457    -6.29046e-05         -0.23808       -0.376528      7.47124e-05      -0.0001242
                     0.000108417    -6.26517e-05         0.153785        0.123026     -2.42241e-05    -8.56883e-05       -0.0538262        0.862471
                       -0.238087       -0.376505     -2.08854e-05     -0.00010318         0.457605       -0.709233     -2.50329e-06    -6.54411e-05
                     4.81681e-05    -9.81967e-05       -0.0538241        0.862479     -8.36767e-06    -3.57724e-05          0.23317      -0.0329837
496400                  0.988314         0.15243      0.000117183    -6.07729e-05        -0.242739       -0.372379       7.2777e-05    -0.000122237
                      0.00010826    -6.04492e-05         0.155708        0.120624     -2.59816e-05    -8.78265e-05       -0.0139425        0.840851
                       -0.242746       -0.372356     -2.25057e-05    -0.000104817         0.468549       -0.705021     -3.69876e-06     -6.4068e-05
                     4.71272e-05    -9.66192e-05         -0.01394        0.840858      -9.2125e-06     -3.4874e-05         0.242368      -0.0313003
499600                   0.98749        0.157681      0.000116913    -5.85116e-05        -0.247649       -0.367951      7.07742e-05    -0.000120159
                     0.000108116    -5.81151e-05         0.157808        0.118005     -2.77832e-05    -9.00833e-05        0.0265165        0.815526
                       -0.247655       -0.367928     -2.41775e-05     -0.00010655         0.480011       -0.700319     -4.94346e-06    -6.26067e-05
                     4.60507e-05    -9.49611e-05        0.0265194        0.815533      -1.0096e-05    -3.39219e-05         0.252315      -0.0292686
502800                  0.986737        0.162325      0.000116649    -5.61088e-05        -0.252828       -0.363213      6.87012e-05    -0.000117959
                     0.000107989    -5.56378e-05         0.160111        0.115138     -2.96291e-05    -9.24675e-05        0.0672092        0.786165
                       -0.252835       -0.363191     -2.59025e-05    -0.000108387         0.492019       -0.695065     -6.23991e-06    -6.10488e-05
                     4.49371e-05    -9.32163e-05        0.0672125        0.786171     -1.10206e-05    -3.29114e-05         0.263097       -0.026815
506000                  0.986122        0.166022      0.000116393     -5.3551e-05          -0.2583       -0.358135      6.65551e-05    -0.000115625
                     0.000107882    -5.30042e-05         0.162649        0.111986     -3.15192e-05    -9.49888e-05         0.107713        0.752452
                       -0.258306       -0.358112     -2.76822e-05    -0.000110335         0.504598        -0.68919     -7.59071e-06    -5.93851e-05
                     4.37849e-05    -9.13781e-05         0.107717        0.752458     -1.19893e-05    -3.18369e-05         0.274815      -0.0238474
509200                  0.985744        0.168254      0.000116149    -5.08234e-05        -0.264089       -0.352678      6.43333e-05    -0.000113147
                     0.000107801    -5.01994e-05         0.165458        0.108505     -3.34529e-05    -9.76577e-05         0.147519         0.71411
                       -0.264095       -0.352656     -2.95179e-05    -0.000112405         0.517775       -0.682614     -8.99851e-06    -5.76051e-05
                     4.25925e-05    -8.94391e-05         0.147523        0.714115     -1.30049e-05    -3.06925e-05         0.287581      -0.0202502
512400                  0.985753          0.1682      0.000115921    -4.79089e-05        -0.270222         -0.3468       6.2033e-05    -0.000110511
                     0.000107751     -4.7207e-05         0.168584        0.104641     -3.54294e-05    -0.000100486          0.18603        0.670915
                       -0.270228       -0.346778     -3.14108e-05    -0.000114606         0.531575       -0.675245      -1.0466e-05     -5.5697e-05
                     4.13582e-05    -8.73911e-05         0.186034         0.67092     -1.40708e-05    -2.94712e-05         0.301524       -0.015877
515600                  0.986377        0.164499      0.000115715    -4.47883e-05         -0.27673       -0.340452      5.96515e-05    -0.000107704
                     0.000107741    -4.40082e-05         0.172086        0.100326     -3.74473e-05    -0.000103486         0.222559        0.622725
                       -0.276735        -0.34043     -3.33621e-05    -0.000116949          0.54602       -0.666979     -1.19958e-05    -5.36476e-05
                     4.00805e-05    -8.52249e-05         0.222564         0.62273     -1.51904e-05    -2.81654e-05         0.316791      -0.0105411
518800                  0.987954        0.154748      0.000115536    -4.14397e-05        -0.283646       -0.333576      5.71863e-05     -0.00010471
                     0.000107777    -4.05819e-05         0.176033       0.0954768     -3.95046e-05    -0.000106671         0.256345        0.569508
                        -0.28365       -0.333555     -3.53723e-05    -0.000119449         0.561128       -0.657696     -1.35904e-05    -5.14415e-05
                     3.87577e-05    -8.29306e-05          0.25635        0.569511     -1.63677e-05    -2.67663e-05         0.333544      -0.0040027
522000                  0.990937         0.13433      0.000115394    -3.78381e-05        -0.291007       -0.326108       5.4635e-05    -0.000101511
                     0.000107872    -3.69042e-05         0.180518       0.0899874     -4.15985e-05    -0.000110057         0.286564        0.511361
                       -0.291011       -0.326087     -3.74418e-05    -0.000122118          0.57691        -0.64726     -1.52523e-05    -4.90617e-05
                     3.73884e-05     -8.0497e-05         0.286569        0.511364     -1.76068e-05    -2.52637e-05         0.351964      0.00404877
525200                  0.995639       0.0932935      0.000115298    -3.39551e-05        -0.298855       -0.317968      5.19959e-05    -9.80887e-05
                     0.000108039    -3.29478e-05         0.185659       0.0837222     -4.37252e-05    -0.000113659         0.312359        0.448545
                       -0.298859       -0.317949     -3.95703e-05    -0.000124971         0.593371       -0.635515     -1.69834e-05    -4.64884e-05
                     3.59709e-05    -7.79114e-05         0.312363        0.448547     -1.89121e-05    -2.36464e-05         0.372244       0.0140184
528400                  0.999979      0.00640952      0.000115261    -2.97578e-05        -0.307237       -0.309067      4.92674e-05    -9.44202e-05
                     0.000108293    -2.86818e-05         0.191609       0.0765045     -4.58799e-05    -0.000117497         0.332873        0.381496
                        -0.30724       -0.309048      -4.1757e-05    -0.000128027         0.610501       -0.622282     -1.87853e-05     -4.3699e-05
                     3.45041e-05    -7.51601e-05         0.332877        0.381498     -2.02884e-05    -2.19011e-05          0.39458       0.0264382
531600                  0.978732       -0.205143        0.0001153    -2.52085e-05        -0.316204       -0.299296      4.64487e-05    -9.04815e-05
                     0.000108656    -2.40706e-05         0.198576       0.0680991     -4.80563e-05    -0.000121589         0.347296        0.310842
                       -0.316208       -0.299277     -4.40002e-05    -0.000131304         0.628274       -0.607358     -2.06588e-05    -4.06677e-05
                     3.29867e-05    -7.22273e-05         0.347299        0.310843     -2.17409e-05    -2.00127e-05         0.419154       0.0420111
534800                  0.666341       -0.745647      0.000115434    -2.02633e-05        -0.325815       -0.288526      4.35401e-05    -8.62451e-05
                     0.000109152    -1.90738e-05         0.206846       0.0581871     -5.02466e-05    -0.000125957          0.35491        0.237395
                       -0.325818       -0.288509     -4.62969e-05    -0.000134824         0.646641       -0.590514     -2.26036e-05    -3.73647e-05
                      3.1418e-05    -6.90955e-05         0.354913        0.237396     -2.32752e-05    -1.79637e-05         0.446094       0.0616697
538000                 -0.237497       -0.971388      0.000115692    -1.48716e-05        -0.336133       -0.276605      4.05429e-05    -8.16803e-05
                     0.000109814    -1.36447e-05         0.216821       0.0463237     -5.24407e-05    -0.000130625         0.355145        0.162138
                       -0.336136       -0.276588     -4.86431e-05    -0.000138609         0.665524       -0.571491     -2.46179e-05    -3.37553e-05
                     2.97975e-05    -6.57449e-05         0.355148        0.162138      -2.4897e-05    -1.57335e-05         0.475403       0.0866511
541200                  -0.58887       -0.808228      0.000116106    -8.97424e-06        -0.347229       -0.263345      3.74601e-05    -7.67522e-05
                     0.000110681    -7.72975e-06         0.229088       0.0318706     -5.46264e-05    -0.000135617         0.347623        0.086186
                       -0.347232       -0.263329     -5.10326e-05    -0.000142687         0.684803       -0.549998     -2.66977e-05    -2.97998e-05
                     2.81255e-05    -6.21531e-05         0.347625       0.0861859     -2.66124e-05    -1.32984e-05         0.506835        0.118587
544400                 -0.692073       -0.721827       0.00011672    -2.50219e-06        -0.359182       -0.248519      3.42969e-05    -7.14217e-05
                     0.000111806    -1.26752e-06         0.244537       0.0138772     -5.67884e-05    -0.000140962         0.332194       0.0107442
                       -0.359184       -0.248505     -5.34573e-05    -0.000147086         0.704307       -0.525715     -2.88362e-05    -2.54516e-05
                     2.64029e-05    -5.82949e-05         0.332196       0.0107439     -2.84278e-05    -1.06301e-05         0.539671        0.159592
547600                 -0.729311       -0.684183      0.000117591     4.62532e-06        -0.372074       -0.231851      3.10611e-05    -6.56446e-05
                     0.000113253     5.81271e-06         0.264589     -0.00913586     -5.89077e-05    -0.000146688         0.308959      -0.0629575
                       -0.372076       -0.231838     -5.59062e-05    -0.000151839         0.723796       -0.498293     -3.10221e-05    -2.06568e-05
                     2.46316e-05    -5.41415e-05          0.30896       -0.062958     -3.03494e-05    -7.69556e-06         0.572346        0.212307
550800                 -0.741612       -0.670829      0.000118793     1.25029e-05        -0.385996       -0.212994      2.77644e-05    -5.93708e-05
                     0.000115108     1.35919e-05         0.291652      -0.0396032     -6.09612e-05     -0.00015283         0.278272       -0.133728
                       -0.385997       -0.212983     -5.83649e-05    -0.000156982         0.742944        -0.46736     -3.32385e-05    -1.53521e-05
                      2.2815e-05    -4.96602e-05         0.278273       -0.133728     -3.23833e-05    -4.45526e-06         0.601856        0.279766
554000                   -0.7414       -0.671063      0.000120427     2.12416e-05        -0.401039       -0.191518      2.44229e-05    -5.25439e-05
                     0.000117479     2.21623e-05         0.330162      -0.0818297     -6.29207e-05     -0.00015942         0.240722       -0.200477
                       -0.401039       -0.191509     -6.08144e-05    -0.000162555          0.76132       -0.432535     -3.54606e-05    -9.46397e-06
                     2.09584e-05    -4.48136e-05         0.240722       -0.200477     -3.45348e-05    -8.61975e-07         0.622936        0.364853
557200                 -0.733405       -0.679791      0.000122624     3.09706e-05        -0.417288       -0.166877      2.10593e-05    -4.51003e-05
                      0.00012051     3.16278e-05          0.38927       -0.144197     -6.47518e-05    -0.000166496         0.197098       -0.262272
                       -0.417288        -0.16687     -6.32304e-05    -0.000168602         0.778361       -0.393443     -3.76522e-05    -2.90647e-06
                     1.90694e-05    -3.95589e-05         0.197098       -0.262272     -3.68079e-05      3.1411e-06         0.627222        0.468889
560400                  -0.71835       -0.693018      0.000125563     4.18401e-05        -0.434814       -0.138374      1.77039e-05    -3.69678e-05
                     0.000124392     4.21035e-05         0.491277       -0.245403     -6.64127e-05    -0.000174096         0.148337       -0.318378
                       -0.434814        -0.13837     -6.55816e-05     -0.00017517         0.793347        -0.34975     -3.97621e-05     4.42052e-06
                      1.7159e-05     -3.3847e-05         0.148336       -0.318378     -3.92043e-05      7.6228e-06         0.603238        0.588927
563600                 -0.600314       -0.610434      0.000129486     5.40215e-05         -0.45365        -0.10511      1.43974e-05    -2.80658e-05
                     0.000129376     5.37124e-05         0.707721       -0.436584     -6.78528e-05    -0.000182261        0.0954679        -0.36828
                       -0.453651        -0.10511      -6.7828e-05    -0.000182314         0.805386       -0.301204     -4.17178e-05      1.2633e-05
                     1.52424e-05    -2.76213e-05        0.0954667       -0.368279     -4.17218e-05      1.2667e-05         0.538922        0.714172
564000                 -0.587289       -0.601597      0.000130061     5.56457e-05        -0.456096       -0.100563      1.39901e-05    -2.68945e-05
                     0.000130092     5.52494e-05         0.752887       -0.472887     -6.80144e-05    -0.000183323        0.0886234       -0.374064
                       -0.456096       -0.100562     -6.80991e-05     -0.00018325         0.806632       -0.294787     -4.19467e-05     1.37283e-05
                     1.50033e-05    -2.68039e-05        0.0886221       -0.374064     -4.20447e-05      1.3342e-05         0.527619        0.729272
566800                 -0.504844       -0.546903      0.000134728      6.7705e-05        -0.473754      -0.0659097      1.11941e-05    -1.83036e-05
                     0.000135797     6.65783e-05         0.846922       -0.531717     -6.90114e-05     -0.00019103        0.0395534       -0.411687
                       -0.473755      -0.0659131     -6.99193e-05    -0.000190089         0.813394       -0.247695     -4.34174e-05     2.18644e-05
                     1.33406e-05    -2.08167e-05         0.039552       -0.411687     -4.43517e-05     1.83767e-05         0.428253        0.824389
570000                 -0.426102       -0.496609       0.00014175     8.30909e-05        -0.494938      -0.0192196      8.16515e-06    -7.58031e-06
                     0.000144108     8.08099e-05         0.674265         0.73849     -6.98155e-05    -0.000200443       -0.0183652       -0.448523
                        -0.49494      -0.0192279     -7.17915e-05    -0.000198558         0.816102       -0.189339     -4.47185e-05     3.22654e-05
