! TOUCHSTONE file generated by CST MICROWAVE STUDIO
! Date and time: Mon Oct 20 08:27:45 2025
! Project name: Teste_Macro_Metasurface_Nanopilar.cst
! Parameters = {H=600; L_x=175; L_y=115; Lambda=1064; Max_L=200; Min_L=70; PathPara=1; Phi=0; Step_L=10; Theta=0; p=520; phaseX=180; phaseY=0}
! Header version: 2018
! Port assignment regex: !\s*Touchstone port\s*([0-9]+)\s*=\s*(CST MWS port|CST DS port)\s*([0-9]+|Zmin|Zmax)\s*\(\"(.*)\"\)(\s*mode\s*([0-9]+))?.*
! Touchstone port assignment:
! Touchstone port 1 = CST MWS port Zmax ("") mode 1
! Touchstone port 2 = CST MWS port Zmax ("") mode 2
! Touchstone port 3 = CST MWS port Zmin ("") mode 1
! Touchstone port 4 = CST MWS port Zmin ("") mode 2
! S-Parameters are not renormalized. Each port impedance will be approximated by the real part at minimum frequency. The values are described via the [Reference] keyword.
! Default impedance is overridden by [Reference]
[Version] 2.0
# GHz S RI R 376.73
[Number of Ports] 4
[Reference]
376.73 376.73 259.888 259.888 
[Number of Frequencies] 52
[Network Data]
474000                  0.346533        -0.24963      3.07617e-05    -7.75048e-05        -0.776273       -0.380879      4.04673e-05    -2.06149e-05
                     2.40807e-05    -0.000170237         0.209633         0.76032     -6.55352e-05    -0.000106691        -0.154996       -0.435428
                       -0.776254       -0.380881     -1.23758e-05    -2.88113e-05        0.0567272        -0.41203      8.48456e-05    -2.28808e-05
                     3.17133e-05     -1.0623e-05        -0.154996       -0.435428      9.31206e-05     8.51789e-06        -0.280434       -0.804559
477200                  0.341182       -0.252261      3.35512e-05    -7.27339e-05        -0.772704       -0.390574      3.94568e-05    -2.17861e-05
                     2.85012e-05    -0.000162785         0.219571        0.769876     -6.40036e-05    -0.000104484        -0.149077       -0.428146
                       -0.772686       -0.390575     -1.09876e-05    -2.76972e-05        0.0538091       -0.406996      8.36641e-05    -2.32294e-05
                     3.09129e-05    -1.19483e-05        -0.149077       -0.428146      9.18113e-05     7.85855e-06        -0.275805       -0.827926
480400                  0.335688       -0.255192      3.63538e-05    -6.77846e-05        -0.768783       -0.400559      3.84027e-05    -2.29979e-05
                     3.28864e-05    -0.000155074         0.230532        0.779738      -6.2381e-05    -0.000102177        -0.143032       -0.420347
                       -0.768765       -0.400559     -9.53086e-06    -2.65388e-05        0.0507719       -0.401541      8.24266e-05    -2.35949e-05
                     3.00752e-05    -1.33214e-05        -0.143032       -0.420347      9.04401e-05     7.16449e-06        -0.270457       -0.853713
483600                  0.330058       -0.258449      3.91664e-05    -6.26487e-05        -0.764479       -0.410838      3.73022e-05    -2.42525e-05
                     3.72279e-05    -0.000147098         0.242642        0.789881     -6.06593e-05    -9.97648e-05        -0.136872       -0.411985
                       -0.764462       -0.410838     -8.00057e-06    -2.53338e-05        0.0476146       -0.395614      8.11293e-05    -2.39786e-05
                     2.91975e-05    -1.47449e-05        -0.136872       -0.411985      8.90025e-05     6.43293e-06        -0.264228       -0.882312
486800                  0.324301       -0.262063       4.1985e-05    -5.73176e-05        -0.759759       -0.421414      3.61523e-05    -2.55521e-05
                     4.15162e-05    -0.000138848         0.256043        0.800263     -5.88296e-05    -9.72389e-05         -0.13061       -0.403011
                       -0.759742       -0.421414     -6.39109e-06    -2.40792e-05        0.0443386       -0.389156      7.97676e-05     -2.4382e-05
                      2.8277e-05    -1.62216e-05         -0.13061       -0.403011      8.74936e-05     5.66075e-06         -0.25691       -0.914204
490000                  0.318431       -0.266064      4.48054e-05    -5.17824e-05        -0.754587        -0.43229      3.49495e-05    -2.68991e-05
                     4.57411e-05    -0.000130315         0.270896        0.810827     -5.68819e-05    -9.45919e-05        -0.124264       -0.393369
                       -0.754571       -0.432289     -4.69622e-06    -2.27722e-05         0.040948       -0.382098      7.83366e-05    -2.48066e-05
                     2.73107e-05    -1.77545e-05        -0.124265       -0.393369       8.5908e-05     4.84453e-06         -0.24823       -0.949984
493200                  0.312462       -0.270486      4.76228e-05    -4.60338e-05        -0.748925       -0.443466      3.36904e-05     -2.8296e-05
                     4.98917e-05    -0.000121491         0.287377         0.82149      -5.4805e-05    -9.18154e-05        -0.117858       -0.383002
                       -0.748909       -0.443465     -2.90911e-06    -2.14095e-05        0.0374511       -0.374361      7.68309e-05    -2.52541e-05
                     2.62952e-05    -1.93466e-05        -0.117858       -0.383002      8.42396e-05     3.98041e-06         -0.23349       -0.972359
496400                  0.306415       -0.275363      5.04316e-05    -4.00619e-05        -0.742729        -0.45494      3.23709e-05    -2.97455e-05
                     5.39562e-05    -0.000112369         0.305686         0.83214     -5.25861e-05    -8.88999e-05        -0.111422       -0.371843
                       -0.742714       -0.454938     -1.02214e-06    -1.99877e-05        0.0338621       -0.365851      7.52445e-05    -2.57263e-05
                     2.52267e-05    -2.10014e-05        -0.111422       -0.371843       8.2482e-05      3.0641e-06        -0.212328       -0.977198
499600                  0.300317       -0.280731       5.3226e-05    -3.38567e-05        -0.735956       -0.466708      3.09866e-05    -3.12507e-05
                     5.79217e-05    -0.000102941         0.326037        0.842622     -5.02109e-05    -8.58353e-05        -0.104991       -0.359824
                       -0.735942       -0.466706      9.73114e-07     -1.8503e-05        0.0302036       -0.356457      7.35707e-05    -2.62255e-05
                     2.41014e-05    -2.27225e-05        -0.104991       -0.359824      8.06276e-05     2.09077e-06         -0.18901       -0.981975
502800                  0.294198       -0.286627      5.59988e-05    -2.74074e-05        -0.728556       -0.478762       2.9533e-05    -3.28147e-05
                     6.17747e-05    -9.31974e-05         0.348665        0.852732     -4.76632e-05    -8.26105e-05       -0.0986147       -0.346869
                       -0.728542       -0.478759      3.08606e-06    -1.69515e-05        0.0265095       -0.346052       7.1802e-05    -2.67539e-05
                     2.29146e-05     -2.4514e-05       -0.0986148       -0.346869      7.86684e-05       1.055e-06        -0.163132       -0.986604
506000                  0.288096       -0.293087      5.87426e-05    -2.07031e-05        -0.720477       -0.491091      2.80046e-05    -3.44408e-05
                     6.55003e-05    -8.31323e-05         0.373815        0.862203     -4.49244e-05    -7.92135e-05       -0.0923499       -0.332897
                       -0.720464       -0.491088      5.32721e-06    -1.53288e-05          0.02283       -0.334482      6.99303e-05    -2.73143e-05
                     2.16614e-05    -2.63799e-05         -0.09235       -0.332897      7.65952e-05    -4.93524e-08        -0.134169       -0.990958
509200                  0.282055       -0.300149      6.14487e-05    -1.37323e-05        -0.711663        -0.50368      2.63959e-05    -3.61326e-05
                     6.90827e-05     -7.2738e-05         0.401734        0.870687     -4.19735e-05     -7.5631e-05       -0.0862687       -0.317822
                        -0.71165       -0.503678      7.70831e-06    -1.36303e-05        0.0192379       -0.321568      6.79462e-05    -2.79095e-05
                     2.03364e-05     -2.8325e-05       -0.0862688       -0.317822      7.43979e-05    -1.22925e-06        -0.101417       -0.994844
512400                  0.276129       -0.307846      6.41076e-05    -6.48319e-06        -0.702053        -0.51651      2.47005e-05     -3.7894e-05
                     7.25051e-05    -6.20076e-05         0.432658        0.877739     -3.87863e-05    -7.18484e-05       -0.0804593       -0.301554
                       -0.702041       -0.516507      1.02426e-05    -1.18509e-05        0.0158379       -0.307099      6.58392e-05    -2.85431e-05
                     1.89337e-05    -3.03541e-05       -0.0804594       -0.301554      7.20649e-05     -2.4926e-06        -0.063905       -0.997956
515600                  0.270377       -0.316211      6.67086e-05     1.05658e-06        -0.691585       -0.529553      2.29114e-05    -3.97293e-05
                     7.57494e-05    -5.09349e-05          0.46679        0.882802     -3.53349e-05    -6.78501e-05        -0.075029       -0.283999
                       -0.691574       -0.529549       1.2945e-05    -9.98534e-06        0.0127796       -0.290826      6.35977e-05    -2.92187e-05
                     1.74463e-05    -3.24725e-05       -0.0750291       -0.283999      6.95835e-05    -3.84848e-06       -0.0202475       -0.999795
518800                  0.264871       -0.325271      6.92398e-05     8.89959e-06        -0.680191       -0.542776      2.10208e-05    -4.16429e-05
                     7.87963e-05     -3.9514e-05         0.494988          0.8689     -3.15872e-05    -6.36187e-05       -0.0701081       -0.265061
                        -0.68018       -0.542772      1.58323e-05    -8.02774e-06        0.0102758       -0.272457      6.12082e-05    -2.99407e-05
                     1.58669e-05    -3.46861e-05       -0.0701082       -0.265061       6.6939e-05    -5.30728e-06        0.0316091         -0.9995
522000                  0.259689       -0.335046       7.1688e-05     1.70588e-05          -0.6678       -0.556139      1.90202e-05    -4.36396e-05
                     8.16255e-05    -2.77399e-05         0.524843        0.851199     -2.75057e-05    -5.91354e-05       -0.0658536       -0.244648
                        -0.66779       -0.556135      1.89237e-05    -5.97188e-06       0.00862911       -0.251656      5.86557e-05     -3.0714e-05
                     1.41872e-05     -3.7001e-05       -0.0658537       -0.244648      6.41149e-05    -6.88099e-06        0.0948451       -0.995492
525200                   0.25492        -0.34555      7.40385e-05     2.55475e-05         -0.65434        -0.56959      1.69001e-05    -4.57247e-05
                     8.42151e-05    -1.56085e-05            0.557        0.830513     -2.30469e-05    -5.43796e-05       -0.0624533       -0.222669
                       -0.654331       -0.569587       2.2241e-05    -3.81111e-06       0.00826894       -0.228045      5.59229e-05    -3.15444e-05
                     1.23977e-05    -3.94239e-05       -0.0624534       -0.222669      6.10924e-05    -8.58354e-06         0.174622       -0.984636
528400                  0.250661       -0.356785      7.62751e-05     3.43791e-05        -0.639734       -0.583071      1.46497e-05    -4.79037e-05
                     8.65423e-05    -3.11633e-06         0.591364        0.806405     -1.81599e-05    -4.93293e-05         -0.06013       -0.199047
                       -0.639726       -0.583067       2.5809e-05    -1.53831e-06       0.00980318       -0.201211        5.299e-05    -3.24383e-05
                      1.0488e-05    -4.19622e-05       -0.0601301       -0.199047        5.785e-05    -1.04311e-05         0.279673       -0.960095
531600                  0.247016       -0.368739      7.83795e-05     4.35674e-05        -0.623907       -0.596506      1.22572e-05    -5.01828e-05
                     8.85827e-05     9.73862e-06         0.627714        0.778444     -1.27843e-05    -4.39604e-05       -0.0591461       -0.173721
                         -0.6239       -0.596502      2.96565e-05     8.54047e-07        0.0140887       -0.170743       4.9834e-05    -3.34033e-05
                     8.44627e-06    -4.46238e-05       -0.0591462       -0.173722       5.4363e-05    -1.24428e-05          0.42484       -0.905268
534800                  0.244095       -0.381385       8.0332e-05     5.31259e-05         -0.60678       -0.609812      9.70919e-06    -5.25683e-05
                     9.03109e-05     2.29573e-05         0.665675        0.746241     -6.84918e-06    -3.82474e-05       -0.0598063       -0.146659
                       -0.606774       -0.609808      3.38164e-05     3.37387e-06        0.0223225       -0.136295      4.64288e-05    -3.44483e-05
                     6.25921e-06    -4.74173e-05       -0.0598065        -0.14666      5.06028e-05    -1.46411e-05         0.630687       -0.776037
538000                  0.242013       -0.394678      8.21105e-05     6.30684e-05        -0.588279       -0.622887      6.99059e-06    -5.50674e-05
                        9.17e-05     3.65391e-05         0.704697        0.709509     -2.69618e-07    -3.21636e-05       -0.0624606       -0.117867
                       -0.588274       -0.622884       3.8327e-05      6.0294e-06        0.0361481      -0.0977193      4.27434e-05    -3.55836e-05
                      3.9117e-06    -5.03519e-05       -0.0624607       -0.117868      4.65364e-05    -1.70525e-05         0.884654       -0.466249
541200                  0.240885       -0.408553      8.36905e-05     7.34083e-05        -0.568331       -0.635614      4.08442e-06    -5.76875e-05
                      9.2722e-05     5.04821e-05         0.744046        0.668128      7.05591e-06    -2.56809e-05       -0.0675031       -0.087407
                       -0.568327       -0.635611      4.32329e-05     8.82905e-06        0.0577524      -0.0553091      3.87418e-05    -3.68213e-05
                     1.38658e-06    -5.34378e-05       -0.0675032      -0.0874074      4.21251e-05     -1.9709e-05         0.996162       0.0875279
544400                   0.24082       -0.422921      8.50453e-05     8.41588e-05        -0.546869        -0.64786      9.71459e-07    -6.04366e-05
                     9.33478e-05     6.47821e-05         0.782833        0.622231      1.52498e-05    -1.87718e-05       -0.0753684      -0.0554121
                       -0.546866       -0.647857      4.85862e-05     1.17812e-05        0.0898828      -0.0101935      3.43815e-05    -3.81761e-05
                    -1.33571e-06    -5.66858e-05       -0.0753685      -0.0554125      3.73237e-05    -2.26492e-05         0.822392        0.568921
547600                   0.24192       -0.437672      8.61455e-05     9.53322e-05        -0.523837       -0.659471     -2.37015e-06    -6.33236e-05
                     9.35469e-05     7.94334e-05         0.820072         0.57226      2.44603e-05    -1.14101e-05       -0.0865218      -0.0221092
                       -0.523835       -0.659468      5.44481e-05     1.48939e-05         0.135634       0.0350788      2.96121e-05    -3.96652e-05
                    -4.27758e-06    -6.01077e-05       -0.0865219      -0.0221097      3.20786e-05    -2.59198e-05         0.590434        0.807086
550800                  0.244275       -0.452675      8.69587e-05      0.00010694         -0.49919       -0.670275     -5.96532e-06    -6.63575e-05
                      9.3288e-05     9.44279e-05         0.854774           0.519      3.48687e-05    -3.57339e-06        -0.101443        0.012161
                       -0.499188       -0.670273      6.08914e-05     1.81744e-05         0.197755       0.0758737      2.43732e-05    -4.13096e-05
                    -7.46473e-06    -6.37162e-05        -0.101443       0.0121605      2.63263e-05    -2.95784e-05         0.406781        0.913526
554000                  0.247954       -0.467776      8.74495e-05     0.000118994        -0.472897        -0.68008     -9.84258e-06    -6.95482e-05
                     9.25389e-05     0.000109755         0.886062        0.463567      4.66972e-05     4.75239e-06        -0.120598       0.0469247
                       -0.472896       -0.680079      6.80025e-05     2.16281e-05         0.277204        0.105124      1.85918e-05    -4.31348e-05
                    -1.09268e-05    -6.75251e-05        -0.120598       0.0469242      1.99907e-05    -3.36963e-05         0.265106        0.964219
557200                  0.253002       -0.482807      8.75795e-05     0.000131502        -0.444952       -0.688677     -1.40347e-05    -7.29061e-05
                     9.12666e-05     0.000125402         0.913284        0.407323      6.02206e-05      1.3567e-05        -0.144406       0.0815594
                       -0.444952       -0.688676      7.58848e-05     2.52577e-05         0.371086        0.114126      1.21791e-05    -4.51724e-05
                    -1.46982e-05    -7.15491e-05        -0.144406       0.0815589      1.29802e-05    -3.83633e-05         0.149069        0.988827
560400                  0.259437       -0.497584      8.73065e-05     0.000144471        -0.415374       -0.695837     -1.85794e-05     -7.6442e-05
                     8.94375e-05     0.000141352         0.929923        0.349439      7.57803e-05     2.28457e-05         -0.17319         0.11529
                       -0.415374       -0.695837      8.46631e-05     2.90613e-05         0.471071       0.0952829      5.02582e-06    -4.74616e-05
                    -1.88188e-05    -7.58038e-05         -0.17319        0.115289      5.18312e-06     -4.3693e-05        0.0479713        0.998849
563600                  0.267241        -0.51192      8.65849e-05     0.000157908        -0.384211       -0.701318     -2.35206e-05    -8.01674e-05
                     8.70177e-05     0.000157587         0.907485        0.283657      9.38026e-05     3.25223e-05        -0.207123        0.147197
                       -0.384212       -0.701319      9.44889e-05     3.30297e-05         0.564368       0.0462092     -3.00412e-06    -5.00516e-05
                    -2.33352e-05    -8.03057e-05        -0.207123        0.147197     -3.53728e-06    -4.98323e-05       -0.0428154        0.963397
564000                  0.268311       -0.513671      8.64608e-05      0.00015962        -0.380208       -0.701872     -2.41685e-05    -8.06469e-05
                     8.66719e-05     0.000159636         0.904016        0.275879      9.62538e-05     3.37543e-05        -0.211727        0.151007
                       -0.380209       -0.701874      9.57995e-05     3.35365e-05         0.574882       0.0381357     -4.07759e-06    -5.03995e-05
                    -2.39302e-05    -8.08867e-05        -0.211727        0.151007     -4.70027e-06    -5.06656e-05       -0.0524777        0.943624
566800                  0.276368       -0.525627      8.53655e-05     0.000171813         -0.35155       -0.704867     -2.89091e-05    -8.40935e-05
                      8.3973e-05     0.000174085         0.876244        0.224689      0.000114822     4.24639e-05        -0.246171        0.176252
                       -0.351551       -0.704869      0.000105547     3.71422e-05         0.638164      -0.0276869     -1.20823e-05    -5.30059e-05
                    -2.83021e-05    -8.50721e-05        -0.246171        0.176252     -1.33503e-05    -5.69733e-05         -0.10878        0.819629
570000                  0.286733       -0.538527      8.35952e-05     0.000186186         -0.31752       -0.706225     -3.48045e-05    -8.82319e-05
                     8.02695e-05      0.00019082         0.838472        0.173802      0.000139506     5.24283e-05        -0.290043        0.201369
                       -0.317521       -0.706228      0.000118066     4.13601e-05         0.684963       -0.114981     -2.24283e-05    -5.64064e-05
