! TOUCHSTONE file generated by CST MICROWAVE STUDIO
! Date and time: Mon Oct 20 08:27:50 2025
! Project name: Teste_Macro_Metasurface_Nanopilar.cst
! Parameters = {H=600; L_x=190; L_y=145; Lambda=1064; Max_L=200; Min_L=70; PathPara=1; Phi=0; Step_L=10; Theta=0; p=520; phaseX=180; phaseY=0}
! Header version: 2018
! Port assignment regex: !\s*Touchstone port\s*([0-9]+)\s*=\s*(CST MWS port|CST DS port)\s*([0-9]+|Zmin|Zmax)\s*\(\"(.*)\"\)(\s*mode\s*([0-9]+))?.*
! Touchstone port assignment:
! Touchstone port 1 = CST MWS port Zmax ("") mode 1
! Touchstone port 2 = CST MWS port Zmax ("") mode 2
! Touchstone port 3 = CST MWS port Zmin ("") mode 1
! Touchstone port 4 = CST MWS port Zmin ("") mode 2
! S-Parameters are not renormalized. Each port impedance will be approximated by the real part at minimum frequency. The values are described via the [Reference] keyword.
! Default impedance is overridden by [Reference]
[Version] 2.0
# GHz S RI R 376.73
[Number of Ports] 4
[Reference]
376.73 376.73 259.888 259.888 
[Number of Frequencies] 52
[Network Data]
474000                  0.157482         0.13745      4.88653e-05     1.90232e-05        -0.362136        0.899151     -4.32479e-05    -5.97015e-06
                     2.16281e-05     2.81422e-06       -0.0270981        0.137559      3.58477e-05     3.64373e-05         0.382876       -0.820422
                       -0.362136        0.899147       3.7774e-05     1.88397e-05          0.20475       0.0058384     -4.07457e-05    -1.21931e-05
                    -4.07492e-05    -7.35865e-07         0.382876       -0.820422     -1.18909e-05    -7.24871e-06        0.0178586       -0.159999
477200                  0.160353        0.136635      5.25377e-05     1.80278e-05        -0.319816        0.902465     -4.56677e-05    -5.39168e-06
                     2.56034e-05     1.50212e-06       -0.0200755        0.135689      3.09741e-05     3.64372e-05         0.397777       -0.744682
                       -0.319816        0.902461      3.25672e-05     1.92125e-05         0.210547      0.00885862     -3.81478e-05    -9.37393e-06
                    -4.30913e-05    -3.84155e-07         0.397788       -0.744693     -9.31214e-06    -5.18214e-06        0.0175263       -0.148865
480400                  0.163413        0.135756      5.64238e-05     1.70287e-05        -0.275093        0.903683     -4.81729e-05     -4.7591e-06
                     2.98203e-05     1.79194e-07       -0.0126351        0.133669       2.5918e-05     3.65327e-05         0.404115       -0.673748
                       -0.275092        0.903679      2.71811e-05      1.9702e-05         0.216693       0.0121998     -3.53345e-05     -6.4539e-06
                    -4.55204e-05     1.14184e-08         0.404136       -0.673765     -6.55053e-06    -3.05647e-06        0.0174085       -0.137006
483600                  0.166679        0.134806      6.05419e-05     1.60303e-05        -0.227954        0.902437     -5.07677e-05    -4.06747e-06
                     3.42997e-05    -1.14951e-06      -0.00473865        0.131482      2.06721e-05     3.67346e-05         0.403603       -0.608163
                       -0.227954        0.902432      2.16095e-05       2.032e-05         0.223215       0.0159072      -3.2283e-05    -3.43211e-06
                    -4.80408e-05     4.55215e-07         0.403633       -0.608183     -3.58879e-06    -8.72729e-07        0.0175512       -0.124359
486800                  0.170175        0.133776      6.49119e-05     1.50378e-05        -0.178431        0.898318     -5.34559e-05    -3.31136e-06
                     3.90648e-05    -2.47758e-06       0.00365663        0.129109      1.52287e-05     3.70553e-05         0.397757         -0.5481
                       -0.178432        0.898313      1.58465e-05     2.10796e-05         0.230144       0.0200344     -2.89677e-05    -3.08788e-07
                    -5.06569e-05     9.52066e-07         0.397794        -0.54812      -4.0783e-07      1.3671e-06        0.0180097       -0.110852
490000                  0.173924        0.132655      6.95558e-05      1.4058e-05        -0.126611        0.890879      -5.6242e-05    -2.48476e-06
                     4.41414e-05    -3.79701e-06        0.0125991        0.126526      9.58021e-06      3.7508e-05         0.387867       -0.493473
                       -0.126612        0.890875      9.88597e-06     2.19949e-05         0.237512       0.0246444     -2.53598e-05     2.91435e-06
                    -5.33736e-05     1.50734e-06         0.387911       -0.493491      3.01362e-06      3.6599e-06        0.0188507       -0.096407
493200                  0.177956        0.131431      7.44983e-05     1.30992e-05       -0.0726467         0.87964     -5.91303e-05    -1.58104e-06
                     4.95582e-05    -5.09776e-06        0.0221435        0.123705      3.71902e-06     3.81078e-05            0.375       -0.444031
                       -0.072648        0.879635      3.72214e-06     2.30816e-05         0.245354       0.0298122     -2.14273e-05     6.23366e-06
                    -5.61958e-05     2.12698e-06         0.375047       -0.444047       6.6992e-06     6.00104e-06        0.0201551      -0.0809372
496400                  0.182304         0.13009      7.97668e-05     1.21715e-05       -0.0167734        0.864092     -6.21254e-05     -5.9289e-07
                     5.53471e-05     -6.3673e-06        0.0323521        0.120615     -2.36238e-06      3.8871e-05         0.360015       -0.399429
                      -0.0167752        0.864088     -2.65044e-06     2.43568e-05         0.253704        0.035627     -1.71338e-05     9.64299e-06
                    -5.91288e-05     2.81761e-06         0.360064       -0.399442      1.06752e-05     8.38407e-06        0.0220209      -0.0643487
499600                  0.187006        0.128615      8.53917e-05     1.12876e-05        0.0406759        0.843714      -6.5232e-05     4.87812e-07
                     6.15436e-05    -7.59005e-06        0.0432958        0.117219     -8.67133e-06     3.98156e-05         0.343595       -0.359274
                       0.0406738         0.84371     -9.23684e-06     2.58391e-05           0.2626       0.0421956     -1.24387e-05     1.31329e-05
                     -6.2178e-05     3.58662e-06         0.343645       -0.359284      1.49708e-05     1.08001e-05        0.0245675      -0.0465391
502800                  0.192107        0.126986      9.14071e-05      1.0463e-05        0.0992577        0.817986      -6.8455e-05     1.67004e-06
                     6.81872e-05     -8.7466e-06        0.0550559        0.113472     -1.52148e-05     4.09617e-05         0.326271       -0.323161
                       0.0992552        0.817981     -1.60415e-05     2.75488e-05         0.272079       0.0496464     -7.29663e-06     1.66896e-05
                    -6.53492e-05      4.4422e-06         0.326322       -0.323168      1.96184e-05     1.32375e-05        0.0279404      -0.0273981
506000                  0.197659        0.125177      9.78507e-05     9.71687e-06         0.158405         0.78641     -7.17994e-05     2.96375e-06
                     7.53218e-05    -9.81284e-06        0.0677259        0.109321     -2.19993e-05     4.23313e-05         0.308455       -0.290693
                        0.158402        0.786406     -2.30683e-05     2.95082e-05         0.282173       0.0581346     -1.65685e-06     2.02941e-05
                    -6.86482e-05     5.39352e-06         0.308505       -0.290697      2.46539e-05     1.56805e-05        0.0323176     -0.00680817
509200                  0.203725        0.123159      0.000104765     9.07285e-06          0.21742        0.748545     -7.52701e-05     4.37999e-06
                     8.29966e-05    -1.07588e-05        0.0814141        0.104701     -2.90306e-05     4.39487e-05         0.290457       -0.261494
                        0.217417        0.748541     -3.03199e-05     3.17414e-05         0.292912       0.0678477      4.53701e-06     2.39202e-05
                    -7.20813e-05     6.45081e-06         0.290505       -0.261495      3.01169e-05     1.81092e-05         0.037917       0.0153535
512400                  0.210379        0.120894      0.000112197     8.56026e-06         0.275472        0.704033     -7.88723e-05     5.93101e-06
                      9.1266e-05     -1.1547e-05        0.0962461       0.0995377     -3.63136e-05     4.58403e-05          0.27251       -0.235217
                        0.275469        0.704029     -3.77979e-05     3.42748e-05         0.304311       0.0790142      1.13472e-05     2.75327e-05
                    -7.56548e-05      7.6255e-06         0.272556       -0.235215      3.60512e-05     2.04974e-05        0.0450057       0.0392118
515600                  0.217711        0.118337        0.0001202      8.2154e-06         0.331606        0.652642     -8.26108e-05     7.63044e-06
                      0.00010019    -1.21312e-05         0.112369       0.0937355     -4.38519e-05     4.80355e-05         0.254785       -0.211544
                        0.331602        0.652638     -4.55026e-05     3.71369e-05         0.316371       0.0919122       1.8842e-05     3.10855e-05
                    -7.93749e-05     8.93038e-06         0.254829       -0.211541      4.25042e-05     2.28119e-05        0.0539119       0.0648878
518800                  0.225828        0.115429      0.000128832     8.08331e-06         0.384759        0.594304     -8.64906e-05     9.49344e-06
                     0.000109836    -1.24532e-05         0.129954       0.0871793     -5.16478e-05     5.05663e-05         0.237407       -0.190192
                        0.384755          0.5943     -5.34324e-05     4.03584e-05         0.329059        0.106881       2.7095e-05      3.4518e-05
                    -8.32483e-05     1.03797e-05         0.237448       -0.190187      4.95276e-05     2.50105e-05        0.0650383         0.09249
522000                  0.234864        0.112098      0.000138158     8.22009e-06         0.433796        0.529153     -9.05164e-05     1.15368e-05
                     0.000120277    -1.24406e-05         0.149207        0.079726     -5.97014e-05     5.34675e-05         0.220462       -0.170904
                        0.433792         0.52915     -6.15834e-05     4.39728e-05         0.342296        0.124333      3.61848e-05      3.7752e-05
                    -8.72815e-05     1.19897e-05           0.2205       -0.170898      5.71768e-05     2.70397e-05         0.078878          0.1221
525200                   0.24498        0.108247       0.00014825     8.69562e-06         0.477552        0.457554     -9.46924e-05     1.37794e-05
                     0.000131592    -1.20032e-05         0.170368       0.0711961     -6.80104e-05     5.67771e-05         0.204009       -0.153454
                        0.477548        0.457551     -6.99493e-05     4.80158e-05         0.355926        0.144769      4.61925e-05     4.06871e-05
                    -9.14808e-05     1.37781e-05         0.204044       -0.153447        6.551e-05     2.88324e-05        0.0960336        0.153752
528400                  0.256381        0.103753      0.000159188     9.59728e-06         0.514892        0.380122     -9.90224e-05      1.6242e-05
                     0.000143866    -1.10277e-05         0.193727       0.0613621     -7.65697e-05     6.05366e-05         0.188085        -0.13764
                        0.514887        0.380119     -7.85207e-05     5.25257e-05         0.369678        0.168792      5.71994e-05     4.31962e-05
                    -9.58524e-05     1.57652e-05         0.188117       -0.137632      7.45871e-05     3.03043e-05         0.117235        0.187397
531600                  0.269324       0.0984493      0.000171056     1.10345e-05         0.544774        0.297727     -0.000103509     1.89478e-05
                      0.00015719    -9.37255e-06         0.219634       0.0499323     -8.53706e-05     6.47903e-05          0.17271       -0.123284
                         0.54477        0.297724     -8.72845e-05     5.75435e-05         0.383107        0.197109      6.92814e-05     4.51199e-05
                    -0.000100402     1.79735e-05         0.172739       -0.123276      8.44672e-05     3.13513e-05         0.143358        0.222863
534800                   0.28414       0.0921111      0.000183946     1.31445e-05         0.566322        0.211469     -0.000108156     2.19226e-05
                     0.000171653    -6.86074e-06         0.248511       0.0365274     -9.43997e-05     6.95863e-05         0.157894        -0.11023
                        0.566317        0.211466     -9.62233e-05     6.31124e-05         0.395508        0.230531      8.25022e-05     4.62607e-05
                    -0.000105135     2.04285e-05         0.157919       -0.110222      9.52058e-05     3.18444e-05         0.175434        0.259781
538000                  0.301256        0.084425      0.000197954     1.60997e-05          0.57888        0.122641     -0.000112962     2.51952e-05
                     0.000187345     -3.2709e-06         0.280874       0.0206476     -0.000103639     7.49757e-05         0.143634       -0.098338
                        0.578876        0.122638     -0.000105315     6.92781e-05           0.4058        0.269926      9.69027e-05     4.63782e-05
                    -0.000110054     2.31587e-05         0.143657      -0.0983298      0.000106849     3.16263e-05         0.214645        0.297499
541200                  0.321241       0.0749452      0.000213173      2.0117e-05         0.582071       0.0326689     -0.000117927     2.87975e-05
                     0.000204341     1.67278e-06         0.317357      0.00162308     -0.000113064     8.10127e-05         0.129926      -0.0874864
                        0.582067        0.032666     -0.000114531     7.60879e-05         0.412373        0.316124      0.000112486     4.51851e-05
                    -0.000115164     2.61959e-05         0.129945      -0.0874784      0.000119427      3.0507e-05         0.262282        0.334962
544400                  0.344855       0.0630174      0.000229691     2.54685e-05         0.575821      -0.0569631     -0.000123047     3.27648e-05
                     0.000222696     8.31239e-06          0.35874      -0.0214597     -0.000122643     8.77543e-05         0.116756      -0.0775669
                        0.575816       -0.056966     -0.000123838      8.3591e-05         0.412925          0.3697      0.000129199     4.23477e-05
                    -0.000120465     2.95758e-05         0.116772      -0.0775593      0.000132942     2.82601e-05         0.319656         0.37057
547600                  0.373144        0.047649      0.000247576     3.24952e-05         0.560364       -0.144794     -0.000128317     3.71363e-05
                     0.000242419     1.70686e-05         0.405993       -0.049871     -0.000132336     9.52595e-05         0.104109      -0.0684842
                        0.560359       -0.144797     -0.000133192     9.18375e-05         0.404337        0.430591      0.000146908     3.74916e-05
                    -0.000125955     3.33384e-05         0.104123       -0.068477       0.00014736     2.46222e-05         0.387911        0.402028
550800                  0.407565       0.0272719      0.000266861     4.16219e-05         0.536225       -0.229465     -0.000133727     4.19551e-05
                     0.000263451     2.84524e-05         0.460309      -0.0854163     -0.000142093     0.000103589        0.0919681      -0.0601537
                         0.53622       -0.229468     -0.000142544     0.000100877         0.382722        0.497496      0.000165374     3.02177e-05
                    -0.000131631     3.75284e-05        0.0919791      -0.0601471      0.000162585     1.92939e-05         0.467722        0.426237
554000                  0.450188    -0.000711792      0.000287515      5.3373e-05         0.504177       -0.309782     -0.000139262     4.72686e-05
                     0.000285621     4.30714e-05         0.523149       -0.130724     -0.000151855     0.000112803        0.0803146      -0.0525008
                        0.504171       -0.309785     -0.000151834      0.00011076         0.343901        0.567105      0.000184222     2.01309e-05
                    -0.000137483     4.21953e-05        0.0803229      -0.0524949      0.000178448      1.1949e-05         0.558851         0.43931
557200                  0.503968      -0.0408587      0.000309401     6.83851e-05         0.465181       -0.384768     -0.000144903     5.31288e-05
                     0.000308591     6.16266e-05         0.596238       -0.189723      -0.00016155     0.000122962        0.0691287      -0.0454591
                        0.465175       -0.384771     -0.000160993     0.000121534         0.284564        0.633468      0.000202927     6.88541e-06
                    -0.000143497      4.7394e-05        0.0691345       -0.045454      0.000194678     2.25007e-06         0.659604        0.436828
560400                  0.573016       -0.101729      0.000332216     8.74119e-05         0.420325        -0.45369     -0.000150623     5.95919e-05
                     0.000331784      8.4887e-05         0.681462       -0.268452     -0.000171091     0.000134121        0.0583906      -0.0389698
                        0.420318       -0.453693     -0.000169941      0.00013324         0.204143        0.688172      0.000220804    -9.75417e-06
                    -0.000149654     5.31852e-05         0.058394      -0.0389655      0.000210883     -1.0122e-05         0.766342        0.414467
563600                  0.662202       -0.200751      0.000355413     0.000111309         0.370752       -0.516067     -0.000156386     6.67186e-05
                     0.000354301     0.000113628         0.780406       -0.376466      -0.00018038     0.000146333        0.0480805      -0.0329805
                        0.370745        -0.51607     -0.000178584     0.000145919         0.106675        0.722076      0.000237037    -2.98414e-05
                    -0.000155923     5.96351e-05        0.0480816      -0.0329772      0.000226536    -2.54261e-05         0.873306        0.369013
564000                   0.67494       -0.217354        0.0003583     0.000114684         0.364281       -0.523389     -0.000157108     6.76593e-05
                     0.000357008     0.000117642         0.793769        -0.39271     -0.000181518     0.000147936        0.0468209      -0.0322646
                        0.364274       -0.523392     -0.000179639     0.000147574        0.0936966        0.724469      0.000238906     -3.2588e-05
                    -0.000156713     6.04912e-05        0.0468216      -0.0322614      0.000228423     -2.7554e-05         0.886334         0.36163
566800                  0.772181       -0.376537      0.000378092     0.000140983         0.317602       -0.571655     -0.000162147     7.45736e-05
                     0.000374836     0.000148516         0.860244       -0.509883     -0.000189302     0.000159641        0.0381789      -0.0274447
                        0.317594       -0.571658     -0.000186822     0.000159599       0.00114885        0.728525      0.000250731    -5.31791e-05
                    -0.000162267     6.68156e-05        0.0381777      -0.0274423      0.000240978    -4.38048e-05         0.955735        0.294228
570000                  0.770418       -0.637539      0.000398889     0.000177272          0.26196       -0.620425     -0.000167846     8.32245e-05
                      0.00039163     0.000189917         0.802852       -0.596178     -0.000197727     0.000174076        0.0286667      -0.0223208
                        0.261953       -0.620427     -0.000194537     0.000174301        -0.100784        0.706355      0.000261013    -7.92743e-05
