! TOUCHSTONE file generated by CST MICROWAVE STUDIO
! Date and time: Mon Oct 20 08:27:28 2025
! Project name: Teste_Macro_Metasurface_Nanopilar.cst
! Parameters = {H=600; L_x=115; L_y=160; Lambda=1064; Max_L=200; Min_L=70; PathPara=1; Phi=0; Step_L=10; Theta=0; p=520; phaseX=180; phaseY=0}
! Header version: 2018
! Port assignment regex: !\s*Touchstone port\s*([0-9]+)\s*=\s*(CST MWS port|CST DS port)\s*([0-9]+|Zmin|Zmax)\s*\(\"(.*)\"\)(\s*mode\s*([0-9]+))?.*
! Touchstone port assignment:
! Touchstone port 1 = CST MWS port Zmax ("") mode 1
! Touchstone port 2 = CST MWS port Zmax ("") mode 2
! Touchstone port 3 = CST MWS port Zmin ("") mode 1
! Touchstone port 4 = CST MWS port Zmin ("") mode 2
! S-Parameters are not renormalized. Each port impedance will be approximated by the real part at minimum frequency. The values are described via the [Reference] keyword.
! Default impedance is overridden by [Reference]
[Version] 2.0
# GHz S RI R 376.73
[Number of Ports] 4
[Reference]
376.73 376.73 259.888 259.888 
[Number of Frequencies] 52
[Network Data]
474000                 -0.156086       -0.248615     -3.13908e-05    -4.02691e-05        -0.164432        0.908589     -9.39716e-05    -7.43695e-05
                    -1.19513e-05    -2.77419e-05         0.130807        0.394321     -8.47199e-05    -4.18012e-05        -0.803916         0.39543
                       -0.164422        0.908564     -8.31905e-05    -3.79372e-05         -0.24168        0.196414     -7.55681e-05     5.78089e-06
                    -7.29018e-05    -6.49626e-05        -0.803857        0.395483     -5.24251e-05     3.72936e-06         0.244573        0.325372
477200                 -0.153163       -0.241332      -2.9404e-05    -4.03313e-05        -0.289064        0.910907      -9.4229e-05     -7.4873e-05
                     -9.9288e-06    -2.80708e-05          0.11353         0.39025     -8.25679e-05    -4.14453e-05        -0.876979        0.353907
                       -0.289047        0.910885     -8.09841e-05    -3.75939e-05        -0.247899        0.205982     -7.74908e-05      4.7338e-06
                    -7.34546e-05    -6.55649e-05        -0.876926        0.353968     -5.44074e-05     2.70549e-06         0.250127        0.328182
480400                 -0.150149       -0.233525     -2.73089e-05     -4.0413e-05        -0.421802        0.882818      -9.4497e-05    -7.53987e-05
                    -7.80315e-06     -2.8434e-05        0.0952755        0.385284     -8.02786e-05    -4.10783e-05        -0.947825        0.298489
                       -0.421778        0.882803     -7.86375e-05    -3.72409e-05        -0.254691         0.21585     -7.95216e-05     3.62526e-06
                    -7.40316e-05    -6.61951e-05        -0.947781        0.298558     -5.65038e-05     1.62148e-06         0.255932        0.331001
483600                 -0.147044       -0.225136     -2.50967e-05    -4.05172e-05        -0.551309        0.819836     -9.47763e-05    -7.59483e-05
                    -5.56644e-06    -2.88356e-05        0.0759989        0.379278     -7.78386e-05    -4.07002e-05        -0.975434        0.220292
                       -0.551281        0.819831     -7.61371e-05    -3.68786e-05        -0.262112        0.226014     -8.16697e-05     2.44969e-06
                    -7.46345e-05     -6.6855e-05        -0.975417        0.220368     -5.87245e-05     4.71888e-07         0.262002        0.333822
486800                 -0.143853       -0.216102     -2.27576e-05    -4.06475e-05        -0.663995        0.723404     -9.50674e-05    -7.65233e-05
                    -3.21001e-06    -2.92802e-05        0.0556604        0.372062     -7.52324e-05    -4.03112e-05        -0.990855        0.134932
                       -0.663967        0.723409     -7.34674e-05    -3.65075e-05        -0.270224        0.236469     -8.39458e-05     1.20084e-06
                    -7.52651e-05    -6.75468e-05        -0.990845        0.135006     -6.10809e-05    -7.49437e-07         0.268352        0.336639
490000                 -0.140584       -0.206349     -2.02805e-05    -4.08081e-05        -0.747997        0.601782     -9.53712e-05    -7.71255e-05
                    -7.24324e-07    -2.97734e-05        0.0342303        0.363438     -7.24428e-05    -3.99119e-05        -0.998953       0.0457516
                       -0.747973        0.601796     -7.06107e-05    -3.61283e-05        -0.279096        0.247203     -8.63616e-05     -1.2836e-07
                    -7.59253e-05    -6.82729e-05         -0.99895        0.045823     -6.35857e-05    -2.04942e-06         0.274997        0.339443
493200                 -0.137247       -0.195794     -1.76533e-05    -4.10037e-05        -0.797017        0.467877     -9.56886e-05     -7.7757e-05
                     1.90117e-06    -3.03214e-05        0.0116933        0.353178     -6.94499e-05    -3.95029e-05         -0.99897      -0.0453738
                          -0.797        0.467898     -6.75469e-05    -3.57422e-05        -0.288801        0.258201     -8.89304e-05    -1.54589e-06
                    -7.66172e-05    -6.90359e-05        -0.998973       -0.045307     -6.62534e-05     -3.4359e-06         0.281956        0.342225
496400                 -0.133859       -0.184339     -1.48623e-05    -4.12402e-05        -0.811669        0.335088     -9.60204e-05    -7.84199e-05
                     4.67815e-06    -3.09315e-05       -0.0119445        0.341022     -6.62307e-05    -3.90854e-05        -0.990664       -0.136323
                        -0.81166        0.335111     -6.42529e-05    -3.53507e-05        -0.299421        0.269437     -9.16671e-05    -3.06086e-06
                    -7.73432e-05    -6.98386e-05        -0.990673       -0.136262     -6.91006e-05    -4.91781e-06         0.289245        0.344974
499600                 -0.130443       -0.171872     -1.18922e-05    -4.15245e-05        -0.797858         0.21367     -9.63677e-05    -7.91167e-05
                     7.61955e-06    -3.16121e-05       -0.0366472        0.326667      -6.2759e-05    -3.86612e-05        -0.974366       -0.224967
                       -0.797856        0.213692     -6.07019e-05     -3.4956e-05        -0.311043        0.280879     -9.45887e-05    -4.68365e-06
                    -7.81058e-05    -7.06842e-05        -0.974379       -0.224912     -7.21459e-05    -6.50536e-06         0.296883        0.347677
502800                 -0.127031       -0.158264     -8.72592e-06    -4.18646e-05        -0.763776        0.109289     -9.67316e-05    -7.98499e-05
                     1.07398e-05    -3.23731e-05       -0.0623379        0.309773      -5.9004e-05    -3.82326e-05         -0.95093       -0.309407
                        -0.76378        0.109308     -5.68631e-05    -3.45613e-05        -0.323763        0.292485     -9.77148e-05    -6.42616e-06
                     -7.8908e-05    -7.15764e-05        -0.950945        -0.30936     -7.54107e-05    -8.21024e-06          0.30489         0.35032
506000                 -0.123667       -0.143361     -5.34399e-06    -4.22703e-05        -0.717353       0.0235615     -9.71133e-05    -8.06225e-05
                     1.40548e-05     -3.3226e-05       -0.0888844        0.289958     -5.49302e-05    -3.78032e-05        -0.921589       -0.388168
                       -0.717359       0.0235777     -5.27005e-05    -3.41705e-05        -0.337682        0.304197     -0.000101067    -8.30212e-06
                    -7.97528e-05    -7.25189e-05        -0.921606       -0.388128     -7.89197e-05     -1.0046e-05         0.313286        0.352887
509200                 -0.120414       -0.126988     -1.72458e-06    -4.27533e-05        -0.664913      -0.0445398      -9.7514e-05    -8.14377e-05
                     1.75824e-05    -3.41844e-05        -0.116081          0.2668     -5.04956e-05    -3.73775e-05        -0.887773       -0.460282
                       -0.664922      -0.0445272      -4.8172e-05    -3.37894e-05         -0.35291        0.315945     -0.000104672    -1.03274e-05
                    -8.06437e-05    -7.35163e-05         -0.88779       -0.460248     -8.27014e-05    -1.20282e-05         0.322093        0.355358
512400                 -0.117355       -0.108936      2.15706e-06    -4.33276e-05        -0.610888      -0.0973357     -9.79353e-05    -8.22993e-05
                     2.13427e-05    -3.52642e-05        -0.143629        0.239843      -4.5651e-05    -3.69623e-05        -0.850923        -0.52529
                       -0.610897      -0.0973263     -4.32278e-05    -3.34255e-05        -0.369559        0.327638     -0.000108558    -1.25206e-05
                    -8.15846e-05    -7.45734e-05        -0.850941       -0.525262     -8.67886e-05    -1.41751e-05         0.331334        0.357712
515600                 -0.114607      -0.0889632      6.32907e-06    -4.40103e-05        -0.558069       -0.137512     -9.83787e-05    -8.32112e-05
                     2.53578e-05    -3.64844e-05        -0.171109        0.208608     -4.03375e-05    -3.65665e-05        -0.812356       -0.583162
                       -0.558079       -0.137505      -3.7809e-05    -3.30891e-05        -0.387748        0.339165     -0.000112761    -1.49034e-05
                    -8.25798e-05    -7.56957e-05        -0.812372       -0.583139     -9.12202e-05    -1.65082e-05         0.341031        0.359925
518800                 -0.112327      -0.0667828      1.08235e-05    -4.48223e-05        -0.508037       -0.167612     -9.88461e-05     -8.4178e-05
                     2.96528e-05    -3.78676e-05        -0.197956         0.17262     -3.44849e-05    -3.62024e-05        -0.773178       -0.634189
                       -0.508046       -0.167608     -3.18452e-05    -3.27942e-05        -0.407597        0.350388     -0.000117319    -1.75015e-05
                    -8.36341e-05    -7.68895e-05        -0.773194        -0.63417     -9.60414e-05    -1.90528e-05         0.351208        0.361969
522000                 -0.110734      -0.0420596      1.56768e-05    -4.57891e-05        -0.461556        -0.18983     -9.93394e-05    -8.52048e-05
                     3.42555e-05     -3.9441e-05        -0.223431        0.131436     -2.80085e-05    -3.58872e-05        -0.734261       -0.678867
                       -0.461564       -0.189827     -2.52516e-05    -3.25599e-05        -0.429223        0.361141      -0.00012228    -2.03451e-05
                    -8.47531e-05    -7.81618e-05        -0.734275       -0.678852     -0.000101306    -2.18388e-05         0.361891        0.363811
525200                 -0.110126       -0.014401      2.09309e-05    -4.69421e-05        -0.418884       -0.205955     -9.98607e-05    -8.62972e-05
                     3.91976e-05    -4.12371e-05        -0.246599        0.084698     -2.08054e-05    -3.56446e-05        -0.692134       -0.713564
                       -0.418891       -0.205953     -1.79254e-05    -3.24123e-05        -0.452739        0.371223     -0.000127701    -2.34709e-05
                    -8.59427e-05    -7.95205e-05        -0.692154        -0.71356     -0.000107078    -2.49025e-05         0.373103        0.365417
528400                 -0.110918       0.0166489      2.66337e-05    -4.83206e-05        -0.379981       -0.217406     -0.000100413    -8.74619e-05
                     4.45139e-05    -4.32956e-05        -0.266317       0.0322023     -1.27489e-05    -3.55077e-05        -0.635974       -0.724745
                       -0.379988       -0.217405     -9.74067e-06    -3.23876e-05        -0.478243        0.380399     -0.000133647    -2.69229e-05
                    -8.72098e-05    -8.09749e-05        -0.635991       -0.724742     -0.000113435    -2.82875e-05         0.384868        0.366745
531600                 -0.113686       0.0516123      3.28403e-05    -4.99734e-05        -0.344649       -0.225286     -0.000100998    -8.87063e-05
                     5.02441e-05    -4.56645e-05        -0.281246      -0.0260179      -3.6826e-06    -3.55234e-05        -0.583882       -0.730178
                       -0.344654       -0.225285     -5.42049e-07    -3.25365e-05        -0.505815        0.388392       -0.0001402    -3.07545e-05
                    -8.85623e-05    -8.25352e-05        -0.583895       -0.730177      -0.00012047    -3.20469e-05         0.397212        0.367749
534800                 -0.119228       0.0910725      3.96137e-05    -5.19622e-05        -0.312609       -0.230445     -0.000101619    -9.00386e-05
                      5.6432e-05    -4.84029e-05        -0.289893      -0.0895944       6.5897e-06    -3.57585e-05        -0.535984         -0.7311
                       -0.312614       -0.230445      9.86443e-06    -3.29306e-05        -0.535503         0.39488     -0.000147456    -3.50319e-05
                     -9.0009e-05    -8.42136e-05        -0.535995         -0.7311     -0.000128298    -3.62465e-05         0.410158        0.368377
538000                 -0.128665        0.135651      4.70265e-05    -5.43654e-05        -0.283561       -0.233534      -0.00010228    -9.14687e-05
                     6.31265e-05    -5.15837e-05        -0.290699       -0.157729      1.83161e-05    -3.63093e-05         -0.49221       -0.728548
                       -0.283565       -0.233535      2.17232e-05    -3.36724e-05        -0.567314        0.399504     -0.000155536    -3.98373e-05
                    -9.15601e-05    -8.60238e-05        -0.492219       -0.728548      -0.00013706    -4.09684e-05         0.423726        0.368572
541200                 -0.143558        0.185947      5.51613e-05    -5.72833e-05        -0.257203       -0.235052     -0.000102985    -9.30076e-05
                     7.03813e-05    -5.52974e-05        -0.282182       -0.229123      3.18145e-05    -3.73176e-05        -0.452366       -0.723372
                       -0.257206       -0.235053      3.53458e-05    -3.49114e-05        -0.601196         0.40186     -0.000164587    -4.52742e-05
                    -9.32274e-05    -8.79821e-05        -0.452373       -0.723372     -0.000146935    -4.63163e-05         0.437937        0.368266
544400                 -0.166077        0.242416      6.41121e-05    -6.08453e-05        -0.233251        -0.23538     -0.000103738    -9.46681e-05
                     7.82548e-05     -5.9657e-05        -0.263122       -0.301954      4.74965e-05    -3.89956e-05         -0.41619       -0.716256
                       -0.233254       -0.235381      5.11335e-05    -3.68692e-05        -0.637028        0.401513     -0.000174795    -5.14751e-05
                    -9.50241e-05    -9.01072e-05        -0.416195       -0.716256     -0.000158149    -5.24233e-05         0.452806        0.367387
547600                 -0.199199        0.305119      7.39845e-05    -6.52202e-05        -0.211446        -0.23481     -0.000104543    -9.64653e-05
                     8.68091e-05    -6.48049e-05        -0.232769       -0.373942      6.59021e-05    -4.16677e-05        -0.383388       -0.707741
                       -0.211448        -0.23481      6.96087e-05    -3.98815e-05        -0.674598        0.398009     -0.000186397     -5.8612e-05
                     -9.6966e-05    -9.24214e-05        -0.383391       -0.707741     -0.000170994     -5.9463e-05         0.468345        0.365854
550800                 -0.246895        0.373269      8.48939e-05    -7.06295e-05        -0.191551       -0.233565     -0.000105407    -9.84167e-05
                     9.61077e-05    -7.09214e-05        -0.191042       -0.442504      8.77467e-05    -4.58418e-05        -0.353658       -0.698252
                       -0.191553       -0.233565      9.14576e-05     -4.4469e-05        -0.713591        0.390885     -0.000199697    -6.69124e-05
                    -9.90712e-05     -9.4951e-05        -0.353661       -0.698252     -0.000185853    -6.76663e-05          0.48456        0.363576
554000                 -0.314174        0.444455      9.69625e-05    -7.73672e-05        -0.173359       -0.231817     -0.000106336    -0.000100543
                     0.000106211    -7.82363e-05        -0.138646        -0.50501      0.000113985    -5.23369e-05        -0.326707        -0.68812
                       -0.173361       -0.231818      0.000117586    -5.14613e-05        -0.753577        0.379704     -0.000215098    -7.66833e-05
                    -0.000101361    -9.77275e-05        -0.326709       -0.688119     -0.000203239     -7.7347e-05         0.501448        0.360454
557200                 -0.406681        0.513461      0.000110309    -8.58256e-05        -0.156685         -0.2297     -0.000107337    -0.000102869
                     0.000117169     -8.7044e-05       -0.0770799       -0.559083      0.000145888     -6.2515e-05        -0.302257       -0.677598
                       -0.156686         -0.2297       0.00014918    -6.22207e-05        -0.794005        0.364078     -0.000233136    -8.83491e-05
                    -0.000103861    -0.000100788        -0.302258       -0.677597     -0.000223858    -8.89424e-05         0.518997        0.356379
560400                  -0.52927         0.57085      0.000125032    -9.65322e-05        -0.141365       -0.227315     -0.000108419    -0.000105423
                     0.000129006    -9.77233e-05      -0.00850283       -0.602882       0.00018511    -7.87215e-05        -0.280053       -0.666881
                       -0.141365       -0.227315      0.000187751    -7.90582e-05        -0.834204        0.343708     -0.000254547    -0.000102513
                    -0.000106601     -0.00010418        -0.280053        -0.66688     -0.000248701    -0.000103081         0.537184        0.351232
563600                 -0.682891        0.602168      0.000141167    -0.000110198        -0.127256       -0.224741     -0.000109591     -0.00010824
                     0.000141698    -0.000110762        0.0645106       -0.635313      0.000233627    -0.000105142        -0.259859       -0.656115
                       -0.127256       -0.224741      0.000235037    -0.000106022        -0.873399        0.318422     -0.000280369    -0.000120061
                    -0.000109616    -0.000107958        -0.259859       -0.656114     -0.000279213    -0.000120698          0.55597        0.344888
564000                 -0.704022        0.603372       0.00014328    -0.000112159        -0.125571       -0.224409     -0.000109745    -0.000108613
                      0.00014334    -0.000112587        0.0738146       -0.638545      0.000240442     -0.00010949        -0.257466       -0.654772
                       -0.125571       -0.224409      0.000241641    -0.000110417        -0.878186        0.314913     -0.000283974    -0.000122553
                    -0.000110015    -0.000108461        -0.257465        -0.65477     -0.000283524    -0.000123209         0.558358        0.344004
566800                 -0.824676        0.565605       0.00015862     -0.00012778        -0.114232        -0.22204     -0.000110865    -0.000111365
                      0.00015513    -0.000126785         0.139276       -0.656096      0.000293131    -0.000149469        -0.241467        -0.64541
                       -0.114232        -0.22204      0.000292376    -0.000150391        -0.910742        0.288209     -0.000312103    -0.000142349
                    -0.000112951    -0.000112193        -0.241466       -0.645409      -0.00031758    -0.000143251           0.5753        0.337212
570000                 -0.894722        0.446623      0.000177036    -0.000150548        -0.102182       -0.219259     -0.000112254    -0.000114849
                     0.000169029    -0.000146587          0.21329        -0.66571      0.000362418    -0.000225913        -0.224686       -0.634847
                       -0.102182       -0.219258      0.000358255    -0.000225241         -0.94535         0.25325     -0.000352014    -0.000171549
