! TOUCHSTONE file generated by CST MICROWAVE STUDIO
! Date and time: Mon Oct 20 08:27:56 2025
! Project name: Teste_Macro_Metasurface_Nanopilar.cst
! Parameters = {H=600; L_x=200; L_y=190; Lambda=1064; Max_L=200; Min_L=70; PathPara=1; Phi=0; Step_L=10; Theta=0; p=520; phaseX=180; phaseY=0}
! Header version: 2018
! Port assignment regex: !\s*Touchstone port\s*([0-9]+)\s*=\s*(CST MWS port|CST DS port)\s*([0-9]+|Zmin|Zmax)\s*\(\"(.*)\"\)(\s*mode\s*([0-9]+))?.*
! Touchstone port assignment:
! Touchstone port 1 = CST MWS port Zmax ("") mode 1
! Touchstone port 2 = CST MWS port Zmax ("") mode 2
! Touchstone port 3 = CST MWS port Zmin ("") mode 1
! Touchstone port 4 = CST MWS port Zmin ("") mode 2
! S-Parameters are not renormalized. Each port impedance will be approximated by the real part at minimum frequency. The values are described via the [Reference] keyword.
! Default impedance is overridden by [Reference]
[Version] 2.0
# GHz S RI R 376.73
[Number of Ports] 4
[Reference]
376.73 376.73 259.888 259.888 
[Number of Frequencies] 52
[Network Data]
474000                  0.495114       -0.743032     -8.94694e-05    -0.000441652         0.160846       -0.270598      -0.00061245     0.000134979
                    -8.94641e-05    -0.000441634         0.799161       0.0465249     -0.000527282     7.94628e-05        -0.278589        0.110884
                        0.160846       -0.270598     -0.000527353     7.94579e-05        -0.609775        0.648399      0.000112779      0.00071434
                    -0.000612482     0.000134986        -0.278589        0.110884      0.000112746     0.000714194        -0.828701      -0.0593451
477200                  0.494909       -0.754383     -5.50906e-05    -0.000435704         0.156062       -0.264791     -0.000611659     0.000139598
                    -5.34949e-05    -0.000435972         0.795582       0.0623782     -0.000526919      8.3919e-05        -0.280565        0.114313
                        0.156062       -0.264791     -0.000526996     8.39446e-05         -0.64682        0.667054      0.000127379     0.000719835
                    -0.000611695     0.000139606        -0.280565        0.114313      0.000127351     0.000719677        -0.708587       0.0111001
480400                  0.494393        -0.76659     -1.92794e-05    -0.000427195          0.15091       -0.258792     -0.000610766     0.000144467
                    -1.60082e-05    -0.000427544          0.79135       0.0792531     -0.000526527     8.86021e-05          -0.2827        0.117925
                         0.15091       -0.258792     -0.000526611     8.86589e-05        -0.688983        0.688053      0.000143468     0.000725591
                    -0.000610806     0.000144478          -0.2827        0.117924      0.000143445     0.000725419        -0.589675       0.0596311
483600                  0.493494       -0.779743      1.78113e-05    -0.000415774         0.145352       -0.252599     -0.000609759     0.000149608
                     2.28145e-05    -0.000415972         0.786353       0.0972341     -0.000526102       9.353e-05        -0.285013        0.121732
                        0.145352       -0.252599     -0.000526193     9.36186e-05        -0.719456        0.694538      0.000161275     0.000731602
                    -0.000609803     0.000149621        -0.285013        0.121731      0.000161258     0.000731414         -0.47575       0.0894555
486800                  0.492122       -0.793938      5.59626e-05    -0.000401081         0.139351       -0.246212     -0.000608621     0.000155041
                     6.27156e-05    -0.000400864         0.780458        0.116411     -0.000525641     9.87222e-05        -0.287524        0.125749
                        0.139351       -0.246212      -0.00052574     9.88432e-05        -0.731786        0.681534      0.000181079     0.000737851
                    -0.000608669     0.000155058        -0.287524        0.125748      0.000181068     0.000737645         -0.36919        0.104012
490000                  0.490166       -0.809285      9.48785e-05    -0.000382751         0.132862        -0.23963     -0.000607334     0.000160792
                      0.00010335    -0.000381833         0.773502        0.136881      -0.00052514     0.000104201        -0.290257        0.129994
                        0.132862        -0.23963     -0.000525246     0.000104355        -0.744623        0.667485      0.000203219     0.000744305
                    -0.000607386     0.000160812        -0.290258        0.129992      0.000203215     0.000744077        -0.271236        0.106564
493200                  0.487486       -0.825902      0.000134177    -0.000360434         0.125838       -0.232859     -0.000605876     0.000166887
                     0.000144276    -0.000358515         0.765294        0.158742     -0.000524593      0.00010999        -0.293241        0.134483
                        0.125838       -0.232859     -0.000524708     0.000110177        -0.758028        0.652222      0.000228112     0.000750904
                    -0.000605933      0.00016691        -0.293242        0.134481      0.000228115      0.00075065        -0.182302       0.0999851
496400                  0.483909       -0.843919      0.000173382     -0.00033381         0.118224       -0.225904     -0.000604222     0.000173355
                     0.000184949     -0.00033059         0.755602        0.182098     -0.000523997     0.000116116        -0.296507        0.139237
                        0.118224       -0.225904      -0.00052412     0.000116337        -0.772088        0.635515      0.000256271     0.000757546
                    -0.000604284     0.000173382        -0.296508        0.139234      0.000256282     0.000757262        -0.102253       0.0866764
499600                  0.479218       -0.863477      0.000211921    -0.000302617         0.109962       -0.218776     -0.000602342     0.000180228
                     0.000224722    -0.000297811         0.744146        0.207048     -0.000523343      0.00012261        -0.300093        0.144276
                        0.109962       -0.218776     -0.000523476     0.000122866        -0.786926        0.617048       0.00028834      0.00076407
                    -0.000602409      0.00018026        -0.300094        0.144273      0.000288357     0.000763748       -0.0306133       0.0685755
502800                  0.471589       -0.881818       0.00024913    -0.000266676         0.100986        -0.21149     -0.000600202     0.000187543
                     0.000262852    -0.000260037         0.730589        0.233688     -0.000522626     0.000129506        -0.304044        0.149623
                        0.100986        -0.21149     -0.000522768     0.000129796        -0.802721        0.596354      0.000325124     0.000770214
                    -0.000600274      0.00018758        -0.304045         0.14962      0.000325149     0.000769847        0.0332697       0.0472018
506000                  0.456159       -0.889898      0.000284261    -0.000225922        0.0912231        -0.20407     -0.000597759     0.000195339
                     0.000298521    -0.000217264         0.714523        0.262096     -0.000521836     0.000136843         -0.30841        0.155304
                       0.0912229        -0.20407     -0.000521988     0.000137167        -0.819755        0.572714      0.000367648     0.000775569
                    -0.000597837     0.000195382        -0.308411          0.1553      0.000367678     0.000775144        0.0901241       0.0237227
509200                  0.438671       -0.898647      0.000316509    -0.000180431        0.0805939       -0.196544     -0.000594965     0.000203659
                     0.000330863    -0.000169653         0.695456        0.292324     -0.000520963     0.000144663        -0.313254        0.161343
                       0.0805936       -0.196544     -0.000521127      0.00014502        -0.838484        0.544926      0.000417214      0.00077948
                    -0.000595049     0.000203709        -0.313255        0.161338      0.000417247     0.000778984         0.140685    -0.000981608
512400                  0.418763       -0.908095      0.000345037    -0.000130448        0.0690107       -0.188952      -0.00059176     0.000212552
                     0.000359003    -0.000117553         0.672795        0.324373     -0.000519996     0.000153015        -0.318647        0.167769
                       0.0690105       -0.188952     -0.000520172     0.000153407        -0.859698        0.510802      0.000475487     0.000780907
                    -0.000591851     0.000212609        -0.318649        0.167764      0.000475517      0.00078032         0.185656      -0.0262574
515600                  0.396001        -0.91825      0.000369024    -7.64012e-05        0.0563782       -0.181347     -0.000588074      0.00022207
                     0.000382112    -6.15137e-05         0.645825        0.358174     -0.000518922     0.000161957        -0.324678        0.174611
                       0.0563779       -0.181347      -0.00051911     0.000162381        -0.884865        0.465847      0.000544587     0.000778174
                    -0.000588171     0.000222136        -0.324679        0.174605      0.000544603     0.000777471         0.225689      -0.0516272
518800                  0.369866       -0.929085      0.000387711    -1.89054e-05         0.042593       -0.173795      -0.00058382      0.00023227
                     0.000399456    -2.27498e-06           0.6137        0.393538     -0.000517723     0.000171552        -0.331449        0.181896
                       0.0425926       -0.173795     -0.000517926     0.000172007        -0.916912         0.39909      0.000627168     0.000768547
                    -0.000583925     0.000232346         -0.33145         0.18189       0.00062715     0.000767693         0.261371      -0.0767485
522000                  0.339745       -0.940518      0.000400454     4.12466e-05        0.0275442       -0.166382     -0.000578897     0.000243215
                     0.000410454     5.92515e-05          0.57542        0.430107     -0.000516381     0.000181874        -0.339086        0.189654
                       0.0275438       -0.166382     -0.000516599     0.000182358        -0.961315        0.275452      0.000726407     0.000747519
                    -0.000579009     0.000243302        -0.339088        0.189647      0.000726315     0.000746471         0.293228       -0.101381
525200                  0.304924       -0.952377      0.000406771     0.000103114        0.0111145       -0.159216     -0.000573177      0.00025497
                     0.000414724     0.000122026         0.529836        0.467271     -0.000514871     0.000193009        -0.347742        0.197907
                       0.0111141       -0.159216     -0.000515106     0.000193519        -0.996564      -0.0828236      0.000845679     0.000707597
                    -0.000573297      0.00025507        -0.347744        0.197899      0.000845445     0.000706301         0.321723       -0.125361
528400                  0.264591       -0.964361      0.000406387     0.000165653        -0.006818       -0.152432     -0.000566506     0.000267604
                     0.000412114     0.000184936         0.475665        0.504061     -0.000513165     0.000205055        -0.357602        0.206674
                     -0.00681846       -0.152432      -0.00051342     0.000205589       -0.0731682        -0.99732      0.000987342     0.000636358
                    -0.000566634      0.00026772        -0.357603        0.206666      0.000986839      0.00063476         0.347265       -0.148582
531600                  0.217869       -0.975978      0.000399253     0.000227771       -0.0263766       -0.146198     -0.000558697     0.000281188
                     0.000402717     0.000246861         0.411552         0.53902     -0.000511228      0.00021813        -0.368891        0.215961
                      -0.0263771       -0.146198     -0.000511505     0.000218681         0.608122       -0.793844       0.00114922     0.000513851
                    -0.000558832     0.000281322        -0.368892        0.215952       0.00114823     0.000511932         0.370207       -0.170979
534800                   0.16388        -0.98648      0.000385556     0.000288393       -0.0476815        -0.14072     -0.000549515     0.000295791
                     0.000386863     0.000306739           0.3362        0.570042     -0.000509018     0.000232368        -0.381887        0.225752
                      -0.0476821        -0.14072      -0.00050932      0.00023293         0.751029        -0.66027       0.00131604     0.000311141
                    -0.000549658     0.000295945        -0.381888        0.225743       0.00131421     0.000309022         0.390861       -0.192519
538000                  0.101879       -0.994797      0.000365704      0.00034652       -0.0708429       -0.136248     -0.000538674     0.000311472
                     0.000365088     0.000363623         0.248601        0.594222     -0.000506481     0.000247932        -0.396932        0.236001
                      -0.0708435       -0.136249     -0.000506812     0.000248497         0.811998        -0.58366       0.00144326    -2.25086e-06
                    -0.000538823      0.00031165        -0.396932        0.235991        0.0014402    -4.10499e-06         0.409496        -0.21319
541200                 0.0314784       -0.999504      0.000340293     0.000401282       -0.0959512       -0.133086     -0.000525815     0.000328273
                     0.000338096     0.000416729          0.14841        0.607758      -0.00050355     0.000265015        -0.414445        0.246607
                      -0.0959519       -0.133086     -0.000503916      0.00026557         0.849096       -0.528238       0.00144372    -0.000424684
                     -0.00052597     0.000328479        -0.414444        0.246597       0.00143942    -0.000425309         0.426346       -0.232997
544400                -0.0470438       -0.998893      0.000310059     0.000451977        -0.123064        -0.13159     -0.000510498     0.000346202
                     0.000306696      0.00046546         0.036476        0.606013      -0.00050014     0.000283846        -0.434939        0.257387
                       -0.123065        -0.13159     -0.000500548     0.000284377         0.876087       -0.482153        0.0012251    -0.000863984
                    -0.000510655     0.000346441        -0.434938        0.257376       0.00122057    -0.000862443         0.441617       -0.251957
547600                 -0.132387       -0.991198      0.000275832     0.000498091         -0.15219       -0.132178     -0.000492173     0.000365211
                     0.000271759     0.000509421        -0.084533        0.583876     -0.000496144     0.000304707        -0.459039        0.268027
                       -0.152191       -0.132178     -0.000496602     0.000305193         0.897713        -0.44058      0.000805303     -0.00115205
                     -0.00049233     0.000365489        -0.459037        0.268017      0.000802144     -0.00114866         0.455486       -0.270092
550800                 -0.221971       -0.975053      0.000238477     0.000539308        -0.183266       -0.135325     -0.000470166     0.000385157
                     0.000234155     0.000548405        -0.209585        0.536576     -0.000491421     0.000327939        -0.487489        0.278016
                       -0.183267       -0.135326     -0.000491941     0.000328354         0.915982        -0.40122      0.000341573     -0.00120155
                    -0.000470318      0.00038548        -0.487486        0.278006      0.000340394     -0.00119777         0.468108       -0.287431
554000                 -0.311978       -0.950089      0.000198849     0.000575489        -0.216132        -0.14156     -0.000443657     0.000405743
                     0.000194718     0.000582381        -0.331157        0.460943     -0.000485785     0.000353965        -0.521147        0.286537
                       -0.216133       -0.141561     -0.000486385     0.000354275         0.931846       -0.362853     -2.53818e-05     -0.00107754
                    -0.000443797     0.000406117        -0.521143        0.286528     -2.51721e-05      -0.0010744          0.47962       -0.304006
557200                 -0.397851        -0.91745      0.000157753      0.00060666        -0.250504       -0.151447     -0.000411667     0.000426435
                      0.00015421      0.00061146        -0.439924        0.356873     -0.000478991     0.000383313        -0.560934         0.29232
                       -0.250505       -0.151448     -0.000479692     0.000383469         0.937864       -0.322066     -0.000263264    -0.000886966
                    -0.000411784     0.000426868         -0.56093        0.292313     -0.000262433    -0.000884705          0.49014        -0.31985
560400                 -0.465523       -0.862099      0.000115919      0.00063298        -0.285943       -0.165561     -0.000373076     0.000446339
                     0.000113302     0.000635865        -0.526414        0.228356     -0.000470701     0.000416649        -0.607703        0.293444
                       -0.285944       -0.165561     -0.000471537     0.000416588         0.846595       -0.253276     -0.000400762    -0.000695599
                    -0.000373154     0.000446837          -0.6077         0.29344     -0.000399773    -0.000694052         0.499772       -0.334998
563600                 -0.480985       -0.749006      7.39799e-05     0.000654705        -0.321834       -0.184442     -0.000326684     0.000464029
                     7.25632e-05     0.000655901        -0.583249       0.0833677      -0.00046045     0.000454824        -0.661948        0.287109
                       -0.321834       -0.184442     -0.000461469      0.00045446         0.770889       -0.197444     -0.000474034    -0.000528139
                    -0.000326704     0.000464595        -0.661947        0.287108     -0.000473091     -0.00052709         0.508609       -0.349483
564000                 -0.481047       -0.735193      6.87577e-05     0.000657114        -0.326314       -0.187161     -0.000320279     0.000465986
                     6.75071e-05     0.000658116        -0.588048       0.0645948     -0.000459001     0.000459988        -0.669248        0.285613
                       -0.326314       -0.187162     -0.000460046     0.000459578         0.762325       -0.191196     -0.000480107    -0.000509215
                    -0.000320289     0.000466561        -0.669247        0.285613     -0.000479176    -0.000508215         0.509662       -0.351249
566800                 -0.471312       -0.642775      3.24669e-05     0.000672166        -0.357366       -0.208543     -0.000271384     0.000477341
                     3.24603e-05     0.000671925        -0.607039       -0.067653     -0.000447579     0.000498946        -0.723242        0.269477
                       -0.357367       -0.208544     -0.000448851     0.000498157         0.707091        -0.15124     -0.000509336      -0.0003889
                    -0.000271318     0.000477973        -0.723246         0.26948     -0.000508505     -0.00038818          0.51673       -0.363339
570000                 -0.442412       -0.549511     -8.18997e-06     0.000685736        -0.391545       -0.238158     -0.000206498     0.000483162
                    -6.63945e-06     0.000684321         -0.59901       -0.214186     -0.000431131     0.000550471        -0.789346        0.235806
                       -0.391545       -0.238159     -0.000432763     0.000549089         0.652604       -0.112381     -0.000522891    -0.000274969
