! TOUCHSTONE file generated by CST MICROWAVE STUDIO
! Date and time: Mon Oct 20 08:27:19 2025
! Project name: Teste_Macro_Metasurface_Nanopilar.cst
! Parameters = {H=600; L_x=85; L_y=175; Lambda=1064; Max_L=200; Min_L=70; PathPara=1; Phi=0; Step_L=10; Theta=0; p=520; phaseX=180; phaseY=0}
! Header version: 2018
! Port assignment regex: !\s*Touchstone port\s*([0-9]+)\s*=\s*(CST MWS port|CST DS port)\s*([0-9]+|Zmin|Zmax)\s*\(\"(.*)\"\)(\s*mode\s*([0-9]+))?.*
! Touchstone port assignment:
! Touchstone port 1 = CST MWS port Zmax ("") mode 1
! Touchstone port 2 = CST MWS port Zmax ("") mode 2
! Touchstone port 3 = CST MWS port Zmin ("") mode 1
! Touchstone port 4 = CST MWS port Zmin ("") mode 2
! S-Parameters are not renormalized. Each port impedance will be approximated by the real part at minimum frequency. The values are described via the [Reference] keyword.
! Default impedance is overridden by [Reference]
[Version] 2.0
# GHz S RI R 376.73
[Number of Ports] 4
[Reference]
376.73 376.73 259.888 259.888 
[Number of Frequencies] 52
[Network Data]
474000                  0.053054       0.0773384     -4.92014e-07     0.000178494        -0.151152       -0.950899     -3.06549e-05     7.87243e-05
                    -3.76253e-05      0.00022546        0.0302302         0.16867     -0.000128471     4.81044e-05        -0.938257       -0.283158
                       -0.151152       -0.950899     -8.86065e-05     7.11488e-05      -0.00865344      -0.0994235      -0.00017403    -3.66112e-06
                    -3.89739e-06     0.000138188        -0.938258        -0.28316     -0.000242244      4.8178e-05        -0.122815        0.128373
477200                 0.0644107       0.0695156     -2.37099e-06     0.000182105        -0.151673       -0.952898     -2.98946e-05     7.97607e-05
                     -4.0882e-05      0.00022936        0.0419381        0.172527      -0.00012939     4.84101e-05        -0.928784       -0.260779
                       -0.151673       -0.952898     -8.90918e-05     7.15807e-05       0.00530332       -0.101457     -0.000178514    -6.16014e-06
                    -3.08937e-06     0.000140053        -0.928786       -0.260779     -0.000248282     4.64871e-05        -0.116262        0.125568
480400                 0.0767014       0.0606742     -4.44737e-06     0.000185947        -0.152238       -0.955059     -2.90782e-05     8.08755e-05
                    -4.44464e-05     0.000233459        0.0547451        0.177112     -0.000130374     4.87386e-05        -0.917135       -0.237591
                       -0.152237       -0.955059     -8.96129e-05     7.20437e-05        0.0208052       -0.103689     -0.000183372    -8.83982e-06
                    -2.22362e-06     0.000142057        -0.917137       -0.237587      -0.00025482     4.47016e-05        -0.109083        0.122424
483600                 0.0900318       0.0506232     -6.74973e-06     0.000190041         -0.15285       -0.957403     -2.81993e-05      8.2078e-05
                    -4.83583e-05      0.00023777        0.0687958        0.182594      -0.00013143     4.90928e-05        -0.903006       -0.213756
                        -0.15285       -0.957403     -9.01741e-05     7.25413e-05        0.0381236       -0.106149     -0.000188655    -1.17201e-05
                    -1.29371e-06     0.000144215        -0.903007       -0.213748     -0.000261921     4.28151e-05        -0.101184         0.11888
486800                   0.10452       0.0391244     -9.31192e-06     0.000194408        -0.153518       -0.959955     -2.72505e-05      8.3379e-05
                    -5.26636e-05     0.000242302        0.0842555        0.189192     -0.000132567     4.94755e-05        -0.886081       -0.189506
                       -0.153518       -0.959955       -9.078e-05     7.30774e-05        0.0575977       -0.108871     -0.000194419    -1.48238e-05
                    -2.92253e-07     0.000146546        -0.886082       -0.189494     -0.000269662     4.08214e-05       -0.0924541        0.114856
490000                  0.120295       0.0258786     -1.21742e-05     0.000199076        -0.154248       -0.962743      -2.6223e-05     8.47912e-05
                    -5.74161e-05     0.000247066         0.101312        0.197191     -0.000133792     4.98905e-05        -0.866044       -0.165156
                       -0.154248       -0.962743     -9.14364e-05     7.36567e-05        0.0796564       -0.111901     -0.000200734    -1.81772e-05
                     7.89321e-07     0.000149072        -0.866043       -0.165141     -0.000278132     3.87141e-05       -0.0827554        0.110253
493200                  0.137498       0.0105061     -1.53848e-05      0.00020407         -0.15505       -0.965802     -2.51067e-05     8.63294e-05
                    -6.26786e-05     0.000252069         0.120176        0.206963     -0.000135119     5.03419e-05        -0.842595       -0.141116
                        -0.15505       -0.965802     -9.21497e-05     7.42846e-05         0.104851        -0.11529     -0.000207682    -2.18109e-05
                     1.96101e-06     0.000151817        -0.842592       -0.141098     -0.000287438     3.64878e-05       -0.0719209        0.104943
496400                  0.156275     -0.00747968     -1.90018e-05      0.00020942        -0.155936       -0.969173     -2.38895e-05     8.80112e-05
                    -6.85243e-05     0.000257317         0.141077        0.219004     -0.000136558     5.08348e-05        -0.815479       -0.117902
                       -0.155936       -0.969174     -9.29276e-05     7.49676e-05           0.1339       -0.119105     -0.000215362    -2.57603e-05
                     3.23455e-06     0.000154813        -0.815473        -0.11788     -0.000297708      3.4138e-05       -0.0597427       0.0987586
499600                  0.176768      -0.0287086     -2.30954e-05      0.00021516        -0.156919       -0.972908     -2.25572e-05     8.98577e-05
                    -7.50396e-05     0.000262812          0.16425        0.233974     -0.000138127     5.13751e-05        -0.784515      -0.0961367
                       -0.156919       -0.972908     -9.37795e-05     7.57133e-05         0.167761       -0.123424     -0.000223896    -3.00667e-05
                     4.62379e-06     0.000158095        -0.784505      -0.0961121     -0.000309099     3.16627e-05       -0.0459609       0.0914776
502800                  0.199095      -0.0540045     -2.77511e-05     0.000221322        -0.158015       -0.977066     -2.10924e-05     9.18945e-05
                    -8.23259e-05      0.00026855         0.189915        0.252769     -0.000139842       5.197e-05        -0.749638      -0.0765471
                       -0.158015       -0.977066     -9.47163e-05     7.65305e-05         0.207737       -0.128349     -0.000233432    -3.47783e-05
                     6.14521e-06     0.000161706        -0.749624      -0.0765205     -0.000321802     2.90633e-05       -0.0302459       0.0827995
506000                  0.223313      -0.0844547     -3.30739e-05     0.000227941        -0.159246       -0.981726     -1.94747e-05     9.41524e-05
                    -9.05025e-05     0.000274518          0.21822        0.276602     -0.000141726     5.26282e-05        -0.710938      -0.0599426
                       -0.159246       -0.981726     -9.57513e-05     7.74302e-05         0.255646       -0.134002     -0.000244158     -3.9952e-05
                     7.81856e-06     0.000165697        -0.710919      -0.0599149     -0.000336052     2.63476e-05       -0.0121755       0.0723092
509200                  0.249347       -0.121507     -3.91927e-05     0.000235053        -0.160638       -0.986984     -1.76786e-05     9.66695e-05
                    -9.97104e-05     0.000280688         0.249138        0.307132     -0.000143803     5.33602e-05        -0.668703      -0.0471779
                       -0.160638       -0.986984      -9.6901e-05     7.84255e-05         0.314108       -0.140532     -0.000256308    -4.56544e-05
                     9.66773e-06     0.000170133        -0.668678      -0.0471504     -0.000352147     2.35332e-05       0.00879824       0.0594186
512400                  0.276859       -0.167096     -4.62677e-05     0.000242688        -0.161238       -0.986916      -1.5673e-05     9.94931e-05
                    -0.000110115     0.000287017         0.282264        0.346609     -0.000146107     5.41791e-05        -0.623446      -0.0390979
                       -0.161238       -0.986916     -9.81855e-05     7.95325e-05         0.387035       -0.148114     -0.000270182    -5.19637e-05
                     1.17219e-05     0.000175092        -0.623417      -0.0390718      -0.00037046     2.06543e-05        0.0333946       0.0432717
515600                  0.305009        -0.22381     -5.44984e-05     0.000250871        -0.161917       -0.986804      -1.3419e-05     0.000102683
                    -0.000121912     0.000293433         0.316439        0.398036     -0.000148676     5.51013e-05        -0.575923      -0.0364649
                       -0.161916       -0.986804     -9.96299e-05      8.0771e-05          0.48054       -0.156921      -0.00028617    -5.89718e-05
                     1.40169e-05     0.000180673        -0.575889      -0.0364415     -0.000391474     1.77715e-05         0.062567       0.0225822
518800                  0.332011       -0.295058     -6.41343e-05     0.000259611        -0.162698       -0.986676     -1.08675e-05     0.000106315
                    -0.000135327     0.000299826          0.34907         0.46523     -0.000151558     5.61474e-05        -0.527115      -0.0398781
                       -0.162698       -0.986676     -0.000101266     8.21659e-05         0.604739       -0.167034     -0.000304788    -6.67846e-05
                     1.65976e-05        0.000187        -0.527077      -0.0398586     -0.000415815     1.49893e-05        0.0975839     -0.00465636
522000                  0.354345       -0.385162     -7.54891e-05      0.00026889        -0.163608       -0.986525     -7.95557e-06     0.000110488
                    -0.000150623     0.000306033         0.374994        0.552532     -0.000154815      5.7344e-05        -0.478181      -0.0496948
                       -0.163608       -0.986525     -0.000103135     8.37489e-05         0.777642       -0.178115      -0.00032673    -7.55221e-05
                     1.95206e-05     0.000194232        -0.478141      -0.0496802     -0.000444313     1.24853e-05         0.140114      -0.0417115
525200                  0.365385       -0.499076     -8.89569e-05     0.000278646        -0.164682       -0.986347     -4.60126e-06     0.000115332
                    -0.000168096     0.000311815         0.384889        0.663504     -0.000158524     5.87257e-05        -0.430384      -0.0659698
                       -0.164681       -0.986347     -0.000105289     8.55606e-05         0.983863       -0.178921     -0.000352954     -8.5313e-05
                     2.28584e-05      0.00020258        -0.430342      -0.0659608     -0.000478088     1.05625e-05         0.192236      -0.0941755
528400                  0.353313          -0.641     -0.000105032     0.000288739        -0.165966       -0.986131     -6.95735e-07     0.000121023
                    -0.000188074     0.000316829         0.363954         0.79752     -0.000162786     6.03387e-05        -0.384983      -0.0884266
                       -0.165966       -0.986131       -0.0001078     8.76542e-05         0.991764       -0.128081     -0.000384815    -9.62787e-05
                     2.67052e-05     0.000212323        -0.384941      -0.0884233      -0.00051868     9.74282e-06         0.256045       -0.172172
531600                  0.298828       -0.810329     -0.000124327       0.0002989        -0.167532       -0.985867      3.90854e-06     0.000127806
                    -0.000210897     0.000320591         0.293573        0.943515     -0.000167736     6.22455e-05        -0.343135       -0.116468
                       -0.167532       -0.985867     -0.000110765     9.01011e-05         0.998375      -0.0569813      -0.00042429    -0.000108491
                      3.1186e-05     0.000223842        -0.343095        -0.11647     -0.000568248     1.09453e-05         0.331475       -0.295097
534800                  0.174282       -0.984696     -0.000147588     0.000308657        -0.169484       -0.985533      9.41666e-06     0.000136025
                    -0.000236888     0.000322424         0.147941        0.988996     -0.000173552     6.45332e-05        -0.305789        -0.14923
                       -0.169484       -0.985533     -0.000114317     9.29985e-05         0.995654       0.0931284     -0.000474363    -0.000121865
                     3.64695e-05      0.00023767        -0.305753       -0.149237     -0.000629885      1.5835e-05         0.406604       -0.501375
538000                -0.0326811       -0.999466     -0.000175687     0.000317211        -0.171987       -0.985099      1.61222e-05      0.00014619
                     -0.00026629     0.000321414       -0.0223056        0.999751     -0.000180485     6.73266e-05        -0.273627       -0.185662
                       -0.171986       -0.985099     -0.000118651     9.64827e-05         0.470687          0.8823     -0.000539729    -0.000135882
                     4.27892e-05     0.000254577        -0.273594       -0.185672     -0.000708097     2.75452e-05         0.416968       -0.859308
541200                 -0.261389       -0.965233     -0.000209557     0.000323261        -0.175313       -0.984513        2.446e-05     0.000159083
                    -0.000299159     0.000316353        -0.194549        0.980893     -0.000188888     7.08109e-05        -0.247024       -0.224627
                       -0.175313       -0.984513     -0.000124054     0.000100751        -0.885383        0.464861     -0.000628124    -0.000148858
                      5.0476e-05     0.000275719        -0.246996       -0.224639      -0.00080947     5.22499e-05        0.0875849       -0.996157
544400                 -0.483035       -0.875601     -0.000250012      0.00032477        -0.179962       -0.983674      3.51022e-05      0.00017597
                    -0.000335203     0.000305731        -0.349272        0.937021     -0.000199282     7.52718e-05        -0.226063       -0.264999
                       -0.179961       -0.983674     -0.000130978       0.0001061         -0.95716        0.289558     -0.000752952    -0.000155842
                     6.00132e-05     0.000302909        -0.226041       -0.265012     -0.000943284     0.000102775        -0.426717       -0.904385
547600                 -0.667558       -0.744557     -0.000297349     0.000318723         -0.18694       -0.982371      4.91417e-05     0.000199032
                    -0.000373549      0.00028779         -0.47564         0.87964     -0.000212464     8.11744e-05         -0.21057       -0.305741
                       -0.186939       -0.982371     -0.000140166     0.000112994        -0.975296          0.2209     -0.000938438    -0.000141983
                     7.21284e-05     0.000339163        -0.210552       -0.305754      -0.00112022     0.000207149        -0.814243       -0.580525
550800                 -0.801418       -0.598105     -0.000350592     0.000301044        -0.198685       -0.980063      6.84707e-05     0.000232391
                    -0.000412482     0.000260739        -0.572713        0.819756     -0.000229719      8.9325e-05         -0.20017       -0.345963
                       -0.198685       -0.980063     -0.000152935     0.000122203        -0.983567        0.180542      -0.00122725    -5.92898e-05
                     8.79466e-05     0.000389889        -0.200158       -0.345975      -0.00133944       0.0004276         -0.95941       -0.282015
554000                 -0.889063       -0.457784     -0.000406371     0.000267075        -0.223232       -0.974765      9.66238e-05     0.000284826
                    -0.000449232     0.000223183        -0.623284        0.738401      -0.00025325     0.000101243        -0.194356        -0.38495
                       -0.223231       -0.974766     -0.000171857     0.000135096        -0.988372        0.152056      -0.00166049     0.000257999
                     0.000109211     0.000465821        -0.194348       -0.384959      -0.00152343     0.000881727        -0.996188      -0.0872307
557200                 -0.942548       -0.334072     -0.000457879      0.00021318        -0.318159       -0.948038      0.000140726     0.000378815
                    -0.000480027     0.000174785          -0.6305        0.646125     -0.000287159     0.000120133        -0.192545       -0.422167
                       -0.318157       -0.948038     -0.000202697     0.000154305        -0.991527        0.129898      -0.00193425       0.0012306
                     0.000138263     0.000591597         -0.19254       -0.422173      -0.00135021      0.00160608        -0.994184       0.0373764
560400                  -0.97338       -0.229199     -0.000495186     0.000139652        0.0334118        0.999442      0.000213822     0.000592428
                    -0.000500608     0.000116978        -0.623829        0.570537     -0.000339924     0.000153931        -0.194131       -0.457246
                       0.0334137        0.999442     -0.000261377     0.000185298        -0.993748        0.111649     -0.000880029      0.00222373
                     0.000173807     0.000838047        -0.194129       -0.457249     -0.000550966      0.00203852        -0.875249        0.107443
563600                 -0.944696       -0.135078      -0.00050843     5.33472e-05        0.0503941       0.0608554      0.000197275      0.00141405
                    -0.000507303      5.3321e-05        -0.609871        0.509431     -0.000431461     0.000227782        -0.198527        -0.48997
                       0.0503942       0.0608562     -0.000410994     0.000236577        -0.944694       0.0911781      0.000172138      0.00178526
                     0.000133347      0.00150547        -0.198526       -0.489969      0.000177445      0.00176239        -0.785953        0.145466
564000                 -0.938024       -0.124589     -0.000508079     4.22554e-05        0.0392224      -0.0168782      9.28725e-05      0.00167032
                    -0.000507046     4.52029e-05        -0.607831        0.502676     -0.000447588     0.000243221        -0.199246       -0.493888
                       0.0392224      -0.0168775     -0.000446735     0.000243644        -0.934356       0.0884763      0.000233033      0.00170258
                     9.16287e-05      0.00167095        -0.199245       -0.493887      0.000233432      0.00170523        -0.776426        0.148873
566800                 -0.891642      -0.0610885     -0.000493124    -3.31478e-05       -0.0141383       -0.336382      -0.00213698    -0.000250986
                    -0.000498301    -1.09428e-05        -0.592547        0.460114     -0.000607097     0.000462551        -0.205183       -0.520238
                      -0.0141384       -0.336382      -0.00109654     2.47969e-05        -0.870036       0.0719743      0.000421808      0.00121984
                     -0.00332008      0.00292041        -0.205184       -0.520233      0.000452041      0.00131908        -0.717779        0.167265
570000                 -0.841241     -0.00579618     -0.000453204    -0.000106908       -0.0464224       -0.501324     -0.000627523    -0.000404627
                    -0.000474444    -7.01813e-05        -0.574081        0.420137     -0.000198665      0.00158942        -0.213612       -0.548043
                      -0.0464225       -0.501324      0.000128377      -0.0006552        -0.810332       0.0571268      0.000425675      0.00088138
