! TOUCHSTONE file generated by CST MICROWAVE STUDIO
! Date and time: Mon Oct 20 08:27:19 2025
! Project name: Teste_Macro_Metasurface_Nanopilar.cst
! Parameters = {H=600; L_x=85; L_y=190; Lambda=1064; Max_L=200; Min_L=70; PathPara=1; Phi=0; Step_L=10; Theta=0; p=520; phaseX=180; phaseY=0}
! Header version: 2018
! Port assignment regex: !\s*Touchstone port\s*([0-9]+)\s*=\s*(CST MWS port|CST DS port)\s*([0-9]+|Zmin|Zmax)\s*\(\"(.*)\"\)(\s*mode\s*([0-9]+))?.*
! Touchstone port assignment:
! Touchstone port 1 = CST MWS port Zmax ("") mode 1
! Touchstone port 2 = CST MWS port Zmax ("") mode 2
! Touchstone port 3 = CST MWS port Zmin ("") mode 1
! Touchstone port 4 = CST MWS port Zmin ("") mode 2
! S-Parameters are not renormalized. Each port impedance will be approximated by the real part at minimum frequency. The values are described via the [Reference] keyword.
! Default impedance is overridden by [Reference]
[Version] 2.0
# GHz S RI R 376.73
[Number of Ports] 4
[Reference]
376.73 376.73 259.888 259.888 
[Number of Frequencies] 52
[Network Data]
474000                 -0.235014       -0.895739      6.26638e-05     0.000111604         0.177389       -0.251832      -5.2329e-05    -0.000429448
                     6.29585e-05     0.000111141         -0.61842       -0.123483     -8.11889e-05     0.000156823        -0.420491       -0.502235
                        0.177466       -0.252002     -0.000120573     4.35212e-05        -0.938617       0.0240064      0.000251607     0.000272567
                    -5.20142e-05    -0.000429079        -0.420491       -0.502234      0.000192114     0.000280498        -0.202121        0.640281
477200                 -0.232876       -0.849832      6.10572e-05     0.000111593         0.182003       -0.253786     -4.34551e-05    -0.000437007
                     6.13398e-05       0.0001112        -0.625878       -0.133639     -8.41726e-05     0.000159459        -0.418271       -0.498177
                        0.182081       -0.253956     -0.000125758     4.87074e-05        -0.911926      0.00635464      0.000253847      0.00027094
                     -4.3397e-05    -0.000436698        -0.418271       -0.498177      0.000194075     0.000279681        -0.195256        0.640136
480400                 -0.230033       -0.804276      5.93378e-05      0.00011158         0.186921       -0.255834     -3.37351e-05    -0.000444805
                     5.96073e-05     0.000111261        -0.633895       -0.144912     -8.72449e-05     0.000162299        -0.415856       -0.493844
                           0.187       -0.256005      -0.00013099     5.43065e-05         -0.88366       -0.010543      0.000256238     0.000269177
                    -3.39454e-05    -0.000444575        -0.415856       -0.493843      0.000196176     0.000278792         -0.18809        0.639788
483600                 -0.226501       -0.759086      5.74933e-05     0.000111564         0.192171       -0.257984     -2.30674e-05    -0.000452824
                     5.77485e-05     0.000111322        -0.642525       -0.157488     -9.04051e-05     0.000165361         -0.41322       -0.489207
                        0.192251       -0.258155     -0.000136251     6.03489e-05        -0.853809       -0.026542      0.000258793     0.000267261
                    -2.35575e-05    -0.000452697         -0.41322       -0.489206      0.000198434      0.00027782        -0.180614        0.639211
486800                 -0.222296       -0.714273      5.55094e-05     0.000111543         0.197788       -0.260242     -1.13371e-05    -0.000461039
                     5.57491e-05     0.000111385        -0.651829       -0.171598     -9.36515e-05     0.000168667        -0.410334       -0.484233
                        0.197869       -0.260413     -0.000141516     6.68663e-05        -0.822376      -0.0414891      0.000261531     0.000265173
                    -1.21172e-05    -0.000461041        -0.410334       -0.484233      0.000200867     0.000276755        -0.172816        0.638373
490000                 -0.217433       -0.669848      5.33697e-05     0.000111517         0.203812       -0.262614      1.58569e-06    -0.000469408
                     5.35925e-05     0.000111449        -0.661867       -0.187527      -9.6981e-05     0.000172238        -0.407162       -0.478886
                        0.203895       -0.262786     -0.000146758     7.38911e-05        -0.789381      -0.0552236      0.000264472     0.000262887
                     5.07203e-07    -0.000469569        -0.407161       -0.478886      0.000203495     0.000275582        -0.164688        0.637241
493200                  -0.21193       -0.625823      5.10552e-05     0.000111485         0.210288        -0.26511      1.58475e-05    -0.000477874
                     5.12595e-05     0.000111513        -0.672702       -0.205631     -0.000100389     0.000176102         -0.40366       -0.473124
                        0.210373       -0.265281     -0.000151942     8.14565e-05        -0.754861      -0.0675787      0.000267637     0.000260376
                     1.44647e-05    -0.000478229        -0.403659       -0.473123      0.000206341     0.000274286        -0.156221        0.635778
496400                 -0.205802       -0.582206      4.85435e-05     0.000111446         0.217269       -0.267735      3.16125e-05    -0.000486357
                     4.87275e-05     0.000111577        -0.684393        -0.22636     -0.000103868     0.000180286        -0.399777       -0.466897
                        0.217354       -0.267907     -0.000157029     8.95958e-05        -0.718872      -0.0783841      0.000271053     0.000257606
                     2.99231e-05    -0.000486947        -0.399777       -0.466897      0.000209436     0.000272845        -0.147409        0.633942
499600                 -0.199065       -0.539009      4.58084e-05     0.000111397         0.224814       -0.270499      4.90636e-05    -0.000494749
                     4.59699e-05      0.00011164        -0.696981       -0.250294     -0.000107409      0.00018482        -0.395452        -0.46015
                        0.224901       -0.270671     -0.000161972     9.83415e-05        -0.681492      -0.0874679      0.000274749     0.000254536
                     4.70705e-05    -0.000495619        -0.395452       -0.460149      0.000212811     0.000271236        -0.138249        0.631687
502800                 -0.191735       -0.496239      4.28186e-05     0.000111338         0.232994        -0.27341      6.84021e-05    -0.000502903
                     4.29553e-05     0.000111701        -0.710478        -0.27818     -0.000110999     0.000189739        -0.390609       -0.452816
                        0.233082       -0.273582     -0.000166718     0.000107725        -0.642821      -0.0946595       0.00027876     0.000251118
                     6.61154e-05    -0.000504105        -0.390608       -0.452815      0.000216507     0.000269428        -0.128741        0.628963
506000                  -0.18383       -0.453905      3.95369e-05     0.000111265          0.24189       -0.276476      8.98465e-05    -0.000510626
                     3.96458e-05     0.000111758        -0.724833          -0.311     -0.000114621     0.000195078        -0.385154       -0.444819
                        0.241981       -0.276647     -0.000171205     0.000117773        -0.602983      -0.0997931      0.000283126     0.000247289
                     8.72859e-05    -0.000512215        -0.385153       -0.444818       0.00022057     0.000267385        -0.118889        0.625713
509200                 -0.175365       -0.412014      3.59184e-05     0.000111174         0.251601       -0.279704      0.000113628    -0.000517662
                     3.59963e-05     0.000111809        -0.739874        -0.35006     -0.000118255     0.000200878        -0.378971       -0.436071
                        0.251693       -0.279875     -0.000175362     0.000128513        -0.562124       -0.102711      0.000287893     0.000242976
                     0.000110826      -0.0005197         -0.37897        -0.43607      0.000225057      0.00026506        -0.108702        0.621878
512400                 -0.166356       -0.370574      3.19084e-05     0.000111062         0.262239       -0.283101      0.000139985    -0.000523679
                     3.19513e-05     0.000111851        -0.755205       -0.397115     -0.000121872     0.000207182        -0.371916       -0.426467
                        0.262334       -0.283272      -0.00017911     0.000139961        -0.520416       -0.103269      0.000293115     0.000238085
                     0.000136989     -0.00052623        -0.371914       -0.426466      0.000230036     0.000262394       -0.0981967        0.617392
515600                  -0.15682        -0.32959      2.74398e-05     0.000110922         0.273943       -0.286672      0.000169147     -0.00052825
                     2.74431e-05     0.000111881        -0.770011       -0.454549     -0.000125438     0.000214036        -0.363802       -0.415885
                        0.274039       -0.286841     -0.000182361      0.00015213        -0.478051       -0.101336      0.000298856     0.000232497
                     0.000166025    -0.000531377          -0.3638       -0.415884       0.00023559     0.000259309       -0.0873954        0.612185
518800                 -0.146772        -0.28907      2.24294e-05     0.000110747         0.286875       -0.290416      0.000201314    -0.000530834
                     2.23875e-05     0.000111891         -0.78269       -0.525617     -0.000128911     0.000221487        -0.354392       -0.404182
                        0.286974       -0.290585     -0.000185017     0.000165021        -0.435243      -0.0968045      0.000305187     0.000226062
                     0.000198157    -0.000534593         -0.35439        -0.40418      0.000241822     0.000255706       -0.0763317        0.606181
522000                 -0.136229       -0.249017      1.67724e-05     0.000110526         0.301235        -0.29433      0.000236627    -0.000530755
                     1.66785e-05     0.000111875        -0.789272       -0.614044     -0.000132235     0.000229587        -0.343376       -0.391189
                        0.301336       -0.294498     -0.000186972     0.000178623        -0.392224      -0.0895879      0.000312193     0.000218582
                     0.000233553     -0.00053519        -0.343374       -0.391187      0.000248858     0.000251452       -0.0650494        0.599303
525200                 -0.125207       -0.209438      1.03351e-05     0.000110245         0.317265       -0.298401      0.000275116    -0.000527187
                     1.01809e-05      0.00011182        -0.734019       -0.679129     -0.000135346     0.000238386        -0.330344       -0.376711
                         0.31737       -0.298567     -0.000188113     0.000192911        -0.349242      -0.0796284       0.00031997     0.000209801
                     0.000272274    -0.000532316        -0.330341        -0.37671      0.000256858     0.000246366       -0.0536056        0.591468
528400                 -0.113721       -0.170336      2.94437e-06     0.000109882         0.335266       -0.302601      0.000316641    -0.000519151
                     2.71966e-06     0.000111709        -0.657537       -0.753422     -0.000138164     0.000247935        -0.314744       -0.360527
                        0.335373       -0.302765     -0.000188322     0.000207843        -0.306555      -0.0668979      0.000328625     0.000199373
                     0.000314204    -0.000524955        -0.314741       -0.360525      0.000266022     0.000240198       -0.0420721        0.582594
531600                 -0.101788       -0.131714     -5.62794e-06     0.000109408         0.355608       -0.306883      0.000360807    -0.000505532
                    -5.93607e-06     0.000111516         -0.54923       -0.835671     -0.000140592     0.000258281        -0.295823        -0.34239
                        0.355718       -0.307043     -0.000187475     0.000223354        -0.264428      -0.0514006      0.000338269     0.000186829
                     0.000358966    -0.000511936         -0.29582       -0.342389      0.000276604     0.000232595       -0.0305375        0.572601
534800                -0.0894216      -0.0935769     -1.56891e-05     0.000108778          0.37876       -0.311164      0.000406866    -0.000485133
                     -1.6097e-05     0.000111201        -0.393855       -0.919172     -0.000142514     0.000269465        -0.272532       -0.322053
                        0.378873        -0.31132     -0.000185454     0.000239361        -0.223127      -0.0331743      0.000349007     0.000171519
                     0.000405813    -0.000491988        -0.272528       -0.322051      0.000288926     0.000223043        -0.019109         0.56141
538000                -0.0766384      -0.0559267     -2.76628e-05     0.000107926         0.405317       -0.315311      0.000453626     -0.00045678
                    -2.81915e-05     0.000110702        -0.174366       -0.984681     -0.000143794     0.000281518        -0.243379       -0.299305
                        0.405433       -0.315462      -0.00018214     0.000255752        -0.182915      -0.0122909      0.000360901     0.000152521
                     0.000453523    -0.000463853        -0.243375       -0.299304      0.000303395     0.000210771      -0.00791395        0.548951
541200                -0.0634533      -0.0187657     -4.21493e-05     0.000106746         0.436044       -0.319103      0.000499378    -0.000419495
                    -4.28263e-05     0.000109918         0.112845       -0.993613     -0.000144274     0.000294456        -0.206211       -0.274091
                        0.436162       -0.319247     -0.000177429     0.000272393        -0.144044       0.0111445      0.000373902     0.000128511
                     0.000500318    -0.000426468        -0.206205        -0.27409      0.000320509     0.000194586       0.00289955        0.535166
544400                -0.0498811        0.017904     -6.00287e-05     0.000105062         0.471937       -0.322184      0.000541901    -0.000372725
                    -6.08902e-05     0.000108676         0.429717       -0.902964     -0.000143771     0.000308268        -0.157857       -0.246765
                        0.472056       -0.322318      -0.00017123     0.000289124        -0.106754        0.036995      0.000387678     9.75399e-05
                     0.000543857    -0.000379217        -0.157851       -0.246764      0.000340828     0.000172564        0.0131623        0.520012
547600                -0.0359367       0.0540811     -8.26432e-05     0.000102573         0.514303       -0.323969      0.000578579    -0.000316612
                    -8.37369e-05      0.00010667         0.701303       -0.712863     -0.000142082     0.000322917       -0.0936209       -0.218674
                        0.514423       -0.324091     -0.000163475     0.000305762       -0.0712622       0.0650948      0.000401243      5.6719e-05
                     0.000581368    -0.000322231       -0.0936143       -0.218674      0.000364811      0.00014148        0.0226851        0.503471
550800                -0.0216345       0.0897646     -0.000112144     9.87179e-05         0.564881       -0.323489       0.00060667    -0.000252224
                    -0.000113532     0.000103322         0.879816       -0.475314     -0.000138986     0.000338322      -0.00661862       -0.193508
                        0.564999       -0.323595     -0.000154125     0.000322104       -0.0377657       0.0952525      0.000412094      1.7978e-06
                     0.000609937    -0.000256641      -0.00661156        -0.19351      0.000392205     9.57056e-05        0.0312615         0.48555
554000               -0.00698891        0.124954     -0.000152203     9.23702e-05         0.625988       -0.319109       0.00062372    -0.000181647
                    -0.000153956     9.74376e-05         0.826706       -0.203422     -0.000134251     0.000354349         0.112561       -0.180308
                        0.626098       -0.319193     -0.000143173     0.000337933      -0.00643216        0.127255       0.00041424     -7.3081e-05
                     0.000626968    -0.000184685         0.112568       -0.180311      0.000419941     2.52236e-05        0.0386718        0.466294
557200                0.00798607        0.159648      -0.00020961     8.10023e-05         0.700699       -0.308012      0.000628018    -0.000107864
                    -0.000211771     8.62902e-05         0.677506      -0.0147501     -0.000127642     0.000370806         0.273739       -0.199676
                        0.700793       -0.308068     -0.000130654     0.000353024        0.0225998        0.160874      0.000394009    -0.000174057
                     0.000630691    -0.000109563         0.273745       -0.199681      0.000435062    -8.68058e-05        0.0446892        0.445785
560400                 0.0232766        0.193848     -0.000298353     5.79999e-05         0.792972       -0.285221       0.00061898    -3.43867e-05
                    -0.000300704      6.2633e-05         0.534657        0.095779     -0.000118946      0.00038743         0.475258        -0.29291
                        0.793035       -0.285242     -0.000116639     0.000367153        0.0492231        0.195869      0.000323424    -0.000299473
                     0.000620569    -3.50174e-05          0.47526       -0.292915      0.000393986    -0.000257823        0.0490887        0.424151
563600                  0.038869        0.227554      -0.00045175     1.58996e-06         0.907431       -0.241762      0.000597292     3.52798e-05
                    -0.000452355     2.48523e-06         0.412108        0.158785     -0.000107984     0.000403884         0.669232       -0.517443
                        0.907434       -0.241743     -0.000101246     0.000380107        0.0733628        0.231992      0.000162838     -0.00041436
                     0.000597439     3.52641e-05         0.669233       -0.517444      0.000199754    -0.000442901        0.0516565        0.401568
564000                 0.0408387        0.231733     -0.000478904    -1.07725e-05         0.923517       -0.234175      0.000593771     4.35637e-05
                    -0.000478823    -1.08413e-05         0.398321        0.164402     -0.000106448     0.000405909         0.687289       -0.556392
                         0.92351        -0.23415     -9.92326e-05     0.000381633        0.0762031        0.236574      0.000135396    -0.000423783
                     0.000593724     4.35874e-05         0.687289       -0.556392      0.000161049    -0.000457488        0.0518388        0.398689
566800                 0.0547501        0.260767     -0.000762934    -0.000192688         0.988363       -0.152114      0.000564764     9.81748e-05
                    -0.000745028    -0.000206042         0.310706        0.193927     -9.46409e-05     0.000419761          0.64057         -0.7679
                        0.988368       -0.152081     -8.46295e-05     0.000391692        0.0949755        0.268995     -8.40911e-05    -0.000426299
                     0.000563328     9.82318e-05         0.640574       -0.767896     -0.000141269    -0.000430661        0.0522017        0.378258
570000                 0.0709067        0.293488      -0.00120401     -0.00139611         0.999928      -0.0120339      0.000523957     0.000152257
                     -0.00101051     -0.00130751         0.227478        0.212765      -7.8892e-05     0.000434599         0.422059       -0.906568
                        0.999928       -0.012007     -6.69789e-05     0.000401744         0.114049        0.306633     -0.000297015    -0.000278691
