! TOUCHSTONE file generated by CST MICROWAVE STUDIO
! Date and time: Mon Oct 20 08:27:14 2025
! Project name: Teste_Macro_Metasurface_Nanopilar.cst
! Parameters = {H=600; L_x=70; L_y=145; Lambda=1064; Max_L=200; Min_L=70; PathPara=1; Phi=0; Step_L=10; Theta=0; p=520; phaseX=180; phaseY=0}
! Header version: 2018
! Port assignment regex: !\s*Touchstone port\s*([0-9]+)\s*=\s*(CST MWS port|CST DS port)\s*([0-9]+|Zmin|Zmax)\s*\(\"(.*)\"\)(\s*mode\s*([0-9]+))?.*
! Touchstone port assignment:
! Touchstone port 1 = CST MWS port Zmax ("") mode 1
! Touchstone port 2 = CST MWS port Zmax ("") mode 2
! Touchstone port 3 = CST MWS port Zmin ("") mode 1
! Touchstone port 4 = CST MWS port Zmin ("") mode 2
! S-Parameters are not renormalized. Each port impedance will be approximated by the real part at minimum frequency. The values are described via the [Reference] keyword.
! Default impedance is overridden by [Reference]
[Version] 2.0
# GHz S RI R 376.73
[Number of Ports] 4
[Reference]
376.73 376.73 259.888 259.888 
[Number of Frequencies] 52
[Network Data]
474000                  0.304581       0.0610911     -2.50727e-05      6.0533e-05        -0.895211        0.303029     -6.52846e-05    -1.49538e-05
                    -3.65335e-06     7.01802e-05         0.235529      -0.0639389      8.14087e-05      4.7688e-06        -0.868249       -0.409601
                       -0.895217         0.30303      5.63004e-05     1.03521e-05        -0.206807         0.23839      5.17737e-06     8.34109e-05
                    -8.07044e-05    -2.89818e-05        -0.868249       -0.409601     -4.69316e-06     0.000105074          -0.1004        -0.20506
477200                  0.275451       0.0174247     -2.61484e-05     5.98028e-05        -0.892051        0.314002     -6.49709e-05    -1.42085e-05
                    -5.17343e-06     6.94034e-05         0.235959      -0.0632427      8.03106e-05     5.40733e-06        -0.869003       -0.407423
                       -0.892056        0.314004      5.55093e-05     1.08238e-05        -0.203886        0.233901      5.23051e-06     8.25983e-05
                    -8.02226e-05    -2.80249e-05        -0.869003       -0.407423      -4.4572e-06     0.000103853        -0.102357       -0.204537
480400                  0.239144      -0.0248531      -2.7262e-05     5.90386e-05        -0.888464        0.325496     -6.46419e-05    -1.34308e-05
                    -6.74686e-06     6.85857e-05         0.236409      -0.0625015      7.91599e-05     6.06951e-06         -0.86981       -0.405075
                        -0.88847        0.325498      5.46819e-05     1.13138e-05        -0.200802          0.2291       5.2859e-06      8.1754e-05
                    -7.97164e-05    -2.70263e-05        -0.869809       -0.405075     -4.21275e-06     0.000102586         -0.10445       -0.203956
483600                  0.195442      -0.0641915     -2.84154e-05     5.82383e-05        -0.884397        0.337538     -6.42967e-05    -1.26187e-05
                    -8.37633e-06      6.7724e-05         0.236881      -0.0617109      7.79526e-05     6.75658e-06        -0.870675       -0.402535
                       -0.884402         0.33754      5.38156e-05     1.18233e-05        -0.197544        0.223955      5.34368e-06     8.08761e-05
                    -7.91839e-05    -2.59831e-05        -0.870673       -0.402535     -3.95934e-06     0.000101271        -0.106691       -0.203309
486800                  0.144545      -0.0988614     -2.96107e-05     5.73992e-05        -0.879787        0.350156      -6.3934e-05    -1.17699e-05
                    -1.00647e-05     6.68151e-05         0.237376      -0.0608658      7.66847e-05     7.46987e-06        -0.871603        -0.39978
                       -0.879792        0.350158      5.29076e-05     1.23534e-05        -0.194096        0.218428        5.404e-06     7.99626e-05
                    -7.86228e-05    -2.48924e-05        -0.871602       -0.399779     -3.69647e-06     9.99043e-05        -0.109098       -0.202586
490000                  0.087171       -0.127095     -3.08502e-05     5.65187e-05        -0.874563        0.363377     -6.35524e-05    -1.08817e-05
                    -1.18151e-05     6.58554e-05         0.237895      -0.0599606      7.53514e-05      8.2108e-06        -0.872604        -0.39678
                       -0.874568        0.363379       5.1955e-05     1.29053e-05        -0.190443        0.212475      5.46704e-06     7.90113e-05
                    -7.80311e-05    -2.37509e-05        -0.872601       -0.396779     -3.42361e-06     9.84834e-05        -0.111688       -0.201773
493200                 0.0245876       -0.147275     -3.21363e-05     5.55938e-05        -0.868645        0.377228     -6.31504e-05     -9.9515e-06
                    -1.36307e-05     6.48408e-05         0.238441      -0.0589887      7.39477e-05     8.98085e-06        -0.873684       -0.393501
                        -0.86865         0.37723      5.09543e-05     1.34803e-05        -0.186567        0.206046      5.53298e-06     7.80197e-05
                     -7.7406e-05    -2.25549e-05        -0.873681         -0.3935     -3.14016e-06      9.7005e-05        -0.114483       -0.200856
496400                -0.0414335       -0.158149     -3.34715e-05     5.46211e-05         -0.86194        0.391734     -6.27264e-05     -8.9761e-06
                     -1.5515e-05      6.3767e-05         0.239014      -0.0579429       7.2468e-05      9.7816e-06        -0.874853       -0.389904
                       -0.861945        0.391736      4.99019e-05     1.40799e-05        -0.182449        0.199082      5.60204e-06     7.69853e-05
                    -7.67448e-05    -2.13004e-05         -0.87485       -0.389902     -2.84552e-06     9.54653e-05        -0.117508       -0.199818
499600                  -0.10876       -0.159008     -3.48586e-05      5.3597e-05        -0.854343        0.406917     -6.22785e-05    -7.95218e-06
                    -1.74717e-05     6.26292e-05         0.239616      -0.0568144      7.09059e-05     1.06147e-05        -0.876124       -0.385938
                       -0.854347        0.406919      4.87936e-05     1.47057e-05        -0.178066        0.191516      5.67442e-06     7.59053e-05
                    -7.60444e-05    -1.99831e-05        -0.876119       -0.385936     -2.53899e-06     9.38604e-05         -0.12079       -0.198634
502800                 -0.175119       -0.149805     -3.63005e-05     5.25175e-05        -0.845733        0.422794     -6.18047e-05    -6.87604e-06
                    -1.95046e-05      6.1422e-05          0.24025      -0.0555935      6.92545e-05     1.14821e-05        -0.877508       -0.381545
                       -0.845738        0.422796       4.7625e-05     1.53593e-05        -0.173397        0.183266      5.75039e-06     7.47764e-05
                    -7.53011e-05    -1.85983e-05        -0.877503       -0.381543     -2.21986e-06     9.21863e-05        -0.124361       -0.197278
506000                 -0.238345        -0.13116     -3.78004e-05     5.13783e-05        -0.835974        0.439376     -6.13027e-05     -5.7436e-06
                    -2.16181e-05     6.01397e-05         0.240917      -0.0542686      6.75062e-05     1.23854e-05        -0.879022       -0.376652
                       -0.835979        0.439379      4.63909e-05     1.60426e-05        -0.168413        0.174239       5.8302e-06     7.35954e-05
                     -7.4511e-05    -1.71406e-05        -0.879016        -0.37665     -1.88732e-06     9.04382e-05        -0.128262       -0.195716
509200                 -0.296607       -0.104257     -3.93617e-05     5.01745e-05         -0.82491        0.456664       -6.077e-05    -4.55033e-06
                    -2.38164e-05     5.87756e-05         0.241618      -0.0528265      6.56523e-05     1.33267e-05        -0.880683       -0.371169
                       -0.824914        0.456667      4.50859e-05     1.67575e-05        -0.163089         0.16432      5.91416e-06     7.23586e-05
                    -7.36697e-05    -1.56041e-05        -0.880676       -0.371166     -1.54051e-06     8.86113e-05        -0.132534       -0.193903
512400                 -0.348564      -0.0706725     -4.09879e-05     4.89008e-05        -0.812363        0.474646     -6.02036e-05    -3.29122e-06
                    -2.61044e-05     5.73226e-05         0.242356      -0.0512513      6.36831e-05     1.43082e-05        -0.882513       -0.364981
                       -0.812367        0.474649      4.37035e-05     1.75062e-05        -0.157392        0.153375      6.00259e-06     7.10619e-05
                     -7.2772e-05    -1.39824e-05        -0.882505       -0.364978     -1.17851e-06     8.66999e-05        -0.137232       -0.191785
515600                 -0.393422      -0.0321596      -4.2683e-05     4.75511e-05        -0.798133        0.493291     -5.96004e-05    -1.96068e-06
                    -2.84869e-05     5.57727e-05         0.243131      -0.0495247      6.15877e-05     1.53318e-05        -0.884537       -0.357946
                       -0.798137        0.493295       4.2237e-05      1.8291e-05        -0.151291        0.141239      6.09586e-06     6.97008e-05
                    -7.18124e-05    -1.22683e-05        -0.884528       -0.357943     -8.00291e-07     8.46981e-05        -0.142416       -0.189291
518800                 -0.430913      0.00954226     -4.44511e-05     4.61189e-05        -0.781994        0.512548     -5.89566e-05    -5.52477e-07
                    -3.09695e-05     5.41168e-05         0.243945      -0.0476246       5.9354e-05     1.63998e-05        -0.886785       -0.349878
                       -0.781998        0.512551      4.06783e-05     1.91144e-05        -0.144752        0.127714      6.19437e-06     6.82704e-05
                    -7.07843e-05    -1.04536e-05        -0.886773       -0.349874     -4.04742e-07     8.25994e-05        -0.148157       -0.186328
522000                   -0.4612       0.0528561     -4.62967e-05     4.45969e-05        -0.763696         0.53233      -5.8268e-05     9.40359e-07
                    -3.35575e-05      5.2345e-05         0.244797      -0.0455247      5.69681e-05     1.75146e-05         -0.88929        -0.34053
                       -0.763699        0.532333      3.90187e-05     1.99792e-05        -0.137742        0.112554      6.29858e-06     6.67653e-05
                    -6.96803e-05     -8.5295e-06        -0.889277       -0.340526      9.34995e-09     8.03966e-05        -0.154541       -0.182777
525200                 -0.484763       0.0964563     -4.82247e-05     4.29767e-05        -0.742957        0.552511       -5.753e-05     2.52566e-06
                    -3.62571e-05     5.04461e-05         0.245687      -0.0431937      5.44142e-05     1.86783e-05        -0.892093       -0.329576
                       -0.742961        0.552515      3.72481e-05     2.08883e-05        -0.130229       0.0954542      6.40898e-06     6.51795e-05
                     -6.8492e-05    -6.48579e-06        -0.892078       -0.329571      4.43316e-07     7.80816e-05        -0.161663       -0.178475
528400                 -0.502279        0.139303     -5.02401e-05     4.12492e-05        -0.719475        0.572914     -5.67371e-05     4.21225e-06
                    -3.90745e-05     4.84076e-05         0.246612      -0.0405933      5.16747e-05     1.98932e-05        -0.895239       -0.316565
                       -0.719478        0.572918      3.53551e-05     2.18449e-05         -0.12219       0.0760328      6.52614e-06     6.35064e-05
                    -6.72094e-05    -4.31117e-06        -0.895221        -0.31656      8.98617e-07     7.56458e-05        -0.169636       -0.173205
531600                  -0.51452        0.180634     -5.23486e-05     3.94039e-05        -0.692922        0.593296     -5.58831e-05     6.01011e-06
                    -4.20162e-05     4.62152e-05         0.247565      -0.0376771      4.87289e-05     2.11615e-05         -0.89877       -0.300865
                       -0.692925        0.593299      3.33268e-05     2.28527e-05        -0.113616       0.0538041      6.65069e-06     6.17384e-05
                    -6.58215e-05    -1.99282e-06        -0.898749       -0.300859      1.37686e-06     7.30793e-05        -0.178581       -0.166667
534800                 -0.522273        0.219935     -5.45559e-05     3.74294e-05        -0.662958        0.613328     -5.49607e-05     7.93055e-06
                    -4.50892e-05      4.3853e-05         0.248538       -0.034388      4.55534e-05     2.24851e-05        -0.902722       -0.281555
                        -0.66296        0.613331      3.11483e-05     2.39152e-05        -0.104525        0.028144      6.78336e-06     5.98673e-05
                    -6.43149e-05     4.83739e-07        -0.902698       -0.281549      1.87981e-06     7.03715e-05        -0.188625       -0.158445
538000                  -0.52629        0.256896     -5.68685e-05     3.53123e-05        -0.629241        0.632585     -5.39615e-05     9.98649e-06
                    -4.83006e-05     4.13032e-05         0.249512      -0.0306557      4.21213e-05     2.38657e-05        -0.907092        -0.25725
                       -0.629243        0.632589      2.88026e-05     2.50368e-05       -0.0949884     -0.00176038      6.92494e-06     5.78838e-05
                    -6.26744e-05     3.13497e-06        -0.907063       -0.257243      2.40944e-06     6.75102e-05        -0.199873       -0.147951
541200                 -0.527255        0.291366     -5.92932e-05     3.30378e-05        -0.591446        0.650521     -5.28757e-05     1.21927e-05
                    -5.16577e-05     3.85452e-05         0.250463      -0.0263926      3.84012e-05     2.53043e-05        -0.911764       -0.225764
                       -0.591448        0.650524        2.627e-05     2.62216e-05        -0.085169      -0.0369828      7.07636e-06     5.57775e-05
                    -6.08818e-05     5.97966e-06        -0.911729       -0.225757       2.9679e-06     6.44821e-05        -0.212367       -0.134346
544400                  -0.52577        0.323309      -6.1837e-05     3.05888e-05          -0.5493        0.666453     -5.16919e-05     1.45661e-05
                    -5.51681e-05     3.55559e-05         0.251347      -0.0214889      3.43567e-05     2.68013e-05        -0.916313       -0.183456
                       -0.549301        0.666456      2.35275e-05     2.74745e-05       -0.0753973       -0.078962      7.23867e-06     5.35366e-05
                    -5.89157e-05     9.03929e-06        -0.916269       -0.183449      3.55761e-06     6.12721e-05        -0.225975       -0.116423
547600                 -0.522352        0.352773     -6.45076e-05     2.79462e-05        -0.502616        0.679548     -5.03964e-05     1.71264e-05
                    -5.88393e-05      3.2309e-05         0.252097      -0.0158071      2.99452e-05     2.83556e-05        -0.919404       -0.123833
                       -0.502617        0.679551      2.05486e-05     2.88004e-05       -0.0663081       -0.129652      7.41306e-06     5.11478e-05
                    -5.67508e-05     1.23386e-05        -0.919348       -0.123827      4.18125e-06     5.78634e-05         -0.24016      -0.0924618
550800                 -0.517436         0.37986      -6.7313e-05     2.50876e-05        -0.451353        0.688819      -4.8973e-05     1.98963e-05
                    -6.26786e-05     2.87743e-05         0.252608     -0.00917403      2.51168e-05     2.99647e-05        -0.916812      -0.0342848
                       -0.451354        0.688821      1.73018e-05     3.02046e-05       -0.0590969       -0.191739      7.60092e-06     4.85959e-05
                    -5.43565e-05      1.5906e-05        -0.916738      -0.0342851      4.84182e-06     5.42368e-05        -0.253507        -0.06009
554000                 -0.511381        0.404706     -7.02615e-05     2.19879e-05        -0.395677        0.693138     -4.74024e-05     2.29024e-05
                     -6.6693e-05     2.49175e-05         0.252712     -0.00137353      1.98122e-05     3.16233e-05        -0.893526        0.112182
                       -0.395677         0.69314      1.37501e-05     3.16923e-05       -0.0560178       -0.268932      7.80386e-06     4.58636e-05
                    -5.16958e-05     1.97746e-05        -0.893425        0.112165      5.54268e-06      5.0371e-05        -0.262779      -0.0163825
557200                 -0.504483        0.427464     -7.33617e-05     1.86175e-05        -0.336036        0.691277      -4.5661e-05     2.61759e-05
                    -7.08887e-05      2.0699e-05         0.252143      0.00785995      1.39614e-05     3.33227e-05        -0.783992        0.376282
                       -0.336037        0.691278      9.84953e-06     3.32689e-05       -0.0613684       -0.366307      8.02373e-06     4.29311e-05
                    -4.87238e-05     2.39829e-05        -0.783856        0.376212      6.28759e-06     4.62412e-05        -0.261365       0.0411367
560400                 -0.496981        0.448292     -7.66225e-05     1.49428e-05        -0.273233        0.681978     -4.37203e-05     2.97538e-05
                     -7.5271e-05     1.60736e-05         0.250474       0.0188386      7.48027e-06     3.50489e-05          -0.2343        0.787429
                       -0.273233        0.681978      5.54738e-06     3.49395e-05       -0.0834736       -0.490477      8.26271e-06     3.97756e-05
                    -4.53852e-05     2.85758e-05        -0.234225        0.787212      7.08083e-06     4.18197e-05          -0.2378        0.111035
563600                 -0.489067         0.46735     -8.00525e-05     1.09245e-05        -0.208475        0.664063     -4.15451e-05     3.36799e-05
                     -7.9843e-05     1.09888e-05         0.247014        0.031893      2.68088e-07     3.67801e-05         0.929931       -0.110227
                       -0.208475        0.664063      7.80058e-07     3.67084e-05        -0.138631       -0.648664      8.52336e-06     3.63707e-05
                    -4.16112e-05      3.3606e-05         0.929887        -0.11023       7.9272e-06     3.70742e-05        -0.178398        0.180875
564000                 -0.488056        0.469616     -8.04935e-05     1.03958e-05        -0.200319        0.661167     -4.12547e-05     3.41977e-05
                    -8.04279e-05      1.0318e-05         0.246407       0.0336854     -6.90649e-07     3.69954e-05         0.900108       -0.338782
                        -0.20032        0.661167      1.47756e-07     3.69365e-05        -0.149184       -0.671088       8.5576e-06      3.5926e-05
                    -4.11048e-05     3.42686e-05         0.900109       -0.338782      8.03699e-06     3.64565e-05        -0.168074        0.188344
566800                 -0.480891        0.484792     -8.36598e-05     6.51663e-06        -0.143394        0.636583     -3.90916e-05      3.8007e-05
                    -8.46054e-05     5.38446e-06         0.240663       0.0472755      -7.7971e-06     3.84839e-05         0.144674       -0.989479
                       -0.143395        0.636583     -4.52978e-06     3.85783e-05        -0.258186       -0.843406       8.8087e-06     3.26855e-05
                    -3.73156e-05     3.91358e-05         0.144685       -0.989478      8.83218e-06      3.1968e-05       -0.0810384        0.223281
570000                 -0.472576        0.500761     -8.74519e-05     1.66568e-06       -0.0800004        0.598988     -3.63047e-05     4.27987e-05
                     -8.9555e-05    -8.09217e-07         0.229709       0.0649055     -1.68635e-05     4.01119e-05        -0.319083       -0.947727
                      -0.0800012        0.598987     -1.04771e-05     4.05497e-05        -0.426061       -0.904694      9.12237e-06     2.86839e-05
