! TOUCHSTONE file generated by CST MICROWAVE STUDIO
! Date and time: Mon Oct 20 08:27:50 2025
! Project name: Teste_Macro_Metasurface_Nanopilar.cst
! Parameters = {H=600; L_x=190; L_y=130; Lambda=1064; Max_L=200; Min_L=70; PathPara=1; Phi=0; Step_L=10; Theta=0; p=520; phaseX=180; phaseY=0}
! Header version: 2018
! Port assignment regex: !\s*Touchstone port\s*([0-9]+)\s*=\s*(CST MWS port|CST DS port)\s*([0-9]+|Zmin|Zmax)\s*\(\"(.*)\"\)(\s*mode\s*([0-9]+))?.*
! Touchstone port assignment:
! Touchstone port 1 = CST MWS port Zmax ("") mode 1
! Touchstone port 2 = CST MWS port Zmax ("") mode 2
! Touchstone port 3 = CST MWS port Zmin ("") mode 1
! Touchstone port 4 = CST MWS port Zmin ("") mode 2
! S-Parameters are not renormalized. Each port impedance will be approximated by the real part at minimum frequency. The values are described via the [Reference] keyword.
! Default impedance is overridden by [Reference]
[Version] 2.0
# GHz S RI R 376.73
[Number of Ports] 4
[Reference]
376.73 376.73 259.888 259.888 
[Number of Frequencies] 52
[Network Data]
474000                  0.172924        0.124334     -1.34436e-05    -2.41683e-05        -0.927444        0.290588     -9.84075e-05     2.22457e-05
                    -1.45873e-05    -6.95097e-05        0.0382714         0.29852      4.34994e-05    -6.10477e-05        -0.554536        0.707589
                       -0.927464        0.290593      3.66877e-05    -8.92217e-05       -0.0690799        0.201949     -5.19184e-05     7.86617e-06
                    -9.16494e-05     5.24178e-05        -0.554536        0.707589     -8.38408e-05    -6.36208e-06         0.282455      -0.0214138
477200                  0.187798        0.128076     -1.11886e-05    -1.75481e-05        -0.921862        0.301349     -9.31319e-05     2.23607e-05
                    -9.96458e-06    -6.22487e-05        0.0330407        0.295875      4.19065e-05    -6.29729e-05        -0.539067        0.676912
                       -0.921882        0.301354      3.53263e-05    -8.90491e-05       -0.0714684        0.194812     -5.05489e-05     7.34079e-06
                    -8.63584e-05     5.25201e-05        -0.539067        0.676913      -8.2219e-05    -6.71848e-06         0.281682      -0.0341457
480400                  0.204054        0.132657     -8.97477e-06    -1.05507e-05        -0.915628        0.312693     -8.75314e-05     2.24697e-05
                    -5.27758e-06     -5.4464e-05        0.0274594        0.292993      4.02384e-05    -6.49609e-05        -0.523356        0.646371
                       -0.915649        0.312699      3.39141e-05    -8.88689e-05       -0.0739824        0.186963     -4.91143e-05     6.78766e-06
                    -8.07413e-05     5.26125e-05        -0.523356        0.646374     -8.05158e-05    -7.09384e-06         0.281133      -0.0482377
483600                  0.221868        0.138282     -6.81891e-06    -3.14929e-06         -0.90865        0.324655     -8.15748e-05     2.25708e-05
                    -5.42723e-07    -4.61087e-05        0.0214921        0.289844        3.849e-05    -6.70146e-05        -0.507404        0.615969
                       -0.908671        0.324661      3.24481e-05    -8.86806e-05       -0.0766241        0.178294     -4.76099e-05     6.20452e-06
                    -7.47671e-05     5.26924e-05        -0.507403        0.615973     -7.87252e-05     -7.4897e-06         0.280902      -0.0639068
486800                  0.241439        0.145214     -4.74082e-06     4.68492e-06        -0.900822        0.337267     -7.52274e-05     2.26618e-05
                     4.21886e-06    -3.71311e-05        0.0150985        0.286389      3.66557e-05    -6.91371e-05        -0.491213        0.585708
                       -0.900843        0.337273      3.09251e-05    -8.84836e-05       -0.0793921        0.168671     -4.60306e-05      5.5889e-06
                    -6.84006e-05     5.27569e-05        -0.491211        0.585713     -7.68401e-05    -7.90779e-06         0.281114      -0.0814156
490000                  0.262989        0.153794     -2.76394e-06     1.29826e-05        -0.892018        0.350561     -6.84493e-05     2.27397e-05
                     8.98032e-06    -2.74749e-05       0.00823248        0.282584      3.47294e-05    -7.13316e-05        -0.474784        0.555592
                       -0.892039        0.350569      2.93419e-05    -8.82773e-05       -0.0822798        0.157935     -4.43706e-05     4.93803e-06
                    -6.16021e-05     5.28021e-05        -0.474782        0.555598     -7.48528e-05    -8.35003e-06         0.281946       -0.101083
493200                  0.286761        0.164469     -9.15895e-07     2.17764e-05        -0.882092        0.364566     -6.11954e-05     2.28012e-05
                     1.37078e-05    -1.70788e-05       0.00084156        0.278379      3.27045e-05    -7.36013e-05        -0.458119        0.525623
                       -0.882113        0.364574      2.76948e-05    -8.80611e-05        -0.085272        0.145885     -4.26236e-05     4.24882e-06
                    -5.43262e-05     5.28234e-05        -0.458118         0.52563     -7.27549e-05    -8.81857e-06         0.283643       -0.123297
496400                  0.313012        0.177827      7.70731e-07     3.11007e-05        -0.870874        0.379303     -5.34136e-05     2.28421e-05
                     1.83591e-05    -5.87641e-06      -0.00713454        0.273709      3.05737e-05    -7.59498e-05        -0.441221        0.495804
                       -0.870894        0.379311      2.59798e-05    -8.78343e-05       -0.0883401        0.132277     -4.07826e-05     3.51784e-06
                    -4.65209e-05     5.28152e-05        -0.441219        0.495813     -7.05367e-05    -9.31581e-06         0.286556       -0.148534
499600                  0.341997        0.194648      2.25761e-06     4.09919e-05        -0.858162        0.394783     -4.50446e-05     2.28569e-05
                     2.28814e-05     6.20397e-06       -0.0157652        0.268498      2.83289e-05    -7.83808e-05        -0.424092        0.466138
                       -0.858183        0.394792      2.41925e-05     -8.7596e-05       -0.0914344        0.116798     -3.88397e-05      2.7412e-06
                    -3.81265e-05     5.27704e-05         -0.42409        0.466147     -6.81878e-05    -9.84446e-06         0.291186       -0.177375
502800                  0.373929        0.215975      3.49971e-06     5.14878e-05        -0.843723        0.411002     -3.60193e-05     2.28391e-05
                     2.72098e-05     1.92389e-05       -0.0251304        0.262655      2.59616e-05    -8.08981e-05        -0.406733        0.436627
                       -0.843744        0.411012      2.23285e-05    -8.73454e-05       -0.0944717       0.0990574     -3.67864e-05     1.91454e-06
                     -2.9074e-05     5.26804e-05        -0.406731        0.436638     -6.56961e-05    -1.04076e-05         0.298264       -0.210527
506000                  0.408912        0.243201      4.44419e-06     6.26273e-05        -0.827282        0.427933     -2.62575e-05     2.27804e-05
                     3.12641e-05     3.33095e-05       -0.0353229        0.256065      2.34619e-05    -8.35057e-05        -0.389146        0.407275
                       -0.827302        0.427945      2.03826e-05    -8.70816e-05        -0.097315       0.0785484     -3.46129e-05     1.03294e-06
                    -1.92832e-05     5.25343e-05        -0.389144        0.407286     -6.30483e-05    -1.10086e-05         0.308867       -0.248835
509200                  0.446812        0.278181      5.02914e-06     7.44499e-05        -0.808518        0.445518     -1.56658e-05     2.26704e-05
                     3.49461e-05     4.85001e-05       -0.0464502        0.248586      2.08194e-05    -8.62079e-05        -0.371334        0.378082
                       -0.808537        0.445531      1.83493e-05    -8.68035e-05         -0.09974        0.054615     -3.23084e-05     9.07892e-08
                    -8.66036e-06     5.23184e-05        -0.371332        0.378094     -6.02292e-05    -1.16516e-05         0.324609       -0.293274
512400                  0.487022        0.323362      5.18225e-06      8.6995e-05        -0.787059        0.463649     -4.13379e-06     2.24957e-05
                     3.81361e-05     6.48971e-05       -0.0586375        0.240042      1.80224e-05    -8.90089e-05          -0.3533        0.349053
                       -0.787078        0.463663      1.62226e-05      -8.651e-05        -0.101378       0.0263955     -2.98608e-05    -9.18267e-07
                     2.90471e-06     5.20156e-05        -0.353297        0.349066     -5.72216e-05    -1.23409e-05         0.347938       -0.344878
515600                  0.528057        0.381875      4.81919e-06     0.000100301        -0.762478        0.482154      8.46898e-06     2.22393e-05
                      4.0689e-05     8.25863e-05         -0.07203        0.230209       1.5058e-05    -9.19134e-05        -0.335044         0.32019
                       -0.762496        0.482168       1.3996e-05    -8.61997e-05        -0.101618     -0.00725308     -2.72563e-05    -2.00152e-06
                     1.55425e-05     5.16037e-05        -0.335041        0.320203     -5.40059e-05    -1.30819e-05         0.382592       -0.404513
518800                  0.566887        0.457485      3.84196e-06     0.000114402        -0.734286        0.500769      2.22983e-05     2.18792e-05
                     4.24298e-05     0.000101649       -0.0867966        0.218798      1.19118e-05    -9.49259e-05        -0.316569        0.291495
                       -0.734303        0.500785      1.16621e-05    -8.58713e-05       -0.0994252      -0.0478544     -2.44793e-05    -3.16733e-06
                     2.94084e-05     5.10546e-05        -0.316567        0.291509       -5.056e-05    -1.38804e-05         0.434265       -0.472281
522000                  0.597937        0.554117      2.13711e-06     0.000129329         -0.70194        0.519108      3.75414e-05     2.13869e-05
                     4.31493e-05     0.000122157        -0.103132        0.205436      8.56793e-06    -9.80513e-05        -0.297879         0.26297
                       -0.701956        0.519125      9.21305e-06    -8.55232e-05       -0.0930221      -0.0974319     -2.15123e-05    -4.42536e-06
                     4.46893e-05     5.03314e-05        -0.297876        0.262985     -4.68579e-05    -1.47434e-05         0.511401       -0.546123
525200                  0.611905        0.674458     -4.26048e-07     0.000145105        -0.664851        0.536614      5.44258e-05     2.07247e-05
                     4.25993e-05     0.000144165        -0.121258        0.189634      5.00882e-06    -0.000101294        -0.278974        0.234619
                       -0.664866        0.536633      6.64017e-06    -8.51536e-05        -0.079275       -0.158603     -1.83351e-05    -5.78682e-06
                     6.16119e-05      4.9386e-05        -0.278971        0.234634     -4.28703e-05     -1.5679e-05          0.62552         -0.6188
528400                  0.588856        0.808238     -3.99715e-06      0.00016174        -0.622415        0.552515      7.32299e-05     1.98424e-05
                     4.04885e-05     0.000167702        -0.141423        0.170735      1.21478e-06     -0.00010466        -0.259857        0.206442
                       -0.622427        0.552535      3.93381e-06    -8.47605e-05       -0.0525434       -0.234478     -1.49247e-05    -7.26477e-06
                     8.04531e-05     4.81544e-05        -0.259855        0.206458     -3.85626e-05    -1.66967e-05         0.761044         -0.6487
531600                  0.480423        0.877037      -8.7462e-06     0.000179232        -0.574055        0.565757      9.42988e-05     1.86723e-05
                     3.64801e-05     0.000192758         -0.16389        0.147854     -2.83613e-06    -0.000108153        -0.240531        0.178444
                       -0.574066        0.565776      1.08331e-06    -8.43416e-05      -0.00255061       -0.327769     -1.12544e-05    -8.87455e-06
                     0.000101556     4.65506e-05        -0.240529         0.17846     -3.38948e-05    -1.78076e-05         0.830924       -0.556386
534800                  0.346326        0.938114     -1.48645e-05     0.000197553        -0.519319        0.574942      0.000118065     1.71221e-05
                     3.01912e-05     0.000219266        -0.188912        0.119767     -7.16849e-06    -0.000111778        -0.220998        0.150625
                       -0.519327        0.574962     -1.92314e-06    -8.38945e-05        0.0890626       -0.437291      -7.2937e-06    -1.06342e-05
                     0.000125347     4.44574e-05        -0.220996        0.150641     -2.88197e-05    -1.90253e-05         0.908026       -0.418914
538000                  0.192644        0.981269     -2.25644e-05     0.000216651        -0.458005        0.578287      0.000145076     1.50628e-05
                     2.11969e-05     0.000247087        -0.216669       0.0847652     -1.18098e-05    -0.000115539        -0.201261        0.122989
                        -0.45801        0.578307     -5.09869e-06    -8.34163e-05         0.251524       -0.547194     -3.00678e-06    -1.25654e-05
                     0.000152371     4.17122e-05        -0.201259        0.123005     -2.32816e-05    -2.03655e-05         0.970279        -0.24199
541200                 0.0319667        0.999489     -3.20782e-05     0.000236436        -0.390359        0.573608      0.000176039     1.23121e-05
                     9.03981e-06     0.000275982        -0.247132       0.0404198      -1.6791e-05     -0.00011944        -0.181322       0.0955369
                       -0.390362        0.573628       -8.458e-06    -8.29038e-05         0.513414       -0.603302      1.64813e-06    -1.46937e-05
                     0.000183322     3.80853e-05         -0.18132       0.0955532     -1.72143e-05    -2.18477e-05         0.998704      -0.0509041
544400                 -0.121014        0.992651     -4.36542e-05     0.000256773        -0.317325        0.558405      0.000211881     8.60583e-06
                    -6.75118e-06     0.000305593        -0.279767      -0.0167585      -2.2147e-05    -0.000123485        -0.161183       0.0682714
                       -0.317325        0.558423     -1.20175e-05    -8.23533e-05          0.84251       -0.502391      6.72019e-06    -1.70504e-05
                     0.000219108     3.32458e-05        -0.161181       0.0682879     -1.05381e-05    -2.34954e-05         0.992422        0.122878
547600                 -0.255416        0.966831     -5.75504e-05     0.000277469        -0.240814        0.530074      0.000253834     3.55209e-06
                    -2.66316e-05     0.000335418        -0.312886      -0.0917905     -2.79169e-05    -0.000127676        -0.140847       0.0411945
                       -0.240812         0.53009     -1.57955e-05    -8.17606e-05         0.983369        -0.18162      1.22677e-05    -1.96732e-05
                     0.000260932     2.67044e-05        -0.140845        0.041211     -3.15659e-06    -2.53378e-05         0.965131        0.261766
550800                 -0.366801        0.930299     -7.40245e-05     0.000298268        -0.163919        0.486321       0.00030358    -3.44714e-06
                    -5.09992e-05     0.000364795        -0.342279       -0.191751     -3.41453e-05    -0.000132013        -0.120317       0.0143083
                       -0.163915        0.486334     -1.98129e-05    -8.11208e-05         0.989859        0.142055      1.83602e-05    -2.26087e-05
                      0.00031042     1.77186e-05        -0.120315       0.0143248      5.04818e-06    -2.74109e-05          0.93107         0.36484
554000                  -0.45587        0.890046     -9.33187e-05     0.000318834       -0.0909349        0.425752      0.000363464    -1.33355e-05
                    -8.01389e-05     0.000392896        -0.358348       -0.325839     -4.08825e-05    -0.000136496       -0.0995955      -0.0123852
                        -0.09093        0.425761      -2.4093e-05    -8.04284e-05          0.92068        0.390319      2.50813e-05    -2.59148e-05
                     0.000369821     5.12322e-06       -0.0995935      -0.0123687      1.42219e-05    -2.97605e-05         0.898496        0.438981
557200                 -0.510666        0.826013      -0.00011564     0.000338751       -0.0270333        0.348551      0.000436852    -2.76617e-05
                    -0.000114158     0.000418742        -0.340724       -0.503059     -4.81856e-05    -0.000141121       -0.0786845      -0.0388841
                      -0.0270288        0.348557     -2.86625e-05    -7.96768e-05         0.799244        0.538973      3.25326e-05    -2.96639e-05
                     0.000442309    -1.29796e-05       -0.0786826      -0.0388677      2.45467e-05    -3.24449e-05         0.870611        0.491972
560400                 -0.526677        0.738668     -0.000141134     0.000357515        0.0224943        0.256998      0.000528718     -4.9091e-05
                     -0.00015292     0.000441248        -0.251108        -0.72187     -5.61196e-05    -0.000145881       -0.0575871      -0.0651864
                       0.0224972           0.257     -3.35516e-05    -7.88586e-05         0.657616         0.59485      4.08384e-05    -3.39485e-05
                     0.000532488     -3.9824e-05       -0.0575852      -0.0651702      3.62536e-05    -3.55402e-05         0.847971        0.530042
563600                 -0.529514        0.664153     -0.000169857     0.000374543        0.0533016        0.155517      0.000646682    -8.24815e-05
                    -0.000195987     0.000459292        -0.036693       -0.942963     -6.47583e-05    -0.000150764       -0.0363057      -0.0912903
                       0.0533021        0.155517     -3.87951e-05    -7.79648e-05         0.546681        0.612519      5.01526e-05    -3.88878e-05
                     0.000647187    -8.12259e-05       -0.0363039      -0.0912742      4.96394e-05    -3.91467e-05         0.812557        0.545876
564000                 -0.529221        0.655696     -0.000173672     0.000376518        0.0556914        0.142421      0.000663798    -8.78904e-05
                    -0.000201639      0.00046118      0.000800368       -0.966158     -6.58917e-05    -0.000151382       -0.0336328      -0.0945392
                       0.0556915        0.142422     -3.94774e-05    -7.78473e-05         0.534778        0.613183      5.13968e-05    -3.95585e-05
                     0.000663713    -8.78905e-05        -0.033631      -0.0945232      5.14488e-05    -3.96397e-05         0.804822        0.544746
566800                 -0.524323        0.601371      -0.00020174     0.000389185        0.0630152       0.0500859      0.000802849    -0.000137343
                    -0.000242591      0.00047182         0.288374       -0.957518      -7.4186e-05    -0.000155753       -0.0148432       -0.117194
                       0.0630128       0.0500852     -4.44329e-05    -7.69851e-05         0.461751        0.612152      6.06673e-05     -4.4638e-05
                     0.000796703    -0.000148343       -0.0148415       -0.117178      6.50925e-05    -4.33999e-05         0.756005        0.535269
570000                 -0.514477        0.548669     -0.000236561     0.000400758        0.0517866      -0.0528859       0.00101703    -0.000234026
                    -0.000291642     0.000477963         0.592924       -0.805258     -8.44987e-05    -0.000160821       0.00679766       -0.142895
                       0.0517815      -0.0528864      -5.0511e-05     -7.5907e-05         0.396429        0.603726       7.2626e-05    -5.14078e-05
