! TOUCHSTONE file generated by CST MICROWAVE STUDIO
! Date and time: Mon Oct 20 08:27:53 2025
! Project name: Teste_Macro_Metasurface_Nanopilar.cst
! Parameters = {H=600; L_x=200; L_y=85; Lambda=1064; Max_L=200; Min_L=70; PathPara=1; Phi=0; Step_L=10; Theta=0; p=520; phaseX=180; phaseY=0}
! Header version: 2018
! Port assignment regex: !\s*Touchstone port\s*([0-9]+)\s*=\s*(CST MWS port|CST DS port)\s*([0-9]+|Zmin|Zmax)\s*\(\"(.*)\"\)(\s*mode\s*([0-9]+))?.*
! Touchstone port assignment:
! Touchstone port 1 = CST MWS port Zmax ("") mode 1
! Touchstone port 2 = CST MWS port Zmax ("") mode 2
! Touchstone port 3 = CST MWS port Zmin ("") mode 1
! Touchstone port 4 = CST MWS port Zmin ("") mode 2
! S-Parameters are not renormalized. Each port impedance will be approximated by the real part at minimum frequency. The values are described via the [Reference] keyword.
! Default impedance is overridden by [Reference]
[Version] 2.0
# GHz S RI R 376.73
[Number of Ports] 4
[Reference]
376.73 376.73 259.888 259.888 
[Number of Frequencies] 52
[Network Data]
474000                 -0.110734        0.236906       2.8931e-05    -0.000104628        -0.913992       -0.294129       2.5313e-05     9.65618e-05
                     2.88958e-05    -0.000104044        -0.553465       -0.576727     -8.79452e-06    -9.96397e-05        0.0643295       -0.564172
                       -0.913992        -0.29413     -9.16123e-06    -0.000100028       -0.0517287        0.260268      8.79429e-05     8.31244e-05
                     2.50181e-05     9.59204e-05        0.0643296       -0.564172      8.73158e-05     8.23096e-05         -0.69117        0.426961
477200                 -0.109152        0.237734      2.63943e-05    -0.000104093        -0.916054       -0.282351      2.48713e-05     9.67483e-05
                     2.63619e-05    -0.000103507        -0.552584       -0.554084     -7.95294e-06    -0.000100353        0.0723267       -0.569824
                       -0.916054       -0.282352     -8.31326e-06    -0.000100739       -0.0500702        0.261951      9.12609e-05     8.16455e-05
                     2.47904e-05     9.73059e-05        0.0723267       -0.569823      9.10326e-05     8.07838e-05        -0.656961        0.431283
480400                 -0.107453        0.238619      2.37023e-05    -0.000103509        -0.918047       -0.269591      2.44139e-05     9.69411e-05
                     2.36727e-05    -0.000102921        -0.551122       -0.530924      -7.0665e-06    -0.000101093        0.0808679       -0.575621
                       -0.918047       -0.269592     -7.42014e-06    -0.000101476       -0.0483147        0.263749      9.47642e-05     8.00367e-05
                     2.45327e-05     9.87344e-05        0.0808677       -0.575619      9.49671e-05     7.91144e-05        -0.622172        0.434435
483600                 -0.105624        0.239567      2.08403e-05    -0.000102869        -0.919931       -0.255729      2.39398e-05     9.71406e-05
                     2.08138e-05    -0.000102278         -0.54904       -0.507249     -6.13163e-06    -0.000101863        0.0900024       -0.581558
                       -0.919931       -0.255729      -6.4783e-06    -0.000102242       -0.0464539        0.265676      9.84679e-05     7.82822e-05
                     2.42423e-05     0.000100207        0.0900021       -0.581556      9.91377e-05     7.72827e-05        -0.586857        0.436364
486800                 -0.103649        0.240584       1.7792e-05    -0.000102164        -0.921652       -0.240626       2.3448e-05     9.73471e-05
                     1.77689e-05     -0.00010157        -0.546294       -0.483066     -5.14439e-06    -0.000102663        0.0997855       -0.587628
                       -0.921652       -0.240627     -5.48379e-06    -0.000103038       -0.0444779        0.267744      0.000102388     7.63636e-05
                     2.39165e-05     0.000101726        0.0997849       -0.587625      0.000103565     7.52672e-05        -0.551073         0.43702
490000                 -0.101512         0.24168      1.45388e-05    -0.000101386        -0.923142       -0.224121      2.29376e-05     9.75609e-05
                     1.45193e-05     -0.00010079        -0.542843       -0.458382     -4.10042e-06    -0.000103495         0.110278       -0.593818
                       -0.923142       -0.224122     -4.43221e-06    -0.000103867       -0.0423762         0.26997      0.000106544     7.42597e-05
                     2.35521e-05     0.000103292         0.110277       -0.593815      0.000108272     7.30428e-05        -0.514885        0.436357
493200                -0.0991888        0.242862      1.10597e-05    -0.000100526        -0.924309       -0.206027      2.24075e-05     9.77825e-05
                     1.10442e-05     -9.9927e-05        -0.538639       -0.433209     -2.99487e-06    -0.000104361         0.121548       -0.600114
                       -0.924309       -0.206027     -3.31871e-06    -0.000104728       -0.0401365        0.272373      0.000110956      7.1946e-05
                     2.31458e-05     0.000104907         0.121547        -0.60011      0.000113284     7.05797e-05         -0.47836        0.434333
496400                -0.0966563        0.244141      7.33068e-06    -9.95693e-05        -0.925031       -0.186124      2.18565e-05     9.80122e-05
                     7.31955e-06    -9.89681e-05        -0.533636       -0.407562     -1.82236e-06    -0.000105263         0.133669       -0.606493
                        -0.92503       -0.186125     -2.13787e-06    -0.000105626       -0.0377451        0.274974      0.000115644     6.93935e-05
                     2.26939e-05     0.000106572         0.133668       -0.606488      0.000118629     6.78432e-05         -0.44157        0.430909
499600                -0.0938843        0.245531      3.32442e-06    -9.85026e-05        -0.925147       -0.164159      2.12835e-05     9.82507e-05
                     3.31803e-06    -9.78989e-05        -0.527786       -0.381457     -5.76852e-07    -0.000106203         0.146727       -0.612928
                       -0.925147        -0.16416     -8.83653e-07     -0.00010656       -0.0351866        0.277799      0.000120635     6.65681e-05
                     2.21924e-05     0.000108289         0.146725       -0.612922      0.000124337     6.47915e-05        -0.404593        0.426052
502800                -0.0908373        0.247045     -9.90573e-07    -9.73079e-05        -0.924444       -0.139834      2.06869e-05     9.84983e-05
                    -9.91789e-07    -9.67017e-05         -0.52104       -0.354915      7.48383e-07    -0.000107182         0.160811       -0.619381
                       -0.924444       -0.139834      4.50707e-07    -0.000107534       -0.0324432        0.280876      0.000125955     6.34299e-05
                     2.16369e-05     0.000110058         0.160809       -0.619375      0.000130444     6.13755e-05        -0.367509        0.419735
506000                -0.0874722        0.248701      -5.6506e-06    -9.59639e-05        -0.922633       -0.112801      2.00653e-05     9.87555e-05
                    -5.64613e-06    -9.53554e-05        -0.513346       -0.327962      2.16091e-06    -0.000108204         0.176026       -0.625806
                       -0.922633       -0.112802      1.87279e-06    -0.000108549       -0.0294951        0.284241      0.000131633      5.9931e-05
                     2.10229e-05     0.000111882         0.176023       -0.625799      0.000136986     5.75356e-05        -0.330401        0.411934
509200                -0.0837367         0.25052     -1.06977e-05    -9.44446e-05        -0.919324      -0.0826616      1.94173e-05     9.90231e-05
                     -1.0687e-05     -9.3834e-05        -0.504653       -0.300626      3.66923e-06    -0.000109269         0.192481        -0.63214
                       -0.919324      -0.0826624      3.39112e-06    -0.000109607       -0.0263192        0.287935      0.000137702     5.60148e-05
                      2.0345e-05     0.000113761         0.192478       -0.632133      0.000144007     5.32004e-05        -0.293356        0.402635
512400                -0.0795661        0.252527     -1.61808e-05    -9.27182e-05         -0.91399      -0.0489559      1.87409e-05     9.93015e-05
                    -1.61632e-05    -9.21058e-05        -0.494909       -0.272943      5.28295e-06    -0.000110381         0.210302       -0.638308
                        -0.91399      -0.0489568      5.01533e-06    -0.000110711       -0.0228892        0.292009      0.000144197     5.16128e-05
                     1.95979e-05     0.000115696         0.210298       -0.638299      0.000151551     4.82832e-05        -0.256463        0.391827
515600                -0.0748799        0.254752     -2.21572e-05    -9.07454e-05        -0.905908      -0.0111702      1.80343e-05     9.95915e-05
                    -2.21321e-05    -9.01316e-05        -0.484063       -0.244949      7.01294e-06    -0.000111541         0.229622       -0.644209
                       -0.905908       -0.011171      6.75631e-06    -0.000111863       -0.0191752        0.296521      0.000151156     4.66429e-05
                     1.87753e-05     0.000117687         0.229617         -0.6442      0.000159666     4.26781e-05        -0.219813         0.37951
518800                -0.0695767        0.257232     -2.86943e-05    -8.84772e-05        -0.894084       0.0312506      1.72955e-05     9.98938e-05
                    -2.86607e-05    -8.78625e-05        -0.472063       -0.216689      8.87154e-06    -0.000112753         0.250587       -0.649721
                       -0.894084       0.0312497      8.62642e-06    -0.000113064       -0.0151424        0.301546      0.000158618     4.10052e-05
                     1.78708e-05     0.000119737         0.250581       -0.649712      0.000168405      3.6255e-05        -0.183496        0.365686
522000                -0.0635264        0.260012     -3.58714e-05    -8.58519e-05        -0.877149       0.0788627      1.65221e-05     0.000100209
                    -3.58285e-05    -8.52371e-05        -0.458857       -0.188212      1.08728e-05    -0.000114017         0.273354       -0.654689
                        -0.87715       0.0788618      1.06397e-05    -0.000114318       -0.0107508        0.307173      0.000166625     3.45776e-05
                     1.68772e-05     0.000121844         0.273346       -0.654678      0.000177821     2.88532e-05        -0.147604         0.35037
525200                -0.0565598        0.263148     -4.37833e-05    -8.27908e-05        -0.853215        0.132137      1.57118e-05     0.000100539
                    -4.37301e-05    -8.21769e-05        -0.444395       -0.159572      1.30329e-05    -0.000115337         0.298085       -0.658917
                       -0.853216        0.132136      1.28124e-05    -0.000115625       -0.0059546        0.313514      0.000175217     2.72105e-05
                     1.57869e-05     0.000124009         0.298076       -0.658906      0.000187966      2.0273e-05        -0.112229         0.33358
528400                -0.0484528        0.266713     -5.25426e-05     -7.9193e-05        -0.819689        0.191284      1.48618e-05     0.000100883
                     -5.2478e-05    -7.85814e-05        -0.428629       -0.130831      1.53701e-05    -0.000116714         0.324951       -0.662166
                        -0.81969        0.191283      1.51628e-05    -0.000116989     -0.000700846         0.32071      0.000184432     1.87193e-05
                     1.45916e-05      0.00012623         0.324941       -0.662154      0.000198886     1.02642e-05       -0.0774601        0.315343
531600                -0.0389022        0.270797     -6.22848e-05    -7.49265e-05        -0.773069        0.255922      1.39691e-05     0.000101243
                    -6.22074e-05     -7.4319e-05        -0.411513       -0.102054      1.79059e-05    -0.000118149         0.354121       -0.664135
                        -0.77307        0.255921      1.77122e-05    -0.000118408       0.00507072        0.328939      0.000194301     8.87445e-06
                     1.32822e-05     0.000128508         0.354108       -0.664123      0.000210612    -1.48764e-06       -0.0433856        0.295693
534800                -0.0274872        0.275515     -7.31726e-05    -6.98172e-05         -0.70878        0.324481      1.30304e-05      0.00010162
                    -7.30813e-05    -6.92165e-05        -0.393004      -0.0733145      2.06646e-05    -0.000119643         0.385752       -0.664458
                       -0.708781         0.32448      2.04851e-05    -0.000119885        0.0114281        0.338433      0.000204837    -2.60984e-06
                     1.18492e-05     0.000130839         0.385737       -0.664445      0.000223151    -1.53797e-05       -0.0100907        0.274672
538000                 -0.013608        0.281016     -8.54025e-05    -6.36317e-05        -0.621249        0.393217      1.20421e-05     0.000102016
                    -8.52961e-05    -6.30412e-05        -0.373062      -0.0446903      2.36749e-05    -0.000121196         0.419979       -0.662685
                        -0.62125        0.393216      2.35101e-05    -0.000121419        0.0184461        0.349491      0.000216026    -1.60913e-05
                     1.02823e-05     0.000133222         0.419962       -0.662672      0.000236455    -3.19148e-05        0.0223429        0.252327
541200                0.00362165        0.287494     -9.92113e-05    -5.60516e-05        -0.504645        0.454782      1.10001e-05     0.000102431
                    -9.90886e-05    -5.54762e-05        -0.351653      -0.0162662      2.69699e-05    -0.000122806         0.456894       -0.658275
                       -0.504646        0.454782      2.68202e-05    -0.000123007        0.0262034        0.362517      0.000227804    -3.20179e-05
                     8.57053e-06     0.000135653         0.456874       -0.658262      0.000250395    -5.17292e-05        0.0538374        0.228714
544400                 0.0255644        0.295192     -0.000114883    -4.66356e-05        -0.355017        0.496697      9.89998e-06     0.000102867
                    -0.000114743     -4.6082e-05        -0.328746       0.0118673      3.05884e-05     -0.00012447         0.496518       -0.650581
                       -0.355018        0.496697       3.0454e-05    -0.000124646        0.0347741        0.378053      0.000240028    -5.09502e-05
                     6.70208e-06     0.000138128         0.496495       -0.650568      0.000264691    -7.56227e-05        0.0843196        0.203892
547600                  0.054425        0.304401      -0.00013275      -3.476e-05        -0.174565         0.50108      8.73668e-06     0.000103326
                    -0.000132595    -3.42377e-05        -0.304318       0.0396141      3.45759e-05    -0.000126182         0.538765       -0.638845
                       -0.174566         0.50108      3.44569e-05     -0.00012633        0.0442099        0.396851      0.000252419    -7.35833e-05
                     4.66463e-06     0.000140641         0.538739       -0.638834      0.000278822    -0.000104585         0.113722        0.177927
550800                 0.0940029         0.31539     -0.000153194    -1.95256e-05        0.0227493        0.448383      7.50464e-06      0.00010381
                    -0.000153024    -1.90477e-05        -0.278352       0.0668728       3.8986e-05     -0.00012793         0.583393       -0.622202
                       0.0227485        0.448384      3.88823e-05    -0.000128046        0.0544989         0.41997       0.00026448    -0.000100766
                     2.44516e-06     0.000143184         0.583364       -0.622192      0.000291874    -0.000139803         0.141982         0.15089
554000                  0.151399         0.32808     -0.000176607     3.91002e-07         0.208813        0.327203      6.19758e-06      0.00010432
                    -0.000176431     8.06095e-07        -0.250838       0.0935374      4.38819e-05      -0.0001297         0.629945       -0.599695
                        0.208813        0.327203      4.37929e-05    -0.000129778        0.0654779        0.448939      0.000275375    -0.000133498
                     3.01178e-08      0.00014575         0.629913       -0.599687      0.000302305    -0.000182607         0.169044        0.122857
557200                  0.241369        0.340561     -0.000203303     2.69763e-05         0.349146        0.145792      4.80844e-06     0.000104859
                    -0.000203136     2.73032e-05        -0.221777        0.119497      4.93385e-05    -0.000131467         0.677684       -0.570317
                        0.349146        0.145793      4.92631e-05    -0.000131503        0.0766359        0.486016      0.000283737    -0.000172882
                    -2.59452e-06     0.000148327         0.677648       -0.570313      0.000307634    -0.000234279         0.194858        0.093906
560400                  0.399066        0.341393     -0.000233266     6.32585e-05         0.419991       -0.066652      3.32925e-06     0.000105429
                    -0.000233143     6.34637e-05        -0.191175        0.144639      5.54446e-05    -0.000133197         0.725523       -0.533085
                        0.419991      -0.0666518      5.53808e-05    -0.000133183        0.0866683        0.534583      0.000287418    -0.000219958
                    -5.44306e-06     0.000150903         0.725484       -0.533084      0.000304058    -0.000295592         0.219383       0.0641184
563600                    0.7196        0.257358     -0.000265528     0.000113872         0.420351       -0.274126      1.75097e-06     0.000106033
                    -0.000265516     0.000113917        -0.159052        0.168845      6.23053e-05    -0.000134838         0.771972       -0.487154
                        0.420351       -0.274126        6.225e-05    -0.000134767        0.0924341        0.599726      0.000283197    -0.000275328
                    -8.52992e-06     0.000153462         0.771931       -0.487158      0.000286226    -0.000365865         0.242581       0.0335782
564000                    0.7803        0.226507     -0.000269596     0.000121521         0.416204       -0.298245      1.54622e-06     0.000106111
                    -0.000269605     0.000121544        -0.154931          0.1718       6.3222e-05    -0.000135033          0.77759       -0.480769
                        0.416204       -0.298245      6.31674e-05    -0.000134955         0.092559        0.609374      0.000281904    -0.000282824
                    -8.93324e-06      0.00015378         0.777548       -0.480774      0.000282674    -0.000375142         0.245386        0.029712
566800                   0.93278       -0.360446      -0.00029665      0.00018572          0.36785       -0.450827      6.33293e-08     0.000106675
                     -0.00029688      0.00018558        -0.125437        0.191999       7.0045e-05    -0.000136317         0.815122       -0.431978
                         0.36785       -0.450827      6.99934e-05    -0.000136181        0.0864614        0.688745      0.000266593    -0.000338419
                    -1.18693e-05     0.000155988          0.81508       -0.431988      0.000247621    -0.000441443         0.264425      0.00237073
570000                 -0.113658        -0.99352     -0.000317276     0.000287989         0.285547       -0.587095     -1.74544e-06     0.000107357
                    -0.000317982     0.000287715       -0.0903691         0.21398      7.88095e-05    -0.000137528         0.852695       -0.367502
                        0.285547       -0.587095      7.87547e-05    -0.000137317        0.0511259         0.80997      0.000232154    -0.000406292
