! TOUCHSTONE file generated by CST MICROWAVE STUDIO
! Date and time: Mon Oct 20 08:27:23 2025
! Project name: Teste_Macro_Metasurface_Nanopilar.cst
! Parameters = {H=600; L_x=100; L_y=145; Lambda=1064; Max_L=200; Min_L=70; PathPara=1; Phi=0; Step_L=10; Theta=0; p=520; phaseX=180; phaseY=0}
! Header version: 2018
! Port assignment regex: !\s*Touchstone port\s*([0-9]+)\s*=\s*(CST MWS port|CST DS port)\s*([0-9]+|Zmin|Zmax)\s*\(\"(.*)\"\)(\s*mode\s*([0-9]+))?.*
! Touchstone port assignment:
! Touchstone port 1 = CST MWS port Zmax ("") mode 1
! Touchstone port 2 = CST MWS port Zmax ("") mode 2
! Touchstone port 3 = CST MWS port Zmin ("") mode 1
! Touchstone port 4 = CST MWS port Zmin ("") mode 2
! S-Parameters are not renormalized. Each port impedance will be approximated by the real part at minimum frequency. The values are described via the [Reference] keyword.
! Default impedance is overridden by [Reference]
[Version] 2.0
# GHz S RI R 376.73
[Number of Ports] 4
[Reference]
376.73 376.73 259.888 259.888 
[Number of Frequencies] 52
[Network Data]
474000                 0.0152977        0.958759     -2.81506e-05    -5.02941e-05        0.0496199       -0.129915     -7.15915e-05    -2.87712e-05
                    -2.81054e-05    -5.03669e-05         0.153701        0.154547     -5.33373e-05     1.92557e-05        -0.972148      -0.0484784
                       0.0496199       -0.129915     -5.33711e-05       1.931e-05         0.855066        -0.39711     -5.97347e-05     2.37923e-05
                     -7.1569e-05    -2.88362e-05        -0.972148      -0.0484782     -5.96926e-05     2.37507e-05        -0.169437         0.14086
477200                 0.0265712        0.958727     -1.80258e-05      -1.732e-05        0.0553077       -0.131092     -7.00692e-05    -2.55754e-05
                    -7.37919e-05      4.5601e-06         0.154323        0.145605      -4.8349e-05     2.23708e-05        -0.983586      -0.0294076
                       0.0553077       -0.131092     -4.86892e-05     2.10575e-05         0.856793       -0.424122      -5.9046e-05     2.22809e-05
                    -6.96614e-05    -2.54815e-05        -0.983586      -0.0294067     -5.89473e-05     2.21152e-05        -0.170196         0.13675
480400                 0.0383981        0.958519     -8.09143e-06     1.29062e-05        0.0611889       -0.132226     -6.84705e-05    -2.21889e-05
                     -0.00010371     6.46731e-05         0.154761        0.136178     -4.29521e-05     2.55341e-05        -0.995898     -0.00817478
                        0.061189       -0.132226     -4.37025e-05     2.27674e-05         0.858118       -0.454035     -5.83182e-05     2.06698e-05
                     -6.7649e-05    -2.19217e-05        -0.995897     -0.00817293     -5.81585e-05     2.03687e-05        -0.171068        0.132458
483600                 0.0508158        0.958109      1.60472e-06     4.06985e-05        0.0672719       -0.133312     -6.67896e-05    -1.85941e-05
                    -0.000118748     0.000124525         0.154983        0.126236     -3.71047e-05     2.87307e-05        -0.999881       0.0154542
                       0.0672719       -0.133312     -3.83871e-05     2.44229e-05         0.858869       -0.487323     -5.75477e-05     1.89488e-05
                     -6.5523e-05    -1.81372e-05        -0.999881       0.0154571     -5.73226e-05     1.84994e-05        -0.172066        0.127974
486800                 0.0638647        0.957466      1.10317e-05     6.63268e-05        0.0735651       -0.134344     -6.50201e-05    -1.47714e-05
                    -0.000121513     0.000180222         0.154949        0.115744     -3.07601e-05     3.19411e-05        -0.999144       0.0413701
                       0.0735652       -0.134344     -3.27176e-05     2.60037e-05         0.853401       -0.521255     -5.67309e-05     1.71064e-05
                    -6.32737e-05    -1.41062e-05        -0.999144       0.0413742     -5.64352e-05      1.6494e-05        -0.173207        0.123287
490000                 0.0775882        0.956555      2.01705e-05     9.00243e-05        0.0800776       -0.135312     -6.31551e-05    -1.06985e-05
                    -0.000115207     0.000229629         0.154615        0.104667     -2.38668e-05     3.51396e-05        -0.997557       0.0698545
                       0.0800778       -0.135312     -2.66672e-05     2.74854e-05         0.834419        -0.55113     -5.58635e-05     1.51293e-05
                    -6.08901e-05    -9.80393e-06        -0.997557       0.0698599     -5.54916e-05      1.4337e-05        -0.174507        0.118386
493200                 0.0920332        0.955334      2.90114e-05     0.000111993        0.0868187       -0.136211     -6.11871e-05    -6.35016e-06
                    -0.000102827     0.000272028         0.153928       0.0929684      -1.6368e-05     3.82928e-05        -0.994858        0.101279
                       0.0868189       -0.136211     -2.02074e-05      2.8839e-05         0.812254       -0.583304     -5.49409e-05     1.30023e-05
                    -5.83601e-05    -5.20209e-06        -0.994857        0.101286     -5.44865e-05     1.20109e-05        -0.175987        0.113261
496400                   0.10725        0.953757      3.75507e-05     0.000132409         0.093798       -0.137029     -5.91077e-05     -1.6976e-06
                     -8.6799e-05     0.000307615         0.152828       0.0806117     -8.20179e-06     4.13579e-05        -0.990697        0.136083
                       0.0937982       -0.137029     -1.33087e-05     3.00297e-05         0.786213       -0.617955     -5.39577e-05     1.07076e-05
                    -5.56697e-05    -2.68373e-07        -0.990696        0.136092     -5.34138e-05     9.49488e-06        -0.177669          0.1079
499600                  0.123293        0.951769      4.57896e-05     0.000151425         0.101025       -0.137758     -5.69075e-05       3.292e-06
                    -6.89054e-05     0.000337064         0.151245       0.0675589      6.99214e-07     4.42804e-05        -0.984606         0.17479
                        0.101026       -0.137758     -5.94056e-06     3.10161e-05         0.755413       -0.655249      -5.2908e-05     8.22468e-06
                    -5.28037e-05     5.03431e-06        -0.984604        0.174801     -5.22669e-05     6.76488e-06        -0.179577        0.102292
502800                   0.14022        0.949307      5.37324e-05     0.000169176         0.108511       -0.138386     -5.45764e-05      8.6564e-06
                     -5.0367e-05     0.000361225         0.149097       0.0537726       1.0407e-05     4.69909e-05        -0.975944        0.218019
                        0.108512       -0.138386      1.92762e-06     3.17491e-05         0.718717       -0.695303     -5.17852e-05     5.52962e-06
                    -4.97445e-05     1.07488e-05        -0.975941        0.218033     -5.10381e-05     3.79256e-06        -0.181741       0.0964241
506000                  0.158092        0.946296      6.13858e-05      0.00018578         0.116267         -0.1389      -5.2103e-05     1.44391e-05
                    -3.19714e-05     0.000380954         0.146291       0.0392174      2.09975e-05     4.94021e-05        -0.963832        0.266509
                        0.116267         -0.1389      1.03259e-05     3.21706e-05         0.674643       -0.738145     -5.05817e-05     2.59413e-06
                    -4.64723e-05     1.69248e-05        -0.963828        0.266526     -4.97188e-05      5.4438e-07        -0.184194       0.0902867
509200                  0.176976        0.942651       6.8758e-05     0.000201342         0.124302       -0.139289     -4.94748e-05     2.06907e-05
                    -1.41961e-05      0.00039703         0.142717       0.0238609      3.25483e-05     5.14043e-05        -0.947036        0.321129
                        0.124302       -0.139289      1.92827e-05     3.22122e-05          0.62124        -0.78362      -4.9289e-05    -6.15265e-07
                    -4.29645e-05     2.36203e-05        -0.947029        0.321149     -4.82994e-05    -3.01967e-06        -0.186973       0.0838689
512400                   0.19694        0.938272      7.58584e-05     0.000215954         0.132628       -0.139536     -4.66781e-05       2.747e-05
                     2.69237e-06     0.000410124          0.13825      0.00767591      4.51364e-05     5.28612e-05        -0.923794         0.38289
                        0.132629       -0.139536      2.88227e-05     3.17935e-05         0.555915       -0.831239     -4.78973e-05    -4.13851e-06
                    -3.91953e-05     3.09033e-05        -0.923784        0.382915     -4.67688e-05    -6.94766e-06        -0.190119       0.0771617
515600                  0.218056        0.933043      8.26967e-05     0.000229698         0.141258       -0.139626     -4.36976e-05     3.48462e-05
                     1.85657e-05     0.000420795         0.132744     -0.00935657      5.88327e-05     5.36044e-05        -0.891549        0.452925
                        0.141258       -0.139626      3.89655e-05     3.08211e-05         0.475192       -0.879882     -4.63959e-05    -8.02365e-06
                    -3.51354e-05     3.88544e-05        -0.891533        0.452955     -4.51147e-05    -1.12978e-05        -0.193681       0.0701574
518800                  0.240399        0.926825      8.92832e-05     0.000242648         0.150201        -0.13954     -4.05167e-05     4.29009e-05
                     3.33829e-05       0.0004295         0.126034      -0.0272438      7.36958e-05     5.34277e-05        -0.846494        0.532398
                        0.150202        -0.13954      4.97216e-05     2.91867e-05         0.374421       -0.927259     -4.47722e-05     -1.2329e-05
                    -3.07507e-05     4.75692e-05        -0.846472        0.532434     -4.33231e-05    -1.61415e-05        -0.197713       0.0628511
522000                  0.264045        0.919461      9.56281e-05     0.000254869          0.15947       -0.139259     -3.71171e-05     5.17311e-05
                     4.71564e-05     0.000436611         0.117932      -0.0459766      8.97618e-05     5.20824e-05        -0.782846        0.622215
                        0.159471       -0.139259      6.10899e-05     2.67663e-05         0.247529        -0.96888     -4.30124e-05     -1.7126e-05
                    -2.60021e-05     5.71628e-05        -0.782813        0.622256     -4.13784e-05    -2.15668e-05        -0.202275       0.0552413
525200                  0.289069        0.910762      0.000101742     0.000266419         0.169077       -0.138761     -3.34789e-05      6.1453e-05
                     5.99292e-05     0.000442427         0.108225      -0.0655232      0.000107031     4.92727e-05        -0.691649        0.722234
                        0.169078       -0.138761      7.30521e-05     2.34198e-05        0.0871697       -0.996193     -4.11009e-05     -2.2503e-05
                    -2.08442e-05     6.77739e-05        -0.691601        0.722279     -3.92636e-05    -2.76838e-05        -0.207439       0.0473315
528400                  0.315542         0.90051      0.000107634      0.00027735         0.179032       -0.138022      -2.9581e-05     7.22071e-05
                     7.17606e-05     0.000447187        0.0966729      -0.0858219      0.000125449     4.46547e-05        -0.559028        0.829148
                        0.179033       -0.138021      8.55674e-05     1.89907e-05        -0.113501       -0.993538     -3.90205e-05    -2.85709e-05
                    -1.52243e-05     7.95724e-05         -0.55896        0.829195     -3.69602e-05    -3.46321e-05        -0.213281       0.0391314
531600                  0.343529        0.888446      0.000113315      0.00028771         0.189348       -0.137015     -2.54013e-05     8.41643e-05
                     8.27175e-05     0.000451084        0.0830136       -0.106771      0.000144885     3.78401e-05        -0.364685        0.931131
                        0.189349       -0.137015      9.85655e-05     1.33087e-05        -0.354594        -0.93502     -3.67527e-05      -3.547e-05
                    -9.08123e-06     9.27675e-05        -0.364591        0.931168     -3.44492e-05    -4.25909e-05         -0.21989       0.0306593
534800                  0.373082        0.874271      0.000118794     0.000297543         0.200034       -0.135713     -2.09172e-05     9.75351e-05
                     9.28681e-05     0.000454275        0.0669612        -0.12822      0.000165105     2.84081e-05       -0.0857866        0.996314
                        0.200035       -0.135713      0.000111939     6.19243e-06         -0.61574        -0.78795     -3.42784e-05    -4.33813e-05
                     -2.3434e-06      0.00010762       -0.0856704        0.996324     -3.17127e-05     -5.1794e-05        -0.227362       0.0219448
538000                  0.404232        0.857633       0.00012408     0.000306885         0.211101       -0.134083      -1.6108e-05     0.000112581
                     0.000102279     0.000456885         0.048213       -0.149954      0.000185742     1.59296e-05         0.277457        0.960738
                        0.211102       -0.134083      0.000125536    -2.54321e-06         -0.84411       -0.536171     -3.15795e-05    -5.25412e-05
                     5.07244e-06     0.000124461         0.277568        0.960706     -2.87375e-05    -6.25518e-05        -0.235805       0.0130316
541200                  0.436981        0.838121      0.000129182     0.000315773         0.222559       -0.132091     -1.09565e-05     0.000129631
                     0.000111015     0.000459015        0.0264594       -0.171679      0.000206269     6.65365e-09         0.650149        0.759807
                        0.222559        -0.13209       0.00013915    -1.30778e-05        -0.976977       -0.213346     -2.86425e-05    -6.32644e-05
                      1.3263e-05     0.000143711         0.650215         0.75975     -2.55221e-05     -7.5285e-05        -0.245338      0.00398178
544400                  0.471285         0.81526      0.000134108     0.000324238         0.234413       -0.129698     -5.45463e-06     0.000149105
                     0.000119133     0.000460747        0.0013989       -0.193013      0.000225989    -1.96696e-05          0.90545        0.424454
                        0.234414       -0.129697      0.000152517    -2.55711e-05        -0.993868        0.110569     -2.54661e-05    -7.59791e-05
                     2.23393e-05      0.00016592         0.905469        0.424413     -2.20912e-05    -9.05766e-05        -0.256085      -0.0051196
547600                  0.507038          0.7885      0.000138866     0.000332309         0.246673       -0.126863      3.88139e-07     0.000171544
                     0.000126688      0.00046215       -0.0272397       -0.213466      0.000244036    -4.32449e-05         0.997676       0.0681406
                        0.246674       -0.126863      0.000165309    -4.01449e-05        -0.923139        0.384467     -2.20756e-05    -9.12804e-05
                     3.24268e-05     0.000191817         0.997677       0.0681256     -1.85253e-05    -0.000109256        -0.268181      -0.0141591
550800                  0.544043        0.757217      0.000143464     0.000340012          0.25934       -0.123541      6.52977e-06     0.000197659
                     0.000133731     0.000463278       -0.0596669       -0.232435      0.000259421    -7.06213e-05          0.97178       -0.235889
                        0.259341       -0.123541      0.000177138    -5.68613e-05        -0.803904        0.594759      -1.8554e-05    -0.000110019
                      4.3661e-05     0.000222384         0.971779       -0.235891      -1.5024e-05    -0.000132537        -0.281761      -0.0229887
554000                  0.581985        0.720707      0.000147909     0.000347372         0.272418       -0.119684       1.2868e-05     0.000228398
                     0.000140305     0.000464177       -0.0959944         -0.2492      0.000271112    -0.000101386         0.880924       -0.473257
                        0.272419       -0.119683      0.000187569    -7.56982e-05        -0.663751        0.747954     -1.51084e-05    -0.000133446
                     5.61751e-05     0.000258979         0.880924       -0.473257     -1.20458e-05     -0.00016226        -0.296957       -0.031419
557200                  0.620388        0.678191      0.000152209     0.000354411         0.285905       -0.115237      1.91894e-05     0.000265054
                     0.000146452     0.000464883        -0.136189       -0.262937      0.000278159    -0.000134775         0.758732       -0.651403
                        0.285906       -0.115236      0.000196136    -9.65268e-05        -0.518353        0.855167     -1.22179e-05     -0.00016347
                     7.00682e-05      0.00030353         0.758731       -0.651405     -1.06356e-05    -0.000201308        -0.313892      -0.0392132
560400                  0.658564        0.628841      0.000156368     0.000361148         0.299797       -0.110143      2.50735e-05     0.000309421
                     0.000152208     0.000465428        -0.180024       -0.272746       0.00027984    -0.000169697         0.624564       -0.780974
                        0.299798       -0.110142      0.000202376    -0.000119094        -0.376232        0.926526     -1.09861e-05    -0.000203105
                     8.53272e-05     0.000358857         0.624559       -0.780977     -1.32485e-05    -0.000254374        -0.332661      -0.0460808
563600                  0.695557        0.571807      0.000160395     0.000367604         0.314082        -0.10434      2.97041e-05     0.000364045
                     0.000157606     0.000465838        -0.227036       -0.277698      0.000275794    -0.000204829         0.451665       -0.803594
                        0.314083       -0.104339      0.000205868    -0.000143014        -0.225688        0.904622     -1.40388e-05    -0.000257295
                      0.00010164     0.000429229         0.451621       -0.803533     -2.59963e-05    -0.000329245        -0.353319      -0.0516748
564000                  0.700038        0.564096      0.000160889     0.000368391         0.315895       -0.103562      3.01279e-05     0.000371762
                     0.000158258      0.00046588        -0.233102        -0.27793      0.000274884    -0.000209165         0.432428       -0.804404
                        0.315896       -0.103561      0.000206094    -0.000146075        -0.208808        0.900057     -1.49763e-05    -0.000265456
                     0.000103713     0.000439381         0.432386       -0.804345     -2.89195e-05      -0.0003407        -0.356035       -0.052265
566800                  0.730083        0.506283      0.000164294     0.000373793         0.328747      -0.0977618      3.14845e-05     0.000432624
                     0.000162677     0.000466133        -0.276488       -0.276911        0.0002661     -0.00023877         0.312113       -0.804152
                        0.328748      -0.0977611      0.000206281    -0.000167781        -0.103253        0.866459      -2.8021e-05    -0.000334318
                     0.000117924      0.00052138         0.312083       -0.804102     -6.53196e-05    -0.000438226        -0.375862      -0.0555924
570000                   0.76047        0.431605      0.000168071     0.000379734          0.34377      -0.0903373      2.72154e-05     0.000520626
                     0.000167448     0.000466332         -0.32737       -0.269639      0.000251278    -0.000270221         0.200092       -0.795642
                        0.343771      -0.0903366      0.000203409    -0.000192789      -0.00506465        0.826952     -7.11721e-05    -0.000447239
