! TOUCHSTONE file generated by CST MICROWAVE STUDIO
! Date and time: Mon Oct 20 08:27:44 2025
! Project name: Teste_Macro_Metasurface_Nanopilar.cst
! Parameters = {H=600; L_x=175; L_y=70; Lambda=1064; Max_L=200; Min_L=70; PathPara=1; Phi=0; Step_L=10; Theta=0; p=520; phaseX=180; phaseY=0}
! Header version: 2018
! Port assignment regex: !\s*Touchstone port\s*([0-9]+)\s*=\s*(CST MWS port|CST DS port)\s*([0-9]+|Zmin|Zmax)\s*\(\"(.*)\"\)(\s*mode\s*([0-9]+))?.*
! Touchstone port assignment:
! Touchstone port 1 = CST MWS port Zmax ("") mode 1
! Touchstone port 2 = CST MWS port Zmax ("") mode 2
! Touchstone port 3 = CST MWS port Zmin ("") mode 1
! Touchstone port 4 = CST MWS port Zmin ("") mode 2
! S-Parameters are not renormalized. Each port impedance will be approximated by the real part at minimum frequency. The values are described via the [Reference] keyword.
! Default impedance is overridden by [Reference]
[Version] 2.0
# GHz S RI R 376.73
[Number of Ports] 4
[Reference]
376.73 376.73 259.888 259.888 
[Number of Frequencies] 52
[Network Data]
474000                  0.359887       -0.207158      1.72975e-05    -5.70722e-05        -0.877348        0.188133     -1.15082e-05    -2.23756e-05
                     1.73323e-05     -5.7059e-05          0.22658       -0.118137      5.84159e-06     2.37698e-05         0.903233        0.304108
                       -0.877342        0.188151      1.65248e-05     1.10673e-05        -0.419449      -0.0384624      1.83716e-05     5.01713e-05
                    -1.15391e-05    -2.23712e-05         0.903233        0.304108     -4.93741e-06     2.92248e-05        -0.110062       -0.227461
477200                  0.358665       -0.205328      1.38366e-05    -6.16027e-05        -0.877884        0.203415     -1.29875e-05    -2.51502e-05
                     1.38674e-05    -6.15937e-05         0.226358        -0.12487      7.24434e-06     2.32215e-05         0.899344         0.30685
                       -0.877878        0.203434       1.7904e-05     1.05541e-05        -0.416171      -0.0326144      2.05735e-05     4.96298e-05
                    -1.30205e-05    -2.51469e-05         0.899344         0.30685     -2.79672e-06     2.86546e-05        -0.104347       -0.229644
480400                  0.357361       -0.203413      9.83696e-06     -6.6297e-05        -0.878213        0.220018     -1.46655e-05    -2.81201e-05
                     9.86296e-06    -6.62921e-05         0.226034       -0.131967      8.72669e-06     2.26419e-05         0.895285        0.309677
                       -0.878206        0.220037      1.93601e-05     1.00132e-05        -0.412668      -0.0265767      2.29082e-05     4.90523e-05
                     -1.4701e-05    -2.81177e-05         0.895285        0.309677     -5.23936e-07     2.80495e-05       -0.0982742       -0.231907
483600                  0.355966       -0.201406      5.21733e-06    -7.11248e-05        -0.878269        0.238114      -1.6577e-05    -3.13023e-05
                     5.23766e-06    -7.11236e-05          0.22559       -0.139455      1.02956e-05     2.20283e-05         0.891046        0.312593
                       -0.878261        0.238133      2.08996e-05     9.44244e-06        -0.408921      -0.0203427      2.53879e-05      4.8435e-05
                    -1.66154e-05    -3.13008e-05         0.891047        0.312593      1.89357e-06     2.74063e-05       -0.0918092       -0.234252
486800                  0.354471       -0.199303      -1.1302e-07    -7.60393e-05         -0.87797        0.257904     -1.87642e-05    -3.47147e-05
                    -9.93388e-08    -7.60415e-05         0.225008       -0.147365      1.19589e-05     2.13775e-05         0.886616        0.315602
                       -0.877962        0.257924      2.25298e-05     8.83918e-06        -0.404909      -0.0139061      2.80265e-05     4.77738e-05
                    -1.88059e-05    -3.47141e-05         0.886616        0.315602      4.47006e-06     2.67212e-05        -0.084914       -0.236681
490000                  0.352866       -0.197095     -6.25313e-06     -8.0973e-05        -0.877208        0.279625     -2.12783e-05     -3.8376e-05
                    -6.24714e-06     -8.0978e-05         0.224265       -0.155732      1.37254e-05      2.0686e-05          0.88198        0.318708
                         -0.8772        0.279645      2.42592e-05      8.2006e-06         -0.40061     -0.00726057      3.08399e-05     4.70638e-05
                    -2.13238e-05    -3.83761e-05          0.88198        0.318708      7.22177e-06       2.599e-05       -0.0775453       -0.239196
493200                   0.35114       -0.194777     -1.33079e-05    -8.58308e-05        -0.875843        0.303558     -2.41825e-05    -4.23044e-05
                    -1.33107e-05    -8.58375e-05         0.223334       -0.164592      1.56049e-05     1.99499e-05         0.877125        0.321914
                       -0.875834        0.303579       2.6097e-05     7.52351e-06        -0.395999    -0.000400261       3.3846e-05     4.62995e-05
                    -2.42324e-05    -4.23049e-05         0.877125        0.321914      1.01672e-05      2.5208e-05       -0.0696541       -0.241798
496400                   0.34928        -0.19234     -2.13835e-05    -9.04832e-05        -0.873687        0.330037     -2.75542e-05    -4.65165e-05
                     -2.1396e-05    -9.04904e-05         0.222185       -0.173988      1.76088e-05     1.91648e-05         0.872036        0.325226
                       -0.873677        0.330058      2.80536e-05     6.80432e-06        -0.391049      0.00668039      3.70652e-05     4.54745e-05
                    -2.76093e-05    -4.65171e-05         0.872036        0.325226      1.33275e-05     2.43695e-05       -0.0611844       -0.244485
499600                  0.347269       -0.189776     -3.05791e-05    -9.47589e-05         -0.87049        0.359459     -3.14896e-05    -5.10253e-05
                    -3.06023e-05    -9.47649e-05         0.220781       -0.183962      1.97496e-05     1.83256e-05         0.866695        0.328647
                       -0.870479        0.359481      3.01411e-05     6.03898e-06         -0.38573       0.0139863      4.05211e-05     4.45812e-05
                    -3.15505e-05    -5.10255e-05         0.866695        0.328647      1.67272e-05     2.34682e-05       -0.0520723       -0.247257
502800                  0.345092       -0.187076      -4.0975e-05    -9.84377e-05        -0.865917        0.392302     -3.61076e-05    -5.58365e-05
                    -4.10094e-05    -9.84404e-05          0.21908       -0.194567      2.20421e-05     1.74265e-05         0.861084        0.332182
                       -0.865904        0.392325       3.2373e-05     5.22291e-06        -0.380009       0.0215217      4.42406e-05     4.36111e-05
                    -3.61754e-05    -5.58356e-05         0.861084        0.332182      2.03944e-05     2.24969e-05       -0.0422445       -0.250108
506000                  0.342728        -0.18423     -5.26149e-05    -0.000101246        -0.859509        0.429138     -4.15561e-05    -6.09434e-05
                    -5.26607e-05    -0.000101243          0.21703       -0.205854      2.45029e-05     1.64608e-05         0.855183        0.335836
                       -0.859495        0.429161      3.47648e-05     4.35091e-06        -0.373849       0.0292895      4.82553e-05     4.25539e-05
                    -4.16318e-05    -6.09401e-05         0.855183        0.335836      2.43621e-05      2.1447e-05       -0.0316163       -0.253034
509200                  0.340154       -0.181227     -6.54833e-05    -0.000102859        -0.850635        0.470654     -4.80186e-05    -6.63173e-05
                    -6.55397e-05    -0.000102847          0.21457       -0.217885      2.71511e-05     1.54209e-05         0.848969        0.339613
                        -0.85062        0.470677      3.73344e-05     3.41702e-06        -0.367211       0.0372916      5.26015e-05     4.13975e-05
                    -4.81034e-05    -6.63103e-05         0.848969        0.339613      2.86688e-05     2.03087e-05       -0.0200897       -0.256022
512400                  0.337344       -0.178058      -7.9477e-05    -0.000102908        -0.838415        0.517669     -5.57217e-05    -7.18948e-05
                    -7.95426e-05    -0.000102884         0.211627       -0.230725      3.00092e-05     1.42978e-05         0.842419        0.343519
                       -0.838398        0.517693      4.01022e-05     2.41445e-06        -0.360051       0.0455278       5.7322e-05     4.01274e-05
                    -5.58167e-05     -7.1882e-05         0.842419        0.343519      3.33598e-05     1.90701e-05      -0.00755106       -0.259058
515600                  0.334267        -0.17471     -9.43772e-05    -0.000101007        -0.821093        0.570794     -6.49418e-05    -7.75562e-05
                    -9.44492e-05    -0.000100968         0.208116       -0.244443      3.31031e-05     1.30813e-05         0.835505        0.347557
                       -0.821075         0.57082      4.30923e-05     1.33533e-06        -0.352321       0.0539959      6.24674e-05     3.87262e-05
                     -6.5048e-05    -7.75347e-05         0.835505        0.347557       3.8489e-05     1.77176e-05        0.0061328       -0.262118
518800                  0.330887        -0.17117     -0.000109826    -9.67913e-05        -0.783984        0.620781     -7.60086e-05    -8.30935e-05
                    -0.000109901    -9.67351e-05          0.20393       -0.259118      3.64631e-05      1.1759e-05         0.828197        0.351733
                       -0.783964        0.620806      4.63324e-05     1.70578e-07        -0.343966       0.0626906      6.80975e-05      3.7173e-05
                    -7.61267e-05    -8.30593e-05         0.828197        0.351733      4.41209e-05     1.62346e-05         0.021118       -0.265171
522000                  0.327161       -0.167427      -0.00012532    -8.99746e-05        -0.737323        0.675541     -8.92994e-05    -8.81636e-05
                    -0.000125392    -8.99003e-05         0.198944       -0.274831      4.01253e-05     1.03167e-05         0.820462        0.356052
                       -0.737299        0.675566      4.98553e-05    -1.09039e-06        -0.334929       0.0716033      7.42842e-05      3.5442e-05
                    -8.94292e-05    -8.81115e-05         0.820462        0.356052       5.0333e-05     1.46012e-05        0.0375886        -0.26817
525200                  0.323041       -0.163469     -0.000140227    -8.04152e-05        -0.678098        0.734971     -0.000105211    -9.22231e-05
                    -0.000140291    -8.03236e-05         0.193004       -0.291669      4.41321e-05     8.73706e-06         0.812263        0.360517
                       -0.678072        0.734996      5.36997e-05    -2.45998e-06        -0.325145       0.0807208      8.11141e-05     3.35015e-05
                    -0.000105351    -9.21464e-05         0.812263        0.360517        5.722e-05     1.27934e-05         0.055763       -0.271052
528400                  0.318467       -0.159282     -0.000153844    -6.81759e-05        -0.602253        0.798305     -0.000124093    -9.44466e-05
                    -0.000153896    -6.80697e-05         0.185926       -0.309724      4.85349e-05     6.99965e-06         0.803559        0.365134
                       -0.602223        0.798328      5.79116e-05    -3.95279e-06        -0.314544       0.0900246      8.86928e-05     3.13119e-05
                    -0.000124238    -9.43373e-05         0.803559        0.365134      6.48981e-05     1.07817e-05        0.0759012       -0.273727
531600                   0.31337       -0.154857      -0.00016548    -5.35581e-05        -0.504399         0.86347     -0.000146101    -9.36464e-05
                    -0.000165515    -5.34419e-05         0.177484       -0.329086      5.33951e-05     5.07955e-06         0.794304        0.369904
                       -0.504365         0.86349      6.25464e-05    -5.58619e-06        -0.303049       0.0994894      9.71502e-05      2.8823e-05
                    -0.000146241    -9.34962e-05         0.794304        0.369904      7.35119e-05     8.52961e-06        0.0983141        -0.27607
534800                  0.307665       -0.150186     -0.000174556    -3.70918e-05        -0.377659        0.925945     -0.000170949    -8.82465e-05
                    -0.000174572    -3.69715e-05         0.167402       -0.349844      5.87882e-05     2.94635e-06         0.784448        0.374832
                        -0.37762        0.925961      6.76711e-05    -7.38092e-06        -0.290577        0.109082      0.000106648     2.59704e-05
                     -0.00017107    -8.80491e-05         0.784448        0.374832      8.32436e-05     5.99118e-06         0.123376       -0.277908
538000                  0.301254       -0.145263     -0.000180695    -1.94765e-05         -0.21408        0.976816     -0.000197552    -7.64221e-05
                    -0.000180692    -1.93581e-05         0.155344       -0.372076      6.48067e-05     5.62489e-07         0.773933        0.379918
                       -0.214037        0.976825      7.33678e-05    -9.36199e-06        -0.277036        0.118758       0.00011739     2.26706e-05
                    -0.000197631     -7.6178e-05         0.773933        0.379918       9.4326e-05     3.10821e-06         0.151536       -0.278992
541200                  0.294017       -0.140093     -0.000183771     -1.4846e-06      -0.00672749        0.999977     -0.000223667     -5.6558e-05
                    -0.000183752    -1.37352e-06           0.1409       -0.395838      7.15661e-05    -2.11896e-06         0.762695        0.385164
                     -0.00668354        0.999978      7.97377e-05    -1.15599e-05        -0.262329        0.128461      0.000129638     1.88125e-05
                    -0.000223678    -5.62801e-05         0.762695        0.385164      0.000107061    -1.94541e-07         0.183338       -0.278976
544400                  0.285807       -0.134688     -0.000183913      1.6145e-05         0.244504        0.969648     -0.000245857    -2.80942e-05
                    -0.000183881     1.62447e-05          0.12357        -0.42115      7.92123e-05    -5.15743e-06          0.75066        0.390566
                        0.244546        0.969638      8.69075e-05    -1.40119e-05        -0.246351        0.138123       0.00014373     1.42463e-05
                    -0.000245781    -2.78118e-05          0.75066        0.390566      0.000121848    -4.01588e-06         0.219439        -0.27736
547600                   0.27645       -0.129077     -0.000181449     3.27946e-05         0.521826        0.853052     -0.000260202     7.53794e-06
                    -0.000181409     3.28805e-05         0.102744       -0.447968      8.79319e-05    -8.62928e-06         0.737746         0.39612
                         0.52186        0.853031       9.5038e-05    -1.67646e-05        -0.228991        0.147653      0.000160113     8.76473e-06
                    -0.000260037     7.78346e-06         0.737746         0.39612      0.000139227    -8.48826e-06         0.260624       -0.273429
550800                  0.265735       -0.123317     -0.000176838     4.80183e-05         0.779187        0.626792     -0.000263781     4.66597e-05
                    -0.000176795       4.809e-05        0.0776905        -0.47615      9.79682e-05    -1.26343e-05         0.723861        0.401819
                        0.779207        0.626766      0.000104336    -1.98764e-05        -0.210132        0.156943      0.000179394     2.07357e-06
                     -0.00026355     4.68299e-05         0.723861        0.401819      0.000159945    -1.37934e-05         0.307824       -0.266144
554000                  0.253404         -0.1175     -0.000170589     6.15529e-05         0.952494        0.304556     -0.000256105     8.43956e-05
                    -0.000170546     6.16111e-05        0.0475359       -0.505403      0.000109644    -1.73056e-05         0.708899        0.407649
                        0.952502        0.304534      0.000115072    -2.34215e-05        -0.189656        0.165859      0.000202408     -6.2579e-06
                     -0.00025585     8.44713e-05         0.708899        0.407649      0.000185065    -2.01874e-05         0.362107       -0.253982
557200                   0.23915       -0.111775     -0.000163193     7.32976e-05         0.998449      -0.0556722     -0.000239323     0.000116543
                    -0.000163154     7.33441e-05        0.0112631       -0.535203      0.000123395    -2.28243e-05          0.69274        0.413591
                        0.998448      -0.0556867      0.000127607    -2.74961e-05        -0.167442        0.174236      0.000230345    -1.68837e-05
                    -0.000239085      0.00011653          0.69274        0.413591      0.000216158    -2.80433e-05         0.424629       -0.234698
560400                  0.222609       -0.106379     -0.000155088     8.32773e-05         0.922677       -0.385575     -0.000217032      0.00014091
                    -0.000155054     8.33143e-05       -0.0322717       -0.564699      0.000139832     -2.9444e-05         0.675245        0.419619
                        0.922674       -0.385581      0.000142434    -3.22262e-05        -0.143374        0.181877      0.000264953    -3.08417e-05
                    -0.000216839     0.000140833         0.675245        0.419619      0.000255641    -3.79261e-05         0.496474       -0.204967
563600                  0.203355       -0.101673     -0.000146632     9.16022e-05          0.74826       -0.628968     -0.000192755     0.000157384
                    -0.000146605     9.16319e-05       -0.0842808       -0.592575      0.000159823    -3.75304e-05         0.656257        0.425693
                        0.748259       -0.628968      0.000160244    -3.77804e-05        -0.117346        0.188546      0.000308901    -4.98702e-05
                    -0.000192617     0.000157269         0.656257        0.425693       0.00030744    -5.07342e-05         0.578256        -0.15989
564000                  0.200735       -0.101159     -0.000145565      9.2534e-05         0.718617       -0.648383     -0.000189721     0.000158939
                    -0.000145539      9.2563e-05        -0.091437       -0.595858       0.00016263     -3.8669e-05          0.65377        0.426453
                        0.718617       -0.648383      0.000162725    -3.85433e-05         -0.11395        0.189298      0.000315239    -5.27379e-05
                     -0.00018959     0.000158822          0.65377        0.426453      0.000315073    -5.26066e-05         0.589166       -0.152852
566800                  0.180918       -0.098207     -0.000138103     9.84312e-05         0.520019       -0.745887     -0.000169039     0.000167139
                    -0.000138084     9.84559e-05        -0.145914       -0.616898      0.000184663    -4.76316e-05         0.635596        0.431763
                        0.520023       -0.745887      0.000182036    -4.43884e-05       -0.0892665        0.193964      0.000366459    -7.70854e-05
                    -0.000168954     0.000167011         0.635597        0.431763      0.000378378     -6.7986e-05         0.669244      -0.0923853
570000                  0.154812      -0.0967958     -0.000129705     0.000103945         0.322271        -0.79675     -0.000147316     0.000171794
                    -0.000129694     0.000103966        -0.218013       -0.634963      0.000216358    -6.06067e-05         0.613055        0.437757
                        0.322277       -0.796751      0.000209309    -5.23693e-05       -0.0590733        0.197804      0.000444855    -0.000118582
