! TOUCHSTONE file generated by CST MICROWAVE STUDIO
! Date and time: Mon Oct 20 08:27:22 2025
! Project name: Teste_Macro_Metasurface_Nanopilar.cst
! Parameters = {H=600; L_x=100; L_y=115; Lambda=1064; Max_L=200; Min_L=70; PathPara=1; Phi=0; Step_L=10; Theta=0; p=520; phaseX=180; phaseY=0}
! Header version: 2018
! Port assignment regex: !\s*Touchstone port\s*([0-9]+)\s*=\s*(CST MWS port|CST DS port)\s*([0-9]+|Zmin|Zmax)\s*\(\"(.*)\"\)(\s*mode\s*([0-9]+))?.*
! Touchstone port assignment:
! Touchstone port 1 = CST MWS port Zmax ("") mode 1
! Touchstone port 2 = CST MWS port Zmax ("") mode 2
! Touchstone port 3 = CST MWS port Zmin ("") mode 1
! Touchstone port 4 = CST MWS port Zmin ("") mode 2
! S-Parameters are not renormalized. Each port impedance will be approximated by the real part at minimum frequency. The values are described via the [Reference] keyword.
! Default impedance is overridden by [Reference]
[Version] 2.0
# GHz S RI R 376.73
[Number of Ports] 4
[Reference]
376.73 376.73 259.888 259.888 
[Number of Frequencies] 52
[Network Data]
474000                  0.358142      -0.0294522     -3.12725e-05    -6.50984e-05        -0.906681        0.183165     -6.34782e-05     3.57188e-05
                     -3.3783e-05     -4.8866e-05       -0.0219069        0.190473      2.45789e-05     4.05664e-05        -0.937328       -0.281613
                       -0.906684        0.183161      3.14535e-05     6.85095e-06        -0.344613          0.1231      2.42559e-05      -5.378e-05
                     -5.5591e-05     5.45879e-05        -0.937342       -0.281592      3.68317e-05    -3.25216e-05        -0.088664        0.173515
477200                  0.356932      -0.0320298     -3.11426e-05    -6.84495e-05        -0.932345        0.165519      -7.9627e-05     3.68283e-05
                    -3.30732e-05    -5.26278e-05       -0.0262929        0.189348      1.98115e-05     3.68605e-05        -0.937481       -0.284116
                       -0.932349        0.165513      2.63063e-05     3.01903e-06        -0.336593        0.121468      2.51077e-05    -5.72727e-05
                    -7.47433e-05     5.40766e-05        -0.937496       -0.284094      3.73903e-05    -3.61595e-05       -0.0837543        0.173546
480400                  0.355656      -0.0347201     -3.10301e-05    -7.20408e-05        -0.959483        0.145272     -9.79476e-05     3.75345e-05
                    -3.23474e-05     -5.6668e-05       -0.0310143        0.188086      1.47108e-05     3.29876e-05        -0.937638       -0.286812
                       -0.959487        0.145265      2.07994e-05    -9.75606e-07        -0.328186        0.119942      2.60261e-05    -6.09211e-05
                    -9.64549e-05     5.25641e-05        -0.937653        -0.28679      3.80034e-05    -3.99655e-05        -0.078414        0.173524
483600                  0.354308      -0.0375303       -3.094e-05    -7.58986e-05        -0.988112        0.121976     -0.000118875     3.76252e-05
                     -3.1608e-05    -6.10181e-05       -0.0361105        0.186665      9.24243e-06     2.89386e-05        -0.937796       -0.289724
                       -0.988117        0.121968      1.48961e-05    -5.14052e-06         -0.31937        0.118542      2.70179e-05    -6.47356e-05
                    -0.000121191     4.96207e-05        -0.937811       -0.289702      3.86772e-05     -4.3951e-05       -0.0725848        0.173434
486800                  0.352883      -0.0404686     -3.08788e-05    -8.00535e-05        -0.995667       0.0929923     -0.000142956     3.67849e-05
                    -3.08584e-05    -6.57146e-05       -0.0416266        0.185058      3.36728e-06      2.4704e-05        -0.937954        -0.29288
                       -0.995668       0.0929819      8.55466e-06    -9.48314e-06        -0.310123         0.11729      2.80904e-05    -6.87274e-05
                    -0.000149505     4.46252e-05         -0.93797       -0.292857      3.94184e-05    -4.81288e-05       -0.0661978        0.173255
490000                  0.351373      -0.0435439     -3.08542e-05    -8.45404e-05        -0.998146       0.0608612     -0.000170881     3.45385e-05
                    -3.01034e-05    -7.07995e-05       -0.0476154        0.183231     -2.95913e-06     2.02742e-05        -0.938112       -0.296311
                       -0.998147       0.0608493       1.7276e-06    -1.40106e-05        -0.300419        0.116215      2.92522e-05    -7.29086e-05
                    -0.000182032     3.66711e-05        -0.938128       -0.296288      4.02348e-05    -5.25126e-05       -0.0591709        0.172962
493200                  0.349772      -0.0467657     -3.08763e-05    -8.94001e-05        -0.999667       0.0258134     -0.000203521     3.01597e-05
                      -2.935e-05    -7.63221e-05       -0.0541382        0.181141      -9.7877e-06     1.56398e-05        -0.938266       -0.300054
                       -0.999667       0.0257997     -5.63913e-06    -1.87293e-05        -0.290235        0.115345      3.05126e-05    -7.72925e-05
                    -0.000219468     2.44246e-05        -0.938283       -0.300031      4.11352e-05    -5.71174e-05       -0.0514054        0.172521
496400                  0.348071      -0.0501448     -3.09576e-05    -9.46802e-05        -0.999922       -0.012491     -0.000241965     2.25192e-05
                    -2.86073e-05    -8.23399e-05       -0.0612674        0.178737     -1.71769e-05     1.07916e-05        -0.938414       -0.304155
                       -0.999922      -0.0125065     -1.36074e-05    -2.36447e-05        -0.279544        0.114716      3.18825e-05    -8.18936e-05
                    -0.000262475      5.9121e-06        -0.938431       -0.304132      4.21295e-05    -6.19598e-05       -0.0427816        0.171886
499600                   0.34626      -0.0536926     -3.11145e-05    -0.000100437        -0.998518      -0.0544213     -0.000287541      9.8298e-06
                    -2.78883e-05    -8.89208e-05       -0.0690881        0.175954     -2.51939e-05     5.72114e-06        -0.938551       -0.308667
                       -0.998517      -0.0544387     -2.22484e-05    -2.87604e-05        -0.268321        0.114367      3.33741e-05    -8.67276e-05
                    -0.000311465     -2.1781e-05        -0.938569       -0.308643      4.32294e-05    -6.70579e-05        -0.033154        0.170996
502800                   0.34433       -0.057422     -3.13677e-05    -0.000106735         -0.99495       -0.100368     -0.000341762    -1.07837e-05
                    -2.72104e-05    -9.61452e-05       -0.0777012        0.172708     -3.39167e-05     4.21508e-07        -0.938671       -0.313654
                       -0.994948       -0.100387     -3.16438e-05     -3.4078e-05        -0.256538        0.114342      3.50014e-05    -9.18117e-05
                    -0.000366094     -6.2892e-05        -0.938689        -0.31363      4.44479e-05    -7.24315e-05       -0.0223431        0.169768
506000                  0.342268      -0.0613469     -3.17441e-05    -0.000113654        -0.988576       -0.150726     -0.000406051    -4.40017e-05
                    -2.65978e-05    -0.000104109       -0.0872272        0.168892     -4.34356e-05    -5.11222e-06        -0.938766       -0.319196
                       -0.988572       -0.150748     -4.18884e-05    -3.95951e-05        -0.244171        0.114694      3.67801e-05     -9.7165e-05
                    -0.000424223     -0.00012331        -0.938785       -0.319171      4.58004e-05    -7.81025e-05       -0.0101263        0.168087
509200                  0.340062      -0.0654828     -3.22792e-05    -0.000121288         -0.97858       -0.205865     -0.000480871    -9.74313e-05
                    -2.60834e-05    -0.000112928       -0.0978101        0.164369     -5.38559e-05    -1.08817e-05        -0.938824        -0.32539
                       -0.978575       -0.205889     -5.30919e-05    -4.53046e-05        -0.231194        0.115479      3.87287e-05    -0.000102808
                    -0.000479982    -0.000210359        -0.938844       -0.325365      4.73042e-05    -8.40951e-05       0.00377521        0.165791
512400                  0.337695      -0.0698469     -3.30197e-05    -0.000129749        -0.963951       -0.266078     -0.000563333    -0.000183019
                     -2.5713e-05    -0.000122741        -0.109623        0.158954     -6.53008e-05    -1.68835e-05        -0.938829       -0.332358
                       -0.963944       -0.266104     -6.53819e-05    -5.11923e-05        -0.217583        0.116763       4.0868e-05    -0.000108764
                    -0.000520905    -0.000330748        -0.938851       -0.332331      4.89798e-05    -9.04358e-05        0.0197137         0.16265
515600                  0.335152       -0.074458     -3.40279e-05    -0.000139175        -0.943453       -0.331507     -0.000641573    -0.000317394
                    -2.55501e-05    -0.000133719        -0.122874        0.152403     -7.79151e-05    -2.31072e-05        -0.938758       -0.340252
                       -0.943443       -0.331535     -7.89075e-05    -5.72343e-05        -0.203318        0.118621      4.32221e-05    -0.000115057
                    -0.000525872    -0.000484516        -0.938781       -0.340225      5.08508e-05    -9.71541e-05        0.0381379        0.158327
518800                  0.332412      -0.0793374     -3.53881e-05    -0.000149733        -0.915626       -0.402031     -0.000684619    -0.000515658
                    -2.56841e-05     -0.00014607        -0.137813        0.144383     -9.18696e-05    -2.95319e-05        -0.937211       -0.348762
                       -0.915613       -0.402061     -9.38428e-05    -6.33926e-05        -0.188381        0.121135      4.58191e-05    -0.000121714
                     -0.00046974      -0.0006548        -0.937223        -0.34873      5.29449e-05    -0.000104283        0.0596229        0.152324
522000                  0.329453      -0.0845084      -3.7216e-05    -0.000161631        -0.878839       -0.477119     -0.000636583    -0.000767156
                    -2.62415e-05    -0.000160052         -0.15474        0.134436     -0.000107366    -3.61216e-05        -0.933742       -0.357946
                       -0.878822        -0.47715     -0.000110392    -6.96103e-05        -0.172758          0.1244      4.86915e-05    -0.000128767
                    -0.000341092    -0.000803141        -0.933755       -0.357912      5.52945e-05    -0.000111857        0.0849064        0.143879
525200                  0.326249      -0.0899971     -3.96724e-05    -0.000175126        -0.831404       -0.555668     -0.000449999    -0.000999661
                    -2.74041e-05    -0.000175987        -0.174007        0.121915     -0.000124645    -4.28188e-05        -0.929593       -0.368587
                       -0.831383         -0.5557     -0.000128796    -7.58037e-05        -0.156445         0.12852      5.18772e-05    -0.000136247
                    -0.000161668    -0.000887622        -0.929607       -0.368552      5.79377e-05    -0.000119918         0.114928          0.1318
528400                   0.32277      -0.0958329     -4.29843e-05     -0.00019054        -0.771813        -0.63585     -0.000163666     -0.00110808
                    -2.94367e-05    -0.000194277        -0.196014        0.105894     -0.000143991    -4.95352e-05         -0.92455        -0.38106
                       -0.771786       -0.635882     -0.000149336    -8.18517e-05        -0.139446        0.133611      5.54206e-05    -0.000144192
                     2.25187e-05    -0.000894368        -0.924566       -0.381023      6.09196e-05    -0.000128509         0.150848        0.114169
531600                  0.318981       -0.102049     -4.74793e-05     -0.00020828        -0.699067       -0.715056      0.000108101      -0.0010671
                     -3.2731e-05     -0.00021543        -0.221179       0.0850164     -0.000165745    -5.61381e-05        -0.918304       -0.395875
                       -0.699035       -0.715088     -0.000172342    -8.75813e-05        -0.121774        0.139803       5.9374e-05     -0.00015264
                     0.000174188    -0.000843078        -0.918321       -0.395836      6.42938e-05    -0.000137679         0.193977       0.0878078
534800                  0.314841       -0.108681     -5.36383e-05    -0.000228858        -0.613086       -0.790016      0.000293969    -0.000943438
                    -3.78765e-05    -0.000240081        -0.249849       0.0572601     -0.000190311    -6.24312e-05         -0.91039       -0.413752
                       -0.613049       -0.790045     -0.000198199    -9.27463e-05        -0.103459        0.147237      6.37989e-05    -0.000161636
                     0.000281466    -0.000764116        -0.910408       -0.413711      6.81242e-05    -0.000147483         0.245406       0.0473208
538000                  0.310302       -0.115771     -6.21842e-05    -0.000252925         -0.51504       -0.857166      0.000396603    -0.000804795
                    -4.57779e-05    -0.000269021        -0.282058       0.0195631     -0.000218169    -6.81266e-05        -0.900077        -0.43573
                       -0.514998       -0.857191     -0.000227355    -9.69987e-05       -0.0845514        0.156066      6.87686e-05    -0.000171226
                     0.000349921    -0.000679878        -0.900098       -0.435687      7.24875e-05    -0.000157981         0.304684      -0.0165381
541200                  0.305307       -0.123367     -7.42299e-05    -0.000281287        -0.407443       -0.913231        0.0004444    -0.000682118
                    -5.78507e-05    -0.000303208        -0.316942      -0.0327323     -0.000249886    -7.28039e-05        -0.886166       -0.463368
                       -0.407398       -0.913251     -0.000260317    -9.98475e-05       -0.0651207        0.166456      7.43702e-05    -0.000181463
                     0.000390262    -0.000601664         -0.88619       -0.463321      7.74759e-05    -0.000169238         0.365758       -0.119025
544400                  0.299788       -0.131521     -9.15324e-05    -0.000314915        -0.293889        -0.95584      0.000461362    -0.000582271
                    -7.63522e-05    -0.000343718        -0.351317       -0.106556     -0.000286115    -7.58521e-05        -0.866551       -0.499089
                       -0.293841       -0.955854     -0.000297649    -0.000100602       -0.0452662        0.178578      8.07081e-05    -0.000192402
                     0.000412035    -0.000533411         -0.86658       -0.499039      8.32014e-05    -0.000181328         0.406169       -0.280841
547600                  0.293665       -0.140292     -0.000116936    -0.000354855        -0.178455       -0.983948       0.00046223    -0.000503112
                    -0.000104934    -0.000391528         -0.37647       -0.211267     -0.000327594    -7.63853e-05        -0.837238       -0.546838
                       -0.178406       -0.983957     -0.000339945    -9.82952e-05       -0.0251192        0.192615       8.7908e-05    -0.000204101
                     0.000422107    -0.000475451        -0.837273       -0.546784      8.98001e-05    -0.000194328          0.36832       -0.509219
550800                   0.28684        -0.14975      -0.00015514    -0.000401881       -0.0650005       -0.997885      0.000455127    -0.000440496
                    -0.000149513    -0.000446833         -0.37197       -0.355547     -0.000375106    -7.31242e-05        -0.789846       -0.613305
                      -0.0649504       -0.997888     -0.000387774    -9.15813e-05      -0.00484939        0.208746      9.61216e-05    -0.000216622
                     0.000424998    -0.000426715        -0.789891       -0.613247      9.74386e-05    -0.000208323         0.173142       -0.735461
554000                  0.279195       -0.159972     -0.000213938     -0.00045538        0.0433906       -0.999058      0.000444365     -0.00039058
                    -0.000219399    -0.000507182        -0.299212       -0.533347     -0.000429394    -6.42366e-05          -0.7043       -0.709902
                       0.0434404       -0.999056     -0.000441567    -7.86108e-05        0.0153307        0.227148      0.000105533    -0.000230028
                     0.000423573    -0.000385774         -0.70436       -0.709843      0.000106322    -0.000223403        -0.147207       -0.803498
557200                  0.270584       -0.171044     -0.000305761     -0.00051018         0.144667        -0.98948      0.000432197    -0.000350318
                    -0.000327644    -0.000562992        -0.116295       -0.693345     -0.000490968    -4.71356e-05         -0.52396       -0.851743
                        0.144715       -0.989473     -0.000501401    -5.68943e-05        0.0351604        0.247983      0.000116368    -0.000244379
                     0.000419617    -0.000351257        -0.524043       -0.851692      0.000116705    -0.000239657        -0.412232       -0.680938
560400                  0.260828       -0.183067     -0.000447172    -0.000548629         0.237781       -0.971319      0.000419788    -0.000317425
                    -0.000486204    -0.000589194         0.154459       -0.738479     -0.000559739    -1.82677e-05       -0.0710098       -0.997476
                        0.237829       -0.971307     -0.000566643     -2.3202e-05        0.0543286        0.271387      0.000128902     -0.00025973
                     0.000414239    -0.000321982       -0.0710994       -0.997469      0.000128902    -0.000257174        -0.539393       -0.497419
563600                  0.249704       -0.196151     -0.000646111    -0.000526973         0.306891       -0.900788      0.000407723    -0.000290209
                    -0.000685885    -0.000539812         0.397077       -0.632402     -0.000634361     2.70091e-05         0.580663       -0.359634
                         0.30693       -0.900758     -0.000635377     2.63944e-05        0.0724723        0.297461      0.000143473    -0.000276121
                     0.000408126    -0.000296983         0.580678       -0.359654      0.000143306    -0.000276027        -0.573171       -0.340702
564000                  0.248204       -0.197868     -0.000673824    -0.000516659         0.313154       -0.888236      0.000406255     -0.00028714
                    -0.000711315    -0.000525828         0.420058       -0.611918     -0.000643954      3.4092e-05         0.571681       -0.209153
                        0.313192       -0.888206     -0.000644044      3.3925e-05        0.0746482        0.300911      0.000145458    -0.000278244
                     0.000407333    -0.000294117         0.571681       -0.209153      0.000145286    -0.000278481        -0.573689       -0.324169
566800                   0.23693       -0.210422     -0.000858753     -0.00037978         0.349307       -0.802522      0.000396278    -0.000267421
                     -0.00086492    -0.000375922         0.529123       -0.454872     -0.000711212     9.42068e-05        0.0470174        0.396277
                        0.349342       -0.802492      -0.00070363      9.6128e-05        0.0891793         0.32625        0.0001605    -0.000293565
                     0.000401702    -0.000275478         0.046927        0.396243      0.000160412    -0.000296269        -0.565235       -0.226122
570000                  0.222151       -0.226017     -0.000963326    -0.000106247          0.37646       -0.710447      0.000385564    -0.000248127
                     -0.00093409    -0.000134641          0.56676        -0.28927     -0.000783087     0.000188682        -0.430113        0.387838
                        0.376491       -0.710418     -0.000764587     0.000189485         0.103995        0.357728      0.000180498    -0.000312032
