! TOUCHSTONE file generated by CST MICROWAVE STUDIO
! Date and time: Mon Oct 20 08:27:30 2025
! Project name: Teste_Macro_Metasurface_Nanopilar.cst
! Parameters = {H=600; L_x=130; L_y=85; Lambda=1064; Max_L=200; Min_L=70; PathPara=1; Phi=0; Step_L=10; Theta=0; p=520; phaseX=180; phaseY=0}
! Header version: 2018
! Port assignment regex: !\s*Touchstone port\s*([0-9]+)\s*=\s*(CST MWS port|CST DS port)\s*([0-9]+|Zmin|Zmax)\s*\(\"(.*)\"\)(\s*mode\s*([0-9]+))?.*
! Touchstone port assignment:
! Touchstone port 1 = CST MWS port Zmax ("") mode 1
! Touchstone port 2 = CST MWS port Zmax ("") mode 2
! Touchstone port 3 = CST MWS port Zmin ("") mode 1
! Touchstone port 4 = CST MWS port Zmin ("") mode 2
! S-Parameters are not renormalized. Each port impedance will be approximated by the real part at minimum frequency. The values are described via the [Reference] keyword.
! Default impedance is overridden by [Reference]
[Version] 2.0
# GHz S RI R 376.73
[Number of Ports] 4
[Reference]
376.73 376.73 259.888 259.888 
[Number of Frequencies] 52
[Network Data]
474000                 -0.315353        0.188738      8.67872e-05     7.82651e-05        -0.731321       -0.553765        -4.49e-05     0.000193541
                     8.61982e-05     7.83327e-05         0.307795        0.031067      1.94523e-05     0.000156139        -0.917975        0.232103
                       -0.731321       -0.553765       1.9864e-05     0.000156865        -0.115254        0.358218     -2.01484e-05     9.30222e-05
                    -4.45566e-05     0.000192445        -0.917975        0.232103      -1.9941e-05     9.33571e-05        -0.257189        0.177664
477200                 -0.308441        0.189926      7.60084e-05     8.00845e-05        -0.730081       -0.570853     -4.79142e-05     0.000195037
                     7.46306e-05     8.05241e-05         0.312567       0.0298039      2.19241e-05     0.000155003        -0.884792        0.235636
                       -0.730081       -0.570854      2.23168e-05     0.000155715          -0.1125        0.357124     -1.83389e-05     9.14903e-05
                      -4.792e-05     0.000193641        -0.884786         0.23563     -1.82043e-05     9.17904e-05        -0.255275        0.177014
480400                 -0.301132        0.191091      6.40884e-05     8.18486e-05        -0.728271       -0.589082     -5.10821e-05     0.000196582
                     6.17719e-05     8.26879e-05         0.317617       0.0284824      2.46018e-05     0.000153767        -0.850881        0.237232
                       -0.728271       -0.589083      2.49726e-05     0.000154464        -0.109628        0.355965     -1.64159e-05     8.98532e-05
                    -5.14508e-05     0.000194865        -0.850872         0.23722     -1.63609e-05     9.01159e-05        -0.253221        0.176309
483600                 -0.293394        0.192224      5.08455e-05     8.35058e-05        -0.725778       -0.608547     -5.44154e-05     0.000198179
                     4.74042e-05     8.47704e-05          0.32297       0.0270986      2.75121e-05     0.000152421        -0.816406        0.236786
                       -0.725779       -0.608547      2.78579e-05     0.000153099        -0.106633        0.354737     -1.43684e-05     8.80999e-05
                    -5.51616e-05     0.000196118        -0.816394        0.236768     -1.44008e-05     8.83223e-05        -0.251011        0.175543
486800                 -0.285191        0.193311        3.606e-05     8.49831e-05        -0.722468        -0.62935     -5.79271e-05      0.00019983
                     3.12607e-05     8.66927e-05         0.328654       0.0256483      3.06868e-05     0.000150947        -0.781546        0.234208
                       -0.722469        -0.62935      3.10037e-05     0.000151602        -0.103504        0.353434     -1.21841e-05     8.62174e-05
                    -5.90659e-05     0.000197398        -0.781531        0.234183     -1.23126e-05     8.63966e-05        -0.248627        0.174708
490000                 -0.276481        0.194339      1.94642e-05     8.61763e-05        -0.718178       -0.651597     -6.16315e-05     0.000201535
                     1.30118e-05     8.83385e-05         0.334701       0.0241271      3.41635e-05     0.000149326        -0.746493         0.22943
                       -0.718179       -0.651597      3.44468e-05     0.000149955        -0.100235        0.352048     -9.84877e-06     8.41912e-05
                    -6.31788e-05     0.000198706        -0.746477        0.229398     -1.00833e-05     8.43235e-05        -0.246049        0.173793
493200                 -0.267219        0.195291      7.29901e-07     8.69357e-05        -0.712712       -0.675401     -6.55445e-05     0.000203298
                     -7.7521e-06     8.95361e-05         0.341146       0.0225302      3.79875e-05     0.000147536        -0.711453        0.222407
                       -0.712713         -0.6754      3.82315e-05     0.000148133       -0.0968144        0.350574     -7.34634e-06     8.20042e-05
                    -6.75167e-05     0.000200039        -0.711437        0.222368     -7.69841e-06     8.20858e-05        -0.243249        0.172786
496400                 -0.257356        0.196143     -2.05467e-05     8.70457e-05        -0.705833       -0.700874     -6.96836e-05     0.000205119
                    -3.15434e-05     9.00302e-05         0.348029       0.0208522      4.22136e-05     0.000145549         -0.67664        0.213119
                       -0.705835       -0.700874      4.24113e-05     0.000146107       -0.0932326        0.349001     -4.65827e-06     7.96365e-05
                     -7.2098e-05     0.000201398        -0.676624        0.213073     -5.14112e-06     7.96631e-05          -0.2402        0.171675
499600                 -0.246834        0.196871     -4.48651e-05     8.61914e-05         -0.69163       -0.722252     -7.40684e-05     0.000207001
                    -5.90069e-05     8.94368e-05         0.355398       0.0190877      4.69087e-05     0.000143329        -0.642272        0.201573
                       -0.691631       -0.722251      4.70513e-05     0.000143841       -0.0894781        0.347322     -1.76325e-06      7.7065e-05
                    -7.69428e-05     0.000202778        -0.642257         0.20152     -2.39227e-06     7.70317e-05        -0.236867        0.170441
502800                 -0.235592        0.197443     -7.28434e-05      8.3909e-05        -0.671716       -0.740808     -7.87206e-05     0.000208944
                    -9.09555e-05     8.71721e-05         0.363304       0.0172306      5.21553e-05     0.000140835        -0.608566        0.187805
                       -0.671718       -0.740807      5.22318e-05     0.000141289       -0.0855385        0.345525      1.36341e-06     7.42624e-05
                    -8.20736e-05     0.000204179        -0.608554        0.187745      5.70258e-07     7.41638e-05        -0.233207        0.169065
506000                 -0.223559        0.197819     -0.000105243      7.9506e-05        -0.649579       -0.760294     -8.36646e-05      0.00021095
                    -0.000128411     8.23345e-05         0.371809       0.0152748      5.80567e-05     0.000138012        -0.575736        0.171877
                        -0.64958       -0.760293       5.8053e-05     0.000138395       -0.0814001        0.343599      4.75046e-06     7.11962e-05
                    -8.75152e-05     0.000205596        -0.575727        0.171812      3.77206e-06     7.10263e-05        -0.229171        0.167519
509200                 -0.210658        0.197952      -0.00014299     7.19347e-05        -0.624896       -0.780708     -8.89277e-05      0.00021302
                    -0.000172638     7.35105e-05         0.380984       0.0132135      6.47435e-05      0.00013479        -0.543988         0.15388
                       -0.624898       -0.780707      6.46414e-05     0.000135085       -0.0770481        0.341531      8.43157e-06     6.78277e-05
                    -9.32954e-05     0.000207024        -0.543982        0.153809       7.2429e-06     6.75797e-05        -0.224698        0.165773
512400                 -0.196799        0.197784     -0.000187174     5.95884e-05        -0.597297        -0.80202     -9.45405e-05     0.000215152
                    -0.000225144     5.84488e-05         0.390909       0.0110399      7.23835e-05     0.000131079        -0.513511        0.133929
                       -0.597299       -0.802018       7.2159e-05     0.000131263       -0.0724661        0.339305      1.24464e-05     6.41105e-05
                    -9.94451e-05     0.000208458        -0.513511        0.133854      1.10176e-05     6.37767e-05        -0.219714        0.163784
515600                 -0.181887        0.197242     -0.000238977     3.99746e-05        -0.566356       -0.824161     -0.000100538     0.000217348
                    -0.000287556     3.35161e-05          0.40168       0.0087471      8.11961e-05     0.000126759        -0.484482        0.112163
                       -0.566358       -0.824159       8.0817e-05     0.000126801        -0.067636        0.336903       1.6842e-05     5.99877e-05
                    -0.000105999      0.00020989        -0.484486        0.112085      1.51372e-05     5.95595e-05        -0.214124        0.161501
518800                 -0.165811        0.196239     -0.000299434     9.20198e-06        -0.531585       -0.847005     -0.000106958     0.000219604
                    -0.000361149    -7.18391e-06         0.413411      0.00632814      9.14731e-05     0.000121666        -0.457053       0.0887401
                       -0.531588       -0.847003      9.08953e-05     0.000121525        -0.062538        0.334308      2.16746e-05     5.53901e-05
                    -0.000112996     0.000211309        -0.457063        0.088659      1.96502e-05     5.48578e-05        -0.207815        0.158856
522000                  -0.14845        0.194665     -0.000368761    -3.87676e-05        -0.492436       -0.870349     -0.000113846     0.000221918
                    -0.000445495    -7.30893e-05         0.426233      0.00377663      0.000103612     0.000115575        -0.431358       0.0638349
                       -0.492439       -0.870347      0.000102773     0.000115192       -0.0571502        0.331495      2.70119e-05     5.02314e-05
                    -0.000120479     0.000212703        -0.431374        0.063752      2.46143e-05     4.95843e-05        -0.200638        0.155757
525200                 -0.129668        0.192382     -0.000444731    -0.000112986        -0.448301       -0.893883     -0.000121253     0.000224284
                     -0.00053502    -0.000178414         0.440305      0.00108712      0.000118169     0.000108161        -0.407503       0.0376339
                       -0.448304       -0.893881      0.000116979     0.000107453       -0.0514484        0.328439       3.2936e-05     4.44037e-05
                    -0.000128498     0.000214057        -0.407524       0.0375502      3.00988e-05     4.36298e-05        -0.192402        0.152082
528400                 -0.109317        0.189221     -0.000519154    -0.000225699        -0.398526       -0.917157     -0.000129235     0.000226695
                    -0.000611695    -0.000340835         0.455819     -0.00174402      0.000135945      9.8945e-05        -0.385568       0.0103319
                        -0.39853       -0.917155      0.000134266     9.77893e-05       -0.0454059         0.32511      3.95475e-05     3.77697e-05
                    -0.000137108     0.000215351        -0.385595       0.0102482      3.61873e-05     3.68559e-05        -0.182859        0.147663
531600                -0.0872329        0.184969     -0.000571815    -0.000389059        -0.342439        -0.93954     -0.000137858      0.00022914
                    -0.000634833    -0.000569971         0.473005     -0.00471732      0.000158136      8.7185e-05        -0.365611      -0.0178726
                       -0.342443       -0.939538      0.000155752     8.53935e-05       -0.0389929        0.321473      4.69708e-05     3.01523e-05
                    -0.000146372      0.00021656        -0.365643      -0.0179556      4.29813e-05     2.90849e-05        -0.171675        0.142258
534800                -0.0632415        0.179357     -0.000565396    -0.000602537        -0.279397       -0.960176     -0.000147199     0.000231604
                    -0.000544898     -0.00083652         0.492146     -0.00782816      0.000186614     7.16714e-05        -0.347659      -0.0467814
                       -0.279402       -0.960174      0.000183166     6.89427e-05       -0.0321767        0.317487      5.53613e-05     2.13193e-05
                    -0.000156361     0.000217651        -0.347696      -0.0468628       5.0605e-05     2.00846e-05        -0.158395        0.135515
538000                -0.0371583         0.17205     -0.000457097    -0.000830079        -0.208865       -0.977945     -0.000157343     0.000234066
                    -0.000316016     -0.00104952         0.513592      -0.0110637      0.000224477     5.02949e-05         -0.33172         -0.0762
                        -0.20887       -0.977943      0.000219317     4.61179e-05       -0.0249208        0.313105       6.4915e-05     1.09606e-05
                    -0.000167155     0.000218586        -0.331762      -0.0762791      5.92109e-05      9.5464e-06        -0.142387        0.126902
541200               -0.00879706        0.162621     -0.000242265    -0.000996703        -0.130522       -0.991445     -0.000168393     0.000236498
                    -1.80756e-05     -0.00112004          0.53778      -0.0143976      0.000277241     1.90324e-05        -0.317776       -0.105941
                       -0.130528       -0.991445      0.000269088     1.24783e-05       -0.0171847        0.308272       7.5882e-05     -1.3471e-06
                    -0.000178845     0.000219313        -0.317823       -0.106017      6.89872e-05    -2.94774e-06        -0.122741        0.115576
544400                 0.0220183        0.150533      1.59816e-05     -0.00104454       -0.0444126       -0.999013     -0.000180464     0.000238862
                     0.000239963     -0.00105554         0.565265      -0.0177825      0.000355728    -3.07989e-05        -0.305792       -0.135827
                      -0.0444187       -0.999013       0.00034168    -4.15744e-05      -0.00892361        0.302919      8.85851e-05    -1.61957e-05
                    -0.000191536     0.000219767        -0.305842       -0.135899      8.01658e-05    -1.79778e-05       -0.0981194        0.100135
547600                 0.0554324        0.135109      0.000238004    -0.000986675        0.0489015       -0.998804     -0.000193693     0.000241106
                     0.000410621    -0.000927484         0.596755      -0.0211365      0.000484251    -0.000121717        -0.295711       -0.165692
                       0.0488953       -0.998804      0.000456262     -0.00014076     -8.78867e-05         0.29697      0.000103444    -3.44371e-05
                    -0.000205345     0.000219867        -0.295765       -0.165761      9.30297e-05     -3.6369e-05       -0.0664975       0.0780933
550800                  0.091524        0.115495      0.000389925     -0.00087702         0.148197       -0.988958     -0.000208238     0.000243161
                     0.000505647     -0.00079236         0.633178      -0.0243211       0.00072901     -0.00033281        -0.287466       -0.195384
                         0.14819       -0.988959      0.000656033    -0.000368911       0.00937731        0.290329      0.000121006    -5.73385e-05
                    -0.000220407     0.000219508        -0.287522       -0.195449      0.000107915    -5.93318e-05       -0.0247483       0.0446843
554000                  0.130251       0.0906238       0.00047938    -0.000758893         0.251525       -0.967851     -0.000224284     0.000244932
                     0.000551725      -0.0006738         0.675763      -0.0271047       0.00129207     -0.00117081        -0.280973       -0.224768
                        0.251519       -0.967852      0.000961584     -0.00117394        0.0195323        0.282883      0.000141982    -8.68611e-05
                    -0.000236871     0.000218555        -0.281031       -0.224828       0.00012519    -8.87037e-05        0.0318433      -0.0101912
557200                  0.171363       0.0591788      0.000526184    -0.000652366         0.356291       -0.934375     -0.000242047     0.000246293
                     0.000569779    -0.000576558          0.72617      -0.0290962      -0.00337133     -0.00299861        -0.276141        -0.25372
                        0.356286       -0.934377      -0.00187566     -0.00246877        0.0304428        0.274493      0.000167259    -0.000126187
                    -0.000254908     0.000216835          -0.2762       -0.253775       0.00014517    -0.000127387         0.108766       -0.110752
560400                  0.214276       0.0195699      0.000547125    -0.000562822         0.459486       -0.888185     -0.000261779     0.000247071
                     0.000572682    -0.000498491         0.786693      -0.0296263      -0.00148909     0.000341439        -0.272871       -0.282135
                        0.459481       -0.888187      -0.00145792     0.000116251        0.0421798        0.264993      0.000197797    -0.000180778
                    -0.000274706     0.000214124        -0.272931       -0.282186      0.000167821     -0.00018018         0.197438        -0.32294
563600                  0.257883      -0.0300527      0.000553256    -0.000489482         0.539125       -0.801635     -0.000283772     0.000247033
                     0.000567707    -0.000435913         0.860577      -0.0275224     -0.000821667      0.00037633         -0.27106       -0.309923
                        0.539127       -0.801647     -0.000834653     0.000304758        0.0548186        0.254176      0.000234031    -0.000260664
                    -0.000296471      0.00021013         -0.27112       -0.309969      0.000191814    -0.000255399         0.136562       -0.803722
564000                    0.2633      -0.0370594      0.000553347     -0.00048133         0.545876       -0.787028     -0.000286697     0.000246956
                     0.000566755    -0.000429002         0.870965      -0.0269836     -0.000778233     0.000372397        -0.270931       -0.313348
                        0.545879        -0.78704     -0.000791188     0.000308314        0.0564657        0.252719      0.000238899    -0.000273249
                    -0.000299341     0.000209523        -0.270991       -0.313394      0.000194713    -0.000267021        0.0862698       -0.885601
566800                  0.300306       -0.091705      0.000551199    -0.000429761         0.582643       -0.682373     -0.000308367      0.00024586
                     0.000558848    -0.000385397         0.952527      -0.0206623     -0.000570522     0.000342938        -0.270602       -0.337007
                        0.582647       -0.682384     -0.000580633     0.000309255        0.0684364        0.241787      0.000273151    -0.000385713
                    -0.000320422     0.000204477        -0.270662       -0.337049      0.000211378    -0.000368074        -0.544033       -0.839064
570000                  0.338598       -0.167329      0.000544782    -0.000380953         0.602492       -0.561897     -0.000335948     0.000243112
                     0.000548275    -0.000344188         0.999989     -0.00471313     -0.000440923     0.000315418        -0.271389       -0.363326
                        0.602498       -0.561906     -0.000447872     0.000295942        0.0831089        0.227507      0.000296556    -0.000597802
