! TOUCHSTONE file generated by CST MICROWAVE STUDIO
! Date and time: Mon Oct 20 08:27:45 2025
! Project name: Teste_Macro_Metasurface_Nanopilar.cst
! Parameters = {H=600; L_x=175; L_y=100; Lambda=1064; Max_L=200; Min_L=70; PathPara=1; Phi=0; Step_L=10; Theta=0; p=520; phaseX=180; phaseY=0}
! Header version: 2018
! Port assignment regex: !\s*Touchstone port\s*([0-9]+)\s*=\s*(CST MWS port|CST DS port)\s*([0-9]+|Zmin|Zmax)\s*\(\"(.*)\"\)(\s*mode\s*([0-9]+))?.*
! Touchstone port assignment:
! Touchstone port 1 = CST MWS port Zmax ("") mode 1
! Touchstone port 2 = CST MWS port Zmax ("") mode 2
! Touchstone port 3 = CST MWS port Zmin ("") mode 1
! Touchstone port 4 = CST MWS port Zmin ("") mode 2
! S-Parameters are not renormalized. Each port impedance will be approximated by the real part at minimum frequency. The values are described via the [Reference] keyword.
! Default impedance is overridden by [Reference]
[Version] 2.0
# GHz S RI R 376.73
[Number of Ports] 4
[Reference]
376.73 376.73 259.888 259.888 
[Number of Frequencies] 52
[Network Data]
474000                 0.0408022        0.257126      0.000186293     1.08715e-05         -0.96102       0.0349138     -1.75096e-05     4.31402e-05
                     0.000187764     1.16493e-05        -0.481976      -0.0916485     -0.000123805    -3.23817e-05        -0.577506       -0.611422
                       -0.961018       0.0349085     -0.000114776     -3.0492e-05       -0.0220582        0.260648     -8.26512e-05    -0.000106613
                    -9.83878e-06     3.97134e-05        -0.577478       -0.611441     -9.46586e-05    -0.000117446        0.0638212        0.489607
477200                 0.0378784        0.256152      0.000181116     8.21104e-06        -0.961628       0.0354344     -1.98913e-05      4.5174e-05
                     0.000182584     9.05762e-06        -0.480744      -0.0994756     -0.000127094    -3.30073e-05          -0.5816        -0.60053
                       -0.961626        0.035429     -0.000118201    -3.10214e-05       -0.0199021         0.26171     -7.89191e-05    -0.000103242
                    -1.20924e-05     4.17413e-05        -0.581573        -0.60055     -9.13327e-05    -0.000114032        0.0702591        0.493036
480400                 0.0347255        0.255071      0.000175629     5.31576e-06        -0.962283       0.0359956     -2.24144e-05     4.72932e-05
                     0.000177092     6.23654e-06        -0.479324       -0.107864      -0.00013057    -3.36644e-05          -0.5856       -0.588746
                       -0.962281         0.03599     -0.000121824    -3.15749e-05       -0.0176201         0.26288     -7.49645e-05     -9.9745e-05
                    -1.44797e-05     4.38558e-05        -0.585572       -0.588767     -8.78063e-05    -0.000110482        0.0770858          0.4966
483600                 0.0313159        0.253866      0.000169804     2.15593e-06        -0.962991       0.0366023     -2.50915e-05     4.95027e-05
                      0.00017126     3.15692e-06        -0.477683       -0.116874     -0.000134249    -3.43553e-05        -0.589445       -0.575979
                       -0.962989       0.0365966     -0.000125661     -3.2154e-05       -0.0152022        0.264173     -7.07683e-05    -9.61164e-05
                    -1.70126e-05      4.6062e-05        -0.589418       -0.576001     -8.40618e-05     -0.00010679        0.0843368        0.500305
486800                 0.0276175        0.252515      0.000163612    -1.30303e-06        -0.963759       0.0372603     -2.79365e-05     5.18076e-05
                     0.000165058    -2.15159e-07        -0.475782       -0.126575     -0.000138149    -3.50827e-05         -0.59306       -0.562132
                       -0.963756       0.0372545     -0.000129733    -3.27604e-05       -0.0126374        0.265605      -6.6309e-05    -9.23503e-05
                    -1.97043e-05     4.83654e-05        -0.593034       -0.562155     -8.00796e-05    -0.000102947        0.0920516        0.504157
490000                  0.023593        0.250993      0.000157018     -5.1016e-06        -0.964593       0.0379763      -3.0965e-05     5.42135e-05
                      0.00015845    -3.91941e-06        -0.473572       -0.137047      -0.00014229    -3.58493e-05         -0.59635       -0.547098
                       -0.964591       0.0379704     -0.000134062    -3.33959e-05      -0.00991384        0.267196     -6.15631e-05    -8.84409e-05
                    -2.25696e-05      5.0772e-05        -0.596325       -0.547123      -7.5838e-05    -9.89452e-05         0.100275        0.508162
493200                 0.0191982        0.249269      0.000149986    -9.28741e-06        -0.965504       0.0387585     -3.41946e-05     5.67261e-05
                     0.000151399    -8.00259e-06        -0.470994        -0.14838     -0.000146697    -3.66585e-05        -0.599195       -0.530766
                       -0.965502       0.0387525     -0.000138671    -3.40624e-05      -0.00701892        0.268972      -5.6504e-05    -8.43822e-05
                     -2.5625e-05     5.32879e-05        -0.599171       -0.530792     -7.13125e-05    -9.47774e-05         0.109056        0.512328
496400                 0.0143812        0.247303      0.000142472    -1.39167e-05        -0.966502       0.0396164     -3.76451e-05     5.93516e-05
                     0.000143861      -1.252e-05        -0.467974       -0.160681     -0.000151395    -3.75137e-05        -0.601446       -0.513016
                         -0.9665       0.0396102     -0.000143591    -3.47619e-05      -0.00393908        0.270958     -5.11021e-05    -8.01685e-05
                    -2.88894e-05     5.59197e-05        -0.601423       -0.513043     -6.64758e-05    -9.04348e-05         0.118453        0.516658
499600                0.00907997        0.245046      0.000134431    -1.90566e-05        -0.967601       0.0405616     -4.13387e-05     6.20964e-05
                     0.000135788    -1.75376e-05         -0.46442       -0.174071     -0.000156415     -3.8419e-05        -0.602916       -0.493725
                       -0.967599       0.0405552     -0.000148853    -3.54967e-05      -0.00066006         0.27319     -4.53242e-05    -7.57942e-05
                    -3.23839e-05     5.86746e-05        -0.602894       -0.493754      -6.1297e-05    -8.59088e-05          0.12853        0.521158
502800                0.00322039        0.242435       0.00012581    -2.47869e-05        -0.968816       0.0416081     -4.53009e-05     6.49671e-05
                     0.000127128    -2.31341e-05        -0.460218       -0.188693     -0.000161789    -3.93787e-05        -0.603375       -0.472776
                       -0.968814       0.0416016     -0.000154494    -3.62691e-05       0.00283287        0.275705     -3.91329e-05    -7.12541e-05
                    -3.61325e-05     6.15597e-05        -0.603355       -0.472806     -5.57415e-05    -8.11907e-05         0.139361        0.525832
506000               -0.00328678        0.239388      0.000116552    -3.12043e-05        -0.970168       0.0427731     -4.95604e-05     6.79704e-05
                     0.000117819    -2.94045e-05        -0.455221       -0.204711     -0.000167558    -4.03976e-05        -0.602537       -0.450057
                       -0.970166       0.0427664     -0.000160556    -3.70814e-05       0.00655454        0.278554     -3.24862e-05    -6.65437e-05
                    -4.01626e-05     6.45829e-05        -0.602519       -0.450088       -4.977e-05    -7.62718e-05         0.151029        0.530682
509200                -0.0105497          0.2358      0.000106593    -3.84253e-05         -0.97168        0.044078     -5.41502e-05     7.11132e-05
                     0.000107796    -3.64641e-05        -0.449244       -0.222321     -0.000173766    -4.14814e-05        -0.600056       -0.425479
                       -0.971678       0.0440711     -0.000167089    -3.79363e-05        0.0105192        0.281792     -2.53366e-05    -6.16595e-05
                    -4.45053e-05     6.77519e-05         -0.60004       -0.425511      -4.3338e-05    -7.11437e-05         0.163632        0.535708
512400                   -0.0187        0.231529      9.58619e-05    -4.65924e-05        -0.973383       0.0455496     -5.91079e-05     7.44023e-05
                     9.69846e-05    -4.44534e-05        -0.442046       -0.241746     -0.000180466     -4.2636e-05         -0.59551        -0.39899
                       -0.973381       0.0455424     -0.000174149    -3.88363e-05        0.0147394        0.285491     -1.76303e-05    -5.65994e-05
                    -4.91965e-05      7.1075e-05        -0.595496       -0.399023     -3.63948e-05    -6.57985e-05          0.17728        0.540906
515600                 -0.027899        0.226387      8.42834e-05    -5.58806e-05        -0.975316        0.047222     -6.44768e-05     7.78441e-05
                     8.53047e-05    -5.35456e-05        -0.433312       -0.263251     -0.000187717    -4.38684e-05        -0.588398       -0.370598
                       -0.975313       0.0472145     -0.000181803     -3.9784e-05        0.0192243        0.289734     -9.30628e-06    -5.13632e-05
                    -5.42772e-05     7.45602e-05        -0.588387       -0.370632     -2.88828e-05    -6.02291e-05         0.192102        0.546269
518800                -0.0383441        0.220113      7.17756e-05    -6.65063e-05        -0.977528       0.0491392     -7.03069e-05     8.14445e-05
                      7.2669e-05    -6.39553e-05         -0.42263        -0.28714     -0.000195592    -4.51861e-05        -0.578134       -0.340402
                       -0.977525       0.0491313     -0.000190128    -4.07819e-05        0.0239774        0.294624     -2.95162e-07    -4.59535e-05
                    -5.97951e-05     7.82153e-05        -0.578125       -0.340436      -2.0736e-05    -5.44301e-05         0.208249        0.551783
522000                -0.0502775        0.212343      5.82542e-05    -7.87395e-05        -0.980084       0.0513593     -7.66561e-05     8.52082e-05
                     5.89858e-05    -7.59507e-05        -0.409445       -0.313764     -0.000204174     -4.6598e-05        -0.564049       -0.308633
                       -0.980081       0.0513511     -0.000199217     -4.1832e-05        0.0289919        0.300287      9.48214e-06    -4.03764e-05
                    -6.58052e-05     8.20477e-05        -0.564045       -0.308667     -1.18788e-05    -4.83979e-05         0.225894        0.557424
525200                -0.0639925        0.202555       4.3636e-05    -9.29195e-05        -0.983072       0.0539602     -8.35918e-05     8.91385e-05
                     4.41624e-05    -8.98694e-05        -0.393013       -0.343517     -0.000213563    -4.81136e-05        -0.545416       -0.275701
                       -0.983069       0.0539515      -0.00020918    -4.29362e-05        0.0342454        0.306877      2.01159e-05    -3.46431e-05
                    -7.23717e-05     8.60636e-05        -0.545415       -0.275735     -2.22419e-06    -4.21322e-05         0.245243        0.563157
528400                -0.0798354        0.189985      2.78472e-05    -0.000109476        -0.986612       0.0570492     -9.11927e-05     9.32359e-05
                     2.81123e-05     -0.00010614        -0.372313       -0.376824     -0.000223877    -4.97438e-05         -0.52148       -0.242251
                       -0.986608       0.0570399     -0.000220149     -4.4095e-05        0.0396903        0.314579      3.17095e-05    -2.87714e-05
                    -7.95699e-05     9.02674e-05        -0.521483       -0.242284      8.32803e-06     -3.5637e-05         0.266537        0.568929
531600                -0.0981885        0.173483      1.08374e-05    -0.000128957         -0.99087       0.0607775     -9.95509e-05     9.74971e-05
                     1.07683e-05    -0.000125313        -0.345932       -0.414107     -0.000235261    -5.15009e-05        -0.491534       -0.209216
                       -0.990866       0.0607676     -0.000232283    -4.53079e-05        0.0452403        0.323618      4.43811e-05    -2.27881e-05
                    -8.74878e-05     9.46606e-05         -0.49154       -0.209246      1.98937e-05    -2.89226e-05         0.290061        0.574666
534800                 -0.119401        0.151272     -7.39524e-06    -0.000152067        -0.996091       0.0653669     -0.000108775     0.000101913
                    -7.89371e-06    -0.000148094        -0.311901       -0.455702      -0.00024789    -5.33984e-05         -0.45502        -0.17785
                       -0.996087       0.0653561     -0.000245778    -4.65716e-05          0.05075        0.334262      5.82665e-05    -1.67319e-05
                    -9.62297e-05     9.92406e-05        -0.455029       -0.177878      3.26071e-05    -2.20079e-05         0.316152        0.580257
538000                 -0.143576        0.120542     -2.67614e-05    -0.000179713        -0.997491       0.0707886     -0.000118994     0.000106468
                     -2.7814e-05    -0.000175403        -0.267448       -0.501683      -0.00026198    -5.54512e-05        -0.411667       -0.149729
                       -0.997492       0.0707771     -0.000260876    -4.78793e-05         0.055986        0.346822      7.35212e-05    -1.06575e-05
                    -0.000105919     0.000103998        -0.411679       -0.149753      4.66237e-05     -1.4924e-05         0.345214        0.585548
541200                 -0.169969       0.0767798     -4.70069e-05    -0.000213069        -0.996986       0.0775798     -0.000130359     0.000111131
                     -4.8777e-05    -0.000208431        -0.208685        -0.55149     -0.000277798    -5.76754e-05        -0.361659       -0.126684
                       -0.996987       0.0775671     -0.000277877    -4.92181e-05        0.0605846        0.361642      9.03234e-05    -4.64079e-06
                    -0.000116702     0.000108914        -0.361673       -0.126703      6.21243e-05     -7.7182e-06         0.377728        0.590317
544400                 -0.195357       0.0128388     -6.75867e-05    -0.000253644        -0.996245       0.0865811     -0.000143053     0.000115858
                     -7.0287e-05    -0.000248726         -0.13025       -0.603192     -0.000295683    -6.00881e-05         -0.30578       -0.110644
                       -0.996246       0.0865668     -0.000297166    -5.05655e-05        0.0639974        0.379074      0.000108877     1.21379e-06
                    -0.000128756     0.000113957        -0.305794       -0.110659      7.93191e-05    -4.60822e-07         0.414267         0.59425
547600                 -0.209813      -0.0814442      -8.7452e-05    -0.000303354        -0.995079       0.0990813     -0.000157292     0.000120579
                    -9.13543e-05     -0.00029827       -0.0251119       -0.652055     -0.000316067    -6.27059e-05        -0.245504         -0.1034
                       -0.995081       0.0990648     -0.000319233    -5.18841e-05        0.0654244        0.399409      0.000129413       6.764e-06
                    -0.000142289     0.000119071        -0.245518       -0.103411      9.84516e-05      6.7466e-06          0.45552        0.596899
550800                 -0.187631       -0.214447     -0.000104695    -0.000364542        -0.993059        0.117614     -0.000173333     0.000125188
                    -0.000110133    -0.000359528         0.114767       -0.688023     -0.000339512    -6.55433e-05        -0.182966         -0.1063
                       -0.993062        0.117594      -0.00034472    -5.31114e-05        0.0637511        0.422764      0.000152195     1.18171e-05
                    -0.000157556     0.000124175        -0.182979       -0.106306      0.000119804     1.37596e-05         0.502303        0.597624
554000                  -0.07998       -0.367953     -0.000115984    -0.000439865        -0.988996        0.147939     -0.000191487      0.00012953
                    -0.000123329    -0.000435356          0.29521       -0.692116     -0.000366759    -6.86085e-05        -0.120777       -0.119964
                          -0.989        0.147914     -0.000374481    -5.41444e-05        0.0575288        0.448869      0.000177515     1.61131e-05
                     -0.00017486     0.000129141        -0.120786       -0.119967      0.000143701     2.03747e-05         0.555576        0.595504
557200                  0.141096       -0.453151     -0.000115731     -0.00053179        -0.978419        0.206629     -0.000212119     0.000133376
                    -0.000125308    -0.000528539         0.511014       -0.634155     -0.000398813    -7.18955e-05        -0.061692       -0.144105
                       -0.978427        0.206592     -0.000409679    -5.48102e-05        0.0450755        0.476781      0.000205694     1.93031e-05
                    -0.000194567     0.000133776       -0.0616985       -0.144106      0.000170512     2.63079e-05         0.616447        0.589214
560400                  0.376807       -0.377686     -9.51195e-05    -0.000641261        -0.928916        0.370289     -0.000235661      0.00013639
                    -0.000106992     -0.00064045         0.730944       -0.480436     -0.000437059    -7.53679e-05      -0.00822634       -0.177523
                       -0.928945        0.370218     -0.000451931    -5.48147e-05        0.0248134         0.50458      0.000237073     2.09206e-05
                    -0.000217113     0.000137794      -0.00822959       -0.177522      0.000200652     3.11651e-05         0.686141        0.576833
563600                  0.498884       -0.207887     -4.16695e-05    -0.000764863         0.861027        -0.50856     -0.000262614     0.000138083
                    -5.52078e-05    -0.000768089         0.891172       -0.222404     -0.000483471     -7.8927e-05        0.0376945       -0.218298
                        0.861023       -0.508566     -0.000503559    -5.36431e-05      -0.00408419        0.529248         0.000272     2.03458e-05
                    -0.000243012     0.000140769        0.0376942       -0.218298      0.000234572     3.44026e-05           0.7659        0.555576
564000                  0.505549       -0.186452     -3.19585e-05    -0.000780826         0.486267       -0.679235      -0.00026625      0.00013817
                    -4.56033e-05    -0.000784676         0.903387       -0.184596     -0.000489978    -7.93688e-05        0.0428385       -0.223798
                        0.486273       -0.679251     -0.000510827    -5.33741e-05      -0.00828852        0.531928      0.000276631     2.00815e-05
                    -0.000246514     0.000141039        0.0428385       -0.223799      0.000239102      3.4659e-05         0.776633        0.552111
566800                  0.517183      -0.0546397      5.87171e-05    -0.000890304        -0.556676       -0.260653     -0.000293535     0.000137742
                     4.54077e-05    -0.000899107         0.927894       0.0910866     -0.000540955    -8.23435e-05        0.0749377        -0.26411
                       -0.556693       -0.260622     -0.000568001    -5.03603e-05       -0.0408716        0.547071      0.000310792     1.67614e-05
                    -0.000272857     0.000142068        0.0749398       -0.264111      0.000272744     3.52759e-05         0.854229        0.519896
570000                  0.490704       0.0512825      0.000214234    -0.000992691        -0.734956       -0.141987     -0.000329012     0.000134334
                     0.000204473     -0.00100733         0.834488        0.374336     -0.000613962     -8.5106e-05          0.10319       -0.312588
                       -0.734965       -0.141967     -0.000650561    -4.31854e-05       -0.0827336        0.554727      0.000353687      9.1031e-06
