! TOUCHSTONE file generated by CST MICROWAVE STUDIO
! Date and time: Mon Oct 20 08:27:17 2025
! Project name: Teste_Macro_Metasurface_Nanopilar.cst
! Parameters = {H=600; L_x=85; L_y=130; Lambda=1064; Max_L=200; Min_L=70; PathPara=1; Phi=0; Step_L=10; Theta=0; p=520; phaseX=180; phaseY=0}
! Header version: 2018
! Port assignment regex: !\s*Touchstone port\s*([0-9]+)\s*=\s*(CST MWS port|CST DS port)\s*([0-9]+|Zmin|Zmax)\s*\(\"(.*)\"\)(\s*mode\s*([0-9]+))?.*
! Touchstone port assignment:
! Touchstone port 1 = CST MWS port Zmax ("") mode 1
! Touchstone port 2 = CST MWS port Zmax ("") mode 2
! Touchstone port 3 = CST MWS port Zmin ("") mode 1
! Touchstone port 4 = CST MWS port Zmin ("") mode 2
! S-Parameters are not renormalized. Each port impedance will be approximated by the real part at minimum frequency. The values are described via the [Reference] keyword.
! Default impedance is overridden by [Reference]
[Version] 2.0
# GHz S RI R 376.73
[Number of Ports] 4
[Reference]
376.73 376.73 259.888 259.888 
[Number of Frequencies] 52
[Network Data]
474000                  0.307204       0.0311868     -2.64083e-05     3.74773e-05        -0.918245        0.231785      3.05279e-05    -4.96436e-05
                    -2.95958e-05     3.02179e-05         -0.31539        0.188682      1.79255e-05    -3.10197e-05        -0.731277       -0.553813
                       -0.918261          0.2318      1.83053e-05    -5.13494e-06        -0.256745        0.177267     -2.30399e-06     1.91524e-05
                     1.18634e-05    -4.52887e-05        -0.731304       -0.553792     -4.49157e-06     1.96159e-05        -0.115169        0.358228
477200                  0.311975       0.0299282     -2.29866e-05     3.56207e-05        -0.884986        0.235271      2.58056e-05    -5.00965e-05
                    -2.61303e-05     2.85559e-05        -0.308477        0.189869       1.6923e-05    -2.97633e-05        -0.730057        -0.57091
                          -0.885        0.235286      1.72626e-05    -4.20628e-06        -0.254834        0.176616      -1.4139e-06     1.82537e-05
                     7.55436e-06    -4.53536e-05        -0.730085        -0.57089     -3.58042e-06     1.87275e-05        -0.112418        0.357122
480400                  0.317023       0.0286115     -1.94629e-05     3.36849e-05        -0.851007        0.236813      2.08751e-05    -5.04352e-05
                    -2.25599e-05     2.68192e-05        -0.301169        0.191032      1.58733e-05    -2.84509e-05        -0.728268       -0.589151
                        -0.85102        0.236829      1.61718e-05    -3.23781e-06        -0.252784         0.17591     -4.84078e-07     1.73042e-05
                     3.06817e-06    -4.53091e-05        -0.728297       -0.589131     -2.62822e-06     1.77883e-05        -0.109549        0.355952
483600                  0.322375       0.0272328     -1.58329e-05     3.16649e-05        -0.816472        0.236307      1.57283e-05    -5.06436e-05
                    -1.88799e-05      2.5003e-05        -0.293433        0.192163      1.47731e-05    -2.70788e-05        -0.725797       -0.608629
                       -0.816483        0.236323      1.50296e-05    -2.22694e-06        -0.250578        0.175142      4.88077e-07     1.62995e-05
                    -1.60169e-06    -4.51412e-05        -0.725827        -0.60861     -1.63223e-06     1.67942e-05        -0.106556        0.354712
486800                  0.328058       0.0257878     -1.20917e-05     2.95557e-05        -0.781559        0.233665      1.03574e-05    -5.07035e-05
                    -1.50854e-05     2.31023e-05         -0.28523        0.193249      1.36185e-05    -2.56428e-05         -0.72251       -0.629447
                       -0.781568        0.233681      1.38321e-05    -1.17082e-06        -0.248199        0.174305      1.50541e-06     1.52349e-05
                    -6.46146e-06    -4.48344e-05        -0.722541       -0.629429     -5.89479e-07     1.57403e-05        -0.103432        0.353396
490000                  0.334103       0.0242722     -8.23456e-06     2.73516e-05        -0.746463        0.228819      4.75516e-06    -5.05945e-05
                    -1.11714e-05     2.11116e-05        -0.276522        0.194275      1.24054e-05    -2.41383e-05        -0.718243       -0.651714
                       -0.746471        0.228835      1.25754e-05    -6.63626e-08        -0.245624        0.173388      2.57099e-06      1.4105e-05
                     -1.1517e-05    -4.43714e-05        -0.718275       -0.651696      5.03263e-07      1.4621e-05        -0.100166        0.351998
493200                  0.340547        0.022681      -4.2562e-06     2.50465e-05         -0.71139        0.221726     -1.08485e-06    -5.02942e-05
                    -7.13245e-06     1.90249e-05        -0.267263        0.195224      1.11294e-05    -2.25603e-05          -0.7128        -0.67554
                       -0.711397        0.221741      1.12548e-05     1.08982e-06         -0.24283         0.17238      3.68819e-06     1.29036e-05
                    -1.67737e-05    -4.37334e-05        -0.712833       -0.675524      1.64951e-06     1.34304e-05       -0.0967492        0.350509
496400                  0.347429       0.0210092     -1.51124e-07     2.26339e-05        -0.676554        0.212367      -7.1682e-06    -4.97778e-05
                    -2.96268e-06     1.68358e-05        -0.257402        0.196074      9.78532e-06    -2.09032e-05        -0.705945        -0.70104
                       -0.676559        0.212382      9.86554e-06     2.30144e-06        -0.239787        0.171267      4.86063e-06     1.16241e-05
                     -2.2236e-05    -4.28992e-05        -0.705979       -0.701025       2.8531e-06     1.21616e-05       -0.0931718        0.348922
499600                  0.354797       0.0192511      4.08646e-06     2.01068e-05        -0.642172        0.200751     -1.34991e-05    -4.90178e-05
                     1.34393e-06     1.45372e-05        -0.246884        0.196799      8.36765e-06    -1.91611e-05        -0.691602       -0.722279
                       -0.642176        0.200765      8.40197e-06     3.57255e-06        -0.236459        0.170031      6.09228e-06     1.02586e-05
                    -2.79074e-05    -4.18459e-05        -0.691627       -0.722255       4.1182e-06     1.08069e-05       -0.0894222        0.347227
502800                  0.362702       0.0174008      8.46269e-06     1.74573e-05        -0.608462        0.186915       -2.008e-05    -4.79839e-05
                      5.7938e-06     1.21217e-05        -0.235646        0.197367      6.87017e-06    -1.73272e-05        -0.671687       -0.740835
                       -0.608465        0.186928      6.85803e-06     4.90763e-06        -0.232806        0.168652      7.38745e-06      8.7986e-06
                    -3.37903e-05    -4.05481e-05        -0.671712       -0.740812      5.44936e-06     9.35743e-06        -0.085488        0.345415
506000                  0.371206       0.0154521       1.2984e-05     1.46772e-05        -0.575638        0.170924     -2.69112e-05    -4.66433e-05
                     1.03937e-05     9.58089e-06        -0.223618         0.19774      5.28599e-06     -1.5394e-05        -0.649546       -0.760322
                        -0.57564        0.170936      5.22693e-06     6.31161e-06        -0.228778        0.167105      8.75085e-06     7.23417e-06
                    -3.98852e-05    -3.89779e-05        -0.649572         -0.7603      6.85155e-06     7.80329e-06       -0.0813556        0.343472
509200                  0.380379       0.0133984      1.76574e-05     1.17573e-05        -0.543902        0.152868     -3.39904e-05    -4.49597e-05
                      1.5151e-05     6.90576e-06        -0.210723         0.19787      3.60735e-06    -1.33533e-05        -0.624858       -0.780738
                       -0.543903        0.152879      3.50112e-06     7.78993e-06        -0.224313        0.165356      1.01876e-05      5.5541e-06
                    -4.61906e-05    -3.71051e-05        -0.624884       -0.780718      8.33018e-06     6.13309e-06       -0.0770101        0.341385
512400                  0.390303       0.0112329        2.249e-05      8.6878e-06        -0.513446        0.132864     -4.13117e-05    -4.28942e-05
                      2.0073e-05     4.08646e-06        -0.196872        0.197698      1.82558e-06    -1.11959e-05        -0.597251       -0.802054
                       -0.513447        0.132875      1.67212e-06     9.34863e-06        -0.219338        0.163365      1.17032e-05     3.74551e-06
                    -5.27024e-05    -3.48969e-05        -0.597277       -0.802035      9.89118e-06     4.33381e-06       -0.0724354         0.33914
515600                  0.401074      0.00894849      2.74895e-05     5.45776e-06        -0.484444        0.111052     -4.88654e-05    -4.04048e-05
                     2.51681e-05     1.11222e-06        -0.181968        0.197153     -6.91044e-08    -8.91149e-06        -0.566298       -0.824201
                       -0.484443        0.111062     -2.69572e-07     1.09944e-05        -0.213759        0.161079      1.33038e-05     1.79363e-06
                    -5.94135e-05    -3.23177e-05        -0.566323       -0.824183       1.1541e-05     2.39045e-06       -0.0676134        0.336719
518800                  0.412804       0.0065385       3.2664e-05     2.05541e-06        -0.457047       0.0875914     -5.66369e-05    -3.74468e-05
                     3.04445e-05    -2.02875e-06        -0.165903        0.196147     -2.08774e-06    -6.48856e-06        -0.531511       -0.847052
                       -0.457046       0.0876001     -2.33466e-06     1.27347e-05        -0.207462        0.158431      1.49958e-05    -3.18607e-07
                     -6.6313e-05    -2.93296e-05        -0.531536       -0.847036      1.32866e-05     2.85676e-07       -0.0625244        0.334102
522000                  0.425625      0.00399651       3.8022e-05     -1.5322e-06        -0.431387       0.0626563     -6.46057e-05    -3.39728e-05
                     3.59114e-05    -5.34938e-06        -0.148554        0.194568     -4.24287e-06    -3.91415e-06        -0.492339       -0.870403
                       -0.431385       0.0626641     -4.53524e-06     1.45778e-05        -0.200298         0.15533      1.67865e-05    -2.61098e-06
                    -7.33855e-05    -2.58921e-05        -0.492364       -0.870389      1.51356e-05    -2.00063e-06       -0.0571467        0.331267
525200                  0.439698      0.00131711      4.35727e-05    -5.31923e-06        -0.407568       0.0364339     -7.27449e-05    -2.99335e-05
                     4.15783e-05    -8.86388e-06        -0.129788        0.192282     -6.54876e-06    -1.17364e-06        -0.448175       -0.893946
                       -0.407567       0.0364407     -6.88505e-06     1.65331e-05        -0.192078        0.151653      1.86833e-05    -5.10654e-06
                    -8.06104e-05    -2.19626e-05          -0.4482       -0.893933      1.70962e-05    -4.49195e-06       -0.0514562        0.328188
528400                  0.455211     -0.00150326      4.93256e-05    -9.32127e-06        -0.385671      0.00911859     -8.10195e-05    -2.52782e-05
                     4.74552e-05    -1.25879e-05        -0.109455        0.189118     -9.02175e-06     1.74954e-06        -0.398363       -0.917228
                        -0.38567       0.0091245     -9.39972e-06     1.86111e-05        -0.182554        0.147232      2.06945e-05    -7.83228e-06
                    -8.79611e-05    -1.74969e-05        -0.398387       -0.917217      1.91772e-05    -7.21585e-06       -0.0454263        0.324833
531600                  0.472398     -0.00446509      5.52907e-05    -1.35554e-05        -0.365751      -0.0190913     -8.93862e-05    -1.99557e-05
                     5.35527e-05    -1.65386e-05       -0.0873932        0.184864     -1.16806e-05     4.87421e-06         -0.34223       -0.939616
                       -0.365749      -0.0190862     -1.20971e-05     2.08236e-05        -0.171391        0.141825      2.28286e-05      -1.082e-05
                    -9.54038e-05    -1.24493e-05        -0.342253       -0.939608       2.1388e-05    -1.02048e-05       -0.0390275         0.32117
534800                  0.491541     -0.00756368      6.14787e-05    -1.80405e-05        -0.347835      -0.0479979     -9.77919e-05    -1.39158e-05
                     5.98821e-05    -2.07351e-05       -0.0634281        0.179252      -1.4547e-05     8.22186e-06        -0.279133       -0.960252
                       -0.347833      -0.0479937     -1.49979e-05     2.31838e-05        -0.158138        0.135082      2.50945e-05    -1.41073e-05
                    -0.000102897    -6.77416e-06        -0.279154       -0.960246      2.37384e-05    -1.34974e-05       -0.0322273        0.317156
538000                   0.51299      -0.0107861      6.79008e-05    -2.27974e-05        -0.331928      -0.0774074     -0.000106173    -7.11054e-06
                     6.64551e-05    -2.51983e-05       -0.0373764        0.171946     -1.76461e-05     1.18172e-05        -0.208535       -0.978015
                       -0.331926      -0.0774039     -1.81257e-05      2.5707e-05        -0.142162        0.126471      2.75014e-05    -1.77392e-05
                     -0.00011039    -4.26508e-07        -0.208554       -0.978011      2.62385e-05    -1.71397e-05       -0.0249895        0.312744
541200                  0.537182      -0.0141061      7.45688e-05    -2.78491e-05        -0.318014       -0.107133     -0.000114454      5.0373e-07
                     7.32841e-05    -2.99515e-05      -0.00905264        0.162522     -2.10074e-05     1.56885e-05        -0.130119       -0.991498
                       -0.318012        -0.10713     -2.15082e-05     2.84105e-05        -0.122555        0.115151      3.00581e-05    -2.17694e-05
                    -0.000117823     6.63648e-06        -0.130136       -0.991496      2.88983e-05     -2.1187e-05        -0.017274        0.307879
544400                  0.564673       -0.017476       8.1495e-05    -3.32211e-05        -0.306054       -0.136999     -0.000122548     8.96399e-06
                     8.03822e-05    -3.50207e-05        0.0217181        0.150445     -2.46653e-05     1.98688e-05       -0.0439323       -0.999035
                       -0.306052       -0.136996     -2.51775e-05     3.13141e-05       -0.0979841       0.0997213      3.27725e-05    -2.62628e-05
                    -0.000125126     1.44537e-05       -0.0439459       -0.999034      3.17271e-05    -2.57062e-05       -0.0090363        0.302492
547600                  0.596172      -0.0208137      8.86923e-05    -3.89416e-05        -0.295994       -0.166839     -0.000130359      1.8298e-05
                     8.77629e-05    -4.04346e-05        0.0550796        0.135038     -2.86607e-05     2.43964e-05        0.0494571       -0.998776
                       -0.295992       -0.166837     -2.91716e-05     3.44404e-05       -0.0664259       0.0777039      3.56509e-05    -3.12985e-05
                    -0.000132218      2.3058e-05        0.0494464       -0.998777      3.47325e-05     -3.0779e-05     -0.000227317        0.296507
550800                  0.632609      -0.0239809      9.61743e-05    -4.50421e-05        -0.287763       -0.196503     -0.000137775     2.85215e-05
                     9.54404e-05    -4.62252e-05        0.0911098        0.115452     -3.30422e-05     2.93162e-05         0.148817       -0.988865
                       -0.287762       -0.196502     -3.35351e-05     3.78157e-05       -0.0247585       0.0443442      3.86962e-05    -3.69732e-05
                    -0.000139006     3.24741e-05         0.148809       -0.988866      3.79189e-05    -3.65055e-05       0.00920722        0.289827
554000                  0.675213      -0.0267455      0.000103955    -5.15577e-05         -0.28128       -0.225855      -0.00014468      3.9635e-05
                     0.000103429    -5.24282e-05         0.129766       0.0906242     -3.78684e-05      3.4681e-05         0.252189       -0.967678
                       -0.281279       -0.225854     -3.83215e-05     4.14705e-05        0.0317325      -0.0104287      4.19055e-05    -4.34061e-05
                    -0.000145389     4.27154e-05         0.252184       -0.967679       4.1285e-05    -4.30097e-05        0.0193269         0.28234
557200                  0.725648       -0.028716      0.000112048    -5.85273e-05        -0.276453       -0.254775     -0.000150946     5.16208e-05
                     0.000111745    -5.90837e-05         0.170799        0.059243       -4.321e-05     4.05538e-05         0.356967       -0.934117
                       -0.276452       -0.254774     -4.35946e-05     4.54402e-05         0.108563       -0.110767      4.52662e-05    -5.07455e-05
                    -0.000151255     5.37818e-05         0.356964       -0.934118      4.48199e-05     -5.0446e-05        0.0301965        0.273907
560400                  0.786213      -0.0292224       0.00012047    -6.59948e-05        -0.273182       -0.283156     -0.000156444     6.44405e-05
                     0.000120402    -6.62366e-05         0.213626       0.0197262     -4.91535e-05     4.70095e-05         0.460137       -0.887848
                       -0.273182       -0.283156     -4.94322e-05     4.97664e-05         0.197347       -0.322481      4.87501e-05     -5.9177e-05
                    -0.000156487     6.56563e-05         0.460136       -0.887849      4.84961e-05    -5.90082e-05        0.0418861        0.264361
563600                   0.86016      -0.0270903      0.000129234    -7.40092e-05        -0.271365        -0.31091     -0.000161043     7.80324e-05
                     0.000129418    -7.39372e-05         0.257147      -0.0297664     -5.58057e-05     5.41387e-05          0.53983       -0.801459
                       -0.271365        -0.31091     -5.59287e-05     5.44981e-05         0.137708        -0.80301      5.23031e-05    -6.89341e-05
                     -0.00016096     7.83025e-05         0.539831        -0.80146      5.22597e-05    -6.89416e-05        0.0544695        0.253495
564000                  0.870559      -0.0265475      0.000130354    -7.50522e-05        -0.271235       -0.314332     -0.000161548     7.97817e-05
                     0.000130571    -7.49411e-05         0.262553      -0.0367537     -5.66934e-05     5.50824e-05         0.546559       -0.786834
                       -0.271235       -0.314332     -5.67927e-05     5.51209e-05        0.0876803       -0.885062      5.27479e-05    -7.02609e-05
                     -0.00016146     7.99348e-05         0.546559       -0.786834      5.27321e-05    -7.02944e-05        0.0561091        0.252032
566800                  0.952209      -0.0201936      0.000138356    -8.26256e-05        -0.270896       -0.337961     -0.000164616     9.23106e-05
                     0.000138806    -8.22423e-05         0.299494      -0.0912407     -6.33004e-05     6.20514e-05         0.583151       -0.682078
                       -0.270896       -0.337961     -6.32013e-05     5.96933e-05        -0.543087       -0.839676      5.58291e-05    -8.03127e-05
                    -0.000164551     9.16622e-05         0.583149       -0.682075      5.60127e-05    -8.05575e-05        0.0680225        0.241055
570000                  0.999991     -0.00422507       0.00014785     -9.1906e-05        -0.271669       -0.364248     -0.000167046     0.000107164
                     0.000148583    -9.12156e-05         0.337739       -0.166629     -7.18063e-05     7.08826e-05         0.602784       -0.561558
                       -0.271669       -0.364248     -7.13959e-05      6.5421e-05        -0.952514       -0.304494      5.91639e-05    -9.36881e-05
