! TOUCHSTONE file generated by CST MICROWAVE STUDIO
! Date and time: Mon Oct 20 08:27:17 2025
! Project name: Teste_Macro_Metasurface_Nanopilar.cst
! Parameters = {H=600; L_x=85; L_y=115; Lambda=1064; Max_L=200; Min_L=70; PathPara=1; Phi=0; Step_L=10; Theta=0; p=520; phaseX=180; phaseY=0}
! Header version: 2018
! Port assignment regex: !\s*Touchstone port\s*([0-9]+)\s*=\s*(CST MWS port|CST DS port)\s*([0-9]+|Zmin|Zmax)\s*\(\"(.*)\"\)(\s*mode\s*([0-9]+))?.*
! Touchstone port assignment:
! Touchstone port 1 = CST MWS port Zmax ("") mode 1
! Touchstone port 2 = CST MWS port Zmax ("") mode 2
! Touchstone port 3 = CST MWS port Zmin ("") mode 1
! Touchstone port 4 = CST MWS port Zmin ("") mode 2
! S-Parameters are not renormalized. Each port impedance will be approximated by the real part at minimum frequency. The values are described via the [Reference] keyword.
! Default impedance is overridden by [Reference]
[Version] 2.0
# GHz S RI R 376.73
[Number of Ports] 4
[Reference]
376.73 376.73 259.888 259.888 
[Number of Frequencies] 52
[Network Data]
474000                 0.0920473        0.231606      2.92823e-07      -7.926e-06        -0.945586       -0.183674     -2.00389e-05     5.39997e-06
                     1.99523e-08     -7.8595e-06        -0.500309      -0.0306874      3.76833e-06     1.39798e-05        -0.533024       -0.659524
                       -0.945586       -0.183674      3.56782e-06     1.41295e-05        -0.177657        0.183463      9.90962e-06    -7.22065e-06
                    -2.00437e-05     5.09355e-06        -0.533024       -0.659524      9.82394e-06    -6.94565e-06        -0.101765        0.499762
477200                 0.0624475        0.199203     -3.88591e-07    -9.97126e-06        -0.959502       -0.209113     -2.05469e-05     6.37251e-06
                    -6.89811e-07    -9.98379e-06        -0.512857      -0.0204626      5.51866e-06     1.48014e-05        -0.526394       -0.662201
                       -0.959502       -0.209112      5.25933e-06     1.50087e-05        -0.176614        0.178088      9.94989e-06    -7.32085e-06
                    -2.04753e-05      5.9454e-06        -0.526394       -0.662201      9.75941e-06     -7.3068e-06        -0.107239        0.504011
480400                  0.035123        0.166031     -1.11941e-06    -1.21193e-05        -0.971541       -0.236871      -2.1087e-05     7.38276e-06
                    -1.45187e-06    -1.22155e-05        -0.526175     -0.00900077       7.3447e-06     1.56683e-05         -0.51928       -0.664991
                       -0.971541        -0.23687      7.02317e-06     1.59352e-05        -0.175505        0.172384      9.99185e-06    -7.42519e-06
                    -2.09332e-05     6.83082e-06         -0.51928       -0.664991      9.69263e-06     -7.6829e-06        -0.113088          0.5084
483600                 0.0100519        0.132283     -1.90472e-06    -1.43778e-05         -0.96489       -0.262655      -2.1662e-05     8.43276e-06
                    -2.27166e-06    -1.45628e-05        -0.540304       0.0038988      9.25141e-06     1.65839e-05        -0.511626       -0.667896
                        -0.96489       -0.262654      8.86399e-06      1.6913e-05        -0.174324        0.166321      1.00356e-05    -7.53393e-06
                    -2.14196e-05     7.75169e-06        -0.511626       -0.667896      9.62346e-06    -8.07489e-06        -0.119348        0.512929
486800                -0.0128053        0.098142     -2.75027e-06    -1.67554e-05        -0.956875         -0.2905     -2.22748e-05     9.52468e-06
                    -3.15536e-06    -1.70347e-05        -0.555282       0.0184769      1.12442e-05     1.75524e-05        -0.503371       -0.670919
                       -0.956876       -0.290497      1.07869e-05     1.79463e-05        -0.173064        0.159863      1.00813e-05    -7.64735e-06
                     -2.1937e-05     8.71005e-06        -0.503371       -0.670919      9.55179e-06     -8.4838e-06        -0.126057        0.517601
490000                -0.0335031       0.0637774      -3.6626e-06    -1.92615e-05        -0.947202       -0.320637     -2.29289e-05     1.06608e-05
                       -4.11e-06    -1.96411e-05        -0.571134        0.035023      1.33288e-05     1.85784e-05        -0.494443       -0.674061
                       -0.947203       -0.320634      1.27973e-05     1.90396e-05        -0.171717        0.152971       1.0129e-05    -7.76576e-06
                     -2.2488e-05     9.70806e-06        -0.494443       -0.674061      9.47749e-06    -8.91075e-06         -0.13326        0.522412
493200                -0.0521088       0.0293452     -4.64918e-06    -2.19066e-05          -0.9355       -0.353327      -2.3628e-05     1.18436e-05
                    -5.14361e-06     -2.2393e-05        -0.587866       0.0538866      1.55119e-05     1.96669e-05        -0.484761       -0.677322
                       -0.935501       -0.353324      1.49014e-05     2.01983e-05        -0.170272        0.145599      1.01788e-05    -7.88951e-06
                    -2.30759e-05      1.0748e-05         -0.48476       -0.677322      9.40041e-06    -9.35695e-06        -0.141007        0.527361
496400                -0.0686998     -0.00501247     -5.71855e-06    -2.47022e-05        -0.921297       -0.388859     -2.43763e-05     1.30756e-05
                     -6.2654e-06    -2.53025e-05        -0.605452         0.07549      1.78002e-05     2.08234e-05        -0.474226       -0.680699
                       -0.921299       -0.388854      1.71056e-05     2.14281e-05         -0.16872        0.137696      1.02311e-05    -8.01895e-06
                    -2.37038e-05     1.18324e-05        -0.474226       -0.680698       9.3204e-06    -9.82374e-06        -0.149354        0.532441
499600                -0.0833619      -0.0391681     -6.88055e-06    -2.76611e-05        -0.903996       -0.427542     -2.51786e-05     1.43596e-05
                    -7.48597e-06    -2.83833e-05        -0.623818        0.100345      2.02015e-05     2.20544e-05        -0.462727       -0.684183
                       -0.903998       -0.427537      1.94171e-05     2.27354e-05        -0.167048        0.129201      1.02858e-05    -8.15449e-06
                    -2.43757e-05      1.2964e-05        -0.462727       -0.684183       9.2373e-06    -1.03126e-05        -0.158364        0.537643
502800                -0.0961868      -0.0730082     -8.14651e-06    -3.07978e-05        -0.882826       -0.469701       -2.604e-05     1.56984e-05
                    -8.81758e-06    -3.16503e-05        -0.642812        0.129068      2.27242e-05     2.33669e-05        -0.450131       -0.687763
                       -0.882829       -0.469695      2.18438e-05     2.41276e-05        -0.165242        0.120047      1.03432e-05    -8.29658e-06
                    -2.50958e-05     1.41454e-05        -0.450131       -0.687763      9.15093e-06    -1.08251e-05        -0.168107        0.542953
506000                  -0.10727       -0.106433     -9.52959e-06     -3.4128e-05        -0.856798       -0.515653     -2.69665e-05     1.70951e-05
                    -1.02744e-05    -3.51202e-05        -0.662166        0.162403      2.53776e-05     2.47688e-05         -0.43628       -0.691418
                       -0.856802       -0.515646      2.43942e-05     2.56127e-05        -0.163283        0.110152      1.04035e-05     -8.4457e-06
                    -2.58687e-05     1.53797e-05         -0.43628       -0.691418       9.0611e-06    -1.13629e-05        -0.178663         0.54835
509200                 -0.116711       -0.139357     -1.10451e-05    -3.76695e-05        -0.824636       -0.565663     -2.79646e-05     1.85528e-05
                    -1.18731e-05    -3.88119e-05        -0.681439        0.201237      2.81718e-05     2.62693e-05        -0.420987       -0.695116
                       -0.824641       -0.565656       2.7078e-05     2.72001e-05        -0.161153       0.0994232      1.04669e-05    -8.60237e-06
                    -2.66999e-05     1.66702e-05        -0.420987       -0.695115      8.96763e-06    -1.19281e-05        -0.190122        0.553807
512400                 -0.124609       -0.171705     -1.27109e-05    -4.14424e-05        -0.784702       -0.619873     -2.90418e-05      2.0075e-05
                    -1.36331e-05    -4.27463e-05         -0.69993        0.246605      3.11181e-05     2.78785e-05        -0.404029       -0.698809
                       -0.784708       -0.619865      2.99055e-05     2.89002e-05        -0.158829       0.0877508      1.05336e-05    -8.76721e-06
                    -2.75953e-05     1.80203e-05        -0.404028       -0.698808      8.87029e-06    -1.25228e-05        -0.202583        0.559288
515600                 -0.131062       -0.203415      -1.4548e-05     -4.5469e-05        -0.734911       -0.678164     -3.02065e-05     2.16649e-05
                    -1.55773e-05    -4.69469e-05        -0.716556        0.299685      3.42289e-05      2.9608e-05        -0.385135       -0.702426
                       -0.734919       -0.678155      3.28882e-05     3.07247e-05        -0.156281       0.0750045       1.0604e-05    -8.94084e-06
                    -2.85618e-05     1.94335e-05        -0.385134       -0.702426      8.76887e-06    -1.31493e-05        -0.216159        0.564742
518800                  -0.13617       -0.234437     -1.65814e-05    -4.97745e-05        -0.672676       -0.739937     -3.14683e-05     2.33261e-05
                    -1.77326e-05    -5.14403e-05        -0.729688        0.361739      3.75179e-05     3.14712e-05        -0.363979       -0.705864
                       -0.672686       -0.739928      3.60389e-05     3.26872e-05        -0.153477       0.0610289      1.06783e-05    -9.12401e-06
                    -2.96071e-05     2.09138e-05        -0.363978       -0.705864      8.66311e-06    -1.38103e-05        -0.230978        0.570103
522000                 -0.140027       -0.264729     -1.88405e-05    -5.43872e-05        -0.594932       -0.803776     -3.28379e-05     2.50622e-05
                    -2.01314e-05    -5.62562e-05        -0.736934         0.43397      4.10005e-05     3.34832e-05        -0.340162       -0.708972
                       -0.594944       -0.803767      3.93717e-05     3.48031e-05        -0.150375       0.0456371      1.07569e-05    -9.31752e-06
                      -3.074e-05     2.24651e-05        -0.340161       -0.708971      8.55275e-06    -1.45086e-05        -0.247179        0.575286
525200                 -0.142728       -0.294259     -2.13606e-05    -5.93392e-05        -0.498363       -0.866969     -3.43276e-05     2.68767e-05
                    -2.28123e-05    -6.14283e-05          -0.7349        0.517235      4.46937e-05     3.56617e-05        -0.313199       -0.711527
                       -0.498377       -0.866961      4.29021e-05     3.70903e-05        -0.146926       0.0286024      1.08401e-05    -9.52227e-06
                    -3.19705e-05     2.40917e-05        -0.313198       -0.711525      8.43753e-06    -1.52476e-05        -0.264919        0.580176
528400                 -0.144361       -0.323002     -2.41843e-05    -6.46666e-05        -0.380016        -0.92498     -3.59513e-05     2.87732e-05
                    -2.58218e-05    -6.69945e-05        -0.718981        0.611516      4.86165e-05      3.8027e-05        -0.282491       -0.713204
                       -0.380032       -0.924973      4.66477e-05     3.95691e-05        -0.143069      0.00964691      1.09285e-05    -9.73927e-06
                      -3.331e-05     2.57979e-05         -0.28249       -0.713202      8.31714e-06    -1.60309e-05         -0.28437        0.584629
531600                 -0.145013       -0.350943     -2.73628e-05    -7.04105e-05        -0.238501       -0.971142     -3.77251e-05     3.07548e-05
                    -2.92163e-05    -7.29976e-05        -0.683389         0.71507      5.27901e-05     4.06025e-05        -0.247304       -0.713522
                       -0.238518       -0.971138      5.06278e-05     4.22632e-05        -0.138726      -0.0115735      1.10223e-05    -9.96964e-06
                    -3.47716e-05     2.75881e-05        -0.247303        -0.71352      8.19126e-06    -1.68625e-05        -0.305716        0.588454
534800                 -0.144765        -0.37807      -3.0959e-05     -7.6617e-05       -0.0756793       -0.997132     -3.96671e-05     3.28246e-05
                    -3.30647e-05    -7.94858e-05        -0.602624        0.798025      5.72382e-05     4.34158e-05        -0.206737       -0.711766
                       -0.075696       -0.997131      5.48639e-05     4.52004e-05        -0.133799      -0.0354907      1.11223e-05    -1.02147e-05
                    -3.63703e-05      2.9467e-05        -0.206736       -0.711764      8.05958e-06    -1.77471e-05        -0.329155        0.591408
538000                 -0.143696       -0.404379     -3.50497e-05    -8.33384e-05         0.101865       -0.994798     -4.17983e-05     3.49848e-05
                    -3.74519e-05    -8.65136e-05         -0.49496        0.868916      6.19876e-05     4.64993e-05        -0.159697        -0.70686
                         0.10185         -0.9948      5.93803e-05      4.8413e-05        -0.128163      -0.0626533       1.1229e-05    -1.04758e-05
                    -3.81236e-05     3.14389e-05        -0.159696       -0.706858      7.92174e-06    -1.86899e-05        -0.354889        0.593179
541200                 -0.141878       -0.429869     -3.97304e-05    -9.06337e-05         0.283011       -0.959117     -4.41427e-05     3.72369e-05
                    -4.24831e-05    -9.41417e-05        -0.367748        0.929925      6.70681e-05     4.98911e-05        -0.104892       -0.697171
                        0.282999        -0.95912      6.42039e-05      5.1939e-05        -0.121654        -0.09377      1.13431e-05    -1.07547e-05
                    -4.00514e-05     3.35079e-05         -0.10489       -0.697168      7.77736e-06    -1.96969e-05        -0.383114        0.593371
544400                 -0.139381       -0.454546     -4.51199e-05    -9.85686e-05         0.454802       -0.890592     -4.67279e-05      3.9581e-05
                      -4.829e-05    -0.000102437        -0.223636        0.974673      7.25135e-05     5.36363e-05       -0.0408748       -0.680203
                        0.454795       -0.890596      6.93651e-05     5.58235e-05        -0.114051       -0.129772      1.14655e-05    -1.10532e-05
                     -4.2177e-05     3.56779e-05       -0.0408735       -0.680199      7.62608e-06    -2.07748e-05        -0.414006        0.591483
547600                 -0.136268       -0.478418     -5.13681e-05    -0.000107216         0.606448       -0.795123     -4.95857e-05     4.20157e-05
                    -5.50387e-05    -0.000111475        -0.068551        0.997648      7.83617e-05     5.77892e-05        0.0337682       -0.652117
                        0.606445       -0.795126      7.48975e-05     6.01201e-05        -0.105058       -0.171907      1.15969e-05    -1.13734e-05
                    -4.45274e-05     3.79517e-05        0.0337693       -0.652112       7.4675e-06    -2.19313e-05        -0.447692         0.58689
550800                 -0.132601       -0.501494     -5.86653e-05    -0.000116655          0.73197       -0.681337     -5.27527e-05     4.45367e-05
                    -6.29407e-05    -0.000121331        0.0891283         0.99602      8.46557e-05     6.24147e-05         0.119905       -0.607046
                        0.731969       -0.681338      8.08391e-05     6.48931e-05       -0.0942542       -0.221888      1.17386e-05    -1.17179e-05
                     -4.7134e-05     4.03312e-05         0.119905        -0.60704      7.30124e-06    -2.31754e-05        -0.484211        0.578825
554000                 -0.128435       -0.523788     -6.72559e-05    -0.000126969         0.830189       -0.557482      -5.6271e-05     4.71363e-05
                    -7.22675e-05    -0.000132088         0.240621        0.970619      9.14435e-05     6.75916e-05         0.216622       -0.536228
                         0.83019       -0.557481      8.72323e-05       7.022e-05       -0.0810371        -0.28213      1.18917e-05    -1.20895e-05
                    -5.00334e-05     4.28161e-05         0.216621       -0.536221       7.1269e-06    -2.45174e-05        -0.523456        0.566365
557200                 -0.123822       -0.545317     -7.74559e-05     -0.00013824         0.894664        -0.42569     -6.01892e-05     4.98021e-05
                    -8.33712e-05    -0.000143819         0.358665        0.875854      9.87795e-05      7.3416e-05          0.31857       -0.427427
                        0.894696       -0.425702       9.4124e-05      7.6195e-05       -0.0645033       -0.356154      1.20576e-05    -1.24915e-05
                    -5.32686e-05     4.54037e-05         0.318568       -0.427418      6.94414e-06    -2.59692e-05          -0.5651         0.54843
560400                  -0.11881       -0.566097     -8.96785e-05     -0.00015054         0.838082       -0.265065     -6.45627e-05      5.2515e-05
                    -9.67118e-05     -0.00015658          0.43947        0.760807      0.000106724      8.0006e-05         0.411117       -0.266247
                         0.83811       -0.265071      0.000101566     8.29335e-05       -0.0432386       -0.449296      1.22381e-05    -1.29278e-05
                    -5.68896e-05     4.80872e-05         0.411112       -0.266237      6.75265e-06    -2.75449e-05        -0.608497        0.523822
563600                 -0.113445       -0.586147     -0.000104468    -0.000163911         0.768444       -0.136645     -6.94549e-05     5.52471e-05
                    -0.000112895    -0.000170382         0.488211         0.64549      0.000115346     8.75084e-05         0.464216      -0.0432655
                        0.768469       -0.136646      0.000109617      9.0578e-05       -0.0149019       -0.570055      1.24352e-05     -1.3403e-05
                    -6.09548e-05     5.08542e-05         0.464206      -0.0432564      6.55221e-06     -2.9261e-05        -0.652567        0.491292
564000                 -0.112751       -0.588603     -0.000106531    -0.000165658         0.759289       -0.122619     -7.01064e-05     5.55882e-05
                    -0.000115155    -0.000172178         0.492359        0.631502      0.000116475     8.85191e-05         0.465907      -0.0112847
                        0.759313       -0.122619      0.000110669     9.16057e-05       -0.0106852       -0.587715      1.24611e-05    -1.34654e-05
                    -6.14975e-05      5.1205e-05         0.465897      -0.0112758      6.52652e-06    -2.94863e-05        -0.658048        0.486609
566800                 -0.107767       -0.605487     -0.000122547    -0.000178332         0.694287      -0.0354901     -7.49376e-05     5.79586e-05
                    -0.000132721    -0.000185148         0.511371        0.537862      0.000124718     9.61068e-05         0.432766        0.228707
                        0.694308      -0.0354883      0.000118336     9.93059e-05         0.024673       -0.732839      1.26513e-05    -1.39225e-05
                    -6.55326e-05     5.36844e-05         0.432751        0.228713      6.34276e-06    -3.11371e-05        -0.695689        0.449692
570000                 -0.101814       -0.624136     -0.000144875    -0.000193649         0.620691       0.0436235     -8.10911e-05     6.05935e-05
                     -0.00015725     -0.00020063         0.515912        0.441819       0.00013492     0.000106033         0.279912        0.496079
                        0.620708       0.0436269      0.000127788      0.00010934        0.0836509       -0.964164      1.28891e-05    -1.44928e-05
