! TOUCHSTONE file generated by CST MICROWAVE STUDIO
! Date and time: Mon Oct 20 08:27:12 2025
! Project name: Teste_Macro_Metasurface_Nanopilar.cst
! Parameters = {H=600; L_x=70; L_y=85; Lambda=1064; Max_L=200; Min_L=70; PathPara=1; Phi=0; Step_L=10; Theta=0; p=520; phaseX=180; phaseY=0}
! Header version: 2018
! Port assignment regex: !\s*Touchstone port\s*([0-9]+)\s*=\s*(CST MWS port|CST DS port)\s*([0-9]+|Zmin|Zmax)\s*\(\"(.*)\"\)(\s*mode\s*([0-9]+))?.*
! Touchstone port assignment:
! Touchstone port 1 = CST MWS port Zmax ("") mode 1
! Touchstone port 2 = CST MWS port Zmax ("") mode 2
! Touchstone port 3 = CST MWS port Zmin ("") mode 1
! Touchstone port 4 = CST MWS port Zmin ("") mode 2
! S-Parameters are not renormalized. Each port impedance will be approximated by the real part at minimum frequency. The values are described via the [Reference] keyword.
! Default impedance is overridden by [Reference]
[Version] 2.0
# GHz S RI R 376.73
[Number of Ports] 4
[Reference]
376.73 376.73 259.888 259.888 
[Number of Frequencies] 52
[Network Data]
474000                  0.307931       0.0857037      5.75202e-05     -8.7113e-05        -0.888018       -0.322633     -0.000161029     0.000130921
                     5.73487e-05    -8.71497e-05       -0.0761058        0.164086      1.90772e-05     0.000179918        -0.864805       -0.451811
                       -0.888018       -0.322633      1.90192e-05     0.000179974        -0.291948       -0.131333      7.31909e-06    -7.20038e-05
                     -0.00016104     0.000130836        -0.864805       -0.451811      7.49875e-06    -7.19894e-05       -0.0815959        0.152546
477200                  0.310516       0.0789906      5.85989e-05    -8.46192e-05        -0.890573       -0.312343     -0.000159865     0.000131345
                     5.79067e-05    -8.43082e-05       -0.0764135        0.167489      2.03208e-05     0.000179176        -0.866766       -0.442334
                       -0.890573       -0.312343      2.02971e-05     0.000179268        -0.288658         -0.1286      5.48633e-06    -7.33689e-05
                     -0.00015969     0.000131093        -0.866766       -0.442333      5.62744e-06    -7.33338e-05       -0.0826134        0.154857
480400                  0.312947       0.0718202      5.96819e-05    -8.18884e-05        -0.893201       -0.301199     -0.000158616     0.000131795
                     5.84052e-05    -8.12386e-05       -0.0767208        0.171166      2.16301e-05     0.000178385        -0.868689       -0.432051
                         -0.8932       -0.301199      2.16424e-05     0.000178514        -0.285325       -0.125851      3.52828e-06    -7.48062e-05
                    -0.000158245     0.000131365        -0.868689       -0.432048      3.62921e-06    -7.47488e-05       -0.0836923        0.157352
483600                  0.315183       0.0641673      6.07571e-05    -7.88906e-05        -0.895893       -0.289091     -0.000157274     0.000132274
                     5.88246e-05    -7.79184e-05       -0.0770245        0.175153      2.30103e-05      0.00017754        -0.870543       -0.420862
                       -0.895891       -0.289091      2.30604e-05     0.000177707         -0.28195       -0.123087      1.43186e-06    -7.63212e-05
                    -0.000156694     0.000131652        -0.870543       -0.420859      1.49092e-06    -7.62398e-05       -0.0848378        0.160055
486800                  0.317173       0.0560078      6.18078e-05    -7.55918e-05        -0.898636       -0.275893     -0.000155827     0.000132785
                       5.914e-05    -7.43235e-05       -0.0773201        0.179489      2.44673e-05     0.000176636        -0.872286       -0.408653
                       -0.898633       -0.275893       2.4557e-05     0.000176842        -0.278532       -0.120307     -8.17789e-07      -7.792e-05
                    -0.000155025     0.000131957        -0.872286       -0.408648     -8.02373e-07    -7.78127e-05       -0.0860556        0.162991
490000                   0.31886       0.0473201      6.28114e-05    -7.19532e-05         -0.90141       -0.261456     -0.000154262     0.000133331
                     5.93209e-05    -7.04279e-05       -0.0776016        0.184223      2.60076e-05     0.000175667        -0.873861       -0.395287
                       -0.901406       -0.261457      2.61389e-05     0.000175913        -0.275069       -0.117512     -3.23774e-06    -7.96091e-05
                    -0.000153223      0.00013228        -0.873861       -0.395281     -3.26781e-06    -7.94738e-05       -0.0873519        0.166192
493200                  0.320178       0.0380866      6.37374e-05    -6.79308e-05        -0.904185       -0.245604     -0.000152565     0.000133915
                     5.93289e-05    -6.62043e-05       -0.0778606         0.18941      2.76383e-05     0.000174625        -0.875195       -0.380609
                       -0.904181       -0.245604      2.78133e-05     0.000174912        -0.271561       -0.114701     -5.84763e-06    -8.13958e-05
                    -0.000151274     0.000132624        -0.875194       -0.380601     -5.92508e-06    -8.12302e-05       -0.0887333        0.169696
496400                  0.321054       0.0282949      6.45452e-05    -6.34755e-05         -0.90692       -0.228125     -0.000150717     0.000134543
                     5.91165e-05    -6.16249e-05       -0.0780861        0.195118      2.93674e-05     0.000173502        -0.876186       -0.364434
                       -0.906914       -0.228126      2.95884e-05     0.000173831        -0.268007       -0.111874     -8.67015e-06    -8.32881e-05
                    -0.000149157      0.00013299        -0.876185       -0.364424     -8.79694e-06    -8.30895e-05        -0.090207        0.173546
499600                  0.321403       0.0179399      6.51802e-05    -5.85331e-05        -0.909555       -0.208768     -0.000148699     0.000135217
                     5.86247e-05    -5.66626e-05       -0.0782628         0.20143       3.1204e-05      0.00017229        -0.876703        -0.34655
                       -0.909548       -0.208769      3.14733e-05      0.00017266        -0.264406       -0.109032     -1.17317e-05    -8.52945e-05
                     -0.00014685      0.00013338        -0.876701       -0.346537     -1.19098e-05    -8.50601e-05       -0.0917803        0.177796
502800                  0.321132      0.00702669      6.55701e-05     -5.3045e-05        -0.912003       -0.187228     -0.000146486     0.000135945
                     5.77808e-05    -5.12926e-05       -0.0783698        0.208443       3.3158e-05     0.000170977        -0.876567       -0.326705
                       -0.911995       -0.187229       3.3478e-05     0.000171389        -0.260758       -0.106175     -1.50631e-05    -8.74244e-05
                    -0.000144327     0.000133796        -0.876564        -0.32669     -1.52945e-05    -8.71509e-05        -0.093461        0.182511
506000                   0.32014     -0.00442744      6.56193e-05    -4.69505e-05        -0.914143       -0.163134     -0.000144048     0.000136731
                     5.64955e-05    -4.54957e-05       -0.0783783         0.21628      3.52408e-05      0.00016955        -0.875534       -0.304608
                       -0.914134       -0.163136       3.5614e-05     0.000170005        -0.257061       -0.103302     -1.87005e-05    -8.96879e-05
                    -0.000141555      0.00013424         -0.87553       -0.304591     -1.89873e-05    -8.93717e-05       -0.0952562        0.187768
509200                  0.318317      -0.0163894      6.52016e-05    -4.01903e-05        -0.915801       -0.136033     -0.000141348     0.000137584
                     5.46604e-05    -3.92625e-05       -0.0782476        0.225092      3.74651e-05     0.000167995        -0.873278       -0.279924
                        -0.91579       -0.136035      3.78942e-05     0.000168492        -0.253316       -0.100413     -2.26869e-05    -9.20957e-05
                    -0.000138496     0.000134714        -0.873272       -0.279905     -2.30308e-05    -9.17329e-05       -0.0971724        0.193667
512400                  0.315546      -0.0288072      6.41528e-05    -3.27139e-05        -0.916724       -0.105367     -0.000138343      0.00013851
                     5.21452e-05    -3.25996e-05       -0.0779205        0.235069      3.98453e-05     0.000166294        -0.869347       -0.252269
                       -0.916711        -0.10537      4.03328e-05     0.000166834         -0.24952      -0.0975094     -2.70729e-05    -9.46594e-05
                    -0.000135103     0.000135222        -0.869339       -0.252247     -2.74758e-05    -9.42454e-05       -0.0992139        0.200328
515600                   0.31171      -0.0416063      6.22616e-05     -2.4491e-05        -0.916548      -0.0704432     -0.000134979     0.000139519
                     4.87967e-05     -2.5538e-05       -0.0773144         0.24645      4.23977e-05     0.000164428        -0.863127       -0.221215
                       -0.916533      -0.0704475      4.29462e-05     0.000165009        -0.245674      -0.0945903     -3.19198e-05    -9.73907e-05
                    -0.000131319     0.000135766        -0.863116        -0.22119     -3.23831e-05    -9.69205e-05        -0.101381        0.207905
518800                   0.30669      -0.0546869      5.92616e-05    -1.55303e-05        -0.914734      -0.0304011     -0.000131187     0.000140621
                     4.44387e-05    -1.81448e-05        -0.076309        0.259545      4.51409e-05     0.000162371        -0.853765       -0.186306
                       -0.914717      -0.0304068      4.57528e-05     0.000162993        -0.241776       -0.091656     -3.73009e-05    -0.000100301
                    -0.000127072     0.000136346         -0.85375       -0.186278     -3.78258e-05    -9.97696e-05        -0.103666        0.216596
522000                  0.300374       -0.067921      5.48274e-05    -5.90735e-06        -0.910487       0.0158339     -0.000126879     0.000141827
                     3.88772e-05    -1.05378e-05       -0.0747246        0.274756      4.80958e-05     0.000160095        -0.840085       -0.147097
                       -0.910467       0.0158263      4.87734e-05     0.000160755        -0.237825      -0.0887064     -4.33058e-05    -0.000103403
                    -0.000122272     0.000136966        -0.840066       -0.147067     -4.38928e-05    -0.000102803        -0.106049        0.226657
525200                  0.292663      -0.0811507      4.85811e-05     4.19676e-06        -0.902602       0.0695977     -0.000121946     0.000143151
                     3.19108e-05    -2.90202e-06       -0.0722876        0.292616      5.12866e-05     0.000157565        -0.820465        -0.10324
                        -0.90258       0.0695875      5.20317e-05      0.00015826        -0.233821      -0.0857418     -5.00441e-05    -0.000106705
                    -0.000116803     0.000137624         -0.82044       -0.103207     -5.06928e-05    -0.000106031        -0.108486        0.238424
528400                   0.28348      -0.0941889      4.01174e-05     1.44462e-05         -0.88924         0.13253     -0.000116241     0.000144605
                     2.33512e-05      4.4934e-06       -0.0685697        0.313841      5.47408e-05     0.000154737        -0.792683      -0.0546441
                       -0.889216        0.132517      5.55545e-05     0.000155464        -0.229762      -0.0827621     -5.76513e-05    -0.000110213
                    -0.000110517     0.000138318        -0.792651      -0.0546101     -5.83601e-05    -0.000109457        -0.110891         0.25235
531600                  0.272775       -0.106821       2.9063e-05     2.43003e-05        -0.867541         0.20658     -0.000109569     0.000146202
                     1.30554e-05     1.12824e-05       -0.0628797        0.339405      5.84898e-05     0.000151561        -0.753764     -0.00179236
                       -0.867514        0.206562       5.9372e-05     0.000152313        -0.225648      -0.0797675     -6.62968e-05    -0.000113926
                    -0.000103218      0.00013904        -0.753723     -0.00175866     -6.70624e-05    -0.000113081        -0.113103        0.269052
534800                  0.260538        -0.11881      1.51789e-05     3.29818e-05           -0.833        0.293882     -0.000101666      0.00014795
                     9.70869e-07     1.70019e-05       -0.0540631        0.370648      6.25695e-05      0.00014797        -0.699885       0.0537228
                       -0.832971        0.293858      6.35184e-05     0.000148741        -0.221478      -0.0767581     -7.61939e-05    -0.000117833
                    -9.46388e-05     0.000139775        -0.699834       0.0537535     -7.70103e-05    -0.000116892        -0.114823        0.289387
538000                  0.246805       -0.129906      -1.4952e-06     3.95012e-05        -0.778467        0.396296     -9.21617e-05     0.000149851
                    -1.28105e-05     2.11128e-05        -0.040111        0.409421      6.70208e-05     0.000143884        -0.626551        0.108336
                       -0.778437        0.396264      6.80321e-05     0.000144665        -0.217249       -0.073734     -8.76141e-05    -0.000121902
                    -8.44165e-05     0.000140491        -0.626489         0.10836      -8.8472e-05    -0.000120857         -0.11549        0.314569
541200                  0.231662       -0.139853      -2.0488e-05     4.27777e-05        -0.692654        0.514074     -8.05251e-05     0.000151881
                    -2.80014e-05     2.30532e-05       -0.0173679        0.458207        7.189e-05     0.000139202        -0.529419         0.15535
                       -0.692625        0.514031      7.29556e-05     0.000139981        -0.212963      -0.0706954     -0.000100907    -0.000126067
                    -7.20341e-05     0.000141124        -0.529348        0.155362     -0.000101792    -0.000124914        -0.114031        0.346337
544400                  0.215252       -0.148406     -4.08117e-05     4.18758e-05        -0.558407        0.642502     -6.59668e-05     0.000153966
                    -4.40911e-05     2.23243e-05        0.0211407        0.520005      7.72292e-05     0.000133794        -0.406376        0.183925
                       -0.558383        0.642447      7.83351e-05     0.000134555        -0.208617      -0.0676423     -0.000116525    -0.000130205
                    -5.67372e-05     0.000141555        -0.406302         0.18392     -0.000117416    -0.000128945        -0.108329        0.387187
547600                  0.197773       -0.155345     -6.10383e-05     3.63034e-05        -0.352592        0.764473     -4.72669e-05     0.000155915
                    -6.03636e-05     1.85967e-05        0.0892481        0.596862      8.30954e-05     0.000127492        -0.261206        0.179563
                       -0.352583        0.764406      8.42188e-05     0.000128215         -0.20421      -0.0645749     -0.000135062    -0.000134097
                    -3.73814e-05     0.000141545        -0.261136        0.179537      -0.00013593    -0.000132739       -0.0940565        0.440567
550800                   0.17947       -0.160488     -7.95748e-05     2.62392e-05        -0.054204         0.83782     -2.24491e-05     0.000157251
                     -7.5976e-05     1.18084e-05         0.214232        0.682751       8.9549e-05     0.000120076        -0.107531        0.128215
                      -0.0542176        0.837748      9.06541e-05     0.000120738        -0.199742      -0.0614935     -0.000157299    -0.000137358
                    -1.21502e-05       0.0001406        -0.107477        0.128173     -0.000158101    -0.000135927       -0.0620599        0.510474
554000                  0.160625       -0.163705     -9.50518e-05     1.25479e-05         0.326288        0.787491      1.18659e-05     0.000156767
                    -9.00878e-05     2.21317e-06         0.440033        0.736383      9.66491e-05     0.000111255        0.0311961       0.0245597
                        0.326248        0.787433        9.768e-05     0.000111829        -0.195211      -0.0583981     -0.000184257    -0.000139307
                     2.20002e-05     0.000137631         0.031227       0.0245123     -0.000184942    -0.000137861       0.00702257        0.597867
557200                  0.141546       -0.164927     -0.000106643    -3.45111e-06         0.701068        0.541241       6.1806e-05     0.000151195
                    -0.000102004    -9.64537e-06         0.768234        0.624766      0.000104444     0.000100637         0.129925       -0.120764
                        0.701019        0.541215      0.000105314     0.000101094        -0.190616       -0.055289     -0.000217254    -0.000138751
                     7.05101e-05     0.000130014         0.129934       -0.120803     -0.000217762    -0.000137406         0.149034          0.6844
560400                   0.12255        -0.16415     -0.000114171    -2.03416e-05          0.92342        0.126058      0.000138954     0.000130632
                    -0.000111286    -2.30315e-05         0.968008        0.237291      0.000112951      8.7689e-05         0.174722       -0.283526
                         0.92339        0.126059      0.000113527     8.80011e-05        -0.185956      -0.0521664       -0.0002579     -0.00013358
                     0.000143817     0.000110574          0.17472       -0.283546     -0.000258189    -0.000132549         0.391736        0.689552
563600                  0.103941       -0.161435     -0.000117991    -3.69195e-05         0.923275       -0.311905      0.000262758     6.03768e-05
                     -0.00011779    -3.71522e-05         0.830616       -0.141202      0.000122116     7.16713e-05         0.168654       -0.437946
                        0.923272       -0.311904      0.000122192     7.18287e-05        -0.181229      -0.0490304     -0.000307883     -0.00012006
                      0.00026276     5.59373e-05         0.168653       -0.437948     -0.000307997    -0.000119723         0.627597        0.494395
564000                  0.101656       -0.160965      -0.00011824    -3.89238e-05         0.910041       -0.360794      0.000282275     4.36134e-05
                    -0.000118412    -3.89315e-05         0.800018       -0.171863        0.0001233     6.94059e-05         0.164988       -0.455707
                         0.91004       -0.360794      0.000123294      6.9545e-05        -0.180634      -0.0486375     -0.000314853      -0.0001175
                     0.000282467     4.36258e-05         0.164988       -0.455707     -0.000314958    -0.000117287         0.644409        0.457644
566800                 0.0860004       -0.156903     -0.000118768    -5.23491e-05         0.765106       -0.643904      0.000414893    -0.000187343
                    -0.000121641    -5.12828e-05         0.585315       -0.291427      0.000131729     5.15525e-05         0.126286        -0.56753
                        0.765104       -0.643907       0.00013099     5.15924e-05        -0.176436      -0.0458815     -0.000368114    -9.17172e-05
                     0.000455855    -0.000128293         0.126294        -0.56752     -0.000368365    -9.26812e-05           0.6562        0.201381
570000                 0.0689704       -0.150722     -0.000117255    -6.61707e-05         0.548961       -0.835848      0.000164513    -0.000677493
                    -0.000123152    -6.48488e-05         0.398212       -0.308454      0.000141261     2.58871e-05        0.0641977       -0.667178
                        0.548956       -0.835851      0.000139227     2.59637e-05        -0.171573      -0.0427197     -0.000436182     -3.8066e-05
