! TOUCHSTONE file generated by CST MICROWAVE STUDIO
! Date and time: Mon Oct 20 08:27:16 2025
! Project name: Teste_Macro_Metasurface_Nanopilar.cst
! Parameters = {H=600; L_x=85; L_y=70; Lambda=1064; Max_L=200; Min_L=70; PathPara=1; Phi=0; Step_L=10; Theta=0; p=520; phaseX=180; phaseY=0}
! Header version: 2018
! Port assignment regex: !\s*Touchstone port\s*([0-9]+)\s*=\s*(CST MWS port|CST DS port)\s*([0-9]+|Zmin|Zmax)\s*\(\"(.*)\"\)(\s*mode\s*([0-9]+))?.*
! Touchstone port assignment:
! Touchstone port 1 = CST MWS port Zmax ("") mode 1
! Touchstone port 2 = CST MWS port Zmax ("") mode 2
! Touchstone port 3 = CST MWS port Zmin ("") mode 1
! Touchstone port 4 = CST MWS port Zmin ("") mode 2
! S-Parameters are not renormalized. Each port impedance will be approximated by the real part at minimum frequency. The values are described via the [Reference] keyword.
! Default impedance is overridden by [Reference]
[Version] 2.0
# GHz S RI R 376.73
[Number of Ports] 4
[Reference]
376.73 376.73 259.888 259.888 
[Number of Frequencies] 52
[Network Data]
474000                -0.0762683        0.163947      -2.2126e-05     2.36512e-05        -0.864755       -0.451943      0.000122536    -5.69783e-05
                    -1.31986e-05     2.11189e-05         0.307966       0.0857534     -3.28088e-05    -0.000124379        -0.888154       -0.322205
                       -0.864753       -0.451938      -3.7788e-05    -0.000131056       -0.0814508        0.152559     -2.66306e-05    -3.46824e-05
                     0.000112497    -5.27652e-05        -0.888165       -0.322211     -3.05024e-05    -3.49104e-05        -0.292129       -0.131043
477200                -0.0765802        0.167357     -2.80193e-05     2.48226e-05        -0.866744       -0.442473      0.000122711     -5.6144e-05
                    -1.86587e-05     2.25047e-05         0.310565       0.0790366     -3.46158e-05    -0.000127802          -0.8907        -0.31192
                       -0.866741       -0.442468     -3.96923e-05    -0.000134278       -0.0824695        0.154874     -1.99713e-05    -3.73532e-05
                     0.000112632    -5.17926e-05        -0.890712       -0.311927     -2.27419e-05    -3.89733e-05        -0.288837       -0.128285
480400                -0.0768919        0.171043      -3.4186e-05     2.62805e-05        -0.868698       -0.432196      0.000122897    -5.52508e-05
                    -2.43621e-05     2.41445e-05         0.313011       0.0718611     -3.64623e-05    -0.000131528        -0.893319       -0.300781
                       -0.868695       -0.432191     -4.16545e-05    -0.000137795       -0.0835494        0.157374     -1.30207e-05     -4.0515e-05
                     0.000112778    -5.07524e-05        -0.893332       -0.300788      -1.4793e-05    -4.36966e-05        -0.285503       -0.125512
483600                -0.0772001         0.17504     -4.06311e-05     2.80647e-05        -0.870588       -0.421012      0.000123097    -5.42921e-05
                    -3.03153e-05     2.60718e-05         0.315261       0.0642014     -3.83394e-05    -0.000135593        -0.896001       -0.288679
                       -0.870584       -0.421008     -4.36686e-05    -0.000141645       -0.0846959        0.160082     -5.78889e-06    -4.42374e-05
                     0.000112934    -4.96371e-05        -0.896015       -0.288686     -6.70008e-06    -4.91506e-05        -0.282125       -0.122725
486800                -0.0775003        0.179386     -4.73572e-05     3.02199e-05        -0.872371       -0.408805      0.000123311    -5.32605e-05
                    -3.65228e-05     2.83239e-05         0.317264       0.0560335     -4.02342e-05    -0.000140039        -0.898734       -0.275488
                       -0.872366       -0.408802      -4.5725e-05     -0.00014587       -0.0859145        0.163024      1.70499e-06     -4.8598e-05
                     0.000113102    -4.84384e-05        -0.898749       -0.275495      1.47917e-06    -5.54074e-05        -0.278703       -0.119923
490000                -0.0777863        0.184131      -5.4363e-05     3.27961e-05        -0.873992        -0.39544      0.000123542    -5.21473e-05
                    -4.29868e-05     3.09427e-05         0.318964       0.0473358     -4.21291e-05    -0.000144913        -0.901496       -0.261059
                       -0.873986       -0.395437     -4.78101e-05     -0.00015052       -0.0872113        0.166231      9.43041e-06    -5.36819e-05
                     0.000113283    -4.71465e-05        -0.901512       -0.261066       9.6712e-06    -6.25389e-05        -0.275236       -0.117107
493200                -0.0780498        0.189331     -6.16421e-05     3.58486e-05        -0.875376       -0.380757      0.000123791    -5.09425e-05
                    -4.97062e-05     3.39749e-05         0.320294       0.0380905     -4.39999e-05     -0.00015027        -0.904259       -0.245215
                        -0.87537       -0.380755     -4.99039e-05    -0.000155653       -0.0885929        0.169741      1.73421e-05     -5.9582e-05
                      0.00011348    -4.57501e-05        -0.904277       -0.245223      1.77848e-05    -7.06142e-05        -0.271723       -0.114276
496400                -0.0782798        0.195053     -6.91823e-05     3.94387e-05        -0.876427       -0.364574       0.00012406    -4.96341e-05
                    -5.66759e-05     3.74725e-05         0.321179       0.0282854     -4.58138e-05    -0.000156171        -0.906981       -0.227746
                        -0.87642       -0.364573      -5.1978e-05    -0.000161333       -0.0900664        0.173598      2.53764e-05    -6.63969e-05
                     0.000113693     -4.4236e-05        -0.907001       -0.227754      2.57093e-05    -7.96958e-05        -0.268164        -0.11143
499600                -0.0784607         0.20138     -7.69632e-05      4.3633e-05        -0.877011       -0.346673      0.000124353    -4.82085e-05
                    -6.38852e-05      4.1493e-05         0.321535       0.0179156     -4.75263e-05    -0.000162685        -0.909601         -0.2084
                       -0.877002       -0.346673     -5.39933e-05    -0.000167637       -0.0916391        0.177855      3.34473e-05    -7.42291e-05
                     0.000113926    -4.25887e-05        -0.909623       -0.208408      3.33136e-05    -8.98351e-05        -0.264557        -0.10857
502800                -0.0785716         0.20841     -8.49546e-05     4.85039e-05         -0.87695       -0.326802      0.000124673    -4.66489e-05
                    -7.13166e-05     4.60995e-05          0.32127      0.00698624     -4.90779e-05    -0.000169893        -0.912035       -0.186872
                       -0.876941       -0.326804     -5.58954e-05     -0.00017465       -0.0933184        0.182577      4.14422e-05    -8.31812e-05
                     0.000114182    -4.07898e-05        -0.912058        -0.18688       4.0446e-05    -0.000101067        -0.260903       -0.105696
506000                -0.0785833        0.216267     -9.31144e-05      5.4128e-05        -0.876004       -0.304668      0.000125022    -4.49355e-05
                     -7.8944e-05     5.13608e-05         0.320279      -0.0044849     -5.03891e-05     -0.00017788        -0.914159       -0.162793
                       -0.875993       -0.304671     -5.76097e-05    -0.000182471       -0.0951114        0.187843      4.92175e-05    -9.33505e-05
                     0.000114463    -3.88173e-05        -0.914185       -0.162801      4.69355e-05    -0.000113403        -0.257199       -0.102807
509200                 -0.078455          0.2251     -0.000101386     6.05857e-05        -0.873844       -0.279929      0.000125406    -4.30446e-05
                    -8.67308e-05     5.73508e-05         0.318454      -0.0164642      -5.1354e-05    -0.000186742          -0.9158       -0.135709
                       -0.873833       -0.279934     -5.90343e-05    -0.000191209       -0.0970243         0.19375      5.65948e-05    -0.000104822
                     0.000114773    -3.66449e-05        -0.915828       -0.135717      5.25947e-05    -0.000126827        -0.253446      -0.0999041
512400                -0.0781289        0.235101     -0.000109696     6.79589e-05        -0.870022       -0.252196       0.00012583     -4.0947e-05
                    -9.46273e-05     6.41478e-05         0.315678      -0.0288991     -5.18325e-05    -0.000196579        -0.916705       -0.105063
                        -0.87001       -0.252202     -6.00311e-05    -0.000200983        -0.099061         0.20042      6.33591e-05    -0.000117656
                     0.000115118    -3.42404e-05        -0.916737        -0.10507      5.72253e-05    -0.000141284        -0.249642      -0.0969869
515600                -0.0775218        0.246509      -0.00011795     7.63283e-05        -0.863921       -0.221032      0.000126301    -3.86067e-05
                    -0.000102568     7.18333e-05         0.311832      -0.0417142     -5.16401e-05    -0.000207493         -0.91651      -0.0701632
                       -0.863907       -0.221041     -6.04132e-05    -0.000211918        -0.101221        0.208006      6.92586e-05    -0.000131882
                     0.000115503    -3.15648e-05        -0.916545      -0.0701694      6.06258e-05     -0.00015668        -0.245787      -0.0940558
518800                -0.0765124        0.259635     -0.000126033     8.57692e-05        -0.854686       -0.185971      0.000126827    -3.59792e-05
                    -0.000110471     8.04896e-05         0.306797      -0.0548086     -5.05355e-05    -0.000219577        -0.914677      -0.0301491
                       -0.854672       -0.185984     -5.99302e-05    -0.000224137        -0.103497        0.216707      7.40092e-05    -0.000147476
                     0.000115937    -2.85692e-05        -0.914716      -0.0301542      6.26014e-05    -0.000172873        -0.241879      -0.0911107
522000                -0.0749196        0.274881     -0.000133805     9.63472e-05        -0.841135       -0.146555      0.000127417     -3.3008e-05
                    -0.000118229     9.01973e-05         0.300463       -0.068053     -4.82069e-05    -0.000232901         -0.91041       0.0160525
                       -0.841121       -0.146571     -5.82503e-05    -0.000237745        -0.105868        0.226776      7.73035e-05    -0.000164353
                     0.000116428    -2.51928e-05        -0.910453       0.0160492      6.29762e-05    -0.000189676        -0.237918      -0.0881518
525200                -0.0724677        0.292781     -0.000141102     0.000108111        -0.821632       -0.102415      0.000128085    -2.96212e-05
                    -0.000125716      0.00010103          0.29273      -0.0812887     -4.42579e-05    -0.000247488        -0.902506       0.0697763
                       -0.821618       -0.102435     -5.49398e-05    -0.000252803        -0.108288         0.23855      7.88262e-05     -0.00018235
                     0.000116989     -2.1358e-05        -0.902553       0.0697755      6.16065e-05    -0.000206857        -0.233903      -0.0851793
528400                -0.0687248        0.314051     -0.000147733     0.000121086        -0.793932      -0.0534405      0.000128846    -2.57248e-05
                    -0.000132776     0.000113051         0.283521      -0.0943269     -3.81976e-05    -0.000263274        -0.889127        0.132661
                        -0.79392      -0.0534654     -4.94466e-05    -0.000269282        -0.110669        0.252481      7.82767e-05    -0.000201217
                     0.000117636    -1.69645e-05        -0.889179        0.132664      5.83933e-05    -0.000224146        -0.229833      -0.0821932
531600                 -0.062995        0.339663     -0.000153486     0.000135265        -0.755017    -9.30881e-05      0.000129723    -2.11946e-05
                    -0.000139229     0.000126304         0.272789       -0.106952      -2.9441e-05    -0.000280056        -0.867414        0.206653
                       -0.755007    -0.000123168     -4.10939e-05       -0.000287        -0.112849        0.269182      7.53967e-05    -0.000220614
                     0.000118391    -1.18808e-05        -0.867473        0.206661      5.32938e-05    -0.000241249        -0.225706      -0.0791937
534800                -0.0541152        0.370956     -0.000158133       0.0001506        -0.700993       0.0560452      0.000130742    -1.58623e-05
                    -0.000144867     0.000140805         0.260524       -0.118927     -1.73333e-05    -0.000297421        -0.832868        0.293887
                       -0.700988         0.05601     -2.91016e-05    -0.000305529        -0.114526        0.289508      7.00009e-05    -0.000240119
                     0.000119282    -5.93036e-06        -0.832933        0.293903      4.63289e-05    -0.000257858        -0.221523       -0.076181
538000                 -0.040064        0.409773     -0.000161437     0.000166993         -0.62726        0.111386      0.000131943    -9.49414e-06
                    -0.000149458     0.000156536         0.246764       -0.129999      -1.2156e-06     -0.00031466        -0.778344        0.396223
                       -0.627262        0.111347     -1.26616e-05    -0.000324083        -0.115134        0.314662      6.20064e-05     -0.00025925
                     0.000120351     1.12915e-06        -0.778415         0.39625      3.75855e-05    -0.000273673        -0.217281      -0.0731553
541200                -0.0171661        0.458578     -0.000163166     0.000184292        -0.529345        0.159137      0.000133376    -1.75606e-06
                    -0.000152753      0.00017343         0.231599       -0.139913      1.94472e-05    -0.000330701        -0.692561        0.513915
                       -0.529357        0.159095       8.9015e-06    -0.000341417        -0.113598        0.346369      5.14549e-05    -0.000277494
                     0.000121655     9.63963e-06        -0.692635        0.513959      2.72139e-05    -0.000288417        -0.212981      -0.0701167
544400                 0.0215784         0.52032     -0.000163104     0.000202284        -0.405029        0.188235      0.000135115     7.84712e-06
                    -0.000154497     0.000191366         0.215172       -0.148427      4.48667e-05    -0.000344092        -0.558374        0.642264
                       -0.405052        0.188196      3.58659e-05    -0.000355793        -0.107799        0.387096      3.85221e-05    -0.000294351
                     0.000123282     2.00995e-05        -0.558445        0.642328      1.54189e-05    -0.000301852         -0.20862      -0.0670654
547600                 0.0900127        0.596926     -0.000161074     0.000220701        -0.258143        0.183823       0.00013727     2.00817e-05
                    -0.000154438     0.000210162         0.197684       -0.155319       7.4683e-05    -0.000353106        -0.352649        0.764185
                       -0.258177        0.183793       6.7776e-05    -0.000365126       -0.0934239        0.440235      2.35108e-05    -0.000309373
                     0.000125367     3.32652e-05        -0.352706        0.764274      2.44733e-06    -0.000313793        -0.204198      -0.0640017
550800                  0.215286        0.682101     -0.000156951     0.000239226        -0.102671        0.131501      0.000140002     3.62001e-05
                    -0.000152348     0.000229568         0.179382        -0.16041      0.000107754    -0.000356023       -0.0543471        0.837538
                       -0.102708        0.131485      0.000103163    -0.000367375       -0.0613923        0.509678       6.8283e-06    -0.000322208
                     0.000128134     5.03421e-05       -0.0543737        0.837646     -1.14284e-05    -0.000324114        -0.199714      -0.0609259
554000                  0.440606        0.734265      -0.00015068     0.000257504        0.0372842       0.0259162       0.00014357     5.83982e-05
                    -0.000148043     0.000249269          0.16055       -0.163573       0.00014212    -0.000351572         0.326133        0.787258
                       0.0372505        0.025914      0.000139541     -0.00036115       0.00739227         0.59625     -1.10499e-05    -0.000332622
                     0.000131979     7.33766e-05         0.326151         0.78736     -2.59268e-05    -0.000332752        -0.195167       -0.057838
557200                  0.765935        0.621809     -0.000142284     0.000275164         0.136108       -0.121772      0.000148388     9.09091e-05
                    -0.000141401     0.000268896         0.141496       -0.164741       0.00017527    -0.000339378         0.701005        0.540975
                        0.136086       -0.121766      0.000173837    -0.000346301          0.14803        0.681771     -2.96221e-05    -0.000340515
                      0.00013767     0.000106143         0.701054        0.541038     -4.07726e-05    -0.000339701        -0.190555      -0.0547385
560400                  0.963121         0.23801     -0.000131874     0.000291844         0.179866       -0.286537      0.000155112      0.00014307
                    -0.000132385     0.000288042         0.122536       -0.163914      0.000204686    -0.000320208         0.923392        0.125581
                        0.179856       -0.286531      0.000203177    -0.000324121         0.387603        0.687561     -4.84017e-05     -0.00034591
                     0.000146919     0.000156455         0.923431        0.125597     -5.57103e-05    -0.000345007        -0.185877      -0.0516276
563600                  0.828495        -0.13711     -0.000119641     0.000307209         0.172149       -0.442098      0.000164373     0.000240276
                     -0.00012105     0.000306282         0.103974       -0.161154      0.000228443    -0.000295816         0.923064       -0.312616
                        0.172148       -0.442097      0.000225647    -0.000296992         0.622173        0.496999     -6.69511e-05     -0.00034894
                     0.000164398     0.000243527         0.923067       -0.312616     -7.05136e-05    -0.000348758        -0.181133      -0.0485056
564000                  0.798359       -0.167687     -0.000117996     0.000309022         0.168266       -0.459936      0.000165649     0.000258649
                    -0.000119477     0.000308478         0.101696       -0.160679      0.000230956    -0.000292511         0.909794       -0.361524
                        0.168266       -0.459936      0.000227928    -0.000293391         0.639257         0.46088     -6.92346e-05    -0.000349162
                     0.000167722     0.000259094         0.909793       -0.361524     -7.23447e-05    -0.000349124        -0.180535      -0.0481146
566800                  0.586054       -0.287896     -0.000105845     0.000320978         0.128118       -0.571958      0.000169126     0.000483606
                    -0.000107553     0.000323206        0.0860898       -0.156585      0.000245598    -0.000268467         0.764512        -0.64461
                        0.128121       -0.571966      0.000240635    -0.000267658         0.654592        0.206931      -8.4905e-05    -0.000349819
                     0.000208364      0.00043059         0.764508       -0.644614     -8.49911e-05    -0.000351074         -0.17632      -0.0453728
570000                  0.399934       -0.306294     -9.07994e-05     0.000332939        0.0646971       -0.671305      -0.00041217      0.00192091
                    -9.21459e-05     0.000338442        0.0691228       -0.150378      0.000256211    -0.000240374         0.548121       -0.836399
                       0.0646994        -0.67132       0.00024867    -0.000238532         0.538389       0.0196043     -0.000101981    -0.000348812
