! TOUCHSTONE file generated by CST MICROWAVE STUDIO
! Date and time: Mon Oct 20 08:27:54 2025
! Project name: Teste_Macro_Metasurface_Nanopilar.cst
! Parameters = {H=600; L_x=200; L_y=145; Lambda=1064; Max_L=200; Min_L=70; PathPara=1; Phi=0; Step_L=10; Theta=0; p=520; phaseX=180; phaseY=0}
! Header version: 2018
! Port assignment regex: !\s*Touchstone port\s*([0-9]+)\s*=\s*(CST MWS port|CST DS port)\s*([0-9]+|Zmin|Zmax)\s*\(\"(.*)\"\)(\s*mode\s*([0-9]+))?.*
! Touchstone port assignment:
! Touchstone port 1 = CST MWS port Zmax ("") mode 1
! Touchstone port 2 = CST MWS port Zmax ("") mode 2
! Touchstone port 3 = CST MWS port Zmin ("") mode 1
! Touchstone port 4 = CST MWS port Zmin ("") mode 2
! S-Parameters are not renormalized. Each port impedance will be approximated by the real part at minimum frequency. The values are described via the [Reference] keyword.
! Default impedance is overridden by [Reference]
[Version] 2.0
# GHz S RI R 376.73
[Number of Ports] 4
[Reference]
376.73 376.73 259.888 259.888 
[Number of Frequencies] 52
[Network Data]
474000                  0.144888        0.134053     -0.000152525     8.80704e-05        -0.270035         0.93246     -0.000220859     6.70036e-05
                      -0.0001527     9.10977e-05         0.860084        0.095226      1.49177e-05     0.000122597        -0.214489       -0.397426
                       -0.270035         0.93246      1.50159e-05     0.000122371         0.189926      -0.0384155      0.000199154     0.000251402
                    -0.000218569     6.95334e-05         -0.21449        -0.39743      0.000199029     0.000251166         0.402913        -0.72557
477200                  0.146114        0.132527     -0.000150598     8.56931e-05        -0.237319        0.926448     -0.000223553      7.8741e-05
                     -0.00015061     8.80232e-05         0.886519         0.10333       9.1175e-06     0.000123376        -0.217983       -0.394517
                       -0.237318        0.926447      9.55096e-06     0.000123305         0.195953      -0.0379089      0.000207452     0.000249458
                    -0.000220236     8.15388e-05        -0.217984       -0.394521      0.000206582     0.000249368         0.411244       -0.723351
480400                  0.147429        0.130893     -0.000148694     8.32243e-05        -0.203197        0.918547     -0.000225971     9.11033e-05
                     -0.00014858     8.48801e-05         0.916052         0.11221      2.94483e-06     0.000124103        -0.221641       -0.391443
                       -0.203195        0.918544      3.72464e-06     0.000124207         0.202388      -0.0372827      0.000216312     0.000247143
                    -0.000221572     9.41052e-05        -0.221642       -0.391447      0.000214647      0.00024725         0.419947       -0.720883
483600                  0.148842        0.129138     -0.000146819     8.06624e-05        -0.167703        0.908499     -0.000228064     0.000104119
                    -0.000146613       8.167e-05         0.949257        0.121974     -3.63443e-06     0.000124763        -0.225473       -0.388189
                       -0.167701        0.908496     -2.49749e-06     0.000125062         0.209271      -0.0365149      0.000225782     0.000244388
                    -0.000222528     0.000107251        -0.225474       -0.388193      0.000223267     0.000244756         0.429043       -0.718137
486800                  0.150365        0.127249     -0.000144975      7.8006e-05        -0.130904        0.896029     -0.000229771     0.000117815
                    -0.000144713     7.83946e-05         0.986864        0.132755     -1.06583e-05     0.000125336        -0.229492       -0.384741
                       -0.130902        0.896025     -9.15396e-06     0.000125854         0.216649       -0.035579      0.000235913     0.000241114
                    -0.000223046     0.000120993        -0.229493       -0.384745      0.000232494     0.000241818         0.438554       -0.715081
490000                  0.152011         0.12521     -0.000143169     7.52538e-05       -0.0929036        0.880838     -0.000231026     0.000132218
                    -0.000142881     7.50559e-05         0.990271        0.139151     -1.81692e-05     0.000125801        -0.233713       -0.381081
                       -0.092901        0.880832      -1.6288e-05     0.000126564         0.224573      -0.0344427      0.000246759     0.000237222
                    -0.000223065     0.000135343        -0.233713       -0.381084      0.000242379     0.000238353         0.448504       -0.711678
493200                  0.153797        0.123002     -0.000141404     7.24046e-05       -0.0538506        0.862608     -0.000231754     0.000147348
                    -0.000141121     7.16557e-05         0.989453        0.144855     -2.62144e-05     0.000126129        -0.238149       -0.377188
                      -0.0538479        0.862601     -2.39481e-05     0.000127167         0.233103      -0.0330668      0.000258376     0.000232593
                    -0.000222517     0.000150313         -0.23815        -0.37719       0.00025298     0.000234262         0.458918       -0.707887
496400                  0.155739        0.120604     -0.000139685     6.94578e-05       -0.0139498         0.84101      -0.00023187     0.000163224
                    -0.000139436     6.81964e-05         0.988637        0.150321     -3.48465e-05     0.000126286        -0.242818        -0.37304
                      -0.0139474        0.841001     -3.21888e-05     0.000127633         0.242306      -0.0314032       0.00027082     0.000227083
                    -0.000221327     0.000165907        -0.242819       -0.373042      0.000264355     0.000229421         0.469822        -0.70366
499600                  0.157861        0.117988     -0.000138018     6.64126e-05        0.0265301        0.815706     -0.000231283     0.000179858
                    -0.000137829     6.46802e-05         0.987854        0.155388     -4.41245e-05      0.00012623        -0.247738       -0.368612
                       0.0265321        0.815695     -4.10713e-05     0.000127923         0.252258      -0.0293924      0.000284143     0.000220517
                    -0.000219411     0.000182123        -0.247738       -0.368614      0.000276565     0.000223684          0.48124       -0.698944
502800                  0.160187        0.115126     -0.000136409     6.32688e-05        0.0672476        0.786363     -0.000229887     0.000197255
                    -0.000136301     6.11097e-05         0.987146        0.159821     -5.41136e-05      0.00012591        -0.252929       -0.363875
                        0.067249        0.786351     -5.06646e-05     0.000127989         0.263048      -0.0269608      0.000298393     0.000212682
                    -0.000216682     0.000198953        -0.252929       -0.363877      0.000289666     0.000216867           0.4932       -0.693678
506000                   0.16275        0.111979     -0.000134863     6.00263e-05         0.107781        0.752667      -0.00022757     0.000215409
                    -0.000134856     5.74876e-05         0.986581        0.163274     -6.48868e-05     0.000125261        -0.258413       -0.358797
                        0.107781        0.752653     -6.10459e-05     0.000127773         0.274775      -0.0240163      0.000313601     0.000203318
                    -0.000213043     0.000216379        -0.258413       -0.358798      0.000303711     0.000208749         0.505728       -0.687792
509200                  0.165587        0.108504     -0.000133385     5.66854e-05          0.14762        0.714337     -0.000224206     0.000234302
                    -0.000133495     5.38165e-05         0.986257        0.165217     -7.65245e-05     0.000124205        -0.264215       -0.353341
                        0.147619        0.714323     -7.23017e-05       0.0001272         0.287553      -0.0204433      0.000329774      0.00019211
                    -0.000208392     0.000234373        -0.264215       -0.353341      0.000318737     0.000199056         0.518851       -0.681206
512400                  0.168744        0.104645     -0.000131983     5.32469e-05         0.186167        0.671151     -0.000219664     0.000253903
                    -0.000132222     5.00995e-05         0.986325        0.164815     -8.91152e-05     0.000122643        -0.270362       -0.347463
                        0.186165        0.671136     -8.45286e-05     0.000126175         0.301511      -0.0160953      0.000346879     0.000178677
                    -0.000202621     0.000252892        -0.270362       -0.347463      0.000334758     0.000187453         0.532592       -0.673829
515600                  0.172278        0.100337     -0.000130661     4.97117e-05         0.222736        0.622965     -0.000213799     0.000274159
                    -0.000131037     4.63396e-05         0.987006        0.160683     -0.000102756     0.000120452        -0.276885       -0.341115
                        0.222733        0.622949     -9.78332e-05      0.00012458         0.316795      -0.0107852      0.000364821      0.00016256
                    -0.000195617     0.000271881        -0.276885       -0.341114      0.000351746     0.000173531         0.546974       -0.665559
518800                  0.176263       0.0954955     -0.000129427     4.60814e-05         0.256564        0.569745     -0.000206462     0.000294999
                    -0.000129944       4.254e-05         0.988628        0.150381     -0.000117549     0.000117479        -0.283817        -0.33424
                        0.256559        0.569728     -0.000112332     0.000122265          0.33357     -0.00427298      0.000383408     0.000143218
                    -0.000187265     0.000291264        -0.283817       -0.334238      0.000369604     0.000156794         0.562014       -0.656275
522000                   0.18079       0.0900149     -0.000128286     4.23578e-05         0.286827        0.511588       -0.0001975     0.000316326
                    -0.000128944      3.8704e-05         0.991614        0.129235     -0.000133605     0.000113533        -0.291196        -0.32677
                         0.28682        0.511571     -0.000128152     0.000119039         0.352017      0.00375266      0.000402307     0.000120023
                    -0.000177447     0.000310949        -0.291195       -0.326768      0.000388134     0.000136646         0.577724       -0.645842
525200                  0.185976       0.0837599     -0.000127246     3.85432e-05         0.312665        0.448754     -0.000186757     0.000338013
                    -0.000128038     3.48349e-05         0.996189       0.0872174     -0.000151033     0.000108371        -0.299064        -0.31863
                        0.312657        0.448738     -0.000145424      0.00011466         0.372329       0.0136977      0.000420982     9.22709e-05
                     -0.00016605     0.000330821        -0.299063       -0.318627      0.000406979     0.000112387         0.594107       -0.634105
528400                  0.191979       0.0765541     -0.000126313     3.46406e-05         0.333221        0.381679     -0.000174081     0.000359901
                    -0.000127228     3.09364e-05                1    -0.000899804      -0.00016994     0.000101692        -0.307467       -0.309727
                        0.333211        0.381664      -0.00016428     0.000108815         0.394704       0.0260957      0.000438613     5.92218e-05
                    -0.000152965     0.000350741        -0.307466       -0.309723      0.000425546     8.32265e-05         0.611154       -0.620886
531600                  0.199006       0.0681628     -0.000125492     3.06533e-05         0.347681         0.31099     -0.000159332     0.000381799
                    -0.000126516     2.70118e-05         0.977136       -0.212615     -0.000190414     9.31152e-05        -0.316458       -0.299954
                         0.34767        0.310976     -0.000184841     0.000101112         0.419324       0.0416519      0.000454005     2.01777e-05
                    -0.000138092     0.000370546        -0.316456       -0.299949      0.000442915     4.83177e-05          0.62884       -0.605984
534800                  0.207344       0.0582676     -0.000124792      2.6585e-05         0.355327        0.237502     -0.000142385     0.000403479
                    -0.000125902      2.3065e-05         0.670362       -0.742034     -0.000212512     8.21666e-05        -0.326094       -0.289181
                        0.355315        0.237489     -0.000207197     9.10454e-05         0.446317        0.061302      0.000465501    -2.53708e-05
                    -0.000121348     0.000390049        -0.326092       -0.289175      0.000457712     6.85847e-06         0.647115       -0.589171
538000                  0.217397       0.0464247     -0.000124218     2.24403e-05         0.355587        0.162195     -0.000123141     0.000424674
                    -0.000125388     1.90996e-05        -0.217805       -0.975992     -0.000236227     6.82559e-05        -0.336441       -0.277255
                        0.355575        0.162185      -0.00023138     7.79791e-05         0.475687       0.0862875      0.000470934    -7.75112e-05
                     -0.00010267     0.000409038        -0.336438       -0.277248      0.000468001    -4.17297e-05         0.665901       -0.570188
541200                  0.229755        0.031997     -0.000123776     1.82239e-05         0.348081       0.0861905     -0.000101537     0.000445086
                    -0.000124974     1.51194e-05        -0.578951       -0.815363     -0.000261448     5.06586e-05        -0.347568       -0.263989
                        0.348068       0.0861818     -0.000257314     6.11154e-05         0.507185        0.118247      0.000467695    -0.000135584
                    -8.20214e-05     0.000427279        -0.347565       -0.263981      0.000471212    -9.74982e-05         0.685079       -0.548749
544400                  0.245311       0.0140358     -0.000123472     1.39415e-05         0.332658       0.0106925     -7.75548e-05     0.000464386
                    -0.000124661     1.11283e-05        -0.686572       -0.727062     -0.000287893     2.85017e-05        -0.359556       -0.249157
                        0.332645        0.010686     -0.000284737     3.94735e-05         0.540088        0.159302      0.000452996    -0.000197813
                    -5.93984e-05     0.000444515        -0.359551       -0.249146      0.000464238    -0.000159541          0.70448       -0.524534
547600                  0.265488     -0.00893539     -0.000123313     9.59898e-06         0.309418       -0.063066       -5.123e-05     0.000482222
                    -0.000124449     7.12992e-06        -0.725773       -0.687934     -0.000315021     7.67149e-07        -0.372487       -0.232478
                        0.309407      -0.0630706     -0.000313092     1.18863e-05         0.572816        0.212102      0.000424425    -0.000261038
                    -3.48365e-05     0.000460481        -0.372482       -0.232466      0.000443805    -0.000225506         0.723865       -0.497197
550800                  0.292696      -0.0393466     -0.000123304     5.20294e-06         0.278716       -0.133891     -2.26622e-05     0.000498231
                    -0.000124338     3.12829e-06        -0.739124       -0.673569     -0.000341904    -3.36697e-05        -0.386453       -0.213608
                        0.278706       -0.133894     -0.000341371    -2.29611e-05         0.602345        0.279689      0.000380748    -0.000320762
                    -8.41508e-06     0.000474898        -0.386446       -0.213595      0.000407262    -0.000291266         0.742913       -0.466369
554000                  0.331369      -0.0814952      -0.00012345     7.60472e-07         0.241141       -0.200691      7.97981e-06     0.000512051
                     -0.00012433    -8.72788e-07        -0.739557       -0.673093     -0.000367082    -7.59358e-05        -0.401544       -0.192115
                        0.241133       -0.200692      -0.00036792    -6.64072e-05         0.623372        0.364939      0.000322714    -0.000371756
                     1.97383e-05     0.000487493        -0.401536       -0.192099      0.000353687    -0.000351103         0.761193       -0.431669
557200                  0.390632       -0.143752     -0.000123755    -3.72084e-06         0.197483       -0.262531      4.04548e-05     0.000523336
                    -0.000124422    -4.86946e-06        -0.731999       -0.681306     -0.000388407     -0.00012695        -0.417848       -0.167451
                        0.197478       -0.262531     -0.000390233    -0.000119546         0.627493        0.469139      0.000253445    -0.000409203
                     4.94463e-05        0.000498        -0.417839       -0.167433      0.000284908    -0.000398704         0.778148       -0.392726
560400                  0.492659       -0.244806     -0.000124225     -8.2329e-06         0.148682       -0.318674      7.44507e-05     0.000531776
                    -0.000124615    -8.85789e-06         -0.71717       -0.694057      -0.00040296    -0.000187065        -0.435437       -0.138919
                        0.148679       -0.318674      -0.00040484    -0.000182753         0.603198        0.589263      0.000178017    -0.000429984
                     8.04819e-05     0.000506178        -0.435426       -0.138898      0.000205753    -0.000428854         0.793066       -0.349205
563600                  0.708268       -0.435933     -0.000124862    -1.27672e-05        0.0957681       -0.368605      0.000109591     0.000537113
                    -0.000124908    -1.28343e-05        -0.599315       -0.610881     -0.000407144    -0.000255562        -0.454345       -0.105616
                       0.0957678       -0.368605     -0.000407458    -0.000255008         0.538464        0.714388      0.000102284    -0.000433496
                     0.000112572     0.000511817        -0.454331       -0.105592      0.000123064     -0.00043907          0.80506       -0.300854
564000                  0.753131       -0.472283     -0.000124954    -1.33351e-05        0.0889178       -0.374393      0.000114042     0.000537552
                    -0.000124952    -1.33303e-05        -0.586306       -0.601986     -0.000406744    -0.000264617        -0.456801       -0.101062
                       0.0889177       -0.374393     -0.000406715    -0.000264547         0.527108        0.729453      9.30706e-05     -0.00043279
                     0.000116642     0.000512335        -0.456786       -0.101038       0.00011284    -0.000438955         0.806302       -0.294463
566800                  0.844672       -0.535284     -0.000125671    -1.73147e-05        0.0398059       -0.412033      0.000145444     0.000539157
                    -0.000125301    -1.67949e-05        -0.503959       -0.546951     -0.000397126    -0.000330087        -0.474531      -0.0663626
                       0.0398082       -0.412034     -0.000393644     -0.00033317         0.427428        0.824181       3.1469e-05     -0.00042157
                     0.000145402     0.000514752        -0.474513       -0.066335      4.38365e-05    -0.000430247         0.813053       -0.247562
570000                  0.690788        0.723058     -0.000126654    -2.18662e-05       -0.0181612        -0.44888      0.000181544     0.000537798
                    -0.000125792    -2.07361e-05        -0.425293       -0.496382     -0.000369732    -0.000406306        -0.495807      -0.0196013
                      -0.0181564       -0.448882     -0.000360072     -0.00041163         0.278547        0.894433     -3.08116e-05    -0.000397638
