! TOUCHSTONE file generated by CST MICROWAVE STUDIO
! Date and time: Mon Oct 20 08:27:46 2025
! Project name: Teste_Macro_Metasurface_Nanopilar.cst
! Parameters = {H=600; L_x=175; L_y=145; Lambda=1064; Max_L=200; Min_L=70; PathPara=1; Phi=0; Step_L=10; Theta=0; p=520; phaseX=180; phaseY=0}
! Header version: 2018
! Port assignment regex: !\s*Touchstone port\s*([0-9]+)\s*=\s*(CST MWS port|CST DS port)\s*([0-9]+|Zmin|Zmax)\s*\(\"(.*)\"\)(\s*mode\s*([0-9]+))?.*
! Touchstone port assignment:
! Touchstone port 1 = CST MWS port Zmax ("") mode 1
! Touchstone port 2 = CST MWS port Zmax ("") mode 2
! Touchstone port 3 = CST MWS port Zmin ("") mode 1
! Touchstone port 4 = CST MWS port Zmin ("") mode 2
! S-Parameters are not renormalized. Each port impedance will be approximated by the real part at minimum frequency. The values are described via the [Reference] keyword.
! Default impedance is overridden by [Reference]
[Version] 2.0
# GHz S RI R 376.73
[Number of Ports] 4
[Reference]
376.73 376.73 259.888 259.888 
[Number of Frequencies] 52
[Network Data]
474000                   0.15825        0.131553      2.18725e-05     6.99533e-06        -0.523459        0.817224     -1.64724e-05     -1.2123e-05
                     3.47328e-05     6.77076e-06         0.685078         0.68656      2.49405e-05    -1.64437e-05       0.00641352       0.0469823
                       -0.523475        0.817228      1.99152e-05    -1.48499e-05         0.182921       0.0849736      1.85082e-05      1.2009e-05
                    -1.24515e-05    -1.47161e-05       0.00641353       0.0469823      1.80455e-05     4.62063e-06         0.460145       -0.853784
477200                   0.16689         0.12907      2.86229e-05     1.14666e-05         -0.48741         0.77925     -6.39059e-05    -5.14141e-05
                     4.14817e-05     1.13789e-05         0.680558        0.689295      2.68045e-05    -2.29198e-05        0.0119626       0.0511312
                       -0.487424        0.779254       2.1807e-05    -2.13224e-05         0.186853       0.0880171      2.63854e-05     1.98092e-05
                      -6.057e-05    -5.38652e-05        0.0119626       0.0511312      2.60618e-05     1.25285e-05         0.470134       -0.838515
480400                   0.17601        0.126336       3.5717e-05     1.62774e-05         -0.45334        0.742406     -0.000108342    -8.57588e-05
                     4.85701e-05     1.63346e-05         0.675693        0.692075      2.87551e-05    -2.97453e-05        0.0177523       0.0556877
                       -0.453353         0.74241      2.37876e-05    -2.81443e-05         0.191021       0.0912633      3.44568e-05     2.80749e-05
                    -0.000105579    -8.80537e-05        0.0177523       0.0556877      3.42743e-05     2.09102e-05         0.480116        -0.82267
483600                  0.185648        0.123316      4.31796e-05      2.1465e-05        -0.421108         0.70666     -0.000149955    -0.000115918
                     5.60219e-05     2.16754e-05         0.670448        0.694891      3.07984e-05     -3.6949e-05        0.0237887       0.0607013
                        -0.42112        0.706663      2.58633e-05    -3.53446e-05         0.195446        0.094733      4.27223e-05     3.68412e-05
                    -0.000147671    -0.000118051        0.0237887       0.0607013      4.26824e-05     2.98016e-05         0.490076       -0.806227
486800                  0.195847        0.119976      5.10377e-05     2.70713e-05        -0.390584        0.671976      -0.00018893    -0.000142516
                     6.38633e-05     2.74442e-05         0.664787        0.697728      3.29411e-05    -4.45634e-05         0.030076       0.0662286
                       -0.390594        0.671979      2.80409e-05    -4.29556e-05         0.200152         0.09845        5.118e-05     4.61463e-05
                    -0.000187048    -0.000144489         0.030076       0.0662286      5.12842e-05     3.92413e-05         0.499997       -0.789163
490000                  0.206655         0.11627      5.93205e-05      3.3145e-05        -0.361648         0.63832     -0.000225453    -0.000166073
                     7.21223e-05       3.369e-05         0.658667        0.700569      3.51902e-05    -5.26244e-05        0.0366151       0.0723344
                       -0.361658        0.638323      3.03278e-05    -5.10136e-05         0.205168        0.102441      5.98268e-05     5.60317e-05
                    -0.000223909     -0.00016789        0.0366151       0.0723344       6.0076e-05     4.92718e-05         0.509858       -0.771454
493200                  0.218123        0.112148      6.80596e-05     3.97415e-05        -0.334193        0.605658     -0.000259704    -0.000187019
                     8.08294e-05     4.04692e-05         0.652042         0.70339      3.75537e-05    -6.11726e-05        0.0434028       0.0790922
                       -0.334202        0.605661      3.27324e-05    -5.95589e-05         0.210524        0.106739      6.86571e-05     6.65426e-05
                    -0.000258444    -0.000188687        0.0434028       0.0790922      6.90517e-05     5.99388e-05         0.519638       -0.753076
496400                   0.23031        0.107551      7.72892e-05     4.69251e-05        -0.308119        0.573957     -0.000291854    -0.000205713
                     9.00172e-05     4.78466e-05         0.644862        0.706162      4.00402e-05    -7.02533e-05        0.0504297       0.0865863
                       -0.308127        0.573959      3.52635e-05    -6.86371e-05         0.216256        0.111378      7.76633e-05     7.77279e-05
                    -0.000290835     -0.00020724        0.0504297       0.0865864      7.82031e-05     7.12921e-05         0.529315       -0.734003
499600                  0.243278        0.102409      8.70461e-05     5.47701e-05        -0.283333        0.543182     -0.000322064    -0.000222457
                     9.97207e-05     5.58974e-05         0.637071        0.708846      4.26593e-05    -7.99178e-05        0.0576786       0.0949125
                        -0.28334        0.543185      3.79313e-05    -7.82995e-05         0.222405        0.116402      8.68345e-05      8.9641e-05
                    -0.000321247    -0.000223852        0.0576786       0.0949125      8.75186e-05     8.33859e-05         0.538862       -0.714212
502800                  0.257098       0.0966397      9.73698e-05     6.33632e-05        -0.259752        0.513302     -0.000350483    -0.000237504
                     0.000109977     6.47088e-05         0.628609        0.711396      4.54212e-05    -9.02241e-05        0.0651215         0.10418
                       -0.259758        0.513304      4.07465e-05    -8.86043e-05         0.229017        0.121859      9.61563e-05      0.00010234
                    -0.000349838    -0.000238776        0.0651215         0.10418       9.6983e-05     9.62787e-05         0.548251       -0.693676
506000                  0.271847       0.0901441      0.000108302     7.28053e-05        -0.237298        0.484283     -0.000377249    -0.000251071
                     0.000120826     7.43825e-05         0.619412        0.713751      4.83376e-05    -0.000101238         0.072716        0.114511
                       -0.237303        0.484285      4.37213e-05    -9.96177e-05         0.236147        0.127807       0.00010561     0.000115886
                    -0.000376749    -0.000252228         0.072716        0.114511      0.000106577     0.000110034         0.557452       -0.672369
509200                   0.28761       0.0828056      0.000119888     8.32153e-05        -0.215899        0.456097     -0.000402488    -0.000263339
                     0.000132309     8.50379e-05         0.609411        0.715835       5.1421e-05    -0.000113036        0.0804004        0.126044
                       -0.215903        0.456098       4.6869e-05    -0.000111415         0.243856        0.134316      0.000115172     0.000130349
                     -0.00040211    -0.000264391        0.0804004        0.126044      0.000116275     0.000124721          0.56643       -0.650266
512400                  0.304482       0.0744839      0.000132173      9.4733e-05        -0.195489        0.428711     -0.000426317    -0.000274466
                     0.000144468     9.68152e-05         0.598536        0.717554      5.46853e-05    -0.000125703        0.0880882        0.138935
                       -0.195493        0.428713      5.02043e-05    -0.000124083         0.252219        0.141467      0.000124812     0.000145801
                    -0.000426042     -0.00027542        0.0880882        0.138935      0.000126045     0.000140412         0.575149       -0.627342
515600                  0.322563       0.0650099      0.000145203     0.000107524        -0.176008        0.402098      -0.00044884    -0.000284585
                     0.000157344      0.00010988         0.586714        0.718792      5.81458e-05    -0.000139338        0.0956603        0.153354
                       -0.176011          0.4021      5.37436e-05    -0.000137721         0.261321        0.149359      0.000134494     0.000162322
                    -0.000448652    -0.000285449        0.0956603        0.153354       0.00013585      0.00015719         0.583569       -0.603571
518800                  0.341963       0.0541791      0.000159026     0.000121786        -0.157398         0.37623     -0.000470155    -0.000293811
                      0.00017098      0.00012443         0.573877        0.719403      6.18194e-05    -0.000154059         0.102955        0.169484
                       -0.157402        0.376231      5.75048e-05    -0.000152446         0.271261        0.158111       0.00014417     0.000179995
                    -0.000470041    -0.000294592         0.102955        0.169484      0.000145641     0.000175138         0.591647       -0.578929
522000                  0.362801       0.0417422      0.000173683     0.000137754        -0.139609        0.351079      -0.00049035    -0.000302243
                      0.00018541     0.000140699         0.559966         0.71921      6.57247e-05    -0.000169998         0.109759        0.187518
                       -0.139612         0.35108      6.15081e-05    -0.000168391         0.282162        0.167872      0.000153785     0.000198914
                    -0.000490298    -0.000302949         0.109759        0.187518       0.00015536     0.000194348         0.599334       -0.553392
525200                  0.385197       0.0273944      0.000189211     0.000155712        -0.122591        0.326618     -0.000509506    -0.000309969
                     0.000200663     0.000158969         0.544934           0.718       6.9882e-05    -0.000187312         0.115788        0.207652
                       -0.122593        0.326619      6.57753e-05    -0.000185714         0.294164        0.178821       0.00016327     0.000219173
                    -0.000509506    -0.000310604         0.115789        0.207652      0.000164935     0.000214919         0.606581       -0.526936
528400                  0.409276       0.0107607      0.000205631     0.000176001        -0.106299        0.302824     -0.000527697    -0.000317062
                      0.00021675     0.000179578         0.528766        0.715516      7.43136e-05    -0.000206188         0.120681        0.230068
                       -0.106301        0.302825      7.03309e-05    -0.000204603         0.307442        0.191187      0.000172543     0.000240875
                     -0.00052774    -0.000317634         0.120681        0.230068      0.000174281     0.000236952         0.613332       -0.499541
531600                  0.435154     -0.00862252      0.000222943     0.000199036       -0.0906927        0.279673      -0.00054499    -0.000323589
                     0.000233661     0.000202935         0.511481        0.711457      7.90437e-05    -0.000226846         0.123974        0.254914
                      -0.0906945        0.279673      7.52016e-05    -0.000225277         0.322205        0.205258      0.000181502     0.000264129
                    -0.000545069    -0.000324102         0.123974        0.254914      0.000183295     0.000260554         0.619527       -0.471187
534800                  0.462931      -0.0313303       0.00024111     0.000225321       -0.0757323        0.257139     -0.000561448    -0.000329608
                     0.000251344     0.000229535         0.493161        0.705475      8.40981e-05    -0.000249548         0.125095        0.282273
                      -0.0757339         0.25714      8.04165e-05    -0.000248002         0.338708        0.221403      0.000190029     0.000289045
                    -0.000561555    -0.000330066         0.125095        0.282273      0.000191854     0.000285838         0.625102       -0.441856
538000                  0.492667      -0.0580789      0.000260037     0.000255468       -0.0613821        0.235203     -0.000577126    -0.000335167
                     0.000269689     0.000259977         0.473971        0.697186      8.95044e-05    -0.000274613         0.123356         0.31212
                      -0.0613834        0.235204       8.6007e-05    -0.000273097         0.357268        0.240106      0.000197981     0.000315738
                    -0.000577257    -0.000335577         0.123356         0.31212       0.00019981     0.000312915          0.62999       -0.411535
541200                  0.524355      -0.0897619       0.00027954     0.000290227       -0.0476085        0.213842     -0.000592076    -0.000340313
                     0.000288493      0.00029499         0.454181        0.686177      9.52907e-05    -0.000302428         0.117957        0.344261
                      -0.0476096        0.213842      9.20062e-05     -0.00030095         0.378278         0.26201      0.000205188     0.000344321
                    -0.000592227    -0.000340677         0.117957        0.344261       0.00020699     0.000341898         0.634116        -0.38021
544400                  0.557861       -0.127494      0.000299295     0.000330509       -0.0343802        0.193035     -0.000606347    -0.000345083
                     0.000307413     0.000335455         0.434201        0.672041      0.000101485    -0.000333468         0.108023         0.37827
                      -0.0343811        0.193036      9.84481e-05    -0.000332042         0.402229        0.287986      0.000211451     0.000374906
                    -0.000606512    -0.000345406         0.108023         0.37827      0.000213189     0.000372897         0.637403       -0.347876
547600                  0.592855       -0.172658      0.000318765     0.000377416       -0.0216681        0.172764     -0.000619981    -0.000349514
                     0.000325894     0.000382431         0.414599        0.654415      0.000108111    -0.000368325        0.0926646        0.413413
                      -0.0216688        0.172764      0.000105365    -0.000366966         0.429743        0.319243      0.000216533     0.000407597
                    -0.000620157    -0.000349798        0.0926645        0.413413      0.000218168      0.00040601         0.639768       -0.314528
550800                  0.628671       -0.226954      0.000337089     0.000432261      -0.00944487        0.153009     -0.000633019    -0.000353635
                      0.00034306     0.000437167         0.396112        0.633041      0.000115186    -0.000407742        0.0710952          0.4486
                     -0.00944542        0.153009      0.000112786    -0.000406473         0.461603          0.3575      0.000220163     0.000442485
                    -0.000633204    -0.000353885        0.0710952          0.4486      0.000221648     0.000441325         0.641122       -0.280169
554000                  0.664124       -0.292427       0.00035292     0.000496571        0.0023149        0.133752     -0.000645498    -0.000357474
                     0.000357564     0.000501102         0.379634        0.607843      0.000122713    -0.000452668        0.0427815        0.482369
                       0.0023145        0.133752      0.000120727     -0.00045152         0.498791        0.405284      0.000222024     0.000479641
                    -0.000645688    -0.000357692        0.0427815        0.482369       0.00022331     0.000478907         0.641373       -0.244807
557200                  0.697215       -0.371444      0.000364185     0.000572034        0.0136351        0.114976     -0.000657452    -0.000361057
                     0.000367362       0.0005758         0.366164        0.579007      0.000130665    -0.000504332       0.00762662        0.512952
                       0.0136348        0.114976      0.000129182    -0.000503348         0.542508        0.466435      0.000221754     0.000519105
                    -0.000657645    -0.000361245       0.00762655        0.512952      0.000222786     0.000518787         0.640425       -0.208457
560400                  0.724725        -0.46654      0.000367766      0.00066033        0.0245379       0.0966639     -0.000668912    -0.000364404
                     0.000369421     0.000662791         0.356713        0.547041      0.000138966    -0.000564352       -0.0338649         0.53844
                       0.0245378       0.0966639      0.000138098    -0.000563593         0.594105        0.547031      0.000218942     0.000560878
                    -0.000669107    -0.000364565        -0.033865         0.53844      0.000219665     0.000560957         0.638174        -0.17114
563600                  0.741699       -0.580017      0.000359094     0.000762755        0.0350444       0.0788003     -0.000679909    -0.000367535
                     0.000359353     0.000763193         0.352178        0.512805      0.000147442    -0.000634901       -0.0805008        0.557038
                       0.0350444       0.0788002      0.000147342    -0.000634456         0.654714        0.657166      0.000213131     0.000604903
                    -0.000680103    -0.000367673       -0.0805009        0.557038      0.000213486     0.000605348         0.634517       -0.132888
564000                  0.742748       -0.595575      0.000356851     0.000776579        0.0363309        0.076598     -0.000681252    -0.000367912
                     0.000356959     0.000776706         0.351993        0.508421      0.000148499    -0.000644598       -0.0866067        0.558804
                       0.0363308       0.0765979      0.000148509      -0.0006442         0.662937        0.673769       0.00021217     0.000610559
                    -0.000681446    -0.000368047       -0.0866068        0.558804      0.000212474     0.000611047         0.633955       -0.128043
566800                  0.720512       -0.693443      0.000331758     0.000879457        0.0451741       0.0613695     -0.000690468    -0.000370469
                     0.000331081     0.000877006         0.353194        0.477468      0.000155747    -0.000718965        -0.130452        0.567375
                       0.0451741       0.0613694       0.00015662    -0.000718968         0.664271        0.747492      0.000203819     0.000651052
                     -0.00069066    -0.000370584        -0.130452        0.567375      0.000203747     0.000651819         0.629344      -0.0937419
570000                  0.636183       -0.771538      0.000277383       0.0010081        0.0549454       0.0443571     -0.000700614    -0.000373221
                     0.000276764      0.00100188         0.360006        0.442403      0.000163208    -0.000820746        -0.181462        0.568765
                       0.0549455        0.044357      0.000165339    -0.000821405         0.602604        0.798041      0.000190465     0.000699105
