! TOUCHSTONE file generated by CST MICROWAVE STUDIO
! Date and time: Mon Oct 20 08:27:45 2025
! Project name: Teste_Macro_Metasurface_Nanopilar.cst
! Parameters = {H=600; L_x=175; L_y=130; Lambda=1064; Max_L=200; Min_L=70; PathPara=1; Phi=0; Step_L=10; Theta=0; p=520; phaseX=180; phaseY=0}
! Header version: 2018
! Port assignment regex: !\s*Touchstone port\s*([0-9]+)\s*=\s*(CST MWS port|CST DS port)\s*([0-9]+|Zmin|Zmax)\s*\(\"(.*)\"\)(\s*mode\s*([0-9]+))?.*
! Touchstone port assignment:
! Touchstone port 1 = CST MWS port Zmax ("") mode 1
! Touchstone port 2 = CST MWS port Zmax ("") mode 2
! Touchstone port 3 = CST MWS port Zmin ("") mode 1
! Touchstone port 4 = CST MWS port Zmin ("") mode 2
! S-Parameters are not renormalized. Each port impedance will be approximated by the real part at minimum frequency. The values are described via the [Reference] keyword.
! Default impedance is overridden by [Reference]
[Version] 2.0
# GHz S RI R 376.73
[Number of Ports] 4
[Reference]
376.73 376.73 259.888 259.888 
[Number of Frequencies] 52
[Network Data]
474000                  0.208257       -0.336412     -0.000199492     1.79175e-05        -0.758964        0.473604     -1.66363e-05    -0.000180393
                    -0.000199473     1.79186e-05        -0.737284        0.415227      2.84637e-05    -0.000295849        -0.355578       -0.255806
                       -0.758964        0.473604      2.84661e-05    -0.000295878        -0.403574       0.0656723     -4.65244e-05    -2.70574e-05
                    -1.66596e-05    -0.000180303        -0.355578       -0.255806     -4.64783e-05      -2.703e-05        -0.254311        0.824443
477200                  0.205458       -0.340615     -0.000206731     1.88307e-05        -0.752749        0.482648      -1.9217e-05    -0.000179223
                    -0.000206696     1.88089e-05        -0.736551        0.413883      2.25938e-05    -0.000307758        -0.389226       -0.253859
                       -0.752749        0.482648      2.25653e-05    -0.000307733          -0.4061        0.073669       -4.477e-05    -2.50952e-05
                    -1.92278e-05    -0.000179137        -0.389226        -0.25386     -4.47117e-05    -2.50678e-05        -0.257982        0.821916
480400                  0.202387       -0.344982     -0.000214685     1.98503e-05        -0.746077        0.492112     -2.19675e-05    -0.000177992
                    -0.000214633     1.98026e-05        -0.735763         0.41244      1.55015e-05    -0.000320354        -0.427142       -0.249441
                       -0.746077        0.492112      1.54456e-05    -0.000320267        -0.408491       0.0822401     -4.29329e-05    -2.30001e-05
                     -2.1965e-05     -0.00017791        -0.427142       -0.249441     -4.28619e-05    -2.29724e-05        -0.261928        0.819159
483600                  0.199014       -0.349517     -0.000223467     2.09956e-05        -0.738901        0.502024     -2.49048e-05    -0.000176694
                    -0.000223395     2.09186e-05        -0.734914        0.410885      6.95615e-06    -0.000333612        -0.469923       -0.241558
                       -0.738901        0.502024      6.87823e-06    -0.000333452          -0.4107       0.0914308     -4.10077e-05    -2.07588e-05
                    -2.48884e-05    -0.000176615        -0.469923       -0.241559     -4.09236e-05    -2.07307e-05        -0.266179        0.816137
486800                  0.195305        -0.35422     -0.000233212     2.22906e-05        -0.731168        0.512412     -2.80485e-05    -0.000175323
                    -0.000233118     2.21802e-05        -0.733995        0.409207     -3.31099e-06    -0.000347464        -0.518168       -0.228833
                       -0.731168        0.512412     -3.40284e-06    -0.000347222        -0.412673        0.101288     -3.89889e-05    -1.83563e-05
                    -2.80174e-05    -0.000175248        -0.518167       -0.228833     -3.88911e-05    -1.83272e-05        -0.270773        0.812813
490000                  0.191221       -0.359091     -0.000244088     2.37658e-05        -0.722817        0.523306      -3.1421e-05    -0.000173875
                    -0.000243969     2.36171e-05        -0.732997        0.407388     -1.56079e-05    -0.000361792        -0.572377        -0.20935
                       -0.722817        0.523306     -1.57024e-05    -0.000361457        -0.414343        0.111861     -3.68704e-05    -1.57752e-05
                    -3.13744e-05    -0.000173803        -0.572376       -0.209352     -3.67583e-05    -1.57449e-05        -0.275752         0.80914
493200                  0.186719       -0.364126     -0.000256303     2.54606e-05        -0.713779        0.534739      -3.5048e-05    -0.000172342
                    -0.000256155     2.52674e-05        -0.731911        0.405411     -3.02796e-05    -0.000376401        -0.632759       -0.180484
                       -0.713779        0.534739     -3.03615e-05    -0.000375964        -0.415631        0.123198     -3.46457e-05     -1.2996e-05
                     -3.4985e-05    -0.000172274        -0.632758       -0.180485     -3.45188e-05    -1.29639e-05        -0.281164        0.805062
496400                   0.18175       -0.369319     -0.000270122      2.7426e-05        -0.703975        0.546743     -3.89592e-05    -0.000170717
                    -0.000269941     2.71806e-05        -0.730725        0.403255     -4.76988e-05    -0.000390995        -0.698868       -0.138704
                       -0.703975        0.546743     -4.77482e-05    -0.000390448        -0.416443        0.135346     -3.23083e-05    -9.99622e-06
                    -3.88788e-05    -0.000170653        -0.698867       -0.138706     -3.21661e-05    -9.96175e-06        -0.287066        0.800509
499600                   0.17626       -0.374658     -0.000285882       2.973e-05        -0.693315        0.559355     -4.31891e-05    -0.000168993
                    -0.000285662     2.94227e-05        -0.729422        0.400893     -6.82467e-05    -0.000405145        -0.768977      -0.0794801
                       -0.693315        0.559354     -6.82386e-05    -0.000404485        -0.416668        0.148348     -2.98511e-05    -6.74992e-06
                    -4.30903e-05    -0.000168932        -0.768975      -0.0794836     -2.96931e-05    -6.71248e-06        -0.293528        0.795398
502800                  0.170187       -0.380125     -0.000304021     3.24646e-05        -0.681694         0.57261     -4.77777e-05    -0.000167162
                    -0.000303756      3.2083e-05        -0.727986        0.398294     -9.22767e-05    -0.000418261        -0.839086      0.00251351
                       -0.681694         0.57261      -9.2181e-05    -0.000417488        -0.416171        0.162242     -2.72671e-05    -3.22727e-06
                    -4.76595e-05    -0.000167105        -0.839085      0.00250871     -2.70927e-05    -3.18614e-06        -0.300629        0.789622
506000                  0.163465       -0.385695     -0.000325123     3.57574e-05        -0.668993        0.586547     -5.27724e-05    -0.000165213
                    -0.000324803      3.5285e-05        -0.726395        0.395423     -0.000120058    -0.000429555        -0.901628        0.112442
                       -0.668993        0.586547     -0.000119841    -0.000428681          -0.4148        0.177053     -2.45489e-05     6.06341e-07
                    -5.26335e-05     -0.00016516        -0.901627        0.112436     -2.43578e-05     6.52014e-07        -0.308465        0.783049
509200                  0.156019       -0.391334     -0.000349976     3.97898e-05        -0.655072        0.601202     -5.82287e-05    -0.000163138
                     -0.00034959     3.92047e-05        -0.724622        0.392232     -0.000151693    -0.000438039         -0.94438        0.252975
                       -0.655072        0.601202     -0.000151319    -0.000437087        -0.412375         0.19279     -2.16897e-05     4.79123e-06
                    -5.80679e-05    -0.000163088        -0.944381        0.252968     -2.14814e-05     4.84241e-06         -0.31715        0.775509
512400                  0.147767       -0.396993     -0.000379676     4.48284e-05        -0.639771        0.616613      -6.4213e-05    -0.000160926
                    -0.000379208     4.40999e-05        -0.722635        0.388665     -0.000187008     -0.00044254        -0.914668        0.404206
                       -0.639771        0.616613     -0.000186445    -0.000441548         -0.40869        0.209439     -1.86829e-05     9.37455e-06
                     -6.4029e-05    -0.000160879        -0.914671        0.404199     -1.84571e-05     9.43233e-06         -0.32682        0.766781
515600                  0.138623        -0.40261      -0.00041579     5.12785e-05        -0.622902        0.632812     -7.08047e-05    -0.000158565
                    -0.000415218      5.0363e-05        -0.720391        0.384653     -0.000225439    -0.000441783        -0.833727        0.552176
                       -0.622902        0.632812     -0.000224665    -0.000440803        -0.403516        0.226953     -1.55229e-05     1.44117e-05
                    -7.05961e-05    -0.000158521        -0.833732        0.552169     -1.52795e-05     1.44774e-05        -0.337642        0.756577
518800                  0.128492       -0.408103      -0.00046064     5.97859e-05        -0.604245        0.649829     -7.80997e-05    -0.000156044
                    -0.000459935     5.86185e-05        -0.717839        0.380106     -0.000265928    -0.000434533        -0.722714        0.691147
                       -0.604245        0.649829     -0.000264939    -0.000433632        -0.396596        0.245242      -1.2206e-05     1.99682e-05
                     -7.7865e-05    -0.000156002         -0.72272        0.691141     -1.19449e-05     2.00431e-05        -0.349812        0.744512
522000                   0.11728       -0.413365     -0.000517818     7.14354e-05        -0.583543        0.667684     -8.62148e-05    -0.000153352
                    -0.000516936     6.99146e-05        -0.714909        0.374908     -0.000306888    -0.000419825        -0.587561         0.80918
                       -0.583543        0.667684     -0.000305707    -0.000419073        -0.387659         0.26416     -8.73097e-06     2.61215e-05
                    -8.59526e-05    -0.000153311        -0.587568        0.809175     -8.45259e-06     2.62074e-05        -0.363569        0.730058
525200                  0.104889       -0.418263     -0.000593182     8.81803e-05        -0.560493        0.686383      -9.5294e-05    -0.000150478
                    -0.000592057     8.61372e-05        -0.711511        0.368912     -0.000346296    -0.000397219        -0.439396        0.898294
                       -0.560493        0.686383     -0.000344972    -0.000396679        -0.376421        0.283495       -5.101e-06     3.29644e-05
                    -9.50028e-05    -0.000150438        -0.439402         0.89829     -4.80603e-06     3.30629e-05        -0.379191        0.712484
528400                 0.0912275       -0.422627      -0.00069697     0.000113865        -0.534739        0.705913     -0.000105516    -0.000147414
                    -0.000695498     0.000110993        -0.707524        0.361916     -0.000381916    -0.000367022          -0.2905        0.956875
                       -0.534739        0.705913     -0.000380526    -0.000366735        -0.362606         0.30295     -1.32579e-06     4.06076e-05
                    -0.000105194    -0.000147373        -0.290505        0.956873     -1.01545e-06     4.07208e-05        -0.396996        0.690747
531600                  0.076218       -0.426252     -0.000848751     0.000157025        -0.505861         0.72623     -0.000117106    -0.000144157
                    -0.000846762     0.000152706         -0.70278        0.353648     -0.000411658     -0.00033037        -0.144085        0.947332
                       -0.505861         0.72623     -0.000410291    -0.000330345        -0.345965        0.322137       2.5751e-06     4.91847e-05
                    -0.000116753    -0.000144115         -0.14409        0.947336      2.89889e-06     4.93145e-05        -0.417313        0.663322
534800                 0.0598046       -0.428887      -0.00109087     0.000240204        -0.473361        0.747245      -0.00013035    -0.000140714
                      -0.0010881     0.000232957         -0.69704        0.343726     -0.000433952    -0.000289114       -0.0215808        0.891624
                       -0.473361        0.747245     -0.000432691    -0.000289326        -0.326309        0.340573      6.56735e-06     5.88569e-05
                    -0.000129965    -0.000140668       -0.0215843        0.891628      6.90169e-06     5.90055e-05          -0.4404        0.627914
538000                 0.0419691       -0.430234      -0.00153257     0.000441408        -0.436652        0.768806     -0.000145619    -0.000137107
                     -0.00152897     0.000426661        -0.689958        0.331602     -0.000448007    -0.000245521        0.0714742        0.823855
                       -0.436652        0.768806      -0.00044692    -0.000245913        -0.303537        0.357679      1.05945e-05     6.98194e-05
                    -0.000145201    -0.000137055        0.0714721        0.823859      1.09353e-05     6.99887e-05        -0.466216        0.580968
541200                 0.0227482       -0.429951      -0.00252108      0.00119816        -0.395043        0.790668     -0.000163396    -0.000133387
                     -0.00252461      0.00115444        -0.680997        0.316448     -0.000453894     -0.00020188          0.13957        0.753416
                       -0.395043        0.790668     -0.000453016    -0.000202379        -0.277681        0.372802      1.45672e-05     8.23095e-05
                    -0.000162948    -0.000133327         0.139569         0.75342      1.49084e-05      8.2501e-05        -0.493803        0.516827
544400                0.00225405       -0.427658      -0.00194394      0.00696469        -0.347721        0.812451     -0.000184328     -0.00012966
                     -0.00221674       0.0070201        -0.669303         0.29697     -0.000452403    -0.000160159         0.188123         0.68561
                       -0.347721        0.812451     -0.000451741    -0.000160692        -0.248939        0.385247      1.83466e-05     9.66147e-05
                    -0.000183854    -0.000129587         0.188122        0.685612      1.86802e-05     9.68288e-05        -0.519605        0.426359
547600                 -0.019302        -0.42295       0.00327255      0.00142343        -0.293745         0.83359     -0.000209293     -0.00012612
                      0.00333323      0.00142566        -0.653403        0.271014     -0.000444795    -0.000121794         0.222025        0.622964
                       -0.293745         0.83359     -0.000444333    -0.000122297        -0.217703        0.394329      2.17199e-05     0.000113082
                    -0.000208799    -0.000126032         0.222025        0.622966      2.20347e-05     0.000113317        -0.532872         0.29527
550800                -0.0415883       -0.415423       0.00174381     0.000278857        -0.232037        0.853251     -0.000239502    -0.000123132
                      0.00175516     0.000273188        -0.630549         0.23471     -0.000432521    -8.76354e-05         0.245206        0.566368
                       -0.232037        0.853251     -0.000432224    -8.80629e-05        -0.184565        0.399436      2.43631e-05     0.000132126
                    -0.000239004    -0.000123026         0.245206        0.566369      2.46447e-05     0.000132377        -0.503523        0.105389
554000                -0.0641367       -0.404712       0.00114314     8.68814e-05        -0.161401        0.870226     -0.000276666    -0.000121379
                      0.00114664     8.43589e-05        -0.594953        0.180363     -0.000416992    -5.80194e-05         0.260635        0.515834
                       -0.161401        0.870226      -0.00041682    -5.83415e-05        -0.150298        0.400101      2.57859e-05     0.000154228
                     -0.00027619    -0.000121254         0.260636        0.515835      2.60156e-05     0.000154484        -0.357934       -0.142449
557200                -0.0863398       -0.390543      0.000839925     2.95058e-05       -0.0805692        0.882795     -0.000323239    -0.000122154
                      0.00084121     2.84253e-05        -0.532069       0.0902105     -0.000399441    -3.28928e-05         0.270495         0.47096
                      -0.0805693        0.882795     -0.000399354    -3.30959e-05         -0.11581        0.396068      2.52492e-05     0.000179925
                    -0.000322831    -0.000122018         0.270496         0.47096      2.54044e-05     0.000180165       0.00921435       -0.334758
560400                 -0.107467       -0.372783      0.000658859     7.10398e-06        0.0116872        0.888541      -0.00038278    -0.000127985
                     0.000659289     6.71767e-06        -0.392651      -0.0875244     -0.000380861    -1.19517e-05         0.276364        0.431178
                       0.0116871        0.888541     -0.000380825    -1.20339e-05       -0.0820683        0.387331      2.16483e-05     0.000209757
                    -0.000382521    -0.000127873         0.276364        0.431178      2.17044e-05     0.000209943         0.497235       -0.208436
563600                 -0.126709       -0.351502      0.000538891     -2.9588e-06         0.116338        0.884144     -0.000460403    -0.000144006
                     0.000538927    -2.97742e-06         0.137345       -0.578273     -0.000362002     5.24217e-06         0.279378        0.395888
                        0.116338        0.884144     -0.000361986     5.27498e-06       -0.0500146        0.374146      1.33566e-05     0.000244146
                    -0.000460429    -0.000144014         0.279378        0.395888      1.32933e-05     0.000244216         0.735847        0.188726
564000                  -0.12894       -0.348606      0.000526691    -3.77034e-06         0.130318        0.882674     -0.000471702    -0.000147167
                     0.000526695     -3.7562e-06         0.318865       -0.699694     -0.000359653     7.15213e-06         0.279597        0.391764
                        0.130318        0.882674     -0.000359638     7.19862e-06       -0.0461695        0.372207      1.18832e-05     0.000248773
                    -0.000471776    -0.000147204         0.279597        0.391764      1.18042e-05     0.000248823           0.7424         0.23862
566800                  -0.14324       -0.327005      0.000453676    -7.81331e-06         0.233713        0.865181     -0.000562891     -0.00018106
                     0.000453511    -7.62219e-06         0.374821        0.927097     -0.000343394     1.91768e-05         0.280352        0.364519
                        0.233713        0.865181     -0.000343377     1.93139e-05        -0.020476        0.357008     -1.95101e-06     0.000283129
                    -0.000563413     -0.00018146         0.280352        0.364519     -2.13594e-06     0.000282986         0.702671        0.525662
570000                 -0.156314       -0.299847      0.000390068    -1.02007e-05         0.362878        0.826023     -0.000696282    -0.000262706
                     0.000389791    -9.88329e-06        -0.588338        0.808615     -0.000325395     3.03347e-05         0.279876        0.336557
                        0.362878        0.826022      -0.00032536     3.05635e-05       0.00590092        0.336596      -2.7414e-05      0.00032586
