! TOUCHSTONE file generated by CST MICROWAVE STUDIO
! Date and time: Mon Oct 20 08:27:49 2025
! Project name: Teste_Macro_Metasurface_Nanopilar.cst
! Parameters = {H=600; L_x=190; L_y=85; Lambda=1064; Max_L=200; Min_L=70; PathPara=1; Phi=0; Step_L=10; Theta=0; p=520; phaseX=180; phaseY=0}
! Header version: 2018
! Port assignment regex: !\s*Touchstone port\s*([0-9]+)\s*=\s*(CST MWS port|CST DS port)\s*([0-9]+|Zmin|Zmax)\s*\(\"(.*)\"\)(\s*mode\s*([0-9]+))?.*
! Touchstone port assignment:
! Touchstone port 1 = CST MWS port Zmax ("") mode 1
! Touchstone port 2 = CST MWS port Zmax ("") mode 2
! Touchstone port 3 = CST MWS port Zmin ("") mode 1
! Touchstone port 4 = CST MWS port Zmin ("") mode 2
! S-Parameters are not renormalized. Each port impedance will be approximated by the real part at minimum frequency. The values are described via the [Reference] keyword.
! Default impedance is overridden by [Reference]
[Version] 2.0
# GHz S RI R 376.73
[Number of Ports] 4
[Reference]
376.73 376.73 259.888 259.888 
[Number of Frequencies] 52
[Network Data]
474000                 -0.617947       -0.121885     -7.47293e-05     4.60556e-05        -0.421717       -0.502728      3.43912e-05    -0.000208005
                     -7.9446e-05     3.41462e-06         -0.23439       -0.896277     -2.81112e-05     0.000180348         0.176987       -0.250903
                       -0.421742        -0.50275     -3.44215e-05     0.000193384        -0.201288        0.639648     -8.07685e-06    -8.87232e-05
                     6.52855e-05    -0.000150042         0.176988       -0.250903     -4.71769e-05    -0.000146693        -0.938955       0.0231536
477200                 -0.625416       -0.131968     -7.42405e-05     4.88168e-05        -0.419516       -0.498665       3.5419e-05    -0.000206373
                    -7.91317e-05      6.0834e-06        -0.232277       -0.850288     -3.06827e-05     0.000182751           0.1816       -0.252851
                       -0.419542       -0.498687     -3.70812e-05      0.00019556        -0.194451         0.63948     -6.55883e-06    -8.62908e-05
                     6.63825e-05     -0.00014816         0.181601       -0.252852     -4.57569e-05    -0.000144417        -0.912239       0.0054671
480400                 -0.633446        -0.14316     -7.37242e-05     5.17392e-05        -0.417122       -0.494325      3.65102e-05    -0.000204634
                    -7.88029e-05     8.91203e-06        -0.229458       -0.804656     -3.34069e-05     0.000185231         0.186516       -0.254895
                       -0.417148       -0.494347     -3.98917e-05     0.000197801        -0.187316         0.63911     -4.95158e-06    -8.37093e-05
                     6.75435e-05    -0.000146161         0.186517       -0.254895     -4.42492e-05    -0.000141992        -0.883942      -0.0114634
483600                 -0.642094       -0.155646     -7.31779e-05     5.48373e-05        -0.414508       -0.489681       3.7671e-05    -0.000202776
                    -7.84586e-05     1.19153e-05        -0.225949       -0.759393     -3.62964e-05     0.000187792         0.191764       -0.257039
                       -0.414535       -0.489703      -4.2865e-05     0.000200109        -0.179873         0.63851       -3.247e-06    -8.09647e-05
                     6.87741e-05    -0.000144035         0.191765        -0.25704     -4.26453e-05    -0.000139404        -0.854055      -0.0274927
486800                 -0.651419       -0.169655     -7.25988e-05     5.81274e-05        -0.411646       -0.484699       3.8908e-05    -0.000200786
                    -7.80979e-05     1.51099e-05        -0.221765        -0.71451      -3.9365e-05     0.000190435          0.19738       -0.259292
                       -0.411673       -0.484721     -4.60141e-05     0.000202485        -0.172111        0.637651       -1.436e-06     -7.8041e-05
                     7.00809e-05     -0.00014177         0.197381       -0.259292     -4.09357e-05    -0.000136636        -0.822581      -0.0424665
490000                 -0.661487        -0.18547     -7.19841e-05      6.1628e-05        -0.408498       -0.479344      4.02292e-05     -0.00019865
                    -7.77196e-05     1.85146e-05        -0.216923        -0.67002     -4.26282e-05     0.000193162         0.203402       -0.261659
                       -0.408526       -0.479366     -4.93537e-05     0.000204929        -0.164021        0.636499      4.91707e-07    -7.49201e-05
                     7.14711e-05     -0.00013935         0.203403       -0.261659     -3.91096e-05    -0.000133668        -0.789539      -0.0562235
493200                  -0.67236       -0.203444     -7.13303e-05     6.53598e-05        -0.405023       -0.473571      4.16432e-05    -0.000196351
                    -7.73227e-05     2.21509e-05        -0.211438       -0.625933     -4.61028e-05     0.000195975         0.209876       -0.264148
                       -0.405052       -0.473593     -5.28996e-05     0.000207443        -0.155595        0.635017      2.54775e-06    -7.15813e-05
                     7.29529e-05     -0.00013676         0.209876       -0.264149     -3.71548e-05    -0.000130477        -0.754967       -0.068596
496400                   -0.6841       -0.224026     -7.06335e-05     6.93467e-05         -0.40117       -0.467332      4.31603e-05     -0.00019387
                    -7.69059e-05     2.60433e-05        -0.205328       -0.582259     -4.98078e-05     0.000198875         0.216853       -0.266768
                         -0.4012       -0.467354     -5.66695e-05     0.000210027        -0.146828        0.633164      4.74536e-06    -6.80011e-05
                     7.45356e-05     -0.00013398         0.216854       -0.266769     -3.50572e-05    -0.000127039        -0.718922      -0.0794127
499600                 -0.696754       -0.247791     -6.98894e-05     7.36156e-05        -0.396877        -0.46057       4.4792e-05    -0.000191184
                    -7.64681e-05     3.02197e-05        -0.198609       -0.539008     -5.37639e-05     0.000201863         0.224395       -0.269526
                       -0.396907       -0.460592     -6.06829e-05      0.00021268        -0.137715        0.630894      7.09965e-06    -6.41522e-05
                     7.62299e-05    -0.000130991         0.224396       -0.269527     -3.28006e-05    -0.000123321        -0.681483      -0.0885009
502800                 -0.710339       -0.275482      -6.9093e-05     7.81976e-05        -0.392067        -0.45322      4.65518e-05    -0.000188267
                    -7.60077e-05     3.47124e-05        -0.191296       -0.496188     -5.79944e-05     0.000204939         0.232571       -0.272431
                       -0.392099       -0.453242     -6.49613e-05       0.0002154        -0.128258        0.628157      9.62796e-06    -6.00033e-05
                     7.80479e-05    -0.000127766         0.232572       -0.272432     -3.03663e-05    -0.000119291        -0.642749      -0.0956891
506000                 -0.724811       -0.308076     -6.82386e-05     8.31285e-05        -0.386649       -0.445204      4.84552e-05    -0.000185088
                    -7.55237e-05     3.95586e-05        -0.183408       -0.453807     -6.25251e-05     0.000208101         0.241464       -0.275491
                       -0.386681       -0.445226     -6.95286e-05     0.000218187        -0.118459        0.624898      1.23503e-05    -5.55179e-05
                     8.00037e-05    -0.000124277         0.241465       -0.275492     -2.77326e-05    -0.000114905        -0.602846       -0.100811
509200                 -0.740012       -0.346872     -6.73196e-05     8.84497e-05        -0.380506       -0.436434      5.05203e-05    -0.000181611
                    -7.50145e-05     4.48018e-05        -0.174959       -0.411873     -6.73847e-05     0.000211348          0.25117       -0.278714
                        -0.38054       -0.436456     -7.44113e-05     0.000221037        -0.108329        0.621057      1.52898e-05    -5.06533e-05
                     8.21134e-05     -0.00012049          0.25117       -0.278715     -2.48739e-05    -0.000110115        -0.561921       -0.103708
512400                 -0.755564        -0.39362     -6.63284e-05     9.42094e-05        -0.373493       -0.426803      5.27686e-05     -0.00017779
                     -7.4479e-05     5.04927e-05        -0.165967       -0.370392     -7.26052e-05     0.000214676         0.261803       -0.282105
                       -0.373528       -0.426825     -7.96389e-05     0.000223943       -0.0978828        0.616569      1.84734e-05    -4.53594e-05
                     8.43959e-05    -0.000116365         0.261803       -0.282106     -2.17603e-05    -0.000104863        -0.520147       -0.104235
515600                 -0.770682       -0.450698     -6.52563e-05     0.000100464        -0.365426        -0.41619      5.52253e-05    -0.000173572
                     -7.3916e-05     5.66912e-05        -0.156447       -0.329372     -7.82223e-05     0.000218079           0.2735        -0.28567
                       -0.365462       -0.416211     -8.52439e-05     0.000226901       -0.0871438        0.611364      2.19329e-05    -3.95769e-05
                     8.68731e-05    -0.000111856         0.273501       -0.285672     -1.83565e-05    -9.90789e-05        -0.477717       -0.102262
518800                 -0.783809        -0.52136     -6.40928e-05     0.000107281        -0.356067       -0.404448      5.79204e-05    -0.000168894
                    -7.33245e-05     6.34681e-05        -0.146417       -0.288818     -8.42759e-05     0.000221549         0.286426        -0.28941
                       -0.356104       -0.404469     -9.12627e-05     0.000229899       -0.0761447        0.605368      2.57055e-05    -3.32348e-05
                     8.95708e-05    -0.000106905         0.286426       -0.289412     -1.46199e-05    -9.26766e-05        -0.434847      -0.0976791
522000                 -0.791916        -0.61002     -6.28259e-05     0.000114738        -0.345105       -0.391409      6.08898e-05    -0.000163675
                    -7.27042e-05     7.09083e-05        -0.135891       -0.248735     -9.08105e-05     0.000225073         0.300778       -0.293321
                       -0.345144        -0.39143     -9.77355e-05     0.000232926       -0.0649289        0.598504      2.98355e-05     -2.6248e-05
                     9.25196e-05    -0.000101445         0.300778       -0.293322     -1.04998e-05    -8.55522e-05        -0.391772      -0.0904018
525200                 -0.737583       -0.675256     -6.14411e-05     0.000122931        -0.332131       -0.376875       6.4177e-05    -0.000157815
                    -7.20553e-05     7.91139e-05        -0.124887       -0.209128     -9.78756e-05     0.000228638           0.3168       -0.297389
                       -0.332173       -0.376895     -0.000104707     0.000235965       -0.0535528         0.59069      3.43762e-05    -1.85129e-05
                      9.5756e-05     -9.5393e-05           0.3168       -0.297391      -5.9343e-06    -7.75766e-05        -0.348738      -0.0803721
528400                 -0.661906       -0.749587     -5.99213e-05     0.000131975        -0.316594       -0.360622       6.7835e-05     -0.00015119
                     -7.1379e-05     8.82092e-05         -0.11342       -0.170001     -0.000105527     0.000232221         0.334791       -0.301589
                       -0.316637       -0.360641     -0.000112228     0.000238996       -0.0420875        0.581845      3.93916e-05    -9.90283e-06
                     9.93236e-05    -8.86475e-05          0.33479       -0.301591     -8.47873e-07     -6.8588e-05        -0.306008      -0.0675626
531600                 -0.554605       -0.832114     -5.82459e-05     0.000142008        -0.297738         -0.3424      7.19288e-05    -0.000143641
                    -7.06786e-05     9.83467e-05        -0.101505       -0.131358     -0.000113825     0.000235795         0.355122       -0.305873
                       -0.297784       -0.342418     -0.000120351     0.000241991       -0.0306206        0.571888      4.49598e-05    -2.60567e-07
                     0.000103275    -8.10824e-05         0.355121       -0.305875      4.85303e-06    -5.83807e-05        -0.263846      -0.0519783
534800                 -0.400362       -0.916357     -5.63896e-05     0.000153204        -0.274512       -0.321955      7.65391e-05    -0.000134961
                    -6.99598e-05     0.000109716       -0.0891588      -0.0932013     -0.000122839     0.000239324         0.378262        -0.31016
                        -0.27456       -0.321971      -0.00012914     0.000244915       -0.0192581        0.560741      5.11769e-05     1.06109e-05
                     0.000107676    -7.25394e-05         0.378261       -0.310162      1.12854e-05      -4.669e-05        -0.222521      -0.0336584
538000                 -0.181768       -0.983341     -5.43218e-05     0.000165775        -0.245421       -0.299072      8.17668e-05    -0.000124876
                    -6.92328e-05     0.000122555       -0.0763964      -0.0555342     -0.000132644     0.000242763         0.404806       -0.314317
                       -0.245472       -0.299085     -0.000138659     0.000247724      -0.00812586        0.548336      5.81626e-05     2.29622e-05
                     0.000112605    -6.28162e-05         0.404805        -0.31432      1.85972e-05    -3.31682e-05        -0.182295      -0.0126761
541200                  0.105571       -0.994412     -5.20045e-05     0.000179993        -0.208303       -0.273687      8.77397e-05    -0.000113019
                    -6.85147e-05     0.000137168       -0.0632328       -0.018359     -0.000143323     0.000246051         0.435519       -0.318128
                       -0.208356       -0.273697     -0.000148983     0.000250363       0.00262947        0.534613      6.60673e-05     3.71166e-05
                     0.000118162    -5.16513e-05         0.435518       -0.318131      2.69786e-05    -1.73508e-05        -0.143423       0.0108619
544400                  0.424154        -0.90559     -4.93898e-05     0.000196204        -0.159972       -0.246143      9.46205e-05    -9.88814e-05
                    -6.78335e-05     0.000153947       -0.0496833       0.0183228     -0.000154966     0.000249113         0.471398       -0.321237
                       -0.160028       -0.246148      -0.00016019     0.000252761        0.0128404         0.51953       7.5083e-05      5.3499e-05
                     0.000124472    -3.87002e-05         0.471396       -0.321241      3.66766e-05     1.39767e-06        -0.106144        0.036817
547600                  0.698141       -0.715961     -4.64173e-05     0.000214857       -0.0957028       -0.217782      0.000102618     -8.1744e-05
                     -6.7235e-05     0.000173411       -0.0357626       0.0545098     -0.000167671     0.000251853         0.513753       -0.323066
                      -0.0957604       -0.217781     -0.000172366      0.00025483        0.0223197        0.503068      8.54586e-05     7.26785e-05
                     0.000131693    -2.34992e-05         0.513751       -0.323071      4.80176e-05     2.39698e-05       -0.0706771       0.0650216
550800                  0.878414       -0.477901     -4.30089e-05      0.00023655      -0.00856083       -0.192298         0.000112    -6.05524e-05
                    -6.67949e-05     0.000196255       -0.0214852       0.0902009     -0.000181539     0.000254148         0.564325       -0.322652
                      -0.0086181       -0.192288     -0.000185601     0.000256459        0.0308626        0.485233      9.75215e-05     9.54355e-05
                     0.000140031    -5.41074e-06         0.564323       -0.322658      6.14396e-05     5.16584e-05       -0.0372177       0.0952823
554000                   0.82878       -0.205711     -3.90629e-05     0.000262091         0.110944       -0.178782      0.000123106    -3.37017e-05
                    -6.66403e-05     0.000223437      -0.00686557        0.125396     -0.000196676     0.000255844         0.625442       -0.318369
                        0.110892       -0.178761     -0.000199986      0.00025751        0.0382511        0.466067      0.000111711     0.000122869
                      0.00014975     1.64674e-05         0.625439       -0.318376       7.7538e-05     8.64074e-05      -0.00593375        0.127385
557200                  0.678824      -0.0158267     -3.44435e-05     0.000292604         0.272717       -0.197998      0.000136339     1.36967e-06
                     -6.6989e-05      0.00025631        0.0080822        0.160094     -0.000213187     0.000256748         0.700193       -0.307413
                        0.272678       -0.197968     -0.000215613     0.000257812          0.04426        0.445653      0.000128626     0.000156576
                       0.0001612      4.3453e-05          0.70019       -0.307422      9.71292e-05     0.000131275        0.0230369        0.161098
560400                  0.535329        0.095182     -2.89667e-05     0.000329696         0.475007       -0.291608      0.000152095     4.89946e-05
                    -6.82267e-05     0.000296847        0.0233442        0.194296     -0.000231167     0.000256622          0.79257       -0.284826
                         0.47499        -0.29158     -0.000232568     0.000257153        0.0486652        0.424115      0.000149106     0.000198971
                     0.000174835     7.75469e-05         0.792567       -0.284838      0.000121323     0.000191356         0.049588        0.196181
563600                  0.412354        0.158344      -2.2378e-05     0.000375751         0.669215       -0.517336      0.000170392      0.00011706
                    -7.10676e-05     0.000348042        0.0389069        0.228003     -0.000250694      0.00025517         0.907264       -0.241646
                        0.669217       -0.517335     -0.000250919     0.000255274        0.0512535        0.401625      0.000174345     0.000253875
                     0.000191235     0.000121935         0.907262       -0.241662      0.000151526     0.000275765        0.0736456        0.232383
564000                  0.398527        0.163969     -2.14598e-05     0.000382302           0.6872       -0.556464      0.000172808     0.000127651
                    -7.15935e-05       0.0003554        0.0408727        0.232181     -0.000253247     0.000254878         0.923395       -0.234099
                        0.687202       -0.556468     -0.000253314     0.000254939        0.0514395        0.398758      0.000177913     0.000261896
                     0.000193513      0.00012844         0.923393       -0.234115      0.000155796     0.000288765        0.0764751        0.236975
566800                  0.310698        0.193516     -1.43176e-05     0.000434461         0.639495       -0.768795      0.000189301     0.000221312
                    -7.69085e-05     0.000414638        0.0547569        0.261214     -0.000271813     0.000252033         0.988339       -0.152271
                        0.639469       -0.768817     -0.000270712     0.000251861        0.0518338        0.378403      0.000206068     0.000327708
                     0.000211076     0.000181996         0.988336       -0.152291      0.000188958     0.000402441        0.0951679        0.269457
570000                   0.22733        0.212346     -4.26922e-06     0.000511868         0.420256       -0.907406      0.000197473     0.000396964
                    -8.86908e-05     0.000504598         0.070881        0.293933     -0.000294513      0.00024678         0.999923      -0.0124075
                        0.420203        -0.90743     -0.000291946     0.000246536        0.0502492        0.354711      0.000246747     0.000432107
