! TOUCHSTONE file generated by CST MICROWAVE STUDIO
! Date and time: Mon Oct 20 08:27:36 2025
! Project name: Teste_Macro_Metasurface_Nanopilar.cst
! Parameters = {H=600; L_x=145; L_y=130; Lambda=1064; Max_L=200; Min_L=70; PathPara=1; Phi=0; Step_L=10; Theta=0; p=520; phaseX=180; phaseY=0}
! Header version: 2018
! Port assignment regex: !\s*Touchstone port\s*([0-9]+)\s*=\s*(CST MWS port|CST DS port)\s*([0-9]+|Zmin|Zmax)\s*\(\"(.*)\"\)(\s*mode\s*([0-9]+))?.*
! Touchstone port assignment:
! Touchstone port 1 = CST MWS port Zmax ("") mode 1
! Touchstone port 2 = CST MWS port Zmax ("") mode 2
! Touchstone port 3 = CST MWS port Zmin ("") mode 1
! Touchstone port 4 = CST MWS port Zmin ("") mode 2
! S-Parameters are not renormalized. Each port impedance will be approximated by the real part at minimum frequency. The values are described via the [Reference] keyword.
! Default impedance is overridden by [Reference]
[Version] 2.0
# GHz S RI R 376.73
[Number of Ports] 4
[Reference]
376.73 376.73 259.888 259.888 
[Number of Frequencies] 52
[Network Data]
474000                  0.415327     -0.00817589     -8.16597e-06     2.80419e-05        -0.837489        -0.17128     -3.66609e-05     2.38038e-05
                    -8.12549e-06     2.80645e-05       -0.0703637       -0.226137      2.62905e-05     3.43041e-05        -0.785314        0.537671
                       -0.837489        -0.17128      2.62527e-05     3.42941e-05         -0.28172       -0.239891       -1.469e-05      4.6269e-05
                    -3.66802e-05     2.37931e-05        -0.785314        0.537671     -1.47134e-05     4.63179e-05        -0.169894       -0.155402
477200                  0.415333       -0.010065      -8.7891e-06     2.79472e-05        -0.840955       -0.177441     -3.66941e-05     2.24375e-05
                    -8.73797e-06     2.79793e-05       -0.0756192       -0.226483      2.57542e-05     3.28232e-05         -0.76397        0.550379
                       -0.840955       -0.177441      2.57172e-05     3.28098e-05        -0.283884       -0.239148     -1.51143e-05     4.65238e-05
                    -3.67045e-05     2.24143e-05         -0.76397        0.550379     -1.51515e-05     4.65744e-05        -0.175641       -0.154115
480400                   0.41533      -0.0120933     -9.44562e-06     2.78409e-05        -0.844776       -0.184173     -3.67211e-05     2.09983e-05
                    -9.38368e-06     2.78829e-05       -0.0812923       -0.226803      2.51764e-05     3.12893e-05        -0.741104        0.562972
                       -0.844775       -0.184173      2.51401e-05     3.12724e-05        -0.286119       -0.238357     -1.55627e-05     4.67883e-05
                    -3.67221e-05     2.09623e-05        -0.741104        0.562972     -1.56141e-05     4.68406e-05         -0.18179       -0.152665
483600                  0.415315      -0.0142769     -1.01382e-05     2.77213e-05        -0.849007       -0.191557     -3.67407e-05     1.94803e-05
                    -1.00653e-05     2.77739e-05        -0.087434       -0.227086      2.45532e-05        2.97e-05        -0.716606        0.575355
                       -0.849007       -0.191557      2.45174e-05     2.96794e-05        -0.288429       -0.237516     -1.60373e-05     4.70632e-05
                     -3.6732e-05     1.94311e-05        -0.716606        0.575356     -1.61032e-05     4.71169e-05        -0.188381       -0.151026
486800                  0.415286      -0.0166342     -1.08697e-05     2.75867e-05        -0.853718       -0.199694     -3.67515e-05     1.78768e-05
                    -1.07858e-05     2.76505e-05       -0.0941037       -0.227322      2.38806e-05     2.80528e-05        -0.690362        0.587418
                       -0.853718       -0.199694      2.38453e-05     2.80285e-05        -0.290818       -0.236619     -1.65404e-05     4.73489e-05
                    -3.67326e-05     1.78142e-05        -0.690362        0.587418     -1.66212e-05     4.74038e-05        -0.195463       -0.149168
490000                  0.415239      -0.0191865     -1.16434e-05     2.74349e-05        -0.858996       -0.208704     -3.67518e-05     1.61805e-05
                    -1.15484e-05     2.75106e-05        -0.101371       -0.227491      2.31541e-05      2.6345e-05        -0.662256        0.599026
                       -0.858996       -0.208704      2.31192e-05      2.6317e-05        -0.293288       -0.235663     -1.70746e-05     4.76459e-05
                    -3.67224e-05     1.61043e-05        -0.662256        0.599026     -1.71705e-05     4.77018e-05        -0.203092       -0.147051
493200                  0.415169      -0.0219589     -1.24629e-05     2.72636e-05        -0.864948       -0.218736     -3.67397e-05     1.43834e-05
                    -1.23567e-05      2.7352e-05        -0.109318       -0.227573      2.23686e-05     2.45739e-05        -0.632172        0.610023
                       -0.864947       -0.218735       2.2334e-05     2.45422e-05        -0.295844       -0.234642     -1.76427e-05     4.79547e-05
                    -3.66994e-05     1.42933e-05        -0.632172        0.610023     -1.77541e-05     4.80113e-05        -0.211329        -0.14463
496400                  0.415073      -0.0249811      -1.3332e-05       2.707e-05         -0.87171       -0.229972     -3.67129e-05     1.24763e-05
                    -1.32148e-05     2.71718e-05        -0.118042       -0.227539      2.15188e-05     2.27368e-05        -0.599993        0.620225
                       -0.871709       -0.229971      2.14843e-05     2.27014e-05         -0.29849       -0.233553     -1.82479e-05     4.82758e-05
                    -3.66612e-05     1.23719e-05        -0.599993        0.620225     -1.83751e-05     4.83329e-05        -0.220246       -0.141849
499600                  0.414941      -0.0282881     -1.42553e-05     2.68507e-05        -0.879457       -0.242642     -3.66686e-05     1.04488e-05
                    -1.41271e-05     2.69667e-05        -0.127661        -0.22735      2.05984e-05     2.08309e-05        -0.565611        0.629417
                       -0.879456       -0.242642      2.05639e-05     2.07916e-05        -0.301229       -0.232388     -1.88939e-05     4.86097e-05
                    -3.66051e-05     1.03301e-05        -0.565611        0.629417     -1.90371e-05      4.8667e-05        -0.229927       -0.138637
502800                  0.414766      -0.0319216     -1.52375e-05     2.66018e-05         -0.88842       -0.257038     -3.66036e-05     8.28961e-06
                    -1.50985e-05     2.67328e-05        -0.138313       -0.226956      1.96007e-05     1.88533e-05        -0.528927        0.637349
                       -0.888419       -0.257037       1.9566e-05     1.88102e-05        -0.304067       -0.231141     -1.95848e-05     4.89569e-05
                    -3.65278e-05     8.15629e-06        -0.528927        0.637349     -1.97441e-05     4.90141e-05        -0.240468       -0.134908
506000                  0.414534      -0.0359322      -1.6284e-05     2.63187e-05        -0.898904       -0.273535     -3.65138e-05     5.98555e-06
                    -1.61347e-05     2.64657e-05        -0.150169       -0.226289      1.85182e-05     1.68011e-05        -0.489856        0.643735
                       -0.898902       -0.273534      1.84832e-05     1.67542e-05        -0.307007       -0.229806     -2.03252e-05     4.93178e-05
                    -3.64253e-05     5.83753e-06        -0.489856        0.643735     -2.05008e-05     4.93745e-05        -0.251979       -0.130553
509200                  0.414231       -0.040381     -1.74011e-05      2.5996e-05        -0.911324       -0.292625     -3.63945e-05     3.52191e-06
                    -1.72418e-05     2.61599e-05        -0.163436       -0.225256      1.73424e-05     1.46714e-05        -0.448341        0.648249
                       -0.911322       -0.292623      1.73069e-05     1.46208e-05        -0.310055       -0.228375     -2.11203e-05     4.96929e-05
                    -3.62929e-05     3.35912e-06        -0.448341        0.648249     -2.13122e-05     4.97486e-05         -0.26459       -0.125435
512400                  0.413836       -0.045343     -1.85952e-05     2.56271e-05        -0.926261       -0.314964     -3.62398e-05     8.81897e-07
                    -1.84267e-05     2.58087e-05        -0.178371       -0.223729       1.6064e-05     1.24614e-05        -0.404353        0.650522
                       -0.926259       -0.314962      1.60279e-05     1.24072e-05        -0.313216       -0.226838     -2.19763e-05     5.00823e-05
                    -3.61249e-05     7.04368e-07        -0.404353        0.650522     -2.21843e-05     5.01365e-05        -0.278449       -0.119378
515600                   0.41332      -0.0509112      -1.9874e-05     2.52042e-05        -0.940439       -0.339963     -3.60429e-05    -1.95363e-06
                    -1.96971e-05     2.54044e-05        -0.195289       -0.221528      1.46728e-05     1.01685e-05         -0.35791        0.650145
                       -0.940439       -0.339962      1.46357e-05     1.01108e-05        -0.316494       -0.225187        -2.29e-05     5.04861e-05
                    -3.59141e-05    -2.14578e-06         -0.35791        0.650146     -2.31238e-05     5.05384e-05        -0.293731       -0.112156
518800                  0.412644       -0.057202     -2.12457e-05     2.47178e-05        -0.932944       -0.360022     -3.57949e-05    -5.00664e-06
                    -2.10615e-05     2.49375e-05        -0.214589       -0.218401       1.3157e-05      7.7903e-06        -0.309084        0.646668
                       -0.932944       -0.360021      1.31189e-05     7.72918e-06        -0.319896       -0.223412     -2.38993e-05     5.09043e-05
                    -3.56522e-05    -5.21315e-06        -0.309084        0.646668     -2.41385e-05     5.09542e-05        -0.310632       -0.103474
522000                  0.411754      -0.0643629     -2.27197e-05     2.41565e-05         -0.92404       -0.382296     -3.54854e-05    -8.30237e-06
                    -2.25297e-05     2.43964e-05        -0.236767       -0.213982      1.15038e-05     5.32455e-06        -0.258019        0.639603
                        -0.92404       -0.382295      1.14644e-05     5.26023e-06        -0.323426         -0.2215     -2.49835e-05     5.13363e-05
                    -3.53287e-05    -8.52283e-06        -0.258019        0.639603     -2.52371e-05     5.13833e-05        -0.329379       -0.092942
525200                  0.410574      -0.0725837     -2.43061e-05     2.35065e-05        -0.913494       -0.406852     -3.51011e-05      -1.187e-05
                     -2.4112e-05     2.37671e-05        -0.262456       -0.207734      9.69874e-06     2.76958e-06        -0.204943        0.628438
                       -0.913495       -0.406851      9.65791e-06      2.7023e-06         -0.32709       -0.219438      -2.6163e-05     5.17815e-05
                    -3.49305e-05    -1.21038e-05        -0.204943        0.628438     -2.64301e-05      5.1825e-05        -0.350223      -0.0800412
528400                  0.408992       -0.082112     -2.60161e-05     2.27506e-05        -0.901175       -0.433455     -3.46258e-05    -1.57434e-05
                    -2.58204e-05     2.30322e-05        -0.292453       -0.198851      7.72585e-06     1.24265e-07        -0.150186        0.612646
                       -0.901175       -0.433455      7.68337e-06     5.43517e-08        -0.330895       -0.217213     -2.74503e-05     5.22382e-05
                    -3.44417e-05    -1.59896e-05        -0.150186        0.612646     -2.77291e-05     5.22778e-05        -0.373431      -0.0640707
531600                  0.406842      -0.0932759     -2.78621e-05      2.1868e-05        -0.887337       -0.461122     -3.40388e-05     -1.9962e-05
                    -2.76675e-05     2.21703e-05        -0.327756       -0.186093      5.56719e-06     -2.6117e-06       -0.0941936        0.591704
                       -0.887337       -0.461122      5.52287e-06    -2.68387e-06        -0.334846       -0.214809     -2.88596e-05     5.27043e-05
                     -3.3842e-05    -2.02195e-05       -0.0941937        0.591704     -2.91482e-05     5.27396e-05        -0.399262      -0.0440738
534800                   0.40387       -0.106519     -2.98571e-05     2.08326e-05         -0.87341       -0.486986     -3.33141e-05    -2.45721e-05
                    -2.96671e-05     2.11548e-05        -0.369584       -0.167516      3.20279e-06    -5.43759e-06       -0.0375379         0.56512
                       -0.873409       -0.486987      3.15647e-06    -5.51156e-06        -0.338948       -0.212207      -3.0408e-05     5.31762e-05
                     -3.3106e-05    -2.48392e-05        -0.037538        0.565121     -3.07035e-05     5.32071e-05         -0.42792      -0.0187316
538000                  0.399675       -0.122449     -3.20148e-05     1.96122e-05        -0.864285       -0.503003     -3.24186e-05    -2.96279e-05
                    -3.18337e-05     1.99524e-05        -0.419306       -0.139986      6.10407e-07     -8.3513e-06        0.0190757        0.532464
                       -0.864282       -0.503007      5.61971e-07     -8.4265e-06        -0.343208       -0.209388     -3.21152e-05     5.36489e-05
                    -3.22013e-05    -2.99026e-05        0.0190756        0.532464     -3.24138e-05     5.36756e-05        -0.459438        0.013787
541200                  0.393596        -0.14192     -3.43493e-05     1.81665e-05        -0.875034       -0.484062     -3.13096e-05    -3.51936e-05
                    -3.41818e-05     1.85214e-05         -0.47813      -0.0983542     -2.23466e-06     -1.1349e-05        0.0748101        0.493399
                       -0.875028       -0.484073     -2.28528e-06    -1.14247e-05         -0.34763        -0.20633     -3.40046e-05     5.41153e-05
                    -3.10862e-05    -3.54733e-05          0.07481          0.4934     -3.43015e-05     5.41384e-05        -0.493463       0.0560265
544400                    0.3845       -0.166145     -3.68733e-05     1.64446e-05        -0.943936        -0.33013     -2.99315e-05    -4.13454e-05
                    -3.67253e-05     1.68088e-05        -0.546068      -0.0341017     -5.35985e-06    -1.44244e-05         0.128708         0.44773
                       -0.943925       -0.330161     -5.41263e-06       -1.45e-05         -0.35222       -0.203007     -3.61041e-05     5.45649e-05
                    -2.97067e-05    -4.16267e-05         0.128708         0.44773     -3.63929e-05      5.4586e-05        -0.528815         0.11148
547600                  0.370332       -0.196857     -3.95973e-05     1.43824e-05        -0.950803        0.309796     -2.82112e-05    -4.81739e-05
                    -3.94751e-05     1.47478e-05        -0.618944       0.0665022     -8.79546e-06    -1.75688e-05         0.179718        0.395434
                        -0.95082        0.309744     -8.85029e-06    -1.76431e-05        -0.356982       -0.199393     -3.84465e-05      5.4983e-05
                    -2.79921e-05    -4.84527e-05         0.179718        0.395434     -3.87192e-05     5.50049e-05        -0.562651        0.184763
550800                   0.34714        -0.23646     -4.25264e-05     1.18991e-05        -0.543251        0.839571     -2.60519e-05    -5.57872e-05
                    -4.24363e-05     1.22531e-05        -0.680756        0.222945     -1.25749e-05    -2.07693e-05          0.22673        0.336699
                       -0.543256        0.839567     -1.26315e-05    -2.08415e-05        -0.361919       -0.195456     -4.10711e-05      5.5349e-05
                    -2.58483e-05    -5.60584e-05          0.22673          0.3367     -4.13171e-05     5.53764e-05        -0.588958        0.281379
554000                  0.306808       -0.287804     -4.56553e-05     8.89195e-06        -0.427384         0.90407      -2.3323e-05    -6.43143e-05
                    -4.56032e-05     9.21667e-06        -0.688897        0.451085     -1.67347e-05     -2.4009e-05         0.268631        0.271952
                       -0.427379        0.904073     -1.67926e-05    -2.40778e-05        -0.367033       -0.191162     -4.40241e-05     5.56333e-05
                    -2.31492e-05    -6.45722e-05         0.268631        0.271952     -4.42303e-05     5.56738e-05        -0.596222        0.406178
557200                  0.231738        -0.35158     -4.89612e-05     5.23215e-06        -0.479567        0.877505     -1.98464e-05    -7.39087e-05
                    -4.89503e-05     5.50177e-06        -0.567806        0.723488     -2.13145e-05    -2.72651e-05         0.304363        0.201862
                       -0.479562        0.877508      -2.1373e-05    -2.73291e-05        -0.372326       -0.186471     -4.73604e-05     5.57942e-05
                    -1.97233e-05    -7.41469e-05         0.304363        0.201862     -4.75104e-05     5.58599e-05        -0.565162        0.558633
560400                  0.084991       -0.411617      -5.2391e-05     7.58912e-07        -0.574178        0.818731     -1.53762e-05    -8.47521e-05
                    -5.24187e-05     9.37594e-07        -0.277126        0.918564      -2.6357e-05    -3.05079e-05         0.332991        0.127337
                       -0.574176        0.818732     -2.64151e-05    -3.05657e-05        -0.377794        -0.18134     -5.11441e-05     5.57722e-05
                     -1.5334e-05     -8.4964e-05         0.332991        0.127337     -5.12177e-05     5.58821e-05        -0.470807        0.723284
563600                 -0.175961       -0.376252     -5.58423e-05    -4.72365e-06        -0.589978        0.659409     -9.56717e-06    -9.70546e-05
                    -5.58943e-05    -4.68407e-06        0.0710139        0.913376     -3.19073e-05    -3.36994e-05         0.353766       0.0494916
                       -0.589978        0.659409     -3.19635e-05    -3.37493e-05        -0.383433       -0.175719     -5.54487e-05     5.54826e-05
                    -9.64983e-06    -9.72358e-05         0.353766       0.0494916     -5.54217e-05     5.56657e-05        -0.297491        0.860533
564000                 -0.213828       -0.354778     -5.62674e-05    -5.49105e-06        -0.591236        0.642165     -8.72446e-06    -9.87065e-05
                    -5.63204e-05    -5.47291e-06         0.109439        0.899261     -3.26391e-05    -3.40924e-05         0.355783       0.0395894
                       -0.591236        0.642165      -3.2695e-05    -3.41413e-05         -0.38415        -0.17498     -5.60274e-05      5.5422e-05
                    -8.82674e-06    -9.88837e-05         0.355783       0.0395893     -5.59859e-05      5.5617e-05        -0.270756        0.873041
566800                 -0.398826      -0.0638961     -5.91343e-05    -1.14446e-05        -0.601628        0.541483     -1.92805e-06    -0.000111051
                     -5.9175e-05    -1.16053e-05         0.318349        0.754496     -3.80124e-05    -3.67911e-05         0.366183      -0.0304063
                       -0.601628        0.541482     -3.80649e-05    -3.68315e-05        -0.389234       -0.169555     -6.03553e-05      5.4804e-05
                    -2.19983e-06    -0.000111202         0.366183      -0.0304063     -6.02005e-05     5.51047e-05       -0.0655004        0.918017
570000                 -0.265181        0.295131      -6.1966e-05    -1.96506e-05        -0.614346        0.457326      8.25039e-06    -0.000126981
                     -6.1924e-05    -2.00822e-05          0.43612        0.563716     -4.47197e-05    -3.97224e-05         0.370011          -0.111
                       -0.614347        0.457324     -4.47659e-05    -3.97517e-05        -0.395183       -0.162787     -6.59473e-05     5.35631e-05
