! TOUCHSTONE file generated by CST MICROWAVE STUDIO
! Date and time: Mon Oct 20 08:27:32 2025
! Project name: Teste_Macro_Metasurface_Nanopilar.cst
! Parameters = {H=600; L_x=130; L_y=145; Lambda=1064; Max_L=200; Min_L=70; PathPara=1; Phi=0; Step_L=10; Theta=0; p=520; phaseX=180; phaseY=0}
! Header version: 2018
! Port assignment regex: !\s*Touchstone port\s*([0-9]+)\s*=\s*(CST MWS port|CST DS port)\s*([0-9]+|Zmin|Zmax)\s*\(\"(.*)\"\)(\s*mode\s*([0-9]+))?.*
! Touchstone port assignment:
! Touchstone port 1 = CST MWS port Zmax ("") mode 1
! Touchstone port 2 = CST MWS port Zmax ("") mode 2
! Touchstone port 3 = CST MWS port Zmin ("") mode 1
! Touchstone port 4 = CST MWS port Zmin ("") mode 2
! S-Parameters are not renormalized. Each port impedance will be approximated by the real part at minimum frequency. The values are described via the [Reference] keyword.
! Default impedance is overridden by [Reference]
[Version] 2.0
# GHz S RI R 376.73
[Number of Ports] 4
[Reference]
376.73 376.73 259.888 259.888 
[Number of Frequencies] 52
[Network Data]
474000                 -0.069809       -0.225973      1.37479e-05     5.93893e-05        -0.786134        0.536637      4.74188e-05     4.31703e-05
                     1.35927e-05     5.91834e-05         0.417828     -0.00760876     -5.17488e-05     3.44597e-05        -0.835197       -0.173473
                       -0.786134        0.536637     -5.20687e-05     3.49237e-05        -0.169415       -0.155348     -2.29501e-05     8.54485e-05
                     4.71434e-05     4.31196e-05        -0.835197       -0.173473     -2.33134e-05       8.463e-05        -0.281693        -0.24339
477200                -0.0750404        -0.22634      1.24806e-05     5.94968e-05        -0.764801        0.549405      4.66774e-05      5.0791e-05
                     1.21883e-05      5.9402e-05         0.417741     -0.00965154     -5.19071e-05     3.11583e-05        -0.838542       -0.179188
                         -0.7648        0.549404     -4.95971e-05     2.91184e-05        -0.175164       -0.154092     -2.17536e-05     8.73113e-05
                     4.70894e-05     4.97399e-05        -0.838542       -0.179189     -2.25997e-05     8.72401e-05        -0.283862       -0.242568
480400                -0.0806877       -0.226684        1.115e-05     5.96064e-05        -0.741944        0.562061      4.56056e-05     5.93911e-05
                      1.0711e-05     5.96269e-05         0.417636      -0.0118435      -5.1997e-05     2.76092e-05        -0.842224       -0.185425
                       -0.741942        0.562058     -4.66307e-05     2.30883e-05        -0.181315       -0.152676     -2.04849e-05     8.92665e-05
                     4.69054e-05     5.71839e-05        -0.842223       -0.185425     -2.18361e-05     8.99979e-05        -0.286101       -0.241697
483600                -0.0868017       -0.226994      9.75132e-06      5.9718e-05        -0.717454        0.574511      4.40825e-05      6.9159e-05
                     9.15497e-06     5.98579e-05          0.41751      -0.0142015     -5.20009e-05     2.37868e-05        -0.846296       -0.192256
                       -0.717451        0.574507     -4.31015e-05     1.68581e-05        -0.187909       -0.151073     -1.91375e-05     9.13209e-05
                     4.65392e-05     6.56115e-05        -0.846295       -0.192256     -2.10173e-05     9.29161e-05        -0.288414       -0.240773
486800                -0.0934417       -0.227258      8.27921e-06     5.98316e-05        -0.691216        0.586645      4.19355e-05     8.03302e-05
                     7.51389e-06     6.00952e-05         0.417359      -0.0167449     -5.18972e-05     1.96624e-05        -0.850823       -0.199772
                       -0.691213        0.586638     -3.89357e-05     1.04644e-05        -0.194996       -0.149252     -1.77039e-05     9.34823e-05
                     4.59162e-05     7.52251e-05        -0.850823       -0.199772     -2.01374e-05     9.60091e-05        -0.290803       -0.239792
490000                 -0.100677        -0.22746      6.72775e-06      5.9947e-05        -0.663114        0.598328      3.89146e-05     9.31994e-05
                     5.78059e-06     6.03388e-05         0.417179      -0.0194965     -5.16587e-05     1.52038e-05        -0.855887        -0.20808
                        -0.66311         0.59832     -3.40556e-05     3.95885e-06        -0.202629       -0.147177      -1.6176e-05      9.5759e-05
                     4.49277e-05     8.62849e-05        -0.855886        -0.20808     -1.91894e-05     9.92931e-05        -0.293273        -0.23875
493200                  -0.10859       -0.227578      5.09036e-06     6.00638e-05         -0.63303        0.609405      3.46495e-05     0.000108136
                     3.94713e-06     6.05886e-05         0.416963      -0.0224826     -5.12515e-05     1.03754e-05        -0.861586       -0.217312
                       -0.633025        0.609395     -2.83815e-05    -2.58859e-06        -0.210872         -0.1448     -1.45443e-05     9.81603e-05
                     4.34121e-05      9.9129e-05        -0.861585       -0.217313     -1.81657e-05     0.000102786        -0.295827       -0.237641
496400                 -0.117277       -0.227585      3.35973e-06     6.01819e-05        -0.600848        0.619691      2.85811e-05     0.000125599
                      2.0046e-06     6.08444e-05         0.416703      -0.0257343     -5.06334e-05     5.13738e-06        -0.868047        -0.22763
                       -0.600844        0.619678     -2.18349e-05    -9.08674e-06        -0.219798       -0.142066     -1.27981e-05     0.000100697
                     4.11238e-05     0.000114204        -0.868046       -0.227631     -1.70569e-05     0.000106509        -0.298468       -0.236461
499600                 -0.126855       -0.227443      1.52768e-06     6.03009e-05         -0.56646        0.628972      1.98469e-05     0.000146143
                    -5.69336e-08     6.11059e-05          0.41639      -0.0292885     -4.97511e-05    -5.53506e-07        -0.875432       -0.239237
                       -0.566455        0.628957     -1.43433e-05    -1.54201e-05        -0.229488       -0.138906     -1.09254e-05     0.000103379
                     3.76792e-05     0.000132106         -0.87543       -0.239238     -1.58527e-05     0.000110484        -0.301201       -0.235204
502800                 -0.137464       -0.227102     -4.14942e-07     6.04202e-05        -0.529764        0.636998       7.0862e-06     0.000170399
                    -2.24869e-06     6.13728e-05         0.416011      -0.0331887     -4.85376e-05    -6.74433e-06        -0.883951       -0.252388
                        -0.52976         0.63698     -5.84674e-06    -2.14468e-05        -0.240041       -0.135233     -8.91225e-06     0.000106221
                     3.24616e-05     0.000153644         -0.88395        -0.25239     -1.45406e-05     0.000114739         -0.30403       -0.233863
506000                 -0.149274       -0.226495     -2.47841e-06     6.05393e-05        -0.490677        0.643483     -1.18877e-05     0.000198957
                    -4.58329e-06     6.16443e-05         0.415552      -0.0374877     -4.69081e-05    -1.34849e-05        -0.893885       -0.267412
                       -0.490673        0.643463      3.69442e-06    -2.69977e-05        -0.251567       -0.130939      -6.7428e-06     0.000109237
                     2.44442e-05     0.000179921        -0.893883       -0.267415     -1.31063e-05     0.000119303        -0.306959       -0.232432
509200                 -0.162491       -0.225532      -4.6743e-06     6.06573e-05        -0.449138        0.648101     -4.06215e-05     0.000232004
                    -7.07508e-06     6.19198e-05          0.41499       -0.042249     -4.47553e-05    -2.08262e-05        -0.905609       -0.284735
                       -0.449135        0.648078        1.429e-05    -3.18782e-05        -0.264196       -0.125887     -4.39873e-06     0.000112442
                     1.18487e-05     0.000212434        -0.905606       -0.284738     -1.15325e-05     0.000124212        -0.309993       -0.230902
512400                 -0.177371       -0.224085     -7.01574e-06     6.07733e-05         -0.40512        0.650484     -8.47777e-05     0.000268289
                    -9.74031e-06      6.2198e-05           0.4143      -0.0475503     -4.19432e-05    -2.88174e-05        -0.919647       -0.304921
                       -0.405118        0.650459      2.59094e-05    -3.58728e-05        -0.278078       -0.119903      -1.8588e-06     0.000115854
                    -8.53935e-06     0.000253141        -0.919644       -0.304925       -9.799e-06     0.000129506        -0.313137       -0.229266
515600                 -0.194231       -0.221981     -9.51762e-06     6.08861e-05        -0.358638        0.650222     -0.000152666     0.000302519
                    -1.25976e-05     6.24775e-05         0.413446      -0.0534876     -3.82995e-05    -3.75007e-05        -0.936741       -0.328733
                       -0.358638        0.650193       3.8472e-05    -3.87543e-05        -0.293387       -0.112761      9.01685e-07     0.000119494
                    -4.27884e-05     0.000304238        -0.936737       -0.328738     -7.88151e-06     0.000135231        -0.316395       -0.227513
518800                 -0.213468       -0.218967     -1.21969e-05      6.0994e-05        -0.309763        0.646863     -0.000253163     0.000319906
                    -1.56682e-05     6.27562e-05         0.412379      -0.0601802     -3.36069e-05    -4.69024e-05        -0.936977       -0.349392
                       -0.309765        0.646831      5.18387e-05    -4.02971e-05        -0.310323       -0.104166      3.91163e-06     0.000123384
                    -0.000102715     0.000366646        -0.936974         -0.3494     -5.75072e-06     0.000141441        -0.319773       -0.225635
522000                  -0.23558       -0.214685     -1.50731e-05      6.1095e-05        -0.258638         0.63992     -0.000384049     0.000290343
                    -1.89767e-05     6.30314e-05         0.411033      -0.0677788     -2.75923e-05    -5.70196e-05        -0.929166       -0.369664
                       -0.258643        0.639886      6.58077e-05    -4.02945e-05        -0.329113      -0.0937293      7.20505e-06      0.00012755
                    -0.000210774     0.000433406        -0.929162       -0.369673     -3.37102e-06     0.000148201        -0.323276       -0.223618
525200                 -0.261201       -0.208603     -1.81686e-05     6.11867e-05         -0.20549        0.628881     -0.000507454     0.000181794
                    -2.25516e-05     6.32996e-05         0.409315      -0.0764759     -1.99181e-05     -6.7798e-05        -0.919951       -0.392033
                       -0.205498        0.628844      8.01169e-05    -3.85792e-05        -0.350011      -0.0809335      1.08222e-05      0.00013202
                    -0.000399821     0.000466853        -0.919946       -0.392045      -6.9877e-07     0.000155587        -0.326909       -0.221452
528400                 -0.291132       -0.199924     -2.15092e-05     6.12657e-05        -0.150647        0.613216     -0.000555828     1.24089e-05
                    -2.64258e-05     6.35561e-05         0.407092      -0.0865207     -1.01744e-05    -7.90993e-05        -0.909208       -0.416341
                       -0.150658        0.613177      9.44534e-05    -3.50438e-05        -0.373287      -0.0650779      1.48112e-05     0.000136829
                    -0.000659195     0.000360363        -0.909201       -0.416357      2.32004e-06     0.000163686        -0.330678       -0.219121
531600                 -0.326377       -0.187422     -2.51251e-05     6.13281e-05       -0.0945529        0.592401     -0.000510284    -0.000141886
                    -3.06382e-05     6.37948e-05         0.404169      -0.0982406      2.11741e-06    -9.06542e-05          -0.8971       -0.441829
                      -0.0945687         0.59236      0.000108471    -2.96586e-05        -0.399204      -0.0452063      1.92296e-05     0.000142013
                    -0.000801787     4.78186e-05        -0.897089       -0.441849      5.75295e-06     0.000172608        -0.334588       -0.216609
534800                 -0.368166       -0.169166     -2.90515e-05     6.13684e-05        -0.037779        0.565943     -0.000419866    -0.000234667
                    -3.52342e-05     6.40075e-05         0.400254       -0.112073       1.7483e-05    -0.000101998        -0.884661       -0.466235
                      -0.0377995        0.565901      0.000121817    -2.24817e-05        -0.427971      -0.0199994      2.41471e-05     0.000147615
                    -0.000689093     -0.00024511        -0.884647       -0.466262      9.68538e-06     0.000182482        -0.338645       -0.213901
538000                 -0.417892       -0.142045     -3.33299e-05       6.138e-05        0.0189702        0.533407     -0.000330402    -0.000274561
                    -4.02679e-05     6.41835e-05         0.394892       -0.128609       3.6435e-05    -0.000112394        -0.875453       -0.483302
                       0.0189448        0.533365      0.000134155    -1.36603e-05        -0.459628       0.0123758      2.96487e-05     0.000153685
                    -0.000496903    -0.000364321        -0.875433        -0.48334      1.42267e-05     0.000193465        -0.342854       -0.210976
541200                 -0.476808       -0.100934     -3.80092e-05      6.1354e-05        0.0748584        0.494457      -0.00025805    -0.000284429
                    -4.58036e-05     6.43082e-05         0.387349       -0.148665      5.93533e-05    -0.000120759        -0.880293        -0.47443
                       0.0748276        0.494415      0.000145199    -3.42158e-06         -0.49383       0.0544676      3.58388e-05     0.000160278
                    -0.000347877    -0.000380486        -0.880264       -0.474484      1.95191e-05     0.000205752         -0.34722       -0.207814
544400                 -0.545009      -0.0373283     -4.31482e-05     6.12788e-05         0.128929        0.448891     -0.000203197    -0.000280211
                    -5.19188e-05     6.43623e-05         0.376396        -0.17337      8.62854e-05    -0.000125639        -0.928046       -0.372464
                        0.128892        0.448851      0.000154731     7.94721e-06        -0.529407        0.109777      4.28473e-05     0.000167457
                    -0.000249086    -0.000361671        -0.928018       -0.372536      2.57497e-05     0.000219582        -0.351748       -0.204389
547600                 -0.618467       0.0625329      -4.8817e-05     6.11393e-05         0.180128        0.396684     -0.000162108    -0.000270248
                    -5.87072e-05     6.43195e-05         0.359861       -0.204285      0.000116675    -0.000125294        -0.996171       0.0874236
                        0.180087        0.396646      0.000162614     2.01232e-05        -0.563524        0.182933      5.08368e-05     0.000175294
                    -0.000184096    -0.000334973         -0.99617       0.0874397      3.31699e-05     0.000235257        -0.356442       -0.200675
550800                 -0.681386        0.218322     -5.51012e-05     6.09152e-05         0.227346        0.338021      -0.00013107    -0.000258463
                    -6.62836e-05     6.41439e-05         0.333704        -0.24345      0.000149096       -0.000118        -0.658473        0.752605
                          0.2273        0.337987      0.000168798     3.27753e-05         -0.59017        0.279461      6.00136e-05      0.00018387
                    -0.000140001     -0.00030896        -0.658333        0.752727      4.21234e-05     0.000253157        -0.361305       -0.196643
554000                 -0.691243        0.446416      -6.2105e-05     6.05793e-05         0.269468        0.273325     -0.000107246    -0.000246603
                     -7.4789e-05      6.3786e-05         0.289959       -0.292979      0.000181166    -0.000102567         -0.45902        0.888426
                        0.269417        0.273295      0.000173308     4.55886e-05        -0.597823        0.404232      7.06422e-05     0.000193272
                    -0.000108936    -0.000285883        -0.458911        0.888482      5.30903e-05      0.00027377        -0.366339       -0.192258
557200                  -0.57182        0.720076     -6.99576e-05     6.00946e-05         0.305431        0.203262     -8.86304e-05    -0.000235397
                    -8.43995e-05     6.31763e-05         0.212255       -0.352323      0.000209847    -7.89577e-05        -0.483109         0.87556
                        0.305377        0.203238      0.000176238     5.82836e-05        -0.567179        0.556736      8.30665e-05     0.000203595
                    -8.62608e-05    -0.000265993        -0.483048        0.875594      6.67585e-05     0.000297726        -0.371545       -0.187484
560400                 -0.281346        0.917207       -7.882e-05     5.94097e-05         0.334296        0.128738     -7.38266e-05    -0.000225101
                    -9.53363e-05     6.22164e-05        0.0684394       -0.405238      0.000232185    -4.86425e-05        -0.572935        0.819601
                         0.33424         0.12872      0.000177726     7.06279e-05        -0.473249        0.721498      9.77389e-05     0.000214934
                    -6.91867e-05    -0.000248966        -0.572905        0.819622      8.41412e-05     0.000325846        -0.376921       -0.182278
563600                 0.0678379        0.913065     -8.88963e-05      5.8453e-05         0.355312       0.0508654     -6.18595e-05    -0.000215762
                    -0.000107881      6.0764e-05        -0.177071       -0.373313      0.000246207    -1.43726e-05        -0.591933        0.659703
                        0.355255       0.0508536       0.00017794     8.24415e-05        -0.300404        0.858908      0.000115264     0.000227368
                    -5.59817e-05    -0.000234364        -0.591897        0.659687      0.000106779     0.000359207        -0.382463       -0.176593
564000                   0.10639        0.898983     -9.02534e-05     5.83096e-05         0.357359       0.0409577     -6.05263e-05     -0.00021466
                    -0.000109579     6.05384e-05        -0.212991       -0.354791      0.000247335    -9.97384e-06        -0.592776        0.641247
                        0.357301       0.0409468      0.000177887     8.38739e-05        -0.273734        0.871444      0.000117693     0.000229002
                    -5.45429e-05    -0.000232688        -0.592742        0.641231      0.000110087     0.000363811        -0.383167       -0.175846
566800                  0.315875        0.754178     -0.000100447     5.71218e-05         0.367967      -0.0290883     -5.20402e-05    -0.000207336
                    -0.000122394     5.86105e-05         -0.40984      -0.0954846      0.000251468     2.06037e-05        -0.601409        0.534352
                        0.367909      -0.0290935      0.000177064     9.35958e-05        -0.068976        0.916697      0.000136461     0.000240939
                    -4.55327e-05    -0.000221774        -0.601385        0.534339      0.000137104     0.000399204        -0.388163       -0.170378
570000                  0.433792        0.563315     -0.000113812     5.52666e-05         0.372025       -0.109766     -4.38742e-05    -0.000199743
                    -0.000139345     5.54421e-05        -0.324147        0.280445       0.00024896      5.3452e-05        -0.613393        0.446194
                        0.371969       -0.109764      0.000175281     0.000104009         0.161321        0.871106      0.000162454     0.000255594
