! TOUCHSTONE file generated by CST MICROWAVE STUDIO
! Date and time: Mon Oct 20 08:27:43 2025
! Project name: Teste_Macro_Metasurface_Nanopilar.cst
! Parameters = {H=600; L_x=160; L_y=190; Lambda=1064; Max_L=200; Min_L=70; PathPara=1; Phi=0; Step_L=10; Theta=0; p=520; phaseX=180; phaseY=0}
! Header version: 2018
! Port assignment regex: !\s*Touchstone port\s*([0-9]+)\s*=\s*(CST MWS port|CST DS port)\s*([0-9]+|Zmin|Zmax)\s*\(\"(.*)\"\)(\s*mode\s*([0-9]+))?.*
! Touchstone port assignment:
! Touchstone port 1 = CST MWS port Zmax ("") mode 1
! Touchstone port 2 = CST MWS port Zmax ("") mode 2
! Touchstone port 3 = CST MWS port Zmin ("") mode 1
! Touchstone port 4 = CST MWS port Zmin ("") mode 2
! S-Parameters are not renormalized. Each port impedance will be approximated by the real part at minimum frequency. The values are described via the [Reference] keyword.
! Default impedance is overridden by [Reference]
[Version] 2.0
# GHz S RI R 376.73
[Number of Ports] 4
[Reference]
376.73 376.73 259.888 259.888 
[Number of Frequencies] 52
[Network Data]
474000                  0.752154       -0.127732      -2.1226e-05     1.83631e-05        -0.560265       -0.207139      4.82513e-05      3.4644e-05
                     7.37161e-05     9.13075e-06        -0.234446        0.526306      2.20919e-05    -4.13494e-05         0.569974       -0.531726
                       -0.560312       -0.206967      1.56724e-05    -3.62673e-05        -0.452382       -0.627665      1.42144e-05    -3.57276e-06
                     2.91925e-05      0.00014076         0.570005       -0.531738      2.36709e-05     3.38411e-06         0.536439       -0.222729
477200                  0.719228       -0.178511      -2.1334e-05     1.83359e-05        -0.565824       -0.220516      4.16803e-05     3.28588e-05
                     7.18862e-05     9.33158e-06         -0.28264        0.520103      2.13715e-05    -3.92014e-05         0.551702       -0.508146
                       -0.565875        -0.22034      1.50256e-05     -3.4171e-05        -0.244898       -0.667679      1.45008e-05    -1.49815e-06
                     2.30733e-05     0.000135957         0.551731       -0.508156      2.38529e-05       5.327e-06         0.563896       -0.214661
480400                  0.681266        -0.22786     -2.14466e-05     1.83076e-05        -0.571563       -0.235219      3.49234e-05     3.10024e-05
                     6.99884e-05     9.53739e-06        -0.337529        0.510658      2.06185e-05    -3.69513e-05         0.533215       -0.484819
                        -0.57162        -0.23504      1.43499e-05    -3.19757e-05       -0.0700184       -0.660848      1.48085e-05     6.66801e-07
                     1.67806e-05     0.000131029         0.533243       -0.484829      2.40503e-05     7.35503e-06         0.592284        -0.20455
483600                  0.638282       -0.275092     -2.15639e-05     1.82781e-05        -0.577458       -0.251442      2.79726e-05     2.90707e-05
                     6.80187e-05     9.74832e-06        -0.400396        0.496649      1.98306e-05    -3.45919e-05         0.514519       -0.461748
                       -0.577521       -0.251258      1.36436e-05    -2.96741e-05          0.07061       -0.628113      1.51395e-05     2.92806e-06
                      1.0307e-05     0.000125971         0.514545       -0.461757      2.42645e-05     9.47389e-06         0.621484       -0.192155
486800                  0.590409       -0.319496     -2.16862e-05     1.82473e-05        -0.583465       -0.269412      2.08196e-05     2.70593e-05
                      6.5973e-05     9.96451e-06        -0.472774        0.476147      1.90052e-05    -3.21149e-05         0.495618       -0.438936
                       -0.583536       -0.269224      1.29043e-05    -2.72584e-05         0.181347       -0.583199      1.54962e-05     5.29213e-06
                     3.64466e-06     0.000120778         0.495643       -0.438944      2.44975e-05     1.16898e-05         0.651332       -0.177224
490000                  0.537909       -0.360365      -2.1814e-05     1.82151e-05         -0.58952       -0.289402      1.34557e-05     2.49638e-05
                     6.38469e-05     1.01861e-05        -0.556441        0.446293      1.81398e-05    -2.95113e-05         0.476518       -0.416385
                       -0.589599        -0.28921      1.21298e-05    -2.47199e-05         0.268005       -0.534121      1.58811e-05     7.76611e-06
                    -3.21489e-06     0.000115445         0.476541       -0.416392       2.4751e-05     1.40094e-05         0.681613       -0.159503
493200                  0.481177       -0.397019     -2.19475e-05     1.81816e-05        -0.595525       -0.311739      5.87131e-06     2.27791e-05
                     6.16356e-05     1.04132e-05        -0.653311        0.402793      1.72312e-05    -2.67711e-05         0.457223       -0.394097
                       -0.595614       -0.311542      1.13176e-05    -2.20489e-05         0.335948         -0.4852       1.6297e-05     1.03578e-05
                    -1.02805e-05     0.000109965         0.457245       -0.394104      2.50274e-05     1.64402e-05         0.712055       -0.138746
496400                  0.420733       -0.428841     -2.20871e-05     1.81464e-05        -0.601334       -0.336814     -1.94333e-06     2.04999e-05
                     5.93337e-05      1.0646e-05        -0.765098        0.339148      1.62762e-05    -2.38834e-05         0.437739       -0.372075
                       -0.601433       -0.336612      1.04647e-05    -1.92348e-05         0.389548       -0.438583      1.67472e-05     1.30756e-05
                    -1.75615e-05     0.000104332         0.437759        -0.37208       2.5329e-05     1.89903e-05         0.742325       -0.114725
499600                  0.357214       -0.455305     -2.22334e-05     1.81097e-05        -0.606733       -0.365098     -9.99875e-06     1.81205e-05
                     5.69356e-05     1.08845e-05        -0.892409        0.245501      1.52712e-05    -2.08358e-05          0.41807       -0.350319
                       -0.606845       -0.364892      9.56809e-06    -1.62658e-05         0.432186       -0.395203      1.72354e-05     1.59289e-05
                    -2.50679e-05      9.8541e-05         0.418089       -0.350324      2.56588e-05     2.16686e-05         0.772022      -0.0872443
502800                  0.291352          -0.476     -2.23867e-05     1.80711e-05        -0.611408       -0.397158     -1.83061e-05     1.56348e-05
                     5.44353e-05      1.1129e-05        -0.994656        0.103245      1.42122e-05    -1.76147e-05         0.398222       -0.328833
                       -0.611536       -0.396948      8.62434e-06    -1.31287e-05         0.466414       -0.355343      1.77657e-05     1.89279e-05
                    -3.28102e-05     9.25842e-05         0.398239       -0.328838        2.602e-05     2.44849e-05         0.800681      -0.0561598
506000                  0.223944       -0.490651     -2.25476e-05     1.80307e-05        -0.614902       -0.433676     -2.68771e-05     1.30359e-05
                      5.1826e-05     1.13794e-05        -0.996656      -0.0817069      1.30946e-05    -1.42049e-05         0.378199       -0.307618
                       -0.615048       -0.433463      7.62964e-06     -9.8089e-06          0.49415       -0.318954      1.83428e-05      2.2084e-05
                    -4.07999e-05     8.64547e-05         0.378215       -0.307622      2.64162e-05       2.745e-05         0.827775      -0.0213949
509200                  0.155824       -0.499131     -2.27167e-05     1.79881e-05        -0.616541       -0.475461     -3.57245e-05     1.03168e-05
                     4.91004e-05     1.16359e-05        -0.957531       -0.288331      1.19135e-05    -1.05893e-05         0.358006       -0.286675
                       -0.616707       -0.475246      6.57978e-06    -6.28994e-06         0.516829       -0.285827      1.89722e-05     2.54096e-05
                    -4.90488e-05     8.01449e-05         0.358021       -0.286678      2.68516e-05     3.05759e-05         0.852726       0.0170376
512400                 0.0878264       -0.501464     -2.28946e-05     1.79434e-05        -0.615336       -0.523459     -4.48615e-05     7.46957e-06
                     4.62506e-05     1.18986e-05        -0.860705       -0.509104      1.06633e-05    -6.74862e-06          0.33765       -0.266006
                       -0.615527       -0.523245      5.47007e-06    -2.55333e-06         0.535536       -0.255688      1.96599e-05     2.89185e-05
                    -5.75698e-05     7.36467e-05         0.337663       -0.266009       2.7331e-05     3.38759e-05         0.874922       0.0590172
515600                 0.0207527       -0.497818      -2.3082e-05     1.78963e-05        -0.609833       -0.578741     -5.43024e-05     4.48584e-06
                      4.3268e-05     1.21675e-05          -0.6902       -0.723619      9.33789e-06    -2.66129e-06         0.317133       -0.245613
                       -0.610053       -0.578529      4.29527e-06     1.42174e-06         0.551093       -0.228248      2.04132e-05      3.2626e-05
                    -6.63764e-05     6.69518e-05         0.317146       -0.245616      2.78601e-05     3.73647e-05         0.893737        0.104299
518800                -0.0446558       -0.488494     -2.32797e-05     1.78466e-05         -0.59789       -0.642427     -6.40623e-05     1.35639e-06
                      4.0143e-05     1.24425e-05        -0.444766       -0.895647      7.93021e-06     1.69727e-06         0.296463       -0.225496
                       -0.598144       -0.642225      3.04953e-06     5.65885e-06          0.56413       -0.203226      2.12401e-05     3.65492e-05
                    -7.54833e-05      6.0051e-05         0.296474       -0.225499      2.84452e-05     4.10588e-05         0.908567        0.152506
522000                 -0.107743       -0.473902     -2.34886e-05     1.77941e-05        -0.576373       -0.715516     -7.41573e-05    -1.92871e-06
                     3.68653e-05     1.27237e-05        -0.153879        -0.98809      6.43242e-06     6.35498e-06         0.275644       -0.205658
                       -0.576666       -0.715332      1.72628e-06     1.01848e-05         0.575132       -0.180365      2.21501e-05     4.07071e-05
                    -8.49061e-05     5.29348e-05         0.275654        -0.20566      2.90939e-05     4.49766e-05         0.918856        0.203123
525200                 -0.167955       -0.454536     -2.37096e-05     1.77386e-05         -0.54076       -0.798474     -8.46046e-05    -5.38032e-06
                     3.34233e-05     1.30109e-05          0.13129       -0.991344      4.83561e-06     1.13437e-05          0.25468       -0.186099
                       -0.541096       -0.798319      3.18128e-07       1.503e-05         0.584479       -0.159429      2.31542e-05      4.5121e-05
                    -9.46612e-05      4.5593e-05         0.254689         -0.1861      2.98148e-05     4.91386e-05         0.924139        0.255508
528400                  -0.22485       -0.430952     -2.39439e-05     1.76797e-05        -0.478138       -0.878285     -9.54228e-05    -9.01023e-06
                     2.98046e-05     1.33039e-05         0.371218       -0.928546       3.1297e-06     1.67001e-05         0.233577       -0.166819
                        -0.47847       -0.878104      -1.1833e-06     2.02297e-05         0.592469        -0.14021      2.42653e-05     4.98146e-05
                    -0.000104767     3.80149e-05         0.233585       -0.166821      3.06181e-05      5.3568e-05         0.924077        0.308912
531600                   -0.2781       -0.403736     -2.41926e-05     1.76172e-05        -0.375481        -0.92683     -0.000106631    -1.28313e-05
                      2.5995e-05     1.36026e-05         0.554393       -0.832255      1.30317e-06     2.24661e-05         0.212341       -0.147821
                       -0.375827        -0.92669     -2.78747e-06      2.5824e-05         0.599337       -0.122523      2.54983e-05     5.48147e-05
                    -0.000115242     3.01889e-05         0.212348       -0.147822       3.1516e-05      5.8291e-05         0.918479        0.362511
534800                 -0.327485       -0.373484     -2.44572e-05     1.75507e-05        -0.248725       -0.968574     -0.000118251    -1.68577e-05
                     2.19791e-05     1.39065e-05         0.687562       -0.726126     -6.57137e-07     2.86909e-05         0.190975       -0.129103
                       -0.249075       -0.968484     -4.50519e-06     3.18597e-05         0.605272       -0.106206       2.6871e-05     6.01517e-05
                    -0.000126107     2.21028e-05         0.190981       -0.129104      3.25225e-05      6.3337e-05         0.907329        0.415441
538000                  -0.37289        -0.34078     -2.47392e-05     1.74799e-05       -0.0952065       -0.995458     -0.000130305    -2.11048e-05
                     1.77399e-05     1.42152e-05         0.782556        -0.62258     -2.76638e-06     3.54311e-05         0.169485       -0.110669
                      -0.0955401       -0.995426     -6.34877e-06     3.83911e-05         0.610425      -0.0911159      2.84044e-05     6.58597e-05
                    -0.000137384     1.37436e-05          0.16949       -0.110669      3.36545e-05     6.87398e-05         0.885731        0.464199
541200                 -0.414288       -0.306177     -2.50405e-05     1.74043e-05        0.0837113        -0.99649     -0.000142818    -2.55894e-05
                     1.32581e-05     1.45279e-05         0.850012       -0.526763     -5.04207e-06     4.27538e-05         0.147876      -0.0925164
                       0.0834183       -0.996515     -8.33239e-06     4.54818e-05         0.614921      -0.0771278      3.01234e-05     7.19775e-05
                    -0.000149097      5.0972e-06         0.147881       -0.092517      3.49323e-05     7.45374e-05         0.859917        0.510434
544400                 -0.451729       -0.270192     -2.53629e-05     1.73233e-05         0.279493       -0.960148     -0.000155814    -3.03301e-05
                     8.51249e-06     1.48439e-05         0.897929       -0.440141     -7.50451e-06     5.07375e-05         0.126153      -0.0746474
                        0.279265       -0.960214     -1.04723e-05     5.32068e-05         0.618858      -0.0641314      3.20579e-05     7.85494e-05
                    -0.000161271    -3.85118e-06         0.126157      -0.0746478      3.63802e-05     8.07738e-05         0.832055        0.554694
547600                 -0.485323       -0.233289     -2.57089e-05     1.72364e-05         0.475603        -0.87966     -0.000169322    -3.53474e-05
                     3.47903e-06      1.5162e-05         0.931956        -0.36257     -1.01774e-05     5.94762e-05         0.104321      -0.0570618
                         0.47545       -0.879743     -1.27875e-05     6.16551e-05          0.62232      -0.0520298       3.4244e-05     8.56258e-05
                    -0.000173935    -1.31175e-05         0.104324      -0.0570621      3.80274e-05     8.74991e-05         0.802452        0.596716
550800                 -0.515231       -0.195881     -2.60811e-05      1.7143e-05         0.652115        -0.75812     -0.000183373    -4.06638e-05
                    -1.86914e-06     1.54808e-05         0.956024        -0.29329     -1.30888e-05      6.9082e-05        0.0823851      -0.0397598
                        0.652029       -0.758194     -1.52998e-05     7.09332e-05         0.625376      -0.0407376      3.67253e-05     9.32647e-05
                    -0.000187118    -2.27188e-05        0.0823874        -0.03976      3.99097e-05     9.47714e-05          0.77144        0.636302
554000                 -0.541645       -0.158327     -2.64827e-05     1.70422e-05         0.772247       -0.591462     -0.000197997    -4.63041e-05
                    -7.56238e-06     1.57983e-05         0.972866       -0.231371     -1.62714e-05     7.96906e-05        0.0603495      -0.0227416
                        0.772324         -0.5916     -1.80351e-05     8.11693e-05         0.628081      -0.0301795      3.95552e-05     0.000101533
                    -0.000200852    -3.26733e-05        0.0603512      -0.0227417      4.20711e-05     0.000102658         0.739357        0.673314
557200                 -0.564785       -0.120931     -2.69172e-05     1.69332e-05         0.774084       -0.384688     -0.000213231    -5.22958e-05
                     -1.3635e-05     1.61123e-05         0.984408       -0.175902     -1.97645e-05     9.14675e-05        0.0382194     -0.00600709
                        0.774149        -0.38475     -2.10233e-05     9.25199e-05         0.630485      -0.0202887      4.27993e-05     0.000110507
                    -0.000215173    -4.30007e-05        0.0382205     -0.00600711      4.45658e-05     0.000111236         0.705521        0.706665
560400                  -0.58488      -0.0839471     -2.73888e-05     1.68149e-05         0.727159        -0.21325     -0.000229112    -5.86694e-05
                    -2.01262e-05     1.64197e-05         0.987691       -0.125504     -2.36151e-05     0.000104617        0.0159995       0.0104438
                        0.727192       -0.213269     -2.43002e-05     0.000105177         0.632626       -0.011006      4.65389e-05     0.000120275
                     -0.00023012    -5.37221e-05        0.0160001       0.0104438      4.74615e-05     0.000120597         0.666473          0.7319
563600                 -0.602167      -0.0475841     -2.79026e-05      1.6686e-05         0.655063      -0.0819395     -0.000245679    -6.54589e-05
                    -2.70804e-05     1.67168e-05         0.961593      -0.0782473     -2.78799e-05     0.000119393      -0.00630521       0.0266112
                        0.655066      -0.0819405      -2.7908e-05     0.000119379         0.634538     -0.00227859      5.08758e-05     0.000130942
                    -0.000245732      -6.486e-05      -0.00630517       0.0266112      5.08433e-05     0.000130848         0.626888        0.752822
564000                 -0.604142      -0.0430911     -2.79701e-05     1.66691e-05         0.645196      -0.0681661     -0.000247801    -6.63387e-05
                    -2.79847e-05      1.6753e-05         0.958442      -0.0728575     -2.84454e-05     0.000121369      -0.00909904       0.0286122
                        0.645196      -0.0681661     -2.83846e-05     0.000121277         0.634763     -0.00122432      5.14659e-05     0.000132344
                    -0.000247733    -6.62827e-05      -0.00909906       0.0286123      5.13053e-05     0.000132198         0.621931        0.755144
566800                 -0.616881      -0.0120075     -2.84645e-05     1.65451e-05         0.574455       0.0139071     -0.000262978     -7.2702e-05
                    -3.45488e-05     1.69986e-05         0.937102      -0.0379148     -3.26278e-05     0.000136117       -0.0286902       0.0424954
                        0.574436       0.0139093     -3.18969e-05     0.000135428         0.636251      0.00594042      5.59384e-05     0.000142626
                    -0.000262057    -7.64388e-05       -0.0286906       0.0424955      5.48195e-05     0.000142115         0.587322        0.769647
570000                 -0.629254       0.0226543     -2.90814e-05     1.63905e-05         0.494867       0.0818799     -0.000281056    -8.04408e-05
                    -4.25902e-05      1.7259e-05         0.914259     -0.00318729     -3.79433e-05       0.0001552       -0.0511506       0.0580968
                        0.494834       0.0818787     -3.63273e-05     0.000153707         0.637789        0.013693      6.18904e-05     0.000155467
