! TOUCHSTONE file generated by CST MICROWAVE STUDIO
! Date and time: Mon Oct 20 08:27:48 2025
! Project name: Teste_Macro_Metasurface_Nanopilar.cst
! Parameters = {H=600; L_x=175; L_y=200; Lambda=1064; Max_L=200; Min_L=70; PathPara=1; Phi=0; Step_L=10; Theta=0; p=520; phaseX=180; phaseY=0}
! Header version: 2018
! Port assignment regex: !\s*Touchstone port\s*([0-9]+)\s*=\s*(CST MWS port|CST DS port)\s*([0-9]+|Zmin|Zmax)\s*\(\"(.*)\"\)(\s*mode\s*([0-9]+))?.*
! Touchstone port assignment:
! Touchstone port 1 = CST MWS port Zmax ("") mode 1
! Touchstone port 2 = CST MWS port Zmax ("") mode 2
! Touchstone port 3 = CST MWS port Zmin ("") mode 1
! Touchstone port 4 = CST MWS port Zmin ("") mode 2
! S-Parameters are not renormalized. Each port impedance will be approximated by the real part at minimum frequency. The values are described via the [Reference] keyword.
! Default impedance is overridden by [Reference]
[Version] 2.0
# GHz S RI R 376.73
[Number of Ports] 4
[Reference]
376.73 376.73 259.888 259.888 
[Number of Frequencies] 52
[Network Data]
474000                  0.656083        0.100488       7.9603e-07      4.6473e-05        -0.719612        -0.11387      6.94821e-06     -2.6643e-05
                     -1.0946e-05     3.75293e-05         0.898648       0.0468208      -1.0586e-05    -2.09777e-05        -0.372748       -0.122081
                       -0.719604       -0.113861      2.06754e-05    -2.61758e-05        -0.646685       -0.122099      2.41573e-05    -2.08477e-05
                     7.06665e-06    -2.22043e-05         -0.37276       -0.122077      1.76233e-05    -4.47169e-05        -0.732647       -0.484104
477200                  0.722296        0.123458      1.26732e-06     4.42905e-05        -0.719273       -0.105148      6.50061e-06    -2.62856e-05
                    -1.04298e-05      3.5064e-05         0.891988       0.0788095     -1.02697e-05    -2.31447e-05        -0.394995        -0.12013
                       -0.719266       -0.105138      2.09696e-05    -2.81519e-05        -0.644961       -0.140643      2.52386e-05    -2.11194e-05
                     6.63294e-06    -2.18035e-05        -0.394996       -0.120121      1.87163e-05    -4.56145e-05        -0.780973       -0.400144
480400                  0.793352        0.162809      1.77568e-06     4.19728e-05          -0.7188      -0.0960805      6.02103e-06    -2.59028e-05
                    -9.87364e-06     3.24495e-05         0.882992        0.114639     -9.93517e-06    -2.54393e-05         -0.42093       -0.116564
                       -0.718792      -0.0960717      2.12772e-05     -3.0243e-05        -0.642544       -0.160721      2.64123e-05    -2.14076e-05
                      6.1686e-06    -2.13748e-05        -0.420915       -0.116548      1.99107e-05    -4.65875e-05        -0.823828       -0.302276
483600                  0.864607        0.223348      2.32545e-06     3.95067e-05        -0.718174      -0.0866508      5.50591e-06    -2.54917e-05
                      -9.273e-06     2.96718e-05         0.870875        0.154917     -9.58097e-06     -2.7873e-05        -0.451405       -0.110554
                       -0.718166      -0.0866422       2.1599e-05    -3.24594e-05        -0.639266       -0.182507       2.7691e-05    -2.17134e-05
                     5.67025e-06    -2.09151e-05         -0.45137       -0.110533      2.12215e-05     -4.7646e-05        -0.857688       -0.189653
486800                  0.927971        0.308532      2.92167e-06     3.68777e-05         -0.71738      -0.0768391      4.95113e-06    -2.50493e-05
                    -8.62255e-06     2.67154e-05         0.854552        0.200331     -9.20527e-06    -3.04589e-05        -0.487478         -0.1008
                       -0.717372      -0.0768308       2.1936e-05    -3.48129e-05        -0.634918        -0.20619      2.90891e-05    -2.20383e-05
                     5.13402e-06    -2.04208e-05        -0.487415       -0.100775      2.26663e-05    -4.88017e-05        -0.878166      -0.0623043
490000                  0.918754         0.39483      3.57018e-06     3.40692e-05        -0.716396      -0.0666254      4.35195e-06    -2.45716e-05
                    -7.91616e-06     2.35623e-05         0.832501        0.251632     -8.80606e-06    -3.32118e-05        -0.530398      -0.0852149
                       -0.716388      -0.0666174      2.22891e-05    -3.73163e-05        -0.629235       -0.231983      3.06242e-05    -2.23836e-05
                     4.55541e-06     -1.9888e-05        -0.530297      -0.0851914      2.42669e-05    -5.00683e-05         -0.88019       0.0783565
493200                  0.875536        0.483152      4.27782e-06     3.10622e-05        -0.715201      -0.0559883      3.70281e-06    -2.40543e-05
                    -7.14669e-06     2.01925e-05         0.802578        0.309564     -8.38105e-06    -3.61484e-05        -0.581471      -0.0604045
                       -0.715193      -0.0559807      2.26595e-05    -3.99846e-05        -0.621883       -0.260117      3.23172e-05    -2.27505e-05
                      3.9292e-06    -1.93119e-05        -0.581318      -0.0603919      2.60495e-05    -5.14626e-05        -0.858476        0.228998
496400                  0.819247         0.57344      5.05262e-06     2.78349e-05         -0.71377      -0.0449056      2.99719e-06    -2.34923e-05
                    -6.30577e-06     1.65829e-05         0.761739        0.374714     -7.92768e-06    -3.92876e-05        -0.641547      -0.0208007
                       -0.713763      -0.0448983      2.30482e-05    -4.28346e-05        -0.612433       -0.290839      3.41937e-05    -2.31403e-05
                     3.24926e-06    -1.86871e-05        -0.641325      -0.0208199      2.80471e-05    -5.30046e-05        -0.808356        0.384013
499600                  0.752719        0.658341      5.90409e-06     2.43625e-05        -0.712075      -0.0333537      2.22738e-06    -2.28796e-05
                    -5.38354e-06     1.27069e-05         0.705675         0.44717       -7.443e-06    -4.26513e-05        -0.709548       0.0425797
                       -0.712068      -0.0333467      2.34564e-05    -4.58854e-05        -0.600338       -0.324408      3.62849e-05     -2.3554e-05
                     2.50837e-06     -1.8007e-05        -0.709241       0.0424876      3.03007e-05    -5.47188e-05        -0.726927         0.53559
502800                  0.680956        0.732324      6.84354e-06     2.06159e-05        -0.710085      -0.0213081      1.38421e-06    -2.22088e-05
                    -4.36833e-06     8.53436e-06         0.628365        0.525833     -6.92366e-06    -4.62643e-05        -0.778675        0.143169
                       -0.710078      -0.0213014      2.38854e-05    -4.91591e-05        -0.584899       -0.361074      3.86294e-05    -2.39919e-05
                     1.69795e-06    -1.72641e-05        -0.778286        0.142929      3.28626e-05    -5.66352e-05        -0.614209        0.674455
506000                  0.609408        0.792857      7.88451e-06     1.65617e-05        -0.707765     -0.00874314      4.56663e-07    -2.14715e-05
                    -3.24621e-06     4.02988e-06         0.521723        0.607071      -6.3658e-06    -5.01554e-05        -0.828434        0.296439
                       -0.707758     -0.00873682      2.43365e-05    -5.26808e-05        -0.565215       -0.401056      4.12758e-05    -2.44535e-05
                     8.07725e-07    -1.64492e-05        -0.828032         0.29594         3.58e-05    -5.87913e-05        -0.473884        0.791311
509200                  0.542387        0.840129       9.0434e-06     1.21605e-05        -0.705074      0.00436767     -5.68593e-07    -2.06571e-05
                    -2.00045e-06    -8.47446e-07         0.375887         0.68232       -5.765e-06    -5.43582e-05        -0.815239        0.504612
                       -0.705067      0.00437362       2.4811e-05    -5.64799e-05        -0.540132       -0.444491      4.42855e-05    -2.49367e-05
                    -1.74695e-07    -1.55513e-05        -0.815035        0.503788      3.92014e-05    -6.12338e-05        -0.313147         0.87863
512400                  0.482426        0.875937      1.03401e-05     7.36608e-06         -0.70197       0.0180517     -1.70785e-06    -1.97528e-05
                    -6.10791e-07    -6.14559e-06         0.181549        0.734481     -5.11608e-06    -5.89115e-05        -0.686078        0.722151
                       -0.701963       0.0180573      2.53102e-05    -6.05904e-05        -0.508179       -0.491357      4.77377e-05    -2.54365e-05
                    -1.26442e-06     -1.4557e-05        -0.686364        0.721178      4.31848e-05    -6.40224e-05        -0.141545        0.932169
515600                  0.430462        0.902609      1.17992e-05     2.12382e-06          -0.6984       0.0323371     -2.98125e-06     -1.8743e-05
                     9.47486e-07     -1.1921e-05       -0.0630937        0.734636     -4.41306e-06    -6.38611e-05        -0.446355         0.85176
                       -0.698393       0.0323423      2.58355e-05    -6.50521e-05          -0.4675       -0.541344      5.17359e-05    -2.59432e-05
                    -2.48003e-06      -1.345e-05        -0.447136        0.851079      4.79115e-05    -6.72333e-05        0.0308293         0.95161
518800                  0.386359        0.922349      1.34509e-05    -3.63159e-06        -0.694309       0.0472523     -4.41395e-06    -1.76081e-05
                     2.70482e-06    -1.82407e-05        -0.339109        0.645144     -3.64888e-06    -6.92611e-05        -0.192612        0.840395
                       -0.694303       0.0472571       2.6388e-05     -6.9912e-05        -0.415803        -0.59365       5.6418e-05    -2.64389e-05
                    -3.84468e-06    -1.22099e-05        -0.193502        0.840227       5.3608e-05    -7.09661e-05         0.195111        0.940148
522000                   0.34257        0.918613      1.53334e-05     -9.9786e-06        -0.689634       0.0628257     -6.03786e-06    -1.63232e-05
                     4.69908e-06    -2.51847e-05        -0.595038        0.439262     -2.81522e-06    -7.51759e-05        -0.010365        0.736108
                       -0.689627       0.0628301      2.69686e-05    -7.52256e-05        -0.350363       -0.646671      6.19711e-05     -2.6891e-05
                    -5.38757e-06    -1.08112e-05       -0.0110542        0.736285      6.06013e-05    -7.53511e-05         0.344831        0.903313
525200                   0.30054        0.893821      1.74949e-05    -1.70123e-05        -0.684301       0.0790856     -7.89397e-06    -1.48565e-05
                     6.97785e-06    -3.28491e-05        -0.760127        0.133766     -1.90217e-06    -8.16829e-05         0.090622         0.60893
                       -0.684295       0.0790896       2.7578e-05    -8.10596e-05        -0.268166       -0.697572      6.86556e-05    -2.72412e-05
                    -7.14604e-06    -9.22142e-06        0.0901805        0.609227      6.93807e-05    -8.05606e-05         0.476262        0.847593
528400                  0.266496        0.868668      1.99973e-05    -2.48491e-05        -0.678231       0.0960589     -1.00359e-05    -1.31665e-05
                     9.60167e-06    -4.13509e-05         -0.79103        -0.20371     -8.97857e-07    -8.88756e-05         0.136326         0.49472
                       -0.678225       0.0960625       2.8216e-05    -8.74938e-05        -0.166317       -0.741741      7.68424e-05    -2.73825e-05
                    -9.16865e-06    -7.39853e-06         0.136068        0.495015       8.0711e-05    -8.68209e-05         0.588107        0.779288
531600                  0.238904        0.844161      2.29213e-05    -3.36327e-05        -0.671332        0.113771     -1.25353e-05    -1.11981e-05
                     1.26485e-05    -5.08332e-05        -0.703632       -0.497912      2.12068e-07    -9.68684e-05         0.151294        0.402265
                       -0.671326        0.113774      2.88814e-05    -9.46258e-05       -0.0429271       -0.772277      8.70759e-05    -2.71148e-05
                    -1.15198e-05    -5.28724e-06         0.151151        0.402516      9.58509e-05    -9.44181e-05         0.680866        0.703808
534800                  0.216477        0.820845      2.63737e-05    -4.35429e-05          -0.6635        0.132244     -1.54896e-05    -8.87611e-06
                     1.62204e-05    -6.14732e-05        -0.550115       -0.711289      1.44513e-06    -0.000105803         0.150704        0.329807
                       -0.663494        0.132246      2.95715e-05    -0.000102575          0.10137       -0.779863      0.000100179    -2.60475e-05
                    -1.42864e-05    -2.81325e-06          0.15063        0.330008       0.00011701    -0.000103662         0.756143        0.625392
538000                  0.198172        0.798976      3.04982e-05    -5.48066e-05        -0.654619        0.151495     -1.90355e-05    -6.09605e-06
                     2.04529e-05    -7.34928e-05        -0.378694       -0.845701      2.82292e-06    -0.000115855         0.142751        0.273217
                       -0.654614        0.151498      3.02808e-05     -0.00011149         0.261364       -0.753691      0.000117435    -2.33791e-05
                    -1.75894e-05     1.25643e-07         0.142715        0.273372      0.000148389    -0.000114659         0.816081        0.547122
541200                  0.183159        0.778638      3.54922e-05    -6.77149e-05         -0.64456        0.171538     -2.33704e-05    -2.70753e-06
                      2.5529e-05    -8.71726e-05        -0.217129       -0.920363      4.37239e-06     -0.00012725         0.131645        0.228646
                       -0.644555         0.17154      3.09997e-05    -0.000121556         0.425517       -0.684179      0.000140884    -1.73499e-05
                    -2.16013e-05     3.67395e-06         0.131632        0.228764      0.000198815    -0.000126154         0.862966        0.471077
544400                  0.170783        0.759817       4.1633e-05    -8.26456e-05        -0.633174        0.192375     -2.87908e-05     1.51372e-06
                     3.17018e-05    -0.000102873       -0.0762381       -0.955372      6.12756e-06    -0.000140275         0.119509        0.193088
                        -0.63317        0.192377      3.17123e-05    -0.000133012         0.576264       -0.567402      0.000173684    -3.77103e-06
                    -2.65778e-05     8.04299e-06         0.119509        0.193175      0.000288837    -0.000129346         0.898981        0.398556
547600                  0.160528        0.742443      4.93202e-05    -0.000100097        -0.620298        0.213999     -3.57625e-05     6.91755e-06
                     3.93284e-05    -0.000121062        0.0423453       -0.965933      8.13199e-06    -0.000155307         0.107391        0.164317
                       -0.620295        0.214001      3.23921e-05    -0.000146164         0.693996       -0.409221      0.000219568      2.8191e-05
                    -3.29137e-05     1.35544e-05         0.107397         0.16438      0.000463623     -6.8958e-05         0.926088        0.330278
550800                  0.151988        0.726422      5.91472e-05    -0.000120737        -0.605748        0.236389     -4.50624e-05     1.40817e-05
                     4.89267e-05     -0.00014236         0.140769       -0.962139      1.04424e-05    -0.000172849         0.095786        0.140715
                       -0.605746         0.23639      3.29955e-05    -0.000161416         0.763913       -0.225654      0.000273736     0.000106819
                    -4.12536e-05     2.07228e-05        0.0957949        0.140758      0.000625554     0.000322711         0.945976         0.26656
554000                  0.144842         0.71165      7.20254e-05    -0.000145475        -0.589321        0.259502     -5.80903e-05     2.40329e-05
                     6.12709e-05    -0.000167594         0.222239       -0.950296      1.31338e-05    -0.000193585        0.0849068          0.1211
                       -0.589319        0.259503      3.34508e-05    -0.000179308         0.781625      -0.0378997      0.000269012     0.000273785
                    -5.27253e-05     3.04257e-05        0.0849166        0.121127      0.000126998     0.000598997         0.960067        0.207449
557200                  0.138836        0.698019      8.94122e-05    -0.000175565         -0.57079        0.283275     -7.76484e-05     3.87887e-05
                     7.75587e-05    -0.000197893         0.289887       -0.934227      1.63076e-05    -0.000218477        0.0748206        0.104602
                       -0.570788        0.283276      3.36375e-05    -0.000200585         0.753561         0.13506      7.31576e-05     0.000396931
                    -6.94958e-05     4.42907e-05        0.0748301        0.104616     -9.77696e-05     0.000371419         0.969531        0.152822
560400                  0.133767        0.685426       0.00011375    -0.000212748        -0.549908        0.307611     -0.000110282     6.29284e-05
                     9.97219e-05    -0.000234807         0.346401        -0.91621      2.01038e-05    -0.000248912        0.0655217       0.0905749
                       -0.549907        0.307611      3.33493e-05    -0.000226292         0.692577        0.281476     -9.84249e-05     0.000304988
                    -9.63223e-05     6.57073e-05        0.0655302        0.090579     -0.000119142     0.000232744         0.975324        0.102456
563600                  0.129472        0.673777      0.000149365    -0.000259405        -0.526407        0.332376     -0.000175653     0.000109528
                     0.000131027    -0.000280464         0.393968       -0.897585      2.47209e-05    -0.000286973        0.0569694       0.0785306
                       -0.526407        0.332376      3.22214e-05    -0.000257947         0.612505        0.397434     -0.000135486     0.000195539
                    -0.000146035     0.000103053        0.0569765       0.0785261     -0.000109592     0.000160519         0.978216        0.056073
564000                  0.128982        0.672383      0.000154952    -0.000266048        -0.523271        0.335494     -0.000188738     0.000118582
                     0.000135832    -0.000286919         0.399376       -0.895257      2.53688e-05    -0.000292411        0.0559501       0.0771449
                       -0.523271        0.335494      3.19928e-05    -0.000262424         0.601756        0.409828     -0.000135758     0.000185155
                    -0.000155388     0.000109755        0.0559571       0.0771394      -0.00010803      0.00015406         0.978406       0.0505405
566800                   0.12582        0.662984       0.00020442    -0.000318511             -0.5        0.357389     -0.000371887     0.000236315
                     0.000177313    -0.000337692         0.434323       -0.879124      3.04476e-05    -0.000335935        0.0491081       0.0680962
                            -0.5        0.357389      2.95811e-05    -0.000297835         0.524654        0.484561     -0.000128473     0.000129666
                    -0.000268783     0.000183565        0.0491136       0.0680845     -9.72208e-05     0.000118537         0.978829       0.0133746
570000                  0.122705        0.652965      0.000295405    -0.000392354        -0.470384        0.382408      -0.00551447     -0.00206788
                     0.000249693    -0.000409724         0.468832       -0.861256      3.77162e-05    -0.000401262        0.0418777       0.0589833
                       -0.470385        0.382408      2.41206e-05    -0.000349541         0.436733        0.547219     -0.000114075     9.13469e-05
