! TOUCHSTONE file generated by CST MICROWAVE STUDIO
! Date and time: Mon Oct 20 08:27:17 2025
! Project name: Teste_Macro_Metasurface_Nanopilar.cst
! Parameters = {H=600; L_x=85; L_y=100; Lambda=1064; Max_L=200; Min_L=70; PathPara=1; Phi=0; Step_L=10; Theta=0; p=520; phaseX=180; phaseY=0}
! Header version: 2018
! Port assignment regex: !\s*Touchstone port\s*([0-9]+)\s*=\s*(CST MWS port|CST DS port)\s*([0-9]+|Zmin|Zmax)\s*\(\"(.*)\"\)(\s*mode\s*([0-9]+))?.*
! Touchstone port assignment:
! Touchstone port 1 = CST MWS port Zmax ("") mode 1
! Touchstone port 2 = CST MWS port Zmax ("") mode 2
! Touchstone port 3 = CST MWS port Zmin ("") mode 1
! Touchstone port 4 = CST MWS port Zmin ("") mode 2
! S-Parameters are not renormalized. Each port impedance will be approximated by the real part at minimum frequency. The values are described via the [Reference] keyword.
! Default impedance is overridden by [Reference]
[Version] 2.0
# GHz S RI R 376.73
[Number of Ports] 4
[Reference]
376.73 376.73 259.888 259.888 
[Number of Frequencies] 52
[Network Data]
474000                 -0.296957        0.132344     -5.59459e-05    -6.06392e-06         -0.76718       -0.535012      3.54489e-05    -0.000112673
                    -5.57735e-05    -6.07417e-06            0.149       -0.932699     -4.27177e-05     5.69492e-05        -0.122973        0.115488
                        -0.76718       -0.535012     -4.28574e-05     5.70396e-05       -0.0362292        0.330996      -6.9617e-05    -0.000121336
                     3.54766e-05    -0.000112533        -0.122972        0.115487     -6.96177e-05    -0.000121229        -0.816356        0.487372
477200                 -0.294736        0.150125     -5.44816e-05    -7.50486e-06        -0.764566       -0.538609      3.53163e-05     -0.00011002
                     -5.4317e-05     -7.5199e-06         0.146897       -0.943432     -3.98898e-05     5.56397e-05        -0.115097        0.114882
                       -0.764566       -0.538609      -4.0048e-05     5.57977e-05       -0.0331544        0.331978     -7.04578e-05    -0.000116215
                     3.53374e-05    -0.000109866        -0.115097        0.114882     -7.05485e-05     -0.00011609        -0.793785         0.48943
480400                 -0.291286        0.169001     -5.29504e-05    -8.99398e-06        -0.761746        -0.54245      3.51516e-05    -0.000107235
                    -5.27938e-05    -9.01408e-06         0.144506       -0.955287     -3.69754e-05      5.4274e-05        -0.106719        0.114164
                       -0.761746        -0.54245      -3.7152e-05     5.45014e-05       -0.0299266        0.332972     -7.13447e-05    -0.000111067
                     3.51655e-05    -0.000107066        -0.106719        0.114164     -7.15231e-05    -0.000110925        -0.770618        0.490814
483600                 -0.286371        0.188967     -5.13476e-05    -1.05336e-05        -0.758695       -0.546559      3.49503e-05    -0.000104307
                    -5.11994e-05     -1.0559e-05         0.141767       -0.968448     -3.39707e-05     5.28487e-05       -0.0977895        0.113313
                       -0.758695       -0.546559     -3.41653e-05     5.31473e-05       -0.0265348        0.333979     -7.22785e-05    -0.000105891
                     3.49564e-05    -0.000104123       -0.0977893        0.113313     -7.25424e-05    -0.000105736        -0.746869        0.491471
486800                 -0.279724        0.209985     -4.96684e-05     -1.2126e-05        -0.755384       -0.550967      3.47072e-05    -0.000101227
                    -4.95287e-05    -1.21571e-05         0.138603       -0.983141     -3.08714e-05       5.136e-05        -0.088254        0.112307
                       -0.755384       -0.550967     -3.10838e-05     5.17318e-05       -0.0229669        0.334995     -7.32602e-05    -0.000100689
                     3.47046e-05    -0.000101027       -0.0882539        0.112307     -7.36069e-05    -0.000100521        -0.722555        0.491346
490000                 -0.271047         0.23197     -4.79074e-05    -1.37739e-05        -0.751779       -0.555705      3.44165e-05    -9.79823e-05
                    -4.77766e-05     -1.3811e-05         0.133749       -0.991015     -2.76733e-05      4.9804e-05       -0.0780504        0.111119
                       -0.751778       -0.555705     -2.79031e-05     5.02509e-05       -0.0192096        0.336017     -7.42903e-05    -9.54598e-05
                     3.44043e-05    -9.77653e-05       -0.0780502        0.111119     -7.47175e-05    -9.52817e-05        -0.697695        0.490386
493200                 -0.260014        0.254779     -4.60587e-05    -1.54799e-05        -0.747838       -0.560813      3.40711e-05    -9.45599e-05
                    -4.59369e-05    -1.55234e-05         0.127176        -0.99188     -2.43715e-05     4.81763e-05       -0.0671079        0.109717
                       -0.747838       -0.560813     -2.46184e-05     4.87004e-05       -0.0152484        0.337044     -7.53699e-05    -9.02049e-05
                     3.40483e-05    -9.43252e-05       -0.0671078        0.109716     -7.58747e-05    -9.00182e-05        -0.672317        0.488532
496400                 -0.246278        0.278194     -4.41159e-05    -1.72467e-05        -0.743516       -0.566335      3.36631e-05    -9.09458e-05
                    -4.40035e-05    -1.72971e-05         0.119737       -0.992806     -2.09613e-05     4.64721e-05       -0.0553462         0.10806
                       -0.743515       -0.566334     -2.12247e-05     4.70756e-05       -0.0110671         0.33807     -7.64996e-05    -8.49241e-05
                     3.36286e-05    -9.06924e-05       -0.0553461        0.108059     -7.70794e-05    -8.47306e-05        -0.646451        0.485727
499600                 -0.229489        0.301904     -4.20718e-05    -1.90776e-05        -0.738753       -0.572321       3.3183e-05    -8.71244e-05
                    -4.19691e-05    -1.91351e-05         0.111244       -0.993793     -1.74374e-05     4.46865e-05       -0.0426728          0.1061
                       -0.738752       -0.572321     -1.77167e-05     4.53716e-05      -0.00664836        0.339092     -7.76803e-05    -7.96178e-05
                     3.31355e-05    -8.68513e-05       -0.0426727          0.1061     -7.83322e-05    -7.94193e-05        -0.620133        0.481915
502800                 -0.209308         0.32549     -3.99188e-05    -2.09754e-05         -0.73348       -0.578833      3.26201e-05    -8.30782e-05
                     -3.9826e-05    -2.10406e-05         0.101451       -0.994841     -1.37942e-05     4.28139e-05       -0.0289819         0.10378
                        -0.73348       -0.578833     -1.40888e-05     4.35827e-05      -0.00197265        0.340104     -7.89127e-05    -7.42865e-05
                     3.25581e-05    -8.27844e-05       -0.0289818        0.103779     -7.96338e-05    -7.40846e-05        -0.593406        0.477038
506000                 -0.185448         0.34841     -3.76484e-05    -2.29436e-05        -0.727613       -0.585941      3.19614e-05    -7.87882e-05
                    -3.75658e-05     -2.3017e-05         0.090028       -0.995939     -1.00257e-05     4.08483e-05       -0.0141513        0.101024
                       -0.727613       -0.585941      -1.0335e-05     4.17031e-05       0.00298137        0.341098     -8.01978e-05    -6.89305e-05
                     3.18832e-05    -7.84725e-05       -0.0141512        0.101024     -8.09851e-05    -6.87269e-05        -0.566319        0.471039
509200                 -0.157703        0.370001      -3.5251e-05    -2.49857e-05        -0.721048       -0.593728      3.11919e-05     -7.4233e-05
                    -3.51789e-05    -2.50678e-05        0.0765199       -0.997068     -6.12585e-06      3.8783e-05        0.0019606       0.0977444
                       -0.721048       -0.593728     -6.44894e-06     3.97263e-05        0.0082373        0.342067     -8.15364e-05    -6.35503e-05
                     3.10957e-05    -7.38944e-05       0.00196069       0.0977441     -8.23867e-05    -6.33466e-05        -0.538926        0.463866
512400                 -0.126005        0.389478     -3.27162e-05    -2.71052e-05        -0.713656       -0.602296      3.02939e-05    -6.93894e-05
                     -3.2655e-05    -2.71966e-05        0.0602814       -0.998181     -2.08781e-06      3.6611e-05         0.019518       0.0938263
                       -0.713655       -0.602296     -2.42375e-06     3.76452e-05        0.0138212        0.342999     -8.29292e-05    -5.81463e-05
                     3.01773e-05    -6.90264e-05        0.0195181        0.093826     -8.38393e-05     -5.7944e-05        -0.511289        0.455464
515600                 -0.090469        0.405972     -3.00326e-05    -2.93059e-05        -0.705274       -0.611762      2.92461e-05     -6.4231e-05
                    -2.99826e-05    -2.94073e-05        0.0403646       -0.999185      2.09552e-06     3.43245e-05        0.0387124       0.0891271
                       -0.705274       -0.611762      1.74778e-06     3.54521e-05         0.019762        0.343882     -8.43772e-05     -5.2719e-05
                     2.91069e-05    -6.38425e-05        0.0387125       0.0891269     -8.53438e-05    -5.25196e-05        -0.483474        0.445786
518800                -0.0514417        0.418574     -2.71874e-05    -3.15917e-05        -0.695696       -0.622272      2.80237e-05    -5.87292e-05
                    -2.71488e-05    -3.17038e-05        0.0153168       -0.999883      6.43169e-06     3.19148e-05        0.0597677       0.0834649
                       -0.695696       -0.622271      6.07336e-06     3.31384e-05        0.0260916        0.344702     -8.58811e-05    -4.72688e-05
                     2.78588e-05    -5.83137e-05        0.0597678       0.0834646     -8.69007e-05    -4.70737e-05        -0.455558        0.434785
522000               -0.00953203        0.426408     -2.41662e-05    -3.39667e-05        -0.684656       -0.633998      2.65967e-05    -5.28517e-05
                    -2.41394e-05    -3.40903e-05       -0.0172103       -0.999852      1.09288e-05     2.93727e-05         0.082946       0.0766057
                       -0.684656       -0.633998      1.05612e-05     3.06948e-05        0.0328455        0.345438     -8.74418e-05    -4.17963e-05
                     2.64028e-05    -5.24078e-05        0.0829461       0.0766054      -8.8511e-05    -4.16068e-05        -0.427619         0.42242
525200                 0.0343862        0.428726     -2.09532e-05    -3.64351e-05        -0.671804       -0.647155      2.49291e-05    -4.65629e-05
                    -2.09385e-05    -3.65709e-05       -0.0612733       -0.998121      1.55954e-05     2.66879e-05         0.108555       0.0682462
                       -0.671803       -0.647154      1.52201e-05     2.81111e-05        0.0400629        0.346069     -8.90602e-05    -3.63019e-05
                     2.47024e-05    -4.60894e-05         0.108555        0.068246     -9.01753e-05    -3.61193e-05        -0.399746        0.408656
528400                 0.0792089        0.425001     -1.75307e-05     -3.9001e-05        -0.656673       -0.662002      2.29777e-05    -3.98236e-05
                    -1.75283e-05    -3.91501e-05        -0.124498        -0.99222      2.04408e-05     2.38489e-05         0.136955       0.0579886
                       -0.656673       -0.662001      2.00594e-05     2.53759e-05        0.0477873        0.346567      -9.0737e-05    -3.07862e-05
                     2.27138e-05     -3.9319e-05         0.136955       0.0579883     -9.18943e-05    -3.06117e-05        -0.372031        0.393465
531600                  0.123677        0.415012     -1.38787e-05    -4.16688e-05         -0.63863       -0.678859      2.06902e-05    -3.25901e-05
                     -1.3889e-05    -4.18321e-05        -0.222816       -0.974861      2.54746e-05     2.08434e-05         0.168567       0.0453052
                        -0.63863       -0.678858      2.50891e-05      2.2477e-05        0.0560668        0.346898     -9.24731e-05    -2.52499e-05
                     2.03838e-05    -3.20532e-05         0.168567       0.0453049     -9.36689e-05    -2.50846e-05        -0.344571        0.376824
534800                  0.166485        0.398889     -9.97484e-06    -4.44426e-05        -0.616792       -0.698116       1.8003e-05    -2.48148e-05
                     -9.9981e-06    -4.46212e-05        -0.393328       -0.919398      3.07074e-05     1.76576e-05         0.203877       0.0294882
                       -0.616792       -0.698115      3.03199e-05     1.94004e-05        0.0649547        0.347019     -9.42695e-05    -1.96934e-05
                     1.76481e-05    -2.42446e-05         0.203877       0.0294879     -9.54998e-05    -1.95383e-05        -0.317469        0.358721
538000                  0.206403        0.377118       -5.794e-06    -4.73264e-05        -0.589898       -0.720245      1.48384e-05    -1.64455e-05
                    -5.83042e-06    -4.75216e-05        -0.712131       -0.702047      3.61503e-05     1.42763e-05          0.24344      0.00957597
                       -0.589898       -0.720244      3.57631e-05     1.61309e-05        0.0745095        0.346882     -9.61268e-05    -1.41174e-05
                     1.44278e-05    -1.58411e-05          0.24344      0.00957569     -9.73876e-05    -1.39735e-05        -0.290833         0.33915
541200                  0.242395        0.350495     -1.30769e-06     -5.0324e-05        -0.556098       -0.745793       1.1101e-05    -7.42601e-06
                    -1.35747e-06    -5.05372e-05        -0.999505       0.0314515      4.18152e-05     1.06826e-05         0.287864      -0.0157536
                       -0.556098       -0.745792       4.1431e-05     1.26517e-05        0.0847956        0.346421      -9.8046e-05    -8.52249e-06
                     1.06263e-05    -6.78692e-06         0.287864      -0.0157538     -9.93333e-05    -8.39068e-06        -0.264771        0.318118
544400                  0.273701        0.320033       3.5163e-06    -5.34387e-05        -0.512587       -0.775338      6.67327e-06      2.3035e-06
                     3.45302e-06    -5.36712e-05         -0.73674        0.676176      4.77147e-05     6.85768e-06          0.33777        -0.04834
                       -0.512586       -0.775337      4.73365e-05      8.9439e-06        0.0958833        0.345562     -0.000100028    -2.90938e-06
                     6.12479e-06      2.9769e-06          0.33777      -0.0483403     -0.000101337    -2.79037e-06        -0.239396        0.295639
547600                   0.29988        0.286855      8.71457e-06    -5.66729e-05         -0.45495       -0.809312      1.40977e-06     1.28047e-05
                     8.63772e-06    -5.69265e-05        -0.465818        0.884881      5.38625e-05     2.78079e-06          0.39369      -0.0907692
                        -0.45495       -0.809311      5.34935e-05     4.98653e-06         0.107848        0.344207     -0.000102073     2.72128e-06
                     7.75892e-07     1.35111e-05          0.39369      -0.0907694     -0.000103401     2.82682e-06        -0.214818        0.271741
550800                  0.320804        0.252086      1.43288e-05    -6.00283e-05        -0.375978       -0.847459      -4.8704e-06     2.41387e-05
                     1.42384e-05    -6.03047e-05        -0.163723        0.608147      6.02728e-05    -1.57136e-06         0.455841         -0.1467
                       -0.375978       -0.847458      5.99167e-05     7.56198e-07         0.120771        0.342241     -0.000104183     8.36877e-06
                    -5.60327e-06     2.48755e-05         0.455841         -0.1467     -0.000105524      8.4603e-06        -0.191151        0.246459
554000                  0.336617        0.216758      2.04066e-05    -6.35049e-05        -0.263459       -0.887174     -1.23928e-05     3.63614e-05
                     2.03028e-05     -6.3806e-05      -0.00651809        0.329468       6.6961e-05    -6.22479e-06         0.523643       -0.221305
                       -0.263459       -0.887173      6.66218e-05    -3.77333e-06         0.134736        0.339517     -0.000106358     1.40324e-05
                    -1.32406e-05     3.71235e-05         0.523642       -0.221305     -0.000107709     1.41094e-05        -0.168505        0.219844
557200                  0.347673        0.181753      2.70025e-05    -6.71004e-05       -0.0963708       -0.918367     -2.14395e-05     4.95152e-05
                     2.68856e-05    -6.74285e-05        0.0698588           0.142      7.39434e-05    -1.12086e-05         0.594732       -0.321774
                       -0.096371       -0.918365      7.36256e-05    -8.63146e-06         0.149827        0.335855       -0.0001086     1.97113e-05
                    -2.24206e-05     5.02948e-05         0.594732       -0.321774     -0.000109954     1.97736e-05        -0.146986        0.191955
560400                  0.354459        0.147774      3.41791e-05    -7.08101e-05         0.158993       -0.907276     -3.23627e-05     6.36173e-05
                     3.40496e-05    -7.11675e-05          0.11147      0.00941125      8.12374e-05    -1.65556e-05         0.663049       -0.457614
                        0.158992       -0.907275      8.09459e-05    -1.38513e-05         0.166127        0.331032     -0.000110908     2.54048e-05
                    -3.34985e-05     6.44021e-05         0.663049       -0.457614     -0.000112262     2.54521e-05        -0.126697        0.162864
563600                  0.357539        0.115337      4.20085e-05    -7.46249e-05         0.531834         -0.7504     -4.56022e-05     7.86384e-05
                     4.18671e-05    -7.50142e-05         0.136077      -0.0886331       8.8861e-05    -2.23026e-05         0.715415       -0.639818
                        0.531832       -0.750398      8.86013e-05    -1.94702e-05         0.183706        0.324773     -0.000113283     3.11121e-05
                    -4.69167e-05       7.941e-05         0.715415       -0.639818     -0.000114633     3.11443e-05        -0.107733        0.132652
564000                  0.357692         0.11141      4.30371e-05    -7.51085e-05         0.584537       -0.710204     -4.74458e-05     8.05765e-05
                     4.28943e-05     -7.5502e-05         0.138405      -0.0991028      8.98381e-05    -2.30511e-05         0.719749        -0.66635
                        0.584535       -0.710203      8.95828e-05    -2.02027e-05         0.185996        0.323873     -0.000113585     3.18265e-05
                    -4.87845e-05     8.13448e-05         0.719749        -0.66635     -0.000114934     3.18568e-05         -0.10546        0.128801
566800                  0.357491       0.0847883       5.0574e-05    -7.85305e-05          0.89566       -0.226186     -6.17027e-05     9.44716e-05
                     5.04218e-05    -7.89546e-05         0.151534       -0.163809      9.68337e-05    -2.84912e-05         0.638193       -0.769877
                        0.895656       -0.226186      9.66117e-05    -2.55303e-05         0.202611        0.316738     -0.000115728     3.68323e-05
                    -6.32221e-05     9.52029e-05         0.638193       -0.769876     -0.000117068     3.68495e-05       -0.0901846         0.10141
570000                  0.354875       0.0563293      5.99717e-05     -8.2505e-05         0.718956          0.6013     -8.13303e-05     0.000110882
                     5.98103e-05     -8.2967e-05         0.161698       -0.223164      0.000105175    -3.51685e-05         0.492055       -0.870564
                        0.718954        0.601297      0.000104998    -3.20795e-05         0.222851        0.306513     -0.000118242     4.25646e-05
