! TOUCHSTONE file generated by CST MICROWAVE STUDIO
! Date and time: Mon Oct 20 08:27:30 2025
! Project name: Teste_Macro_Metasurface_Nanopilar.cst
! Parameters = {H=600; L_x=130; L_y=70; Lambda=1064; Max_L=200; Min_L=70; PathPara=1; Phi=0; Step_L=10; Theta=0; p=520; phaseX=180; phaseY=0}
! Header version: 2018
! Port assignment regex: !\s*Touchstone port\s*([0-9]+)\s*=\s*(CST MWS port|CST DS port)\s*([0-9]+|Zmin|Zmax)\s*\(\"(.*)\"\)(\s*mode\s*([0-9]+))?.*
! Touchstone port assignment:
! Touchstone port 1 = CST MWS port Zmax ("") mode 1
! Touchstone port 2 = CST MWS port Zmax ("") mode 2
! Touchstone port 3 = CST MWS port Zmin ("") mode 1
! Touchstone port 4 = CST MWS port Zmin ("") mode 2
! S-Parameters are not renormalized. Each port impedance will be approximated by the real part at minimum frequency. The values are described via the [Reference] keyword.
! Default impedance is overridden by [Reference]
[Version] 2.0
# GHz S RI R 376.73
[Number of Ports] 4
[Reference]
376.73 376.73 259.888 259.888 
[Number of Frequencies] 52
[Network Data]
474000                  0.377445       0.0815046      0.000235788     3.03424e-05        -0.873625       -0.282499     -0.000150988      -4.766e-06
                     0.000233873     2.77056e-05        0.0238666        0.470818      0.000187789     0.000242413        -0.805663       -0.306278
                       -0.873625       -0.282499      0.000182824     0.000237969        -0.355343       -0.152592     -0.000177027    -0.000160805
                    -0.000148578     2.25702e-06        -0.805663       -0.306276     -0.000174757    -0.000164223        -0.356873        0.328274
477200                  0.383592       0.0739293      0.000238442      2.8433e-05        -0.874975       -0.273068     -0.000153256    -2.91488e-06
                     0.000236585     2.56547e-05        0.0295286        0.484119      0.000187325     0.000242499        -0.794821       -0.302173
                       -0.874976       -0.273068      0.000182502     0.000238234        -0.352117       -0.151466     -0.000177871    -0.000161587
                    -0.000150933     4.15183e-06        -0.794821       -0.302171      -0.00017529    -0.000165126        -0.359158        0.336995
480400                  0.389862       0.0655319      0.000241246     2.63871e-05         -0.87632       -0.262866      -0.00015566    -9.60166e-07
                     0.000239446     2.34605e-05         0.035859        0.498693      0.000186826     0.000242592          -0.7836       -0.298114
                        -0.87632       -0.262866      0.000182155     0.000238519        -0.348833       -0.150305     -0.000178781    -0.000162432
                     -0.00015343     6.15065e-06        -0.783601       -0.298111     -0.000175863    -0.000166101        -0.361519        0.346483
483600                  0.396214       0.0562111      0.000244211     2.41901e-05        -0.877642       -0.251797     -0.000158215     1.10705e-06
                      0.00024247     2.11079e-05        0.0429793        0.514729      0.000186288     0.000242692        -0.771985       -0.294111
                       -0.877643       -0.251797      0.000181782     0.000238825         -0.34549       -0.149108     -0.000179764    -0.000163348
                    -0.000156082     8.26224e-06        -0.771986       -0.294109     -0.000176482    -0.000167157        -0.363949        0.356839
486800                  0.402586        0.045854      0.000247351     2.18251e-05        -0.878921       -0.239748     -0.000160934     3.29674e-06
                     0.000245668     1.85796e-05        0.0510417        0.532455      0.000185706       0.0002428         -0.75996       -0.290178
                       -0.878922       -0.239748      0.000181378     0.000239156        -0.342085       -0.147875     -0.000180831    -0.000164343
                    -0.000158903     1.04963e-05         -0.75996       -0.290176     -0.000177151    -0.000168304        -0.366436        0.368186
490000                  0.408897        0.034337      0.000250682     1.92727e-05        -0.880128       -0.226588     -0.000163834     5.62004e-06
                     0.000249057      1.5856e-05        0.0602385        0.552152      0.000185076     0.000242918        -0.747506       -0.286327
                       -0.880129       -0.226588      0.000180939     0.000239514        -0.338617       -0.146603     -0.000181993    -0.000165429
                     -0.00016191     1.28639e-05        -0.747507       -0.286325     -0.000177877    -0.000169554        -0.368961        0.380668
493200                  0.415037       0.0215259      0.000254221     1.65108e-05        -0.881224       -0.212159     -0.000166933     8.08952e-06
                     0.000252653     1.29143e-05        0.0708168        0.574162      0.000184391     0.000243046        -0.734609       -0.282573
                       -0.881226       -0.212159      0.000180462     0.000239904        -0.335084       -0.145291     -0.000183261    -0.000166618
                    -0.000165123     1.53771e-05        -0.734609       -0.282571     -0.000178668    -0.000170922        -0.371499        0.394457
496400                  0.420862      0.00727874      0.000257987     1.35133e-05        -0.882157       -0.196277     -0.000170253     1.07193e-05
                     0.000256475     9.72809e-06        0.0830981        0.598911      0.000183643     0.000243185        -0.721248       -0.278932
                       -0.882159       -0.196277      0.000179939     0.000240329        -0.331485       -0.143937     -0.000184653    -0.000167927
                    -0.000168562     1.80497e-05        -0.721248        -0.27893     -0.000179533    -0.000172425        -0.374008        0.409761
499600                  0.426182     -0.00854999      0.000262002     1.02501e-05        -0.882855       -0.178718     -0.000173818     1.35255e-05
                     0.000260545     6.26691e-06        0.0975082        0.626934      0.000182823     0.000243338        -0.707406       -0.275423
                       -0.882857       -0.178719      0.000179366     0.000240794        -0.327818       -0.142539     -0.000186186    -0.000169373
                    -0.000172253     2.08973e-05        -0.707406       -0.275422     -0.000180483    -0.000174085        -0.376429        0.426835
502800                  0.430758      -0.0261018      0.000266291     6.68593e-06        -0.883222       -0.159216     -0.000177657     1.65263e-05
                     0.000264885     2.49501e-06         0.114622        0.658913       0.00018192     0.000243507        -0.693064       -0.272066
                       -0.883224       -0.159217      0.000178734     0.000241306        -0.324081       -0.141097     -0.000187883    -0.000170981
                    -0.000176225     2.39375e-05        -0.693064       -0.272064      -0.00018153    -0.000175926        -0.378675        0.445985
506000                  0.434284      -0.0455024       0.00027088     2.77893e-06        -0.883123       -0.137445     -0.000181801     1.97425e-05
                     0.000269523    -1.62959e-06          0.13523        0.695723      0.000180922     0.000243694        -0.678203       -0.268881
                       -0.883127       -0.137447      0.000178034     0.000241872        -0.320272       -0.139607     -0.000189773    -0.000172779
                     -0.00018051     2.71901e-05        -0.678203        -0.26888     -0.000182691    -0.000177982        -0.380618        0.467594
509200                   0.43638      -0.0668446        0.0002758    -1.52035e-06        -0.882375       -0.113009     -0.000186288      2.3198e-05
                     0.000274487    -6.15647e-06         0.160452         0.73851      0.000179811     0.000243902        -0.662803       -0.265894
                       -0.882379       -0.113011      0.000177253       0.0002425         -0.31639       -0.138068      -0.00019189    -0.000174801
                    -0.000185146     3.06782e-05        -0.662803       -0.265892     -0.000183985    -0.000180291        -0.382071        0.492134
512400                  0.436587      -0.0901631      0.000281086    -6.27101e-06        -0.880717      -0.0854202     -0.000191164     2.69203e-05
                     0.000279811    -1.11446e-05         0.191911        0.788795      0.000178568     0.000244135        -0.646844       -0.263129
                       -0.880721      -0.0854218      0.000176377     0.000243203        -0.312431       -0.136478     -0.000194277    -0.000177094
                    -0.000190179     3.44279e-05        -0.646844       -0.263128     -0.000185436    -0.000182904        -0.382755        0.520197
515600                  0.434364       -0.115402      0.000286777    -1.15441e-05         -0.87778      -0.0540757      -0.00019648     3.09413e-05
                     0.000285533    -1.66646e-05         0.232043        0.848621      0.000177168     0.000244398        -0.630306       -0.260617
                       -0.877785      -0.0540775      0.000175388     0.000243993        -0.308394       -0.134834     -0.000196991    -0.000179715
                    -0.000195662     3.84694e-05        -0.630305       -0.260616     -0.000187074    -0.000185883        -0.382254        0.552527
518800                  0.429096       -0.142373      0.000292917    -1.74258e-05        -0.873033      -0.0182273     -0.000202298     3.52978e-05
                     0.000291694    -2.28017e-05         0.284644        0.920771      0.000175579     0.000244697        -0.613168       -0.258389
                        -0.87304      -0.0182293      0.000174262     0.000244889        -0.304278       -0.133135     -0.000200101     -0.00018274
                    -0.000201656     4.28374e-05        -0.613168       -0.258389     -0.000188938    -0.000189313        -0.379934        0.590066
522000                  0.420124       -0.170709      0.000299555    -2.40211e-05        -0.865702       0.0230563     -0.000208693     4.00333e-05
                     0.000298341    -2.96592e-05         0.332624         0.94306       0.00017376     0.000245039        -0.595411        -0.25648
                        -0.86571       0.0230542       0.00017297     0.000245912        -0.300079       -0.131377     -0.000203703    -0.000186271
                    -0.000208238     4.75726e-05        -0.595411       -0.256479     -0.000191078    -0.000193303        -0.374826        0.634004
525200                  0.406792        -0.19982      0.000306746    -3.14596e-05        -0.854635       0.0709301     -0.000215755     4.51988e-05
                     0.000305526    -3.73639e-05         0.377806        0.925885      0.000171657     0.000245436        -0.577016       -0.254927
                       -0.854644        0.070928      0.000171469     0.000247092        -0.295795       -0.129559     -0.000207922    -0.000190444
                    -0.000215496     5.27224e-05        -0.577015       -0.254927     -0.000193558    -0.000198002        -0.365409        0.685828
528400                  0.388534       -0.228854       0.00031455    -3.99023e-05        -0.838091        0.126808     -0.000223592     5.08545e-05
                     0.000313307    -4.60724e-05         0.434452        0.900695      0.000169198     0.000245901        -0.557961       -0.253773
                       -0.838101        0.126806      0.000169707     0.000248469        -0.291425       -0.127677     -0.000212932    -0.000195453
                     -0.00022354     5.83425e-05        -0.557961       -0.253772     -0.000196467    -0.000203619         -0.34927        0.747355
531600                  0.364973       -0.256703      0.000323034    -4.95512e-05        -0.813388        0.192364     -0.000232339     5.70726e-05
                     0.000321745    -5.59802e-05         0.508477        0.861075      0.000166285     0.000246453         -0.53823       -0.253062
                       -0.813401        0.192363      0.000167608     0.000250095        -0.286965       -0.125728     -0.000218977    -0.000201577
                    -0.000232503     6.44985e-05         -0.53823       -0.253061     -0.000199923    -0.000210447        -0.322508        0.820649
534800                   0.33605       -0.282046      0.000332267    -6.06627e-05        -0.776333         0.26942     -0.000242164     6.39393e-05
                     0.000330906    -6.73334e-05         0.609768         0.79258      0.000162778      0.00024712        -0.517806       -0.252844
                       -0.776347         0.26942      0.000165067     0.000252046        -0.282413        -0.12371     -0.000226413    -0.000209231
                    -0.000242551     7.12687e-05        -0.517805       -0.252843     -0.000204094    -0.000218927        -0.278759        0.907641
538000                  0.302131       -0.303463      0.000342319    -7.35655e-05        -0.720277        0.359523     -0.000253275     7.15592e-05
                     0.000340855    -8.04456e-05         0.752205        0.658929      0.000158475     0.000247941        -0.496671       -0.253172
                       -0.720295        0.359525      0.000161925     0.000254428        -0.277766        -0.12162     -0.000235781    -0.000219071
                    -0.000253892     7.87464e-05         -0.49667       -0.253172      -0.00020922    -0.000229735        -0.201617        0.979464
541200                  0.264067       -0.319605      0.000353251     -8.8686e-05          -0.6347        0.462729     -0.000265941     8.00597e-05
                     0.000351653    -9.57206e-05         0.929437        0.368981      0.000153071     0.000248977        -0.474812       -0.254105
                       -0.634719        0.462733      0.000157944     0.000257402        -0.273022       -0.119453     -0.000247941     -0.00023218
                    -0.000266788     8.70438e-05        -0.474812       -0.254105     -0.000215655    -0.000243976       -0.0827809        0.996568
544400                  0.223167       -0.329403      0.000365106    -0.000106584        -0.503446        0.574454     -0.000280509      8.9597e-05
                      0.00036334    -0.000113684         0.984217       -0.176968      0.000146082     0.000250325        -0.452218       -0.255707
                       -0.503467        0.574464      0.000152734     0.000261218        -0.268178       -0.117207     -0.000264343    -0.000250501
                    -0.000281578     9.62964e-05        -0.452218       -0.255707     -0.000223937    -0.000263573        0.0711077        0.997469
547600                  0.181072       -0.332247      0.000377874    -0.000128004        -0.304295        0.678262     -0.000297437     0.000100365
                     0.000375915     -0.00013503          0.73006       -0.683383      0.000136689      0.00025215        -0.428881       -0.258044
                       -0.304316        0.678279      0.000145628     0.000266291        -0.263231       -0.114877     -0.000287636    -0.000277872
                    -0.000298706     0.000106668         -0.42888       -0.258044      -0.00023488    -0.000292196         0.265417        0.964134
550800                  0.139539       -0.328098      0.000391448    -0.000153946       -0.0163642        0.732755     -0.000317338     0.000112604
                     0.000389294     -0.00016068         0.437646       -0.899148      0.000123397     0.000254761        -0.404795       -0.261192
                      -0.0163803         0.73278      0.000135363     0.000273356        -0.258177        -0.11246     -0.000323157    -0.000323045
                    -0.000318763     0.000118358        -0.404794       -0.261192     -0.000249616    -0.000337763         0.491923        0.870639
554000                  0.100211       -0.317481      0.000405524    -0.000185761         0.349908        0.661725     -0.000341058     0.000126615
                     0.000403232    -0.000191877         0.239581       -0.970876      0.000103138     0.000258801         -0.37996       -0.265229
                        0.349903        0.661755      0.000119251     0.000283845        -0.253015       -0.109951     -0.000383081    -0.000410946
                    -0.000342552     0.000131607         -0.37996        -0.26523     -0.000268522    -0.000420743         0.715657        0.698451
557200                 0.0644103        -0.30137      0.000419424    -0.000225292          0.70133        0.390509     -0.000369788     0.000142775
                     0.000417173      -0.0002303         0.107914        -0.99416      6.84952e-05     0.000265883        -0.354381       -0.270241
                        0.701338        0.390531      9.04057e-05     0.000300916         -0.24774       -0.107346     -0.000495728     -0.00064681
                    -0.000371195     0.000146703        -0.354381       -0.270241       -0.0002761    -0.000611036         0.885663        0.464329
560400                 0.0330218        -0.28101      0.000431743    -0.000275018         0.880736      -0.0448059      -0.00040526     0.000161551
                     0.000429976    -0.000278211        0.0135609       -0.999908     -4.27622e-06     0.000281474        -0.328069       -0.276317
                        0.880746      -0.0447977      2.46562e-05     0.000332522         -0.24235        -0.10464     -0.000179009     -0.00192785
                    -0.000406297     0.000163978        -0.328069       -0.276317      8.74641e-05     -0.00118965         0.976102        0.217314
563600                0.00647637       -0.257723      0.000439698     -0.00033817         0.825284       -0.477803     -0.000450085       0.0001835
                     0.000439394    -0.000338594       -0.0543834       -0.912995     -0.000254921     0.000342688        -0.301043       -0.283553
                        0.825285       -0.477803     -0.000243142     0.000377693        -0.236841       -0.101828      0.000883031     0.000135644
                    -0.000450235     0.000183783        -0.301042       -0.283554      0.000878638     8.30697e-05         0.918401     -0.00230872
564000                0.00350402       -0.254669      0.000440158    -0.000347196         0.805513       -0.523941     -0.000456528     0.000186496
                      0.00044015    -0.000347197       -0.0604118       -0.892084     -0.000337004     0.000365312        -0.297615       -0.284545
                        0.805513       -0.523941      -0.00033697     0.000365284        -0.236144       -0.101469      0.000732642     0.000156604
                    -0.000456512     0.000186452        -0.297615       -0.284545      0.000732601     0.000156635         0.896079      -0.0244128
566800                -0.0151936       -0.232748      0.000437917    -0.000418562         0.625409       -0.780297     -0.000508369      0.00020922
                     0.000441106    -0.000415134       -0.0921534       -0.764321       0.00216385     0.000215354        -0.273328       -0.292053
                        0.625405         -0.7803       0.00033311    -0.000532805        -0.231209      -0.0989048      0.000261373     9.84236e-05
                    -0.000506661     0.000206399        -0.273328       -0.292052       0.00021519     0.000159156         0.741029       -0.138054
570000                -0.0322527       -0.207142       0.00041641    -0.000519411         0.385638        -0.92265     -0.000586902     0.000239131
                     0.000427026     -0.00051156        -0.113415        -0.64967      0.000514926      0.00019114        -0.244963        -0.30192
                        0.385632       -0.922653      0.000341919     3.88685e-05        -0.225451      -0.0958645      9.80569e-05      3.0417e-05
