! TOUCHSTONE file generated by CST MICROWAVE STUDIO
! Date and time: Mon Oct 20 08:27:13 2025
! Project name: Teste_Macro_Metasurface_Nanopilar.cst
! Parameters = {H=600; L_x=70; L_y=130; Lambda=1064; Max_L=200; Min_L=70; PathPara=1; Phi=0; Step_L=10; Theta=0; p=520; phaseX=180; phaseY=0}
! Header version: 2018
! Port assignment regex: !\s*Touchstone port\s*([0-9]+)\s*=\s*(CST MWS port|CST DS port)\s*([0-9]+|Zmin|Zmax)\s*\(\"(.*)\"\)(\s*mode\s*([0-9]+))?.*
! Touchstone port assignment:
! Touchstone port 1 = CST MWS port Zmax ("") mode 1
! Touchstone port 2 = CST MWS port Zmax ("") mode 2
! Touchstone port 3 = CST MWS port Zmin ("") mode 1
! Touchstone port 4 = CST MWS port Zmin ("") mode 2
! S-Parameters are not renormalized. Each port impedance will be approximated by the real part at minimum frequency. The values are described via the [Reference] keyword.
! Default impedance is overridden by [Reference]
[Version] 2.0
# GHz S RI R 376.73
[Number of Ports] 4
[Reference]
376.73 376.73 259.888 259.888 
[Number of Frequencies] 52
[Network Data]
474000                 0.0281448        0.468185       0.00018366     4.92402e-05        -0.808442       -0.303669      0.000126944      9.4191e-05
                     0.000139149     2.41944e-05         0.377329       0.0814416     -1.90405e-05    -6.05407e-06        -0.873697       -0.282416
                       -0.808442       -0.303669     -2.15672e-05    -6.53209e-05        -0.355095        0.326428     -0.000170332    -0.000130638
                       6.885e-05     0.000100158        -0.873719        -0.28242     -0.000115712    -7.77249e-05         -0.35525       -0.152503
477200                 0.0339085        0.481392       0.00018718     5.04029e-05        -0.797514       -0.299554      0.000123812     9.73951e-05
                      0.00014135     2.46995e-05         0.383478       0.0738694     -2.32479e-05    -4.01072e-06        -0.875042       -0.273002
                       -0.797514       -0.299553     -2.78971e-05    -6.51376e-05        -0.357386        0.335069     -0.000175971    -0.000130185
                     6.52827e-05     0.000101263        -0.875065       -0.273006     -0.000119101     -7.7057e-05        -0.352048       -0.151373
480400                 0.0403506         0.49586      0.000191049     5.16613e-05        -0.786206       -0.295487      0.000120371      0.00010073
                     0.000143759     2.52373e-05         0.389752       0.0654754     -2.76852e-05    -1.65557e-06        -0.876381       -0.262819
                       -0.786206       -0.295485     -3.47708e-05    -6.47028e-05        -0.359755        0.344468     -0.000182099    -0.000129544
                     6.14828e-05     0.000102331        -0.876404       -0.262823     -0.000122761    -7.62637e-05        -0.348789        -0.15021
483600                 0.0475941        0.511775      0.000195319     5.30271e-05        -0.774501       -0.291479      0.000116583     0.000104194
                     0.000146407     2.58102e-05         0.396108       0.0561582     -3.23588e-05     1.06088e-06        -0.877698        -0.25177
                         -0.7745       -0.291477     -4.22467e-05    -6.39495e-05        -0.362196        0.354729     -0.000188775     -0.00012867
                      5.7432e-05     0.000103349        -0.877722       -0.251774     -0.000126722    -7.53198e-05        -0.345469        -0.14901
486800                 0.0557928        0.529365      0.000200058     5.45139e-05        -0.762383       -0.287542      0.000112401     0.000107785
                     0.000149331     2.64208e-05         0.402484        0.045805     -3.72721e-05     4.19638e-06        -0.878972       -0.239744
                       -0.762382       -0.287539     -5.03877e-05    -6.27927e-05        -0.364698        0.365971     -0.000196067    -0.000127502
                     5.31104e-05       0.0001043        -0.878996       -0.239747     -0.000131021    -7.41934e-05        -0.342087       -0.147774
490000                 0.0651413        0.548905      0.000205345     5.61377e-05        -0.749835        -0.28369      0.000107776     0.000111496
                     0.000152577     2.70714e-05           0.4088       0.0342921     -4.24229e-05     7.81813e-06        -0.880174       -0.226608
                       -0.749834       -0.283687      -5.9261e-05    -6.11249e-05        -0.367245        0.378337     -0.000204054    -0.000125965
                     4.84967e-05     0.000105166        -0.880199       -0.226611     -0.000135698    -7.28452e-05        -0.338643       -0.146499
493200                 0.0758891        0.570733      0.000211282     5.79169e-05        -0.736841       -0.279938      0.000102649     0.000115315
                     0.000156201     2.77643e-05         0.414945       0.0214854     -4.78021e-05      1.2004e-05        -0.881266       -0.212207
                        -0.73684       -0.279935     -6.89354e-05    -5.88096e-05         -0.36981        0.391999     -0.000212823    -0.000123959
                     4.35685e-05     0.000105923        -0.881291        -0.21221       -0.0001408    -7.12254e-05        -0.335134       -0.145185
496400                  0.088361         0.59527      0.000217995     5.98731e-05        -0.723381       -0.276303      9.69521e-05     0.000119223
                     0.000160271     2.85008e-05         0.420775      0.00724291     -5.33899e-05     1.68439e-05        -0.882194       -0.196355
                        -0.72338       -0.276299     -7.94779e-05    -5.56738e-05        -0.372355        0.407163     -0.000222475    -0.000121358
                     3.83023e-05     0.000106543        -0.882221       -0.196357     -0.000146379    -6.92709e-05        -0.331558       -0.143829
499600                  0.102987        0.623041      0.000225647      6.2031e-05        -0.709439       -0.272802      9.06104e-05     0.000123192
                     0.000164876     2.92808e-05         0.426103     -0.00858085     -5.91521e-05     2.24403e-05         -0.88289        -0.17883
                       -0.709437       -0.272797     -9.09466e-05    -5.14984e-05        -0.374822         0.42408      -0.00023312    -0.000117994
                     3.26738e-05     0.000106993        -0.882917       -0.178833     -0.000152497    -6.69008e-05        -0.327913       -0.142429
502800                  0.120346        0.654718      0.000234448     6.44193e-05        -0.694994       -0.269456      8.35372e-05     0.000127183
                     0.000170125     3.01018e-05         0.430687      -0.0261274     -6.50348e-05      2.8909e-05        -0.883254       -0.159366
                       -0.694992       -0.269451      -0.00010338    -4.60066e-05        -0.377129        0.443056     -0.000244877    -0.000113648
                     2.66584e-05     0.000107232        -0.883282       -0.159368     -0.000159219    -6.40112e-05        -0.324199       -0.140985
506000                  0.141235        0.691161      0.000244676       6.707e-05        -0.680028       -0.266287      7.56357e-05     0.000131138
                     0.000176164     3.09567e-05         0.434221      -0.0455227     -7.09575e-05     3.63781e-05        -0.883156       -0.137637
                       -0.680026       -0.266281      -0.00011678    -3.88521e-05        -0.379152        0.464471      -0.00025787    -0.000108031
                     2.02317e-05     0.000107213        -0.883185       -0.137638     -0.000166619    -6.04665e-05        -0.320412       -0.139493
509200                   0.16678        0.733495      0.000256706     7.00172e-05        -0.664522       -0.263319      6.67986e-05     0.000134981
                     0.000183181     3.18307e-05         0.436328      -0.0668594     -7.68051e-05     4.49854e-05         -0.88241       -0.113249
                       -0.664519       -0.263312     -0.000131083    -2.96071e-05        -0.380708        0.488794     -0.000272214    -0.000100758
                     1.33709e-05     0.000106881         -0.88244       -0.113249     -0.000174777    -5.60896e-05        -0.316551       -0.137953
512400                  0.198613        0.783206      0.000271054     7.32945e-05        -0.648455       -0.260578      5.69087e-05     0.000138604
                     0.000191432     3.26952e-05         0.436548      -0.0901726     -8.24174e-05      5.4873e-05        -0.880757      -0.0857136
                       -0.648452       -0.260571     -0.000146121    -1.77548e-05        -0.381528        0.516614     -0.000287998    -9.13187e-05
                     6.05565e-06     0.000106169        -0.880788      -0.0857135     -0.000183771    -5.06462e-05        -0.312614       -0.136361
515600                  0.239179         0.84229      0.000288452     7.69253e-05        -0.631807       -0.258095      4.58422e-05     0.000141867
                     0.000201265     3.34967e-05          0.43434       -0.115407     -8.75786e-05     6.61778e-05        -0.877831      -0.0544305
                       -0.631803       -0.258087     -0.000161564    -2.69404e-06        -0.381206        0.548673      -0.00030524    -7.90341e-05
                    -1.72978e-06     0.000104999        -0.877863      -0.0544294     -0.000193671    -4.38253e-05        -0.308599       -0.134716
518800                   0.29228        0.913453      0.000309973     8.09027e-05        -0.614559         -0.2559      3.34739e-05     0.000144581
                     0.000213171     3.41362e-05         0.429089       -0.142374     -9.20066e-05      7.9015e-05        -0.873101      -0.0186521
                       -0.614555       -0.255891      -0.00017684     1.62319e-05        -0.379126        0.585909     -0.000323819     -6.3014e-05
                    -9.99396e-06      0.00010328        -0.873135      -0.0186497     -0.000204518    -3.52118e-05        -0.304502       -0.133016
522000                  0.342014        0.939695      0.000337248     8.51385e-05         -0.59669       -0.254028      1.96865e-05       0.0001465
                     0.000227859     3.44279e-05         0.420137       -0.170708     -9.53445e-05     9.34551e-05        -0.865798       0.0225516
                       -0.596686       -0.254019     -0.000191049      3.9661e-05        -0.374339        0.629514     -0.000343355    -4.21139e-05
                    -1.87351e-05     0.000100908        -0.865832       0.0225557     -0.000216292    -2.42525e-05        -0.300324       -0.131257
525200                  0.387153        0.922016      0.000372873     8.93362e-05        -0.578182       -0.252519      4.38624e-06     0.000147309
                     0.000246391     3.40137e-05         0.406828       -0.199819     -9.71593e-05     0.000109492        -0.854771       0.0703346
                       -0.578177       -0.252509     -0.000202875     6.80679e-05        -0.365358        0.680982     -0.000363003     -1.4928e-05
                    -2.79366e-05     9.77643e-05        -0.854807       0.0703407     -0.000228846    -1.02146e-05        -0.296059       -0.129438
528400                  0.443688        0.896181      0.000421221     9.26488e-05        -0.559015       -0.251414     -1.24735e-05     0.000146614
                     0.000270404     3.21736e-05         0.388595       -0.228857     -9.69539e-05        0.000127        -0.838288         0.12611
                       -0.559009       -0.251404     -0.000210563      0.00010153        -0.349815        0.742145     -0.000381158     2.01175e-05
                    -3.75621e-05     9.37139e-05        -0.838326        0.126119       -0.0002418     7.85191e-06        -0.291707       -0.127555
531600                  0.517438         0.85572      0.000490167     9.26732e-05        -0.539171       -0.250758     -3.08581e-05     0.000143931
                     0.000302534     2.73722e-05         0.365061       -0.256715     -9.41979e-05     0.000145695        -0.813677        0.191553
                       -0.539165       -0.250747     -0.000212026     0.000139414        -0.323872        0.815113     -0.000395059     6.44428e-05
                    -4.75484e-05     8.86101e-05        -0.813716        0.191565     -0.000254344     3.11224e-05        -0.287265       -0.125607
534800                  0.618033        0.786153      0.000595057     8.20703e-05        -0.518634       -0.250601     -5.06063e-05     0.000138701
                     0.000347133     1.60755e-05         0.336166       -0.282073     -8.83852e-05     0.000165092        -0.776756         0.26849
                       -0.518627        -0.25059     -0.000205189     0.000180084        -0.281243        0.901908     -0.000400462     0.000118573
                    -5.77985e-05     8.22961e-05        -0.776795        0.268506     -0.000264952     6.09075e-05         -0.28273       -0.123588
538000                  0.758677        0.651467      0.000767876     3.50099e-05        -0.497388       -0.250997     -7.13743e-05     0.000130307
                     0.000411305    -1.06748e-05         0.302274       -0.303511     -7.91181e-05     0.000184494        -0.720897         0.35848
                        -0.49738       -0.250986     -0.000188571     0.000220798        -0.206415        0.978464     -0.000391789     0.000180849
                    -6.81734e-05     7.46112e-05        -0.720936        0.358501      -0.00027098     9.83221e-05          -0.2781       -0.121498
541200                  0.931976         0.36252       0.00106618    -0.000159451        -0.475419       -0.252005     -9.25792e-05     0.000118135
                     0.000503846    -7.80412e-05         0.264234       -0.319682     -6.62079e-05     0.000203019          -0.6356        0.461609
                       -0.475411       -0.251993     -0.000161973     0.000258035       -0.0882984        0.996094     -0.000363494     0.000245945
                    -7.84843e-05     6.54006e-05        -0.635637        0.461636     -0.000268332     0.000143483        -0.273371       -0.119331
544400                  0.984252        -0.17677       0.00129773    -0.000958885        -0.452717       -0.253688     -0.000113356      0.00010167
                     0.000608583    -0.000257259         0.223354       -0.329514     -4.97674e-05     0.000219678        -0.504726        0.573354
                       -0.452708       -0.253676     -0.000126888     0.000288295         0.065039        0.997883     -0.000313023     0.000304519
                    -8.84859e-05     5.45294e-05        -0.504759        0.573388     -0.000251715     0.000194071        -0.268541       -0.117085
547600                  0.732641       -0.680615      9.18621e-05     -0.00155162        -0.429275       -0.256115     -0.000132558     8.06333e-05
                     0.000520856    -0.000622759          0.18127       -0.332397     -3.02626e-05     0.000233512        -0.306024        0.677389
                       -0.429265       -0.256102      -8.6305e-05     0.000309077         0.259381        0.965775     -0.000244012     0.000345798
                     -9.7874e-05     4.19011e-05        -0.306049        0.677429     -0.000216418     0.000243751        -0.263607       -0.114755
550800                  0.439527       -0.898229     -0.000404236    -0.000835741        -0.405087       -0.259358     -0.000148831     5.51356e-05
                     6.17356e-05    -0.000715982         0.139741       -0.328289     -8.49111e-06     0.000243746       -0.0184497         0.73244
                       -0.405076       -0.259346     -4.39073e-05     0.000319531         0.487041        0.873379     -0.000166419     0.000362683
                    -0.000106288     2.74804e-05       -0.0184618        0.732482     -0.000161989     0.000282357        -0.258566       -0.112339
554000                  0.239719       -0.970842     -0.000352201    -0.000467422        -0.380154       -0.263499      -0.00016078     2.58057e-05
                    -0.000150359    -0.000466935         0.100408       -0.317712      1.45191e-05     0.000249923         0.347925        0.662241
                       -0.380143       -0.263486     -3.08074e-06     0.000320457         0.712986        0.701178     -9.21911e-05     0.000355342
                    -0.000113325     1.13177e-05         0.347926        0.662274      -9.5353e-05     0.000300049        -0.253414        -0.10983
557200                  0.106778       -0.994283     -0.000269137    -0.000301914        -0.354483        -0.26862     -0.000167222    -6.17575e-06
                    -0.000159405    -0.000291013        0.0645937       -0.301639      3.76664e-05     0.000251968         0.700141        0.391561
                       -0.354471       -0.268608      3.37712e-05      0.00031374         0.885024        0.465545     -2.99391e-05     0.000330008
                     -0.00011856    -6.42782e-06         0.700143        0.391579     -2.88422e-05     0.000293498        -0.248149       -0.107226
560400                 0.0116377       -0.999932     -0.000204908    -0.000214818        -0.328085       -0.274814     -0.000167443    -3.91863e-05
                    -0.000129921     -0.00019601        0.0331861       -0.281312      5.99398e-05     0.000250171         0.880423      -0.0441059
                       -0.328071       -0.274801       6.5407e-05     0.000301648          0.97627        0.216558      1.71333e-05     0.000294807
                    -0.000121583    -2.54721e-05         0.880413      -0.0440952      2.65785e-05     0.000267741        -0.242766        -0.10452
563600                -0.0565843       -0.913309     -0.000157466    -0.000162757        -0.300979       -0.282175     -0.000161384    -7.14138e-05
                    -9.98906e-05    -0.000141856        0.0066171       -0.258052      8.05431e-05     0.000245092         0.825116       -0.477885
                       -0.300965       -0.282162      9.15475e-05     0.000286282         0.919012     -0.00428131      4.99275e-05     0.000256436
                    -0.000122042    -4.54034e-05         0.825097       -0.477867      6.61751e-05     0.000231848        -0.237263       -0.101709
564000                 -0.062603       -0.892387     -0.000152452    -0.000157728        -0.297542       -0.283182     -0.000160209    -7.52998e-05
                    -9.64832e-05    -0.000136797       0.00364159       -0.255002       8.2972e-05     0.000244261         0.805312       -0.524104
                       -0.297528       -0.283169      9.44412e-05      0.00028422          0.89646      -0.0264535      5.31527e-05     0.000251652
                    -0.000121906    -4.79322e-05         0.805292       -0.524085      7.00173e-05     0.000227075        -0.236566       -0.101349
566800                -0.0942169       -0.764545     -0.000121782     -0.00012868        -0.273193       -0.290804     -0.000149656    -0.000101176
                    -7.50156e-05    -0.000108314        -0.015079       -0.233099      9.89537e-05      0.00023744         0.624802       -0.780783
                       -0.273179       -0.290792      0.000112534     0.000269317          0.74007        -0.14005       7.1195e-05     0.000219105
                    -0.000119693    -6.56986e-05         0.624805       -0.780781      9.08646e-05     0.000193715        -0.231636      -0.0987856
570000                 -0.115264       -0.649824     -9.42159e-05    -0.000104859        -0.244766       -0.300809     -0.000133388    -0.000127195
                    -5.50912e-05    -8.60115e-05       -0.0321652       -0.207509      0.000114917      0.00022795         0.384605       -0.923081
                       -0.244751       -0.300797      0.000129017     0.000251943         0.581293       -0.204763      8.39437e-05     0.000184916
