! TOUCHSTONE file generated by CST MICROWAVE STUDIO
! Date and time: Mon Oct 20 08:27:51 2025
! Project name: Teste_Macro_Metasurface_Nanopilar.cst
! Parameters = {H=600; L_x=190; L_y=190; Lambda=1064; Max_L=200; Min_L=70; PathPara=1; Phi=0; Step_L=10; Theta=0; p=520; phaseX=180; phaseY=0}
! Header version: 2018
! Port assignment regex: !\s*Touchstone port\s*([0-9]+)\s*=\s*(CST MWS port|CST DS port)\s*([0-9]+|Zmin|Zmax)\s*\(\"(.*)\"\)(\s*mode\s*([0-9]+))?.*
! Touchstone port assignment:
! Touchstone port 1 = CST MWS port Zmax ("") mode 1
! Touchstone port 2 = CST MWS port Zmax ("") mode 2
! Touchstone port 3 = CST MWS port Zmin ("") mode 1
! Touchstone port 4 = CST MWS port Zmin ("") mode 2
! S-Parameters are not renormalized. Each port impedance will be approximated by the real part at minimum frequency. The values are described via the [Reference] keyword.
! Default impedance is overridden by [Reference]
[Version] 2.0
# GHz S RI R 376.73
[Number of Ports] 4
[Reference]
376.73 376.73 259.888 259.888 
[Number of Frequencies] 52
[Network Data]
474000                  0.882727     -0.00845466     -1.43464e-05    -7.18138e-05        -0.428123      -0.0931678      3.95714e-05    -5.07894e-05
                    -1.21528e-05    -7.09904e-05         0.882903     -0.00818733     -5.28357e-05    -6.87365e-05        -0.427772      -0.0932356
                       -0.428121      -0.0931667     -6.04417e-05    -6.97173e-05        -0.783908       -0.389108      0.000140692    -0.000254863
                     3.73993e-05    -4.90304e-05        -0.427772      -0.0932384      0.000140081    -0.000261866        -0.783923       -0.389441
477200                  0.902991      -0.0466704     -1.63708e-05    -7.28253e-05        -0.426887      -0.0848872       4.0545e-05    -6.13264e-05
                    -1.40936e-05    -7.24606e-05         0.902967      -0.0463513     -5.24273e-05    -8.17099e-05        -0.426537      -0.0849473
                       -0.426885      -0.0848862     -5.97067e-05    -8.30644e-05         -0.78975        -0.40506      0.000145195    -0.000251669
                     3.81317e-05    -5.93878e-05        -0.426537      -0.0849501       0.00014351    -0.000258967        -0.789774       -0.405352
480400                  0.920321      -0.0885003     -1.85313e-05    -7.39156e-05        -0.425468       -0.076231      4.17163e-05    -7.24235e-05
                    -1.61621e-05    -7.40371e-05         0.920106      -0.0880897     -5.17805e-05    -9.53712e-05        -0.425117      -0.0762829
                       -0.425465      -0.0762301     -5.87103e-05    -9.71026e-05        -0.795867       -0.422608      0.000150046    -0.000248276
                     3.90488e-05    -7.03066e-05        -0.425117      -0.0762856      0.000147209    -0.000255876        -0.795903       -0.422854
483600                  0.933992       -0.133695     -2.08421e-05    -7.50942e-05        -0.423842      -0.0671762      4.31143e-05    -8.41233e-05
                    -1.83714e-05    -7.57316e-05         0.933605       -0.133153     -5.08572e-05    -0.000109771        -0.423491      -0.0672192
                       -0.423839      -0.0671753      -5.7413e-05    -0.000111881        -0.802256       -0.441996      0.000155287    -0.000244668
                     4.01786e-05    -8.18304e-05        -0.423491      -0.0672219      0.000151211    -0.000252574        -0.802307       -0.442191
486800                  0.943284       -0.181834     -2.33193e-05    -7.63721e-05        -0.421985      -0.0576981      4.47722e-05    -9.64723e-05
                    -2.07362e-05    -7.75578e-05         0.942755       -0.181126     -4.96137e-05    -0.000124963        -0.421633      -0.0577317
                       -0.421982      -0.0576972     -5.57692e-05    -0.000127452        -0.808902       -0.463516      0.000160966    -0.000240823
                     4.15539e-05     -9.4007e-05        -0.421634      -0.0577344      0.000155553    -0.000249039        -0.808972       -0.463654
490000                  0.947532       -0.232316     -2.59815e-05    -7.77621e-05        -0.419867      -0.0477705       4.6729e-05    -0.000109522
                    -2.32735e-05    -7.95316e-05         0.946901        -0.23141     -4.79987e-05    -0.000141007        -0.419515      -0.0477941
                       -0.419865      -0.0477697     -5.37261e-05    -0.000143874        -0.815773       -0.487526      0.000167138     -0.00023672
                     4.32129e-05    -0.000106889        -0.419516      -0.0477967      0.000160281    -0.000245247        -0.815866       -0.487598
493200                  0.946176       -0.284363       -2.885e-05    -7.92794e-05        -0.417457      -0.0373655        4.903e-05    -0.000123327
                    -2.60028e-05    -8.16716e-05         0.945491        -0.28324     -4.59524e-05    -0.000157967        -0.417103      -0.0373784
                       -0.417455      -0.0373648     -5.12223e-05    -0.000161207        -0.822811       -0.514459       0.00017387    -0.000232333
                     4.52003e-05    -0.000120534        -0.417104       -0.037381      0.000165448    -0.000241169        -0.822933       -0.514458
496400                   0.93882       -0.337043     -3.19496e-05    -8.09419e-05        -0.414717      -0.0264536       5.1728e-05     -0.00013795
                    -2.89467e-05    -8.39996e-05         0.938135       -0.335696     -4.34052e-05    -0.000175913        -0.414361       -0.026455
                       -0.414714      -0.0264529     -4.81865e-05    -0.000179519        -0.829919       -0.544856       0.00018124    -0.000227633
                     4.75688e-05    -0.000135004        -0.414362      -0.0264575      0.000171117    -0.000236772        -0.830078        -0.54477
499600                  0.921731       -0.387829     -3.53091e-05    -8.27711e-05        -0.411604      -0.0150034      5.48853e-05    -0.000153457
                    -3.21312e-05    -8.65411e-05         0.922194       -0.386728     -4.02751e-05    -0.000194917        -0.411245      -0.0149927
                       -0.411601      -0.0150028     -4.45352e-05    -0.000198881        -0.822209       -0.569186      0.000189342    -0.000222589
                     5.03802e-05    -0.000150371        -0.411246      -0.0149951      0.000177363    -0.000232021        -0.822358       -0.568971
502800                  0.899412       -0.437101     -3.89623e-05    -8.47927e-05        -0.408069     -0.00298216      5.85752e-05    -0.000169921
                    -3.55871e-05    -8.93269e-05              0.9       -0.435891     -3.64662e-05    -0.000215061        -0.407708     -0.00295829
                       -0.408067     -0.00298164     -4.01714e-05    -0.000219367        -0.806301       -0.591505      0.000198288    -0.000217166
                     5.37077e-05    -0.000166708        -0.407709     -0.00296063      0.000184277    -0.000226871        -0.806524       -0.591201
506000                   0.87441       -0.485188     -4.29492e-05    -8.70381e-05        -0.404058      0.00964472      6.28839e-05    -0.000187422
                    -3.93503e-05    -9.23934e-05         0.875131       -0.483886     -3.18656e-05    -0.000236429        -0.403692      0.00968257
                       -0.404055      0.00964516      -3.4981e-05    -0.000241059        -0.787713       -0.616042      0.000208213    -0.000211323
                     5.76383e-05      -0.0001841        -0.403693      0.00968033      0.000191971    -0.000221273        -0.788025       -0.615644
509200                  0.846993       -0.531604      -4.7317e-05    -8.95455e-05        -0.399505        0.022913      6.79138e-05    -0.000206046
                    -4.34632e-05    -9.57851e-05         0.847852       -0.530233       -2.634e-05    -0.000259112        -0.399134       0.0229658
                       -0.399503       0.0229133     -2.88306e-05    -0.000264041        -0.765771       -0.643113      0.000219283    -0.000205019
                     6.22752e-05    -0.000202637        -0.399136       0.0229636      0.000200582    -0.000215171        -0.766191       -0.642613
512400                  0.813979       -0.573442     -5.21223e-05    -9.23623e-05        -0.394338       0.0368594      7.37866e-05    -0.000225889
                    -4.79767e-05     -9.9556e-05         0.814004       -0.571355     -1.97323e-05    -0.000283205        -0.393961       0.0369281
                       -0.394336       0.0368597     -2.15633e-05    -0.000288402        -0.739574       -0.673075      0.000231703    -0.000198206
                     6.77416e-05    -0.000222418        -0.393962       0.0369261      0.000210281    -0.000208498        -0.740126       -0.672468
515600                  0.775012       -0.608904     -5.74333e-05    -9.55477e-05        -0.388473       0.0515213      8.06472e-05    -0.000247051
                    -5.29516e-05    -0.000103773         0.775249       -0.606812     -1.18565e-05    -0.000308804        -0.388087        0.051607
                        -0.38847       0.0515215     -1.29946e-05    -0.000314231         -0.70789       -0.706323      0.000245727    -0.000190833
                     7.41851e-05    -0.000243549        -0.388089       0.0516051       0.00022128    -0.000201177        -0.708608       -0.705603
518800                  0.733367       -0.639069     -6.33328e-05    -9.91766e-05        -0.381811       0.0669357      8.86691e-05    -0.000269641
                    -5.84617e-05    -0.000108518         0.733806       -0.637024     -2.49214e-06     -0.00033601        -0.381416       0.0670395
                       -0.381808       0.0669358     -2.90712e-06    -0.000341619        -0.669013       -0.743251      0.000261676     -0.00018285
                     8.17833e-05    -0.000266146        -0.381418       0.0670378      0.000233853    -0.000193122        -0.669938       -0.742417
522000                  0.690021       -0.663794     -6.99223e-05    -0.000103345        -0.374241       0.0831385      9.80603e-05    -0.000293774
                     -6.4597e-05    -0.000113897         0.690641       -0.661841        8.622e-06     -0.00036492        -0.373835       0.0832615
                       -0.374238       0.0831385      8.95552e-06    -0.000370653        -0.620533       -0.784181      0.000279959    -0.000174207
                     9.07499e-05    -0.000290328        -0.373837       0.0832599      0.000248353    -0.000184232        -0.621722       -0.783238
525200                  0.645901       -0.683147     -7.73275e-05    -0.000108179        -0.365634        0.100163      0.000109071    -0.000319567
                    -7.14687e-05    -0.000120044         0.646672       -0.681322       2.1796e-05    -0.000395623        -0.365214        0.100306
                       -0.365631        0.100163      2.28957e-05    -0.000401413        -0.558998       -0.829169      0.000301105    -0.000164867
                     0.000101344    -0.000316224        -0.365216        0.100305      0.000265242    -0.000174396        -0.560525       -0.828137
528400                  0.601839       -0.697368     -8.57054e-05    -0.000113843         -0.35584        0.118037      0.000122004    -0.000347142
                    -7.92153e-05    -0.000127132         0.602727       -0.695698      3.73977e-05    -0.000428199        -0.355403        0.118202
                       -0.355837        0.118037      3.92699e-05    -0.000433964        -0.479438       -0.877576      0.000325807    -0.000154814
                     0.000113878     -0.00034396        -0.355406          0.1182      0.000285139    -0.000163495          -0.4814       -0.876501
531600                  0.558547       -0.706831     -9.52544e-05    -0.000120561        -0.344687        0.136782      0.000137225    -0.000376615
                    -8.80114e-05    -0.000135391         0.559514       -0.705331      5.58632e-05    -0.000462701        -0.344231        0.136969
                       -0.344685        0.136782      5.84981e-05     -0.00046835         -0.37479        -0.92711      0.000354988    -0.000144085
                     0.000128735    -0.000373661        -0.344234        0.136968      0.000308883    -0.000151413        -0.377302        -0.92609
534800                  0.516595       -0.711996     -0.000106228    -0.000128642        -0.331977        0.156409      0.000155175    -0.000408088
                    -9.80801e-05    -0.000145132         0.517604       -0.710674      7.77079e-05    -0.000499148        -0.331499        0.156619
                       -0.331975        0.156409      8.10737e-05    -0.000504577        -0.235623       -0.971845      0.000389898    -0.000132815
                     0.000146377    -0.000405439        -0.331501        0.156618      0.000337645    -0.000138064        -0.238799       -0.971069
538000                  0.476418       -0.713371     -0.000118952    -0.000138521        -0.317483        0.176911      0.000176394    -0.000441644
                    -0.000109709    -0.000156782         0.477435       -0.712225      0.000103539    -0.000537502        -0.316976        0.177145
                       -0.317481        0.176911      0.000107574    -0.000542596       -0.0516291       -0.998666       0.00043226    -0.000121337
                     0.000167372    -0.000439378        -0.316979        0.177144       0.00037309    -0.000123445       -0.0554997       -0.998459
541200                  0.438324       -0.711478     -0.000133853    -0.000150831        -0.300941        0.198261      0.000201531    -0.000477316
                    -0.000123277    -0.000170947         0.439318       -0.710501      0.000134066    -0.000577641        -0.300402        0.198518
                       -0.300939         0.19826       0.00013867    -0.000582283         0.181526       -0.983386      0.000484488    -0.000110366
                     0.000192407    -0.000475515        -0.300405        0.198518      0.000417651    -0.000107774         0.177188       -0.984177
544400                  0.402505       -0.706826     -0.000151487    -0.000166522        -0.282054        0.220399      0.000231373    -0.000515071
                    -0.000139282    -0.000188509         0.403451       -0.706006      0.000170111    -0.000619327        -0.281477         0.22068
                       -0.282053        0.220398      0.000175134      -0.0006234         0.447036       -0.894516      0.000550009    -0.000101374
                     0.000222318     -0.00051381         -0.28148         0.22068      0.000474975    -9.17814e-05         0.442878       -0.896582
547600                  0.369061       -0.699894     -0.000172576    -0.000187076        -0.260483        0.243224      0.000266867    -0.000554759
                    -0.000158396    -0.000210807         0.369938       -0.699215      0.000212613     -0.00066215        -0.259862        0.243528
                       -0.260482        0.243224      0.000217843    -0.000665555          0.69705       -0.717022      0.000633717    -9.73809e-05
                     0.000258114    -0.000554093        -0.259864        0.243528      0.000550665     -7.7422e-05         0.693884       -0.720087
550800                  0.338016       -0.691119     -0.000198029    -0.000214903        -0.235848        0.266581      0.000309141    -0.000596059
                    -0.000181513    -0.000239952         0.338807       -0.690564      0.000262616    -0.000705473        -0.235174        0.266905
                       -0.235846        0.266581      0.000267769    -0.000708147         0.878661       -0.477447      0.000742474    -0.000104615
                     0.000300998    -0.000596002        -0.235175        0.266905      0.000653432    -6.96062e-05         0.876816       -0.480826
554000                  0.309335       -0.680889     -0.000228854    -0.000254138        -0.207725        0.290237      0.000359517     -0.00063839
                    -0.000209807     -0.00027946         0.310029       -0.680442      0.000321249    -0.000748348        -0.206991        0.290578
                       -0.207724        0.290237      0.000325961    -0.000750295         0.974481       -0.224472      0.000885085    -0.000136119
                     0.000352382     -0.00063888        -0.206992        0.290578      0.000796452    -8.06245e-05         0.973733       -0.227692
557200                  0.282942       -0.669544     -0.000265657    -0.000312267        -0.175659        0.313865      0.000419507    -0.000680793
                    -0.000244656    -0.000335555         0.283529       -0.669187      0.000389661    -0.000789423        -0.174855        0.314217
                       -0.175658        0.313865      0.000393487    -0.000790759         0.999952       0.0098356       0.00106919    -0.000219138
                     0.000413873    -0.000681645        -0.174856        0.314217      0.000996238    -0.000141441         0.999976      0.00687178
560400                  0.258729       -0.657376      -0.00030644    -0.000403603        -0.139163        0.337013      0.000490768    -0.000721776
                    -0.000286981    -0.000420135         0.259205        -0.65709      0.000468921    -0.000826845         -0.13828        0.337369
                       -0.139163        0.337013      0.000471354    -0.000827848         0.866413        0.192699       0.00128583    -0.000406728
                     0.000487214    -0.000722608         -0.13828        0.337369       0.00125354    -0.000326127         0.868639        0.190622
563600                  0.236572       -0.644629     -0.000337483    -0.000555898       -0.0977491        0.359077       0.00057499    -0.000759118
                    -0.000333648    -0.000557945         0.236936         -0.6444       0.00055985    -0.000858168       -0.0967761        0.359425
                      -0.0977484        0.359077       0.00056036    -0.000859345         0.660416        0.288377       0.00146037    -0.000773353
                     0.000574132    -0.000759258       -0.0967761        0.359425       0.00146199     -0.00075895         0.662017        0.286865
564000                   0.23394       -0.643005     -0.000338655    -0.000581356       -0.0922028        0.361721      0.000586507    -0.000763384
                    -0.000339066    -0.000581129          0.23429       -0.642783       0.00057206    -0.000861508       -0.0912179        0.362068
                      -0.0922021        0.361722      0.000572295    -0.000862756         0.637125        0.296209       0.00147046    -0.000833691
                     0.000586028    -0.000763371       -0.0912179        0.362068       0.00146949    -0.000833367         0.638656        0.294742
566800                  0.216336       -0.631508     -0.000297206    -0.000812219        -0.050953        0.379263      0.000673659     -0.00078965
                    -0.000358648    -0.000803803         0.216587       -0.631322      0.000662769    -0.000880309       -0.0498812         0.37959
                      -0.0509524        0.379264      0.000660889    -0.000882452         0.489335        0.333445       0.00139597      -0.0013051
                     0.000676055     -0.00078803       -0.0498806         0.37959       0.00129385     -0.00138133         0.490447        0.332184
570000                  0.197883       -0.618183       7.8139e-06     -0.00112969       0.00160976        0.396562      0.000787661    -0.000809068
                    -0.000211408     -0.00125497         0.198023       -0.618027      0.000777172    -0.000889592       0.00278823        0.396849
                       0.0016103        0.396563      0.000772628     -0.00089382         0.350204        0.350023      0.000970162      -0.0017177
