! TOUCHSTONE file generated by CST MICROWAVE STUDIO
! Date and time: Mon Oct 20 08:27:24 2025
! Project name: Teste_Macro_Metasurface_Nanopilar.cst
! Parameters = {H=600; L_x=100; L_y=175; Lambda=1064; Max_L=200; Min_L=70; PathPara=1; Phi=0; Step_L=10; Theta=0; p=520; phaseX=180; phaseY=0}
! Header version: 2018
! Port assignment regex: !\s*Touchstone port\s*([0-9]+)\s*=\s*(CST MWS port|CST DS port)\s*([0-9]+|Zmin|Zmax)\s*\(\"(.*)\"\)(\s*mode\s*([0-9]+))?.*
! Touchstone port assignment:
! Touchstone port 1 = CST MWS port Zmax ("") mode 1
! Touchstone port 2 = CST MWS port Zmax ("") mode 2
! Touchstone port 3 = CST MWS port Zmin ("") mode 1
! Touchstone port 4 = CST MWS port Zmin ("") mode 2
! S-Parameters are not renormalized. Each port impedance will be approximated by the real part at minimum frequency. The values are described via the [Reference] keyword.
! Default impedance is overridden by [Reference]
[Version] 2.0
# GHz S RI R 376.73
[Number of Ports] 4
[Reference]
376.73 376.73 259.888 259.888 
[Number of Frequencies] 52
[Network Data]
474000                 -0.482498      -0.0916743      1.41713e-05    -0.000160253        -0.577403       -0.611108     -8.89152e-05    -0.000163262
                     2.36827e-05    -0.000140639        0.0408576        0.256999      0.000111466    -1.18872e-05        -0.961063       0.0347326
                       -0.577391       -0.611069      0.000104365    -9.75058e-06         0.064042         0.49011      0.000106092    -8.59173e-05
                    -9.50987e-05    -0.000165013        -0.961061       0.0347305       7.5526e-05    -7.18895e-05       -0.0222248         0.26053
477200                 -0.481288      -0.0995117      1.59589e-05    -0.000154187        -0.581472       -0.600232     -8.27242e-05    -0.000157615
                     2.54321e-05    -0.000134179         0.037929        0.256032      0.000110655     -1.0532e-05        -0.961669       0.0352515
                       -0.581459       -0.600194      0.000103882     -8.5928e-06        0.0704749        0.493539      0.000104295    -8.52048e-05
                    -8.87402e-05    -0.000158332        -0.961667       0.0352493      7.43973e-05    -7.13139e-05       -0.0200768        0.261593
480400                 -0.479891       -0.107912      1.77492e-05    -0.000147754        -0.585446       -0.588466     -7.60452e-05    -0.000151824
                     2.71738e-05    -0.000127327        0.0347706        0.254958      0.000109803    -9.10926e-06        -0.962322       0.0358109
                       -0.585432        -0.58843      0.000103377    -7.37909e-06        0.0772965        0.497102      0.000102394    -8.44467e-05
                    -8.18237e-05    -0.000151443         -0.96232       0.0358087      7.32121e-05    -7.07066e-05       -0.0178034        0.262763
483600                 -0.478275       -0.116935      1.95332e-05    -0.000140924        -0.589265       -0.575721     -6.88312e-05    -0.000145899
                     2.88968e-05    -0.000120051        0.0313548         0.25376      0.000108909    -7.61398e-06        -0.963028       0.0364156
                        -0.58925       -0.575686      0.000102848    -6.10532e-06        0.0845419        0.500807      0.000100382    -8.36384e-05
                    -7.42901e-05    -0.000144353        -0.963026       0.0364133      7.19658e-05    -7.00649e-05       -0.0153947        0.264056
486800                   -0.4764       -0.126651      2.12998e-05    -0.000133662        -0.592854       -0.561899     -6.10307e-05    -0.000139851
                     3.05879e-05    -0.000112313        0.0276496        0.252417      0.000107967    -6.04042e-06        -0.963793       0.0370715
                       -0.592838       -0.561866      0.000102294    -4.76691e-06        0.0922507        0.504659      9.82486e-05    -8.27748e-05
                    -6.60736e-05    -0.000137072        -0.963791       0.0370691      7.06537e-05    -6.93859e-05       -0.0128399        0.265489
490000                 -0.474217       -0.137139      2.30351e-05    -0.000125928        -0.596119       -0.546895     -5.25868e-05    -0.000133698
                     3.22306e-05    -0.000104071        0.0236172        0.250904      0.000106975    -4.38227e-06        -0.964625       0.0377852
                       -0.596102       -0.546864      0.000101713    -3.35882e-06         0.100467        0.508665      9.59816e-05    -8.18503e-05
                     -5.7101e-05    -0.000129619        -0.964623       0.0377828      6.92705e-05    -6.86662e-05       -0.0101271         0.26708
493200                 -0.471669       -0.148492      2.47218e-05     -0.00011768         -0.59894       -0.530597      -4.3437e-05    -0.000127462
                     3.38046e-05    -9.52805e-05        0.0192135        0.249189      0.000105928     -2.6325e-06        -0.965533       0.0385649
                       -0.598923       -0.530567      0.000101103    -1.87546e-06         0.109242         0.51283      9.35686e-05    -8.08582e-05
                    -4.72911e-05    -0.000122016        -0.965531       0.0385624      6.78102e-05    -6.79021e-05      -0.00724387        0.268854
496400                  -0.46868       -0.160815      2.63389e-05    -0.000108872        -0.601168       -0.512885     -3.35128e-05    -0.000121173
                      3.5285e-05    -8.58903e-05        0.0143862        0.247233      0.000104822    -7.83317e-07        -0.966529         0.03942
                       -0.601151       -0.512858      0.000100462    -3.10642e-07         0.118632         0.51716      9.09949e-05    -7.97908e-05
                    -3.65541e-05    -0.000114299        -0.966527       0.0394174      6.62661e-05    -6.70893e-05       -0.0041766        0.270839
499600                 -0.465159       -0.174231      2.78602e-05    -9.94486e-05        -0.602619       -0.493638     -2.27397e-05    -0.000114871
                     3.66415e-05    -7.58444e-05       0.00907304        0.244986      0.000103651       1.174e-06        -0.967624       0.0403621
                       -0.602601       -0.493613       9.9787e-05     1.34254e-06         0.128701        0.521661      8.82442e-05    -7.86394e-05
                    -2.47909e-05    -0.000106512        -0.967622       0.0403595       6.4631e-05    -6.62232e-05     -0.000911168        0.273068
502800                 -0.460992       -0.188882      2.92534e-05    -8.93529e-05        -0.603062       -0.472737     -1.10369e-05    -0.000108605
                     3.78363e-05    -6.50806e-05       0.00319962        0.242386       0.00010241     3.24922e-06        -0.968836       0.0414052
                       -0.603044       -0.472715      9.90756e-05     3.09178e-06         0.139522        0.526335      8.52974e-05    -7.73938e-05
                    -1.18933e-05    -9.87168e-05        -0.968834       0.0414025      6.28965e-05    -6.52982e-05       0.00256711         0.27558
506000                 -0.456032       -0.204935      3.04788e-05    -7.85195e-05        -0.602214       -0.450072      1.68263e-06    -0.000102439
                     3.88235e-05    -5.35299e-05      -0.00332378         0.23935      0.000101092     5.45334e-06        -0.970184       0.0425664
                       -0.602197       -0.450054      9.83247e-05     4.94568e-06         0.151181        0.531185      8.21329e-05    -7.60422e-05
                     2.25619e-06    -9.09916e-05        -0.970182       0.0425636      6.10533e-05    -6.43084e-05       0.00627297        0.278424
509200                 -0.450094       -0.222585      3.14872e-05    -6.68762e-05        -0.599729       -0.425554      1.55112e-05    -9.64509e-05
                     3.95461e-05    -4.11162e-05       -0.0106059        0.235774        9.969e-05     7.79874e-06        -0.971692        0.043867
                       -0.599713       -0.425538       9.7531e-05     6.91394e-06         0.163773        0.536211      7.87259e-05    -7.45706e-05
                     1.77836e-05    -8.34384e-05         -0.97169       0.0438641       5.9091e-05    -6.32465e-05        0.0102206        0.281656
512400                 -0.442936       -0.242058      3.22178e-05    -5.43431e-05        -0.595188       -0.399129       3.0546e-05    -9.07401e-05
                     3.99342e-05    -2.77554e-05        -0.018779        0.231516       9.8195e-05     1.02995e-05         -0.97339       0.0453338
                       -0.595174       -0.399117      9.66907e-05     9.00744e-06          0.17741         0.54141      7.50473e-05    -7.29626e-05
                     3.48218e-05    -7.61874e-05        -0.973388       0.0453307      5.69975e-05    -6.21047e-05        0.0144226        0.285345
515600                 -0.434245       -0.263618      3.25955e-05    -4.08324e-05        -0.588093       -0.370804      4.68866e-05    -8.54286e-05
                     3.99012e-05    -1.33554e-05       -0.0280054        0.226387      9.65978e-05     1.29714e-05        -0.975316       0.0470006
                       -0.588081       -0.370795      9.57996e-05     1.12385e-05          0.19222        0.546774      7.10636e-05    -7.11987e-05
                     5.35077e-05    -6.94024e-05        -0.975315       0.0469974      5.47594e-05    -6.08736e-05        0.0188882        0.289576
518800                 -0.423605       -0.287573       3.2527e-05    -2.62474e-05        -0.577859       -0.340677      6.46328e-05    -8.06661e-05
                     3.93402e-05     2.18432e-06        -0.038484        0.220125      9.48876e-05     1.58329e-05        -0.977522       0.0489115
                        -0.57785       -0.340672       9.4853e-05     1.36212e-05         0.208352        0.552289      6.67354e-05    -6.92555e-05
                     7.39777e-05    -6.32887e-05         -0.97752       0.0489081      5.23612e-05    -5.95424e-05        0.0236208        0.294452
522000                 -0.410462       -0.314276      3.18966e-05    -1.04833e-05        -0.563821       -0.308974      8.38801e-05    -7.66348e-05
                     3.81189e-05     1.89721e-05       -0.0504583        0.212366      9.30519e-05     1.89048e-05         -0.98007       0.0511242
                       -0.563817       -0.308972      9.38456e-05     1.61715e-05         0.225983        0.557931      6.20161e-05    -6.71048e-05
                     9.63606e-05    -5.80997e-05        -0.980069       0.0511206      4.97852e-05    -5.80986e-05        0.0286142        0.300097
525200                 -0.394069       -0.344123      3.05605e-05      6.5732e-06        -0.545251       -0.276103      0.000104714    -7.35541e-05
                     3.60734e-05     3.71234e-05        -0.064224        0.202586      9.10764e-05     2.22112e-05        -0.983049       0.0537164
                       -0.545252       -0.276102      9.27715e-05     1.89077e-05         0.245315        0.563666      5.68506e-05    -6.47123e-05
                     0.000120768    -5.41448e-05        -0.983048       0.0537126       4.7011e-05    -5.65274e-05        0.0338461        0.306663
528400                 -0.373402       -0.377543      2.83401e-05     2.50415e-05        -0.521397       -0.242701      0.000127202    -7.16857e-05
                     3.30002e-05     5.67582e-05       -0.0801302        0.190018      8.89445e-05       2.578e-05        -0.986578       0.0567949
                       -0.521404       -0.242702      9.16237e-05     2.18508e-05          0.26659        0.569442       5.1173e-05    -6.20356e-05
                     0.000147279    -5.17964e-05        -0.986576       0.0567909      4.40148e-05    -5.48114e-05        0.0392699        0.314335
531600                 -0.347044       -0.414961       2.5013e-05     4.50449e-05        -0.491549       -0.209694      0.000151381    -7.13373e-05
                     2.86474e-05     7.79974e-05       -0.0985631        0.173507      8.66369e-05     2.96436e-05        -0.990823       0.0605106
                       -0.491564       -0.209695      9.03945e-05     2.50253e-05         0.290092        0.575182      4.49038e-05    -5.90225e-05
                     0.000175923    -5.14945e-05        -0.990822       0.0605062      4.07691e-05    -5.29299e-05        0.0448004        0.323337
534800                 -0.313014       -0.456717      2.03026e-05     6.67054e-05        -0.455144        -0.17833      0.000177248    -7.28648e-05
                     2.27027e-05     0.000100956        -0.119876        0.151266      8.41308e-05     3.38404e-05        -0.996028       0.0650842
                       -0.455166       -0.178329      8.90751e-05     2.84594e-05         0.316159        0.580779      3.79461e-05    -5.56068e-05
                     0.000206653    -5.37475e-05        -0.996027       0.0650794      3.72416e-05    -5.08583e-05        0.0502943        0.333936
538000                  -0.26853       -0.502887      1.38659e-05     9.01351e-05        -0.411905       -0.150177      0.000204736    -7.66713e-05
                     1.47805e-05     0.000125732        -0.144174        0.120469      8.13996e-05     3.84152e-05        -0.997512       0.0704946
                       -0.411935       -0.150172      8.76553e-05     3.21864e-05         0.345194        0.586076      3.01813e-05    -5.17049e-05
                     0.000239319    -5.91263e-05        -0.997513       0.0704896      3.33942e-05    -4.85665e-05        0.0555209         0.34644
541200                 -0.209684        -0.55291      5.27828e-06     0.000115424        -0.362002       -0.127062      0.000233699    -8.32017e-05
                      4.4063e-06     0.000152391        -0.170709       0.0765701      7.84115e-05     4.34216e-05        -0.997011       0.0772653
                       -0.362038        -0.12705      8.61233e-05     3.62453e-05         0.377677        0.590854      2.14619e-05    -4.72082e-05
                     0.000273632    -6.82475e-05        -0.997011       0.0772596      2.91817e-05    -4.60182e-05        0.0601209        0.361194
544400                 -0.131082       -0.604842     -5.98225e-06     0.000142617        -0.306204       -0.110916      0.000263886    -9.29293e-05
                    -8.99885e-06     0.000180941        -0.196227       0.0123711      7.51284e-05     4.89236e-05        -0.996274       0.0862394
                       -0.306246       -0.110896      8.44654e-05     4.06824e-05         0.414181        0.594798      1.16028e-05    -4.19747e-05
                     0.000309128    -8.17425e-05        -0.996275       0.0862329      2.45501e-05    -4.31687e-05        0.0635517         0.37855
547600                -0.0256611       -0.653914     -2.05515e-05     0.000171689        -0.245972       -0.103538      0.000294919    -0.000106334
                    -2.61334e-05     0.000211294        -0.210695      -0.0823578      7.15045e-05     5.49987e-05        -0.995117       0.0987019
                       -0.246017       -0.103507      8.26659e-05     4.55532e-05         0.455393        0.597463       3.6871e-07    -3.58145e-05
                     0.000345143    -0.000100209        -0.995118       0.0986943      1.94343e-05    -3.99623e-05        0.0650206        0.398803
550800                  0.114647       -0.689994     -3.91925e-05     0.000202494         -0.18343        -0.10629      0.000326273    -0.000123869
                    -4.78244e-05     0.000243218        -0.188134       -0.215964      6.74836e-05     6.17414e-05        -0.993111        0.117178
                       -0.183473       -0.106247      8.07061e-05     5.09241e-05         0.502129        0.598208     -1.25438e-05    -2.84686e-05
                     0.000380791    -0.000124143        -0.993112        0.117169       1.3755e-05    -3.63292e-05        0.0634215        0.422077
554000                  0.295639       -0.693963        -6.28e-05     0.000234707        -0.121182       -0.119812      0.000357264    -0.000145914
                     -7.5024e-05     0.000276263       -0.0793908        -0.36971      6.29969e-05     6.92681e-05        -0.989075        0.147412
                       -0.121221       -0.119758      7.85641e-05     5.68764e-05         0.555349        0.596117     -2.75321e-05    -1.95753e-05
                     0.000414973    -0.000153856        -0.989077          0.1474      7.41516e-06    -3.21802e-05        0.0573121        0.448117
557200                  0.511938       -0.635488     -9.23861e-05     0.000267742       -0.0619902       -0.143837      0.000387051     -0.00017272
                    -0.000108781     0.000309671         0.142765       -0.453812      5.79584e-05     7.77239e-05        -0.978568        0.205923
                      -0.0620213       -0.143774       7.6214e-05     6.35095e-05         0.616158        0.589866     -4.51251e-05    -8.61604e-06
                     0.000446421    -0.000189382        -0.978572        0.205905      2.94361e-07    -2.74001e-05        0.0450105        0.476002
560400                  0.731928        -0.48089     -0.000129032     0.000300646      -0.00838296       -0.177182      0.000414665    -0.000204347
                    -0.000150167     0.000342267         0.377908       -0.376824      5.22596e-05     8.72922e-05        -0.929406        0.369059
                       -0.008404       -0.177112      7.36248e-05      7.0947e-05         0.685782        0.577539     -6.60396e-05     5.17713e-06
                     0.000473784      -0.0002304         -0.92942        0.369023     -7.75826e-06    -2.18377e-05        0.0249243        0.503837
563600                  0.891468       -0.222091     -0.000173784     0.000331984        0.0376952       -0.217935      0.000439056    -0.000240605
                    -0.000200143     0.000372346         0.498713       -0.206849      4.57616e-05      9.8208e-05         0.861954       -0.506986
                       0.0376854       -0.217863      7.07596e-05     7.93441e-05         0.765461        0.556357     -9.12648e-05     2.29841e-05
                     0.000495747    -0.000276186         0.861967       -0.506964      -1.6934e-05    -1.52906e-05      -0.00380784        0.528625
564000                  0.903552       -0.184233     -0.000179994     0.000335697         0.042859       -0.223437      0.000441825    -0.000245443
                     -0.00020703     0.000375821         0.505258       -0.185468      4.48847e-05     9.96816e-05         0.486856       -0.679306
                       0.0428506       -0.223364      7.03799e-05     8.04705e-05         0.776184        0.552904     -9.47847e-05     2.55757e-05
                     0.000498054    -0.000282192         0.486891       -0.679289     -1.81715e-05    -1.43902e-05      -0.00799466        0.531326
566800                  0.927087       0.0913858     -0.000227466     0.000359736        0.0750919       -0.263777      0.000459176    -0.000281016
                    -0.000259324     0.000397597          0.51639      -0.0541711      3.82836e-05     0.000110778         -0.55754       -0.260242
                       0.0750932       -0.263704      6.75739e-05     8.88986e-05         0.853695        0.520774     -0.000122189     4.66998e-05
                     0.000511187    -0.000325615        -0.557531       -0.260224     -2.74785e-05    -7.48197e-06       -0.0404903        0.546647
570000                  0.832976         0.37384     -0.000290392     0.000381258         0.103477       -0.312327      0.000474074    -0.000324796
                    -0.000327663     0.000415116         0.489824       0.0512337       2.9586e-05     0.000125408         -0.73555       -0.141725
                        0.103489       -0.312258      6.40138e-05     9.98663e-05         0.897947        0.440104     -0.000160779     7.95333e-05
