! TOUCHSTONE file generated by CST MICROWAVE STUDIO
! Date and time: Mon Oct 20 08:27:40 2025
! Project name: Teste_Macro_Metasurface_Nanopilar.cst
! Parameters = {H=600; L_x=160; L_y=100; Lambda=1064; Max_L=200; Min_L=70; PathPara=1; Phi=0; Step_L=10; Theta=0; p=520; phaseX=180; phaseY=0}
! Header version: 2018
! Port assignment regex: !\s*Touchstone port\s*([0-9]+)\s*=\s*(CST MWS port|CST DS port)\s*([0-9]+|Zmin|Zmax)\s*\(\"(.*)\"\)(\s*mode\s*([0-9]+))?.*
! Touchstone port assignment:
! Touchstone port 1 = CST MWS port Zmax ("") mode 1
! Touchstone port 2 = CST MWS port Zmax ("") mode 2
! Touchstone port 3 = CST MWS port Zmin ("") mode 1
! Touchstone port 4 = CST MWS port Zmin ("") mode 2
! S-Parameters are not renormalized. Each port impedance will be approximated by the real part at minimum frequency. The values are described via the [Reference] keyword.
! Default impedance is overridden by [Reference]
[Version] 2.0
# GHz S RI R 376.73
[Number of Ports] 4
[Reference]
376.73 376.73 259.888 259.888 
[Number of Frequencies] 52
[Network Data]
474000                 0.0703797       -0.755351      0.000330918    -0.000130727        -0.300427        0.320132      0.000455283    -0.000166881
                     0.000303749    -0.000126632         0.351849        0.214117     -2.68246e-05     0.000307302        -0.808164       -0.385148
                       -0.300428          0.3201     -2.50329e-05     0.000346116        -0.626086        0.516187     -3.16284e-05     0.000467014
                      0.00047396    -0.000157601        -0.808123       -0.385192     -4.66801e-05     0.000453458        -0.373778       -0.137403
477200                 0.0499795       -0.744947      0.000335193    -0.000127172        -0.292625        0.323232      0.000459859    -0.000164394
                     0.000307708    -0.000123412         0.363432        0.211446     -2.73836e-05     0.000312533         -0.78731       -0.376326
                       -0.292626          0.3232      -2.5271e-05     0.000351466        -0.635165        0.531418     -3.89346e-05     0.000472492
                     0.000478362    -0.000155163        -0.787271       -0.376369     -5.37169e-05     0.000458556        -0.377426       -0.135751
480400                 0.0296367       -0.733489      0.000339772    -0.000123275        -0.284318        0.326463      0.000464703    -0.000161723
                     0.000311952    -0.000119884         0.375788        0.208299      -2.7865e-05     0.000318201        -0.765942       -0.367828
                       -0.284319        0.326432     -2.54017e-05     0.000357259        -0.644807        0.548526     -4.69452e-05     0.000478306
                     0.000483021    -0.000152546        -0.765906       -0.367871     -6.14239e-05     0.000463965        -0.381355       -0.133945
483600                0.00942052       -0.720954      0.000344689    -0.000118988        -0.275456        0.329833      0.000469839    -0.000158849
                      0.00031651    -0.000116006         0.388984        0.204592     -2.82423e-05     0.000324356         -0.74406       -0.359679
                       -0.275458        0.329801     -2.53943e-05     0.000363544        -0.655021        0.567855     -5.57621e-05     0.000484483
                     0.000487962     -0.00014973        -0.744027        -0.35972     -6.98969e-05      0.00046971        -0.385597       -0.131963
486800                -0.0105953       -0.707322      0.000349978     -0.00011425        -0.265983        0.333347      0.000475293    -0.000155748
                     0.000321418    -0.000111724         0.403094        0.200223     -2.84815e-05     0.000331061        -0.721665       -0.351904
                       -0.265985        0.333315     -2.52099e-05     0.000370381        -0.665797        0.589829     -6.55061e-05     0.000491048
                      0.00049321    -0.000146691        -0.721634       -0.351944     -7.92499e-05     0.000475814        -0.390192       -0.129776
490000                -0.0303327       -0.692579      0.000355683    -0.000108991        -0.255835        0.337011      0.000481095    -0.000152394
                     0.000326715    -0.000106975         0.418198        0.195073     -2.85389e-05     0.000338381        -0.698757       -0.344529
                       -0.255837        0.336979     -2.47987e-05     0.000377839         -0.67709        0.614982     -7.63227e-05     0.000498026
                     0.000498794    -0.000143405        -0.698729       -0.344568     -8.96195e-05       0.0004823        -0.395185       -0.127355
493200                -0.0497103       -0.676719      0.000361849    -0.000103125        -0.244937        0.340832       0.00048728    -0.000148755
                     0.000332446    -0.000101681         0.434379        0.188993     -2.83577e-05     0.000346397         -0.67534        -0.33758
                       -0.244939        0.340799     -2.40969e-05     0.000385993        -0.688795        0.643982     -8.83874e-05      0.00050544
                     0.000504747    -0.000139839        -0.675314       -0.337618     -0.000101171      0.00048919        -0.400629        -0.12466
496400                -0.0686434       -0.659741      0.000368529    -9.65443e-05        -0.233206        0.344814      0.000493884    -0.000144795
                     0.000338662    -9.57491e-05         0.451726        0.181806     -2.78645e-05     0.000355198        -0.651418       -0.331086
                       -0.233209        0.344781     -2.30224e-05     0.000394933        -0.700711         0.67768     -0.000101914     0.000513308
                     0.000511105     -0.00013596        -0.651394       -0.331122     -0.000114104     0.000496501        -0.406589       -0.121643
499600                -0.0870454       -0.641655      0.000375783    -8.91196e-05        -0.220546        0.348961      0.000500953     -0.00014047
                     0.000345422     -8.9062e-05         0.470327        0.173296     -2.69629e-05     0.000364887        -0.626996       -0.325074
                       -0.220549        0.348927     -2.14687e-05     0.000404756         -0.70479        0.709416     -0.000117164      0.00052164
                      0.00051791    -0.000131723        -0.626974       -0.325108     -0.000128664     0.000504243        -0.413138       -0.118246
502800                 -0.104828       -0.622477      0.000383677    -8.06878e-05        -0.206843        0.353275      0.000508533    -0.000135733
                     0.000352791    -8.14747e-05          0.49027        0.163198     -2.55272e-05     0.000375578        -0.602081       -0.319572
                       -0.206846        0.353241      -1.9297e-05     0.000415575        -0.687686        0.726008      -0.00013446     0.000530432
                     0.000525211    -0.000127082        -0.602061       -0.319605     -0.000145155     0.000512412        -0.420368       -0.114396
506000                 -0.121902       -0.602232      0.000392287    -7.10435e-05        -0.191967        0.357756      0.000516683    -0.000130521
                     0.000360845    -7.28044e-05         0.511633        0.151191     -2.33911e-05     0.000387402        -0.576681       -0.314611
                       -0.191971        0.357722      -1.6326e-05     0.000427511        -0.666563        0.745449     -0.000154204     0.000539652
                     0.000533061    -0.000121976        -0.576664       -0.314642     -0.000163952     0.000520983         -0.42839       -0.109998
509200                 -0.138181       -0.580954      0.000401691    -5.99254e-05        -0.175766        0.362399      0.000525465    -0.000124765
                     0.000369667     -6.2818e-05         0.534477        0.136879     -2.03348e-05     0.000400499        -0.550808       -0.310218
                        -0.17577        0.362364     -1.23168e-05     0.000440695        -0.640099        0.768292       -0.0001769     0.000549227
                     0.000541523    -0.000116337        -0.550792       -0.310248     -0.000185527     0.000529891        -0.437336       -0.104933
512400                 -0.153576       -0.558687      0.000411976    -4.69968e-05        -0.158059        0.367193      0.000534955    -0.000118379
                     0.000379348    -5.12149e-05         0.558829        0.119781     -1.60663e-05     0.000415016        -0.524473       -0.306424
                       -0.158064        0.367158     -6.95448e-06     0.000455259         -0.60643        0.795137     -0.000203183     0.000559017
                     0.000550667    -0.000110081        -0.524459       -0.306452     -0.000210474     0.000539011        -0.447373      -0.0990465
515600                 -0.168006       -0.535485      0.000423222    -3.18177e-05        -0.138635        0.372121      0.000545236     -0.00011126
                     0.000389981    -3.76022e-05          0.58466       0.0993088     -1.01967e-05     0.000431098         -0.49769       -0.303259
                       -0.138641        0.372085      1.77149e-07     0.000471322          -0.5629        0.826525     -0.000233856     0.000568765
                     0.000560578    -0.000103105        -0.497678       -0.303285     -0.000239547     0.000548117        -0.458706      -0.0921306
518800                  -0.18139       -0.511408      0.000435497    -1.38066e-05        -0.117242        0.377152      0.000556408    -0.000103281
                     0.000401657     -2.1459e-05          0.61185       0.0747506     -2.20881e-06     0.000448862        -0.470475       -0.300752
                       -0.117249        0.377116      9.62758e-06     0.000488967        -0.505753        0.862678     -0.000269943     0.000578034
                      0.00057135    -9.52861e-05        -0.470464       -0.300777     -0.000273706     0.000556819        -0.471594      -0.0839077
522000                 -0.193655       -0.486527      0.000448827     7.81624e-06       -0.0935761        0.382239      0.000568584    -9.42853e-05
                     0.000414442    -2.08443e-06         0.640138        0.045253      8.58188e-06      0.00046836        -0.442846       -0.298934
                      -0.0935837        0.382203      2.21175e-05     0.000508192        -0.429817        0.902916     -0.000312737     0.000586083
                     0.000583094    -8.64705e-05        -0.442837       -0.298956     -0.000314175     0.000564455        -0.486364      -0.0739948
525200                 -0.204732       -0.460921       0.00046315     3.41102e-05       -0.0672737        0.387311      0.000581898    -8.40801e-05
                     0.000428344     2.14785e-05         0.669052      0.00981244      2.30705e-05     0.000489513        -0.414822       -0.297833
                      -0.0672822        0.387275      3.85781e-05     0.000528837         -0.32854         0.94449     -0.000363858     0.000591673
                     0.000595939    -7.64672e-05        -0.414815       -0.297853     -0.000362491     0.000569916        -0.503437       -0.061852
528400                 -0.214561       -0.434675       0.00047822     6.65309e-05       -0.0378921        0.392263      0.000596503    -7.24208e-05
                     0.000443239     5.05553e-05         0.697804       -0.032716      4.23985e-05     0.000511986        -0.386427       -0.297478
                      -0.0379016        0.392227      6.01784e-05      0.00055045        -0.195279        0.980748     -0.000425269     0.000592744
                     0.000610035    -6.50362e-05         -0.38642       -0.297497     -0.000420547      0.00057135        -0.523354       -0.046698
531600                 -0.223091       -0.407881      0.000493415     0.000107094      -0.00489042        0.396936      0.000612579    -5.89971e-05
                     0.000458716     8.70039e-05          0.72516      -0.0835715      6.79548e-05     0.000535012        -0.357683         -0.2979
                     -0.00490105          0.3969      8.83065e-05     0.000572093       -0.0274663        0.999623     -0.000499175     0.000585882
                     0.000625555    -5.18713e-05        -0.357677       -0.297917     -0.000490528      0.00056567        -0.546812      -0.0273663
534800                 -0.230277       -0.380638      0.000507371     0.000158584         0.032397        0.401099      0.000630335    -4.34091e-05
                      0.00047378     0.000133441         0.749274       -0.143973      0.000101281     0.000557117        -0.328617       -0.299125
                       0.0323852        0.401063      0.000124438     0.000592058         0.166222        0.986088     -0.000587601     0.000565514
                     0.000642703    -3.65784e-05        -0.328613        -0.29914     -0.000574583     0.000547788        -0.574706     -0.00205341
538000                 -0.236088       -0.353047      0.000517239     0.000224754        0.0747955        0.404406      0.000650008    -2.51349e-05
                     0.000486218     0.000193513         0.767522       -0.214893      0.000143779      0.00057579        -0.299258       -0.301181
                       0.0747824        0.404371      0.000169777     0.000607554         0.362288        0.932066     -0.000691203     0.000522812
                      0.00066171    -1.86419e-05        -0.299254       -0.301194      -0.00067383      0.00050951        -0.608132        0.032144
541200                   -0.2405       -0.325212      0.000517252     0.000310268         0.123334        0.406345       0.00067187     -3.4835e-06
                     0.000491322     0.000272052         0.776376       -0.296675      0.000196073      0.00058723        -0.269635       -0.304094
                        0.123319        0.406311      0.000224543     0.000614509         0.532606        0.846363     -0.000806474     0.000444799
                     0.000682839     2.62151e-06        -0.269633       -0.304105      -0.00078588     0.000438439        -0.648265       0.0801162
544400                 -0.243502        -0.29724      0.000496133     0.000419529         0.179299        0.406144      0.000696216     2.24746e-05
                     0.000479387     0.000374457         0.771461       -0.388469       0.00025697     0.000586491        -0.239783       -0.307889
                        0.179284        0.406112      0.000286871     0.000607887         0.661324          0.7501     -0.000920463     0.000315515
                     0.000706375     2.81324e-05        -0.239781       -0.307898     -0.000899814     0.000318433        -0.695737        0.150508
547600                 -0.245093       -0.269238      0.000433517     0.000552001         0.244307        0.402631      0.000723347     5.40105e-05
                     0.000431601     0.000503173         0.747951       -0.487539       0.00032231     0.000568542        -0.209736       -0.312589
                         0.24429          0.4026      0.000351757     0.000582994         0.748985        0.662587       -0.0010043     0.000123614
                     0.000732607     5.91521e-05        -0.209735       -0.312597     -0.000989068     0.000135863         -0.74816        0.259264
550800                 -0.245281       -0.241312      0.000299744     0.000689623          0.32037        0.394001      0.000753524     9.28934e-05
                     0.000317062     0.000646155         0.701501       -0.588686      0.000384637     0.000530472         -0.17953       -0.318217
                        0.320352        0.393974      0.000411077      0.00053787          0.66733         0.49311      -0.00101464     -0.00011992
                     0.000761781     9.74392e-05        -0.179529       -0.318223       -0.0010101     -0.00010318        -0.790794        0.435823
554000                 -0.244087       -0.213564      7.51005e-05     0.000778334         0.409954        0.377442      0.000786852     0.000141628
                      0.00010647     0.000754415         0.629708        -0.68422      0.000434874     0.000473932        -0.149205       -0.324792
                        0.409936        0.377419      0.000455787      0.00047553           0.5699        0.373939     -0.000918352    -0.000366319
                     0.000793979     0.000145489        -0.149204       -0.324796     -0.000924159    -0.000353484        -0.725451        0.688274
557200                  -0.24154       -0.186094     -0.000199798     0.000741716         0.515955        0.348507      0.000823041     0.000203817
                    -0.000173493     0.000741849         0.533695       -0.764961      0.000465882     0.000405708        -0.118801       -0.332333
                        0.515939         0.34849      0.000479678     0.000403897         0.475811        0.293994     -0.000729202    -0.000548809
                     0.000828876     0.000206901        -0.118801       -0.332336     -0.000738267    -0.000544566        -0.402697        0.915333
560400                 -0.237679       -0.158997     -0.000416452     0.000567384         0.641425        0.300096      0.000860862     0.000284699
                    -0.000407939     0.000575676          0.41895       -0.822369      0.000475511     0.000335241       -0.0883616       -0.340856
                        0.641413        0.300087      0.000481997     0.000332714         0.390994        0.241001      -0.00050492     -0.00063259
                     0.000865175     0.000286917       -0.0883617       -0.340857     -0.000510441    -0.000634231          0.13898        0.990295
563600                 -0.232551       -0.132363     -0.000507182     0.000341666         0.788624        0.220842      0.000896959     0.000391871
                    -0.000508883     0.000343853         0.294593       -0.851034      0.000466743     0.000270781       -0.0579306       -0.350375
                        0.788622        0.220842      0.000466873     0.000269698         0.316793        0.206097     -0.000300823    -0.000631776
                     0.000899383     0.000393151       -0.0579308       -0.350375     -0.000301319    -0.000634018         0.602064        0.720465
564000                 -0.231824        -0.12907     -0.000510375     0.000314682         0.808564        0.207965      0.000901027     0.000407611
                    -0.000512499     0.000315911         0.278899       -0.852507      0.000464629     0.000263422       -0.0541296       -0.351635
                        0.808563        0.207966      0.000464064     0.000262628         0.308246        0.202681     -0.000278278    -0.000627469
                     0.000903177     0.000408769       -0.0541298       -0.351635     -0.000278254    -0.000629501         0.618615        0.654609
566800                 -0.226211       -0.106274     -0.000498492     0.000148075         0.956425       0.0928787      0.000923256     0.000535963
                    -0.000500278     0.000144282         0.171094       -0.850254      0.000445297     0.000217035        -0.027554       -0.360901
                         0.95644       0.0928876      0.000440545     0.000218667         0.252643        0.183276     -0.000141292    -0.000581339
                     0.000923108     0.000536233       -0.0275541       -0.360899     -0.000138742     -0.00058099         0.594224        0.282685
570000                 -0.218719       -0.080806     -0.000443867     1.04621e-05         0.995319      -0.0966447      0.000921513     0.000729967
                    -0.000442646     5.26158e-06        0.0575547         -0.8238      0.000416969     0.000175193       0.00272099       -0.372442
                         0.99532      -0.0966307      0.000408795     0.000180027         0.197342        0.168562     -2.63758e-05    -0.000510591
