! TOUCHSTONE file generated by CST MICROWAVE STUDIO
! Date and time: Mon Oct 20 08:27:21 2025
! Project name: Teste_Macro_Metasurface_Nanopilar.cst
! Parameters = {H=600; L_x=100; L_y=85; Lambda=1064; Max_L=200; Min_L=70; PathPara=1; Phi=0; Step_L=10; Theta=0; p=520; phaseX=180; phaseY=0}
! Header version: 2018
! Port assignment regex: !\s*Touchstone port\s*([0-9]+)\s*=\s*(CST MWS port|CST DS port)\s*([0-9]+|Zmin|Zmax)\s*\(\"(.*)\"\)(\s*mode\s*([0-9]+))?.*
! Touchstone port assignment:
! Touchstone port 1 = CST MWS port Zmax ("") mode 1
! Touchstone port 2 = CST MWS port Zmax ("") mode 2
! Touchstone port 3 = CST MWS port Zmin ("") mode 1
! Touchstone port 4 = CST MWS port Zmin ("") mode 2
! S-Parameters are not renormalized. Each port impedance will be approximated by the real part at minimum frequency. The values are described via the [Reference] keyword.
! Default impedance is overridden by [Reference]
[Version] 2.0
# GHz S RI R 376.73
[Number of Ports] 4
[Reference]
376.73 376.73 259.888 259.888 
[Number of Frequencies] 52
[Network Data]
474000                   0.15018       -0.932271      4.16043e-05     0.000116539        -0.123994        0.116588     -6.58803e-07    -0.000154861
                     4.19761e-05     0.000116593        -0.296625        0.132221     -0.000147014      6.6757e-05         -0.76749       -0.534795
                       -0.123993        0.116587      -0.00014741     6.72092e-05        -0.817154        0.485659      0.000206629     0.000141711
                    -8.71996e-07    -0.000155068        -0.767489       -0.534795      0.000205634     0.000141413       -0.0359611        0.330667
477200                  0.148054       -0.943039      4.19853e-05     0.000116603        -0.116105        0.115999     -1.21692e-05    -0.000151617
                     4.25547e-05     0.000116672        -0.294371        0.149898     -0.000147444     6.56484e-05        -0.764873        -0.53841
                       -0.116104        0.115998     -0.000147581     6.60056e-05        -0.794596        0.487852      0.000206526     0.000141082
                    -1.67954e-05    -0.000147851        -0.764873        -0.53841      0.000205422     0.000140324       -0.0328721        0.331664
480400                  0.145636       -0.954931      4.23841e-05      0.00011667        -0.107712        0.115298     -2.34644e-05    -0.000147598
                     4.31624e-05     0.000116756          -0.2909        0.168658     -0.000147893     6.44543e-05        -0.762051        -0.54227
                       -0.107712        0.115297     -0.000147753      6.4715e-05        -0.771437        0.489372      0.000206415     0.000140427
                    -3.14321e-05    -0.000139519        -0.762051        -0.54227      0.000205193     0.000139193       -0.0296292        0.332675
483600                  0.142865       -0.968134      4.28019e-05     0.000116741       -0.0987663        0.114465     -3.44671e-05     -0.00014283
                     4.38013e-05     0.000116845        -0.285978        0.188498     -0.000148363     6.31645e-05        -0.758997         -0.5464
                      -0.0987662        0.114464     -0.000147925     6.33278e-05        -0.747688        0.490165      0.000206297     0.000139745
                    -4.47245e-05     -0.00013031        -0.758997       -0.546401      0.000204946     0.000138017       -0.0262212        0.333698
486800                  0.139663       -0.982875      4.32402e-05     0.000116815       -0.0892132        0.113477     -4.51039e-05    -0.000137345
                     4.44739e-05      0.00011694        -0.279343        0.209379     -0.000148856     6.17673e-05        -0.755683       -0.550829
                      -0.0892134        0.113477     -0.000148095      6.1833e-05        -0.723366        0.490178      0.000206171     0.000139035
                    -5.66587e-05    -0.000120446        -0.755683        -0.55083      0.000204679     0.000136793       -0.0226358        0.334731
490000                  0.134765       -0.990878      4.37006e-05     0.000116892       -0.0789904        0.112308     -5.53068e-05    -0.000131188
                     4.51828e-05      0.00011704        -0.270701        0.231221      -0.00014937     6.02491e-05        -0.752074       -0.555591
                      -0.0789907        0.112308     -0.000148261     6.02177e-05        -0.698492        0.489353      0.000206035     0.000138295
                    -6.72566e-05    -0.000110134        -0.752074       -0.555592       0.00020439     0.000135519       -0.0188597        0.335771
493200                  0.128114       -0.991759      4.41846e-05     0.000116974       -0.0680269        0.110926     -6.50147e-05    -0.000124411
                     4.59313e-05     0.000117147        -0.259731        0.253882     -0.000149908     5.85938e-05        -0.748129       -0.560724
                      -0.0680274        0.110926      -0.00014842     5.84673e-05        -0.673091        0.487633       0.00020589     0.000137522
                    -7.65681e-05    -9.95528e-05        -0.748129       -0.560725      0.000204076     0.000134191       -0.0148781        0.336816
496400                  0.120586       -0.992703      4.46943e-05      0.00011706       -0.0562419        0.109289     -7.41749e-05    -0.000117071
                     4.67226e-05     0.000117262        -0.246089         0.27715     -0.000150468     5.67826e-05        -0.743801       -0.566272
                      -0.0562426        0.109289     -0.000148569     5.65644e-05        -0.647194        0.484961      0.000205733     0.000136714
                    -8.46637e-05    -8.88595e-05        -0.743801       -0.566274      0.000203736     0.000132807       -0.0106748        0.337862
499600                  0.111989       -0.993709      4.52316e-05     0.000117151        -0.043543        0.107351     -8.27432e-05    -0.000109232
                     4.75604e-05     0.000117384        -0.229428        0.300722      -0.00015105     5.47931e-05        -0.739032       -0.572288
                      -0.0435438        0.107351     -0.000148702     5.44887e-05        -0.620838        0.481279      0.000205565      0.00013587
                    -9.16268e-05     -7.8184e-05        -0.739032        -0.57229      0.000203367     0.000131362      -0.00623218        0.338904
502800                  0.102073       -0.994777      4.57989e-05     0.000117247       -0.0298237        0.105051     -9.06851e-05    -0.000100963
                     4.84492e-05     0.000117515        -0.209413        0.324187     -0.000151652     5.25987e-05        -0.733752       -0.578831
                      -0.0298247        0.105052     -0.000148813     5.22165e-05        -0.594065        0.476528      0.000205383     0.000134987
                    -9.75489e-05     -6.7632e-05        -0.733752       -0.578833      0.000202966     0.000129854      -0.00153058        0.339936
506000                 0.0905043       -0.995896      4.63988e-05     0.000117349       -0.0149616        0.102318     -9.79757e-05    -9.23336e-05
                     4.93936e-05     0.000117656        -0.185755        0.347015     -0.000152271     5.01671e-05        -0.727877       -0.585972
                      -0.0149627        0.102319     -0.000148893     4.97194e-05        -0.566925        0.470652      0.000205188     0.000134061
                    -0.000102524    -5.72871e-05        -0.727877       -0.585975      0.000202529     0.000128277       0.00345157        0.340951
509200                  0.076819       -0.997045      4.70342e-05     0.000117456       0.00118538       0.0990602       -0.0001046    -8.34131e-05
                      5.0399e-05     0.000117808        -0.158246        0.368554     -0.000152902     4.74594e-05        -0.721302       -0.593797
                      0.00118403       0.0990615     -0.000148932     4.69635e-05        -0.539471        0.463595      0.000204976     0.000133091
                    -0.000106646    -4.72132e-05        -0.721302         -0.5938      0.000202054     0.000126628       0.00873814        0.341941
512400                 0.0603612       -0.998177      4.77083e-05      0.00011757        0.0187819       0.0951641     -0.000110551    -7.42712e-05
                     5.14716e-05     0.000117973        -0.126809        0.388033     -0.000153536     4.44282e-05        -0.713899       -0.602404
                       0.0187804       0.0951657     -0.000148913     4.39082e-05        -0.511766        0.455305      0.000204746     0.000132072
                    -0.000110005    -3.74576e-05        -0.713898       -0.602408      0.000201534     0.000124901        0.0143555        0.342895
515600                 0.0401667       -0.999193      4.84247e-05     0.000117692        0.0380202       0.0904866     -0.000115831    -6.49749e-05
                     5.26182e-05     0.000118151       -0.0915456        0.404595     -0.000154161     4.10151e-05        -0.705503       -0.611914
                       0.0380186       0.0904885     -0.000148815     4.05045e-05        -0.483878         0.44573      0.000204497     0.000131001
                    -0.000112687    -2.80529e-05        -0.705502       -0.611918      0.000200966     0.000123092        0.0203328        0.343801
518800                 0.0147566       -0.999891      4.91877e-05     0.000117821        0.0591247        0.084845      -0.00012045    -5.55879e-05
                     5.38468e-05     0.000118344       -0.0527843        0.417336     -0.000154755     3.71476e-05        -0.695909       -0.622471
                        0.059123       0.0848471      -0.00014861     3.66924e-05        -0.455882        0.434825      0.000204226     0.000129874
                    -0.000114771    -1.90202e-05        -0.695908       -0.622475      0.000200345     0.000121195        0.0267023        0.344643
522000                -0.0182606       -0.999833      5.00018e-05      0.00011796        0.0823584       0.0780048     -0.000124425    -4.61695e-05
                     5.51666e-05     0.000118555       -0.0111119        0.425384     -0.000155288     3.27353e-05        -0.684849       -0.634249
                       0.0823566       0.0780072     -0.000148257     3.23988e-05         -0.42786        0.422549      0.000203931     0.000128687
                    -0.000116331     -1.0371e-05        -0.684848       -0.634255      0.000199663     0.000119204           0.0335        0.345403
525200                -0.0630179       -0.998012      5.08724e-05     0.000118108          0.10803       0.0696615     -0.000127778    -3.67745e-05
                      5.6588e-05     0.000118785        0.0326216        0.427984     -0.000155713     2.76639e-05        -0.671972       -0.647463
                        0.108028       0.0696641       -0.0001477     2.75332e-05        -0.399898        0.408864      0.000203608     0.000127435
                    -0.000117432    -2.10921e-06        -0.671971       -0.647469      0.000198915     0.000117112        0.0407656        0.346057
528400                 -0.127285       -0.991866      5.18055e-05     0.000118267           0.1365       0.0594157     -0.000130536    -2.74518e-05
                     5.81233e-05     0.000119039        0.0773338        0.424594     -0.000155955     2.17891e-05        -0.656812       -0.662372
                        0.136498       0.0594186     -0.000146858     2.19839e-05        -0.372091        0.393742      0.000203255     0.000126112
                    -0.000118136     5.76716e-06         -0.65681       -0.662379      0.000198091     0.000114912        0.0485429        0.346578
531600                 -0.227273       -0.973831      5.28083e-05     0.000118438         0.168192       0.0467378      -0.00013273    -1.82452e-05
                     5.97867e-05     0.000119318         0.121782        0.414968       -0.0001559     1.49266e-05        -0.638732       -0.679297
                         0.16819       0.0467409     -0.000145615      1.5612e-05        -0.344538        0.377161      0.000202868     0.000124712
                    -0.000118494     1.32645e-05        -0.638729       -0.679304      0.000197183     0.000112597        0.0568809        0.346931
534800                 -0.400516        -0.91629      5.38887e-05     0.000118622         0.203592       0.0309169     -0.000134392    -9.19267e-06
                     6.15949e-05     0.000119628         0.164666        0.399209     -0.000155368     6.84232e-06        -0.616847       -0.698628
                         0.20359       0.0309201       -0.0001438     8.24564e-06        -0.317342        0.359107      0.000202442     0.000123229
                    -0.000118555     2.03927e-05        -0.616844       -0.698636       0.00019618     0.000110159        0.0658333        0.347075
538000                 -0.721511       -0.692403      5.50562e-05     0.000118821         0.243255       0.0109873     -0.000135558    -3.26678e-07
                     6.35675e-05     0.000119973         0.204755        0.377774      -0.00015407    -2.75899e-06        -0.589894       -0.720836
                        0.243253       0.0109903     -0.000141156    -3.25944e-07        -0.290612        0.339576      0.000201972     0.000121656
                    -0.000118361     2.71637e-05         -0.58989       -0.720845       0.00019507     0.000107589        0.0754595        0.346957
541200                 -0.999136       0.0415573      5.63216e-05     0.000119038          0.28779       -0.014379     -0.000136265     8.32565e-06
                     6.57282e-05     0.000120359         0.240996        0.351431     -0.000151539     -1.4238e-05        -0.556021       -0.746467
                        0.287788      -0.0143764     -0.000137293    -1.03536e-05        -0.264458        0.318572      0.000201453     0.000119983
                    -0.000117949     3.35914e-05        -0.556015       -0.746477      0.000193838     0.000104876        0.0858246        0.346515
544400                 -0.737881        0.674931       5.7698e-05     0.000119274         0.337815        -0.04703     -0.000136547     1.67422e-05
                      6.8105e-05     0.000120794         0.272609        0.321176     -0.000147003    -2.80019e-05        -0.512414       -0.776093
                        0.337813       -0.047028     -0.000131604    -2.21158e-05        -0.238992        0.296111      0.000200877     0.000118203
                    -0.000117352     3.96906e-05        -0.512407       -0.776105      0.000192469     0.000102012        0.0969999        0.345671
547600                 -0.469344        0.883016      5.92005e-05     0.000119532         0.393857      -0.0895624     -0.000136442     2.49055e-05
                      7.0732e-05     0.000121287         0.299128        0.288122     -0.000139187    -4.44144e-05        -0.454659       -0.810139
                        0.393856      -0.0895618     -0.000123133    -3.58669e-05         -0.21433        0.272221      0.000200236     0.000116305
                    -0.000116597     4.54766e-05        -0.454649       -0.810152      0.000190943     9.89858e-05         0.109062        0.344328
550800                 -0.164782        0.603132      6.08473e-05     0.000119815         0.456123        -0.14565     -0.000135984     3.28025e-05
                     7.36508e-05      0.00012185         0.320399        0.253393     -0.000126004    -6.35097e-05        -0.375543       -0.848327
                        0.456122       -0.145651      -0.00011037     -5.1683e-05        -0.190583        0.246938       0.00019952     0.000114276
                     -0.00011571      5.0965e-05        -0.375529        -0.84834      0.000189237     9.57853e-05         0.122092        0.342367
554000               -0.00737159         0.32755      6.26603e-05     0.000120127         0.524007       -0.220482     -0.000135207     4.04237e-05
                     7.69127e-05     0.000122499         0.336545        0.218028      -0.00010423    -8.42357e-05        -0.262873       -0.888013
                        0.524005       -0.220486      -9.0971e-05    -6.90586e-05        -0.167864        0.220313      0.000198718     0.000112104
                    -0.000114713     5.61711e-05        -0.262852       -0.888024      0.000187327     9.23991e-05         0.136177         0.33964
557200                 0.0694596        0.141523      6.46659e-05     0.000120473         0.595104       -0.321262     -0.000134145     4.77631e-05
                     8.05817e-05     0.000123253         0.347902        0.182924     -6.97095e-05    -0.000102774       -0.0957077       -0.919039
                          0.5951       -0.321272     -6.15881e-05    -8.59486e-05        -0.146279        0.192406      0.000197815     0.000109775
                    -0.000113624     6.11102e-05       -0.0956787       -0.919045       0.00018518     8.88153e-05         0.151401        0.335966
560400                  0.111455      0.00967234      6.68965e-05     0.000120859         0.663274       -0.457493     -0.000132828     5.48179e-05
                      8.4739e-05     0.000124138         0.354949        0.148795     -1.98939e-05    -0.000110084         0.159368       -0.907616
                        0.663265        -0.45751     -1.85666e-05    -9.68742e-05        -0.125934         0.16329      0.000196796     0.000107271
                    -0.000112459     6.57971e-05         0.159405       -0.907605      0.000182762     8.50217e-05         0.167847        0.331117
563600                  0.136354      -0.0879642      6.93924e-05     0.000121292         0.715225       -0.640103     -0.000131284     6.15876e-05
                     8.94883e-05      0.00012519         0.358242        0.116174      3.90138e-05    -9.25647e-05         0.530847       -0.750794
                        0.715206       -0.640127      3.83613e-05     -9.0784e-05        -0.106923        0.133047       0.00019564     0.000104574
                    -0.000111234     7.02459e-05         0.530875       -0.750749       0.00018003     8.10066e-05         0.185585        0.324814
564000                  0.138712       -0.098397      6.97253e-05      0.00012135         0.719482       -0.666679     -0.000131077     6.24138e-05
                     9.01299e-05     0.000125335         0.358419        0.112222      4.61128e-05    -8.81069e-05         0.583274       -0.710743
                        0.719461       -0.666704      4.60767e-05    -8.80951e-05        -0.104646        0.129192      0.000195485     0.000104222
                    -0.000111077      7.0786e-05         0.583298       -0.710692      0.000179665     8.04886e-05         0.187896        0.323908
566800                  0.152029       -0.162903      7.22036e-05     0.000121781         0.637458       -0.770485     -0.000129542     6.80739e-05
                     9.49652e-05     0.000126457         0.358361       0.0854197       8.6671e-05    -4.41213e-05         0.892819       -0.229862
                        0.637425       -0.770512       9.7878e-05    -5.40941e-05       -0.0893384        0.101771      0.000194322     0.000101663
                    -0.000109959     7.44703e-05          0.89278       -0.229794      0.000176934     7.67594e-05         0.204664        0.316713
570000                  0.162356       -0.222112      7.53942e-05     0.000122338           0.4908       -0.871272     -0.000127626     7.42805e-05
                      0.00010135     0.000128007         0.355866       0.0567463      0.000103296     1.97034e-05         0.721283        0.592436
                        0.490752       -0.871299      0.000134899     1.33145e-05       -0.0732595       0.0695636      0.000192813     9.85125e-05
