! TOUCHSTONE file generated by CST MICROWAVE STUDIO
! Date and time: Wed Oct 15 17:33:31 2025
! Project name: Teste_Macro_Metasurface_Nanopilar.cst
! Parameters = {H=600; L_x=170; L_y=90; Lambda=1064; Max_L=200; Min_L=70; PathPara=1; Phi=0; Step_L=10; Theta=0; p=520; phaseX=180; phaseY=0}
! Header version: 2018
! Port assignment regex: !\s*Touchstone port\s*([0-9]+)\s*=\s*(CST MWS port|CST DS port)\s*([0-9]+|Zmin|Zmax)\s*\(\"(.*)\"\)(\s*mode\s*([0-9]+))?.*
! Touchstone port assignment:
! Touchstone port 1 = CST MWS port Zmax ("") mode 1
! Touchstone port 2 = CST MWS port Zmax ("") mode 2
! Touchstone port 3 = CST MWS port Zmin ("") mode 1
! Touchstone port 4 = CST MWS port Zmin ("") mode 2
! S-Parameters are not renormalized. Each port impedance will be approximated by the real part at minimum frequency. The values are described via the [Reference] keyword.
! Default impedance is overridden by [Reference]
[Version] 2.0
# GHz S RI R 376.73
[Number of Ports] 4
[Reference]
376.73 376.73 259.888 259.888 
[Number of Frequencies] 51
[Network Data]
281700                 -0.018149       0.0736341      0.000300201    -9.04873e-05        -0.833636       -0.541149     -0.000237708     5.69863e-05
                     0.000322523    -8.50948e-05        0.0950252        0.222185     -0.000243498    -0.000116279         0.919151       -0.293666
                       -0.833886       -0.541447     -0.000198763    -7.36895e-05       -0.0592605       0.0475164      0.000329044     0.000157999
                    -0.000187951     0.000112156         0.918703       -0.293725      0.000292856      0.00017931        0.0529549        0.234672
281702                -0.0181444       0.0736528      0.000300134    -9.05311e-05        -0.833795         -0.5409     -0.000237676     5.71211e-05
                     0.000322427    -8.52273e-05        0.0950522        0.222212     -0.000243507    -0.000116206         0.919042       -0.293976
                       -0.834046       -0.541198     -0.000198785    -7.36298e-05       -0.0592513       0.0475551       0.00032903     0.000157855
                     -0.00018788     0.000112212         0.918595       -0.294034      0.000292839      0.00017923        0.0531089        0.234673
281704                -0.0181397       0.0736716      0.000300067     -9.0575e-05        -0.833955       -0.540651     -0.000237645     5.72559e-05
                     0.000322331    -8.53599e-05        0.0950792         0.22224     -0.000243515    -0.000116132         0.918934       -0.294286
                       -0.834205       -0.540949     -0.000198807    -7.35702e-05        -0.059242       0.0475939      0.000329015     0.000157711
                    -0.000187809     0.000112268         0.918487       -0.294344      0.000292821      0.00017915         0.053263        0.234675
281706                 -0.018135       0.0736903           0.0003    -9.06188e-05        -0.834114       -0.540402     -0.000237613     5.73909e-05
                     0.000322236    -8.54923e-05        0.0951061        0.222267     -0.000243524    -0.000116059         0.918825       -0.294596
                       -0.834365         -0.5407     -0.000198829    -7.35108e-05       -0.0592328       0.0476326         0.000329     0.000157568
                    -0.000187739     0.000112324         0.918379       -0.294653      0.000292804      0.00017907        0.0534171        0.234676
281708                -0.0181303       0.0737091      0.000299932    -9.06625e-05        -0.834274       -0.540153     -0.000237581     5.75259e-05
                      0.00032214    -8.56248e-05        0.0951331        0.222295     -0.000243533    -0.000115985         0.918716       -0.294906
                       -0.834524       -0.540451     -0.000198851    -7.34516e-05       -0.0592235       0.0476714      0.000328985     0.000157424
                    -0.000187668      0.00011238         0.918271       -0.294963      0.000292787      0.00017899        0.0535712        0.234678
281710                -0.0181256       0.0737279      0.000299865    -9.07063e-05        -0.834433       -0.539904     -0.000237549      5.7661e-05
                     0.000322044    -8.57571e-05        0.0951601        0.222322     -0.000243541    -0.000115912         0.918607       -0.295215
                       -0.834684       -0.540202     -0.000198873    -7.33926e-05       -0.0592141       0.0477101       0.00032897      0.00015728
                    -0.000187597     0.000112436         0.918162       -0.295272       0.00029277      0.00017891        0.0537254        0.234679
281712                -0.0181209       0.0737466      0.000299797      -9.075e-05        -0.834592       -0.539655     -0.000237517     5.77962e-05
                     0.000321948    -8.58895e-05        0.0951871         0.22235      -0.00024355    -0.000115838         0.918498       -0.295525
                       -0.834843       -0.539952     -0.000198895    -7.33337e-05       -0.0592048       0.0477489      0.000328954     0.000157137
                    -0.000187526     0.000112492         0.918054       -0.295582      0.000292753      0.00017883        0.0538795         0.23468
281714                -0.0181162       0.0737654       0.00029973    -9.07937e-05        -0.834752       -0.539406     -0.000237484     5.79315e-05
                     0.000321852    -8.60218e-05        0.0952141        0.222377     -0.000243558    -0.000115765         0.918389       -0.295835
                       -0.835003       -0.539703     -0.000198916    -7.32749e-05       -0.0591955       0.0477876      0.000328939     0.000156993
                    -0.000187455     0.000112547         0.917946       -0.295891      0.000292736      0.00017875        0.0540337        0.234681
281716                -0.0181114       0.0737842      0.000299662    -9.08374e-05        -0.834911       -0.539157     -0.000237452     5.80668e-05
                     0.000321756     -8.6154e-05        0.0952411        0.222405     -0.000243567    -0.000115691          0.91828       -0.296144
                       -0.835162       -0.539454     -0.000198938    -7.32164e-05       -0.0591861       0.0478264      0.000328923      0.00015685
                    -0.000187384     0.000112603         0.917837         -0.2962      0.000292719      0.00017867         0.054188        0.234682
281718                -0.0181067       0.0738029      0.000299594    -9.08811e-05         -0.83507       -0.538908     -0.000237419     5.82022e-05
                      0.00032166    -8.62862e-05        0.0952681        0.222432     -0.000243575    -0.000115617          0.91817       -0.296454
                       -0.835321       -0.539204     -0.000198959    -7.31579e-05       -0.0591767       0.0478651      0.000328907     0.000156706
                    -0.000187313     0.000112659         0.917728       -0.296509      0.000292702      0.00017859        0.0543422        0.234682
281720                 -0.018102       0.0738217      0.000299526    -9.09247e-05        -0.835229       -0.538659     -0.000237386     5.83377e-05
                     0.000321564    -8.64183e-05        0.0952952         0.22246     -0.000243584    -0.000115544         0.918061       -0.296763
                        -0.83548       -0.538955      -0.00019898    -7.30997e-05       -0.0591672       0.0479039      0.000328891     0.000156563
                    -0.000187242     0.000112714         0.917619       -0.296819      0.000292685      0.00017851        0.0544965        0.234683
281722                -0.0180973       0.0738405      0.000299458    -9.09683e-05        -0.835388       -0.538409     -0.000237353     5.84732e-05
                     0.000321468    -8.65504e-05        0.0953222        0.222488     -0.000243592     -0.00011547         0.917951       -0.297073
                       -0.835639       -0.538705     -0.000199001    -7.30416e-05       -0.0591578       0.0479427      0.000328875     0.000156419
                    -0.000187171     0.000112769          0.91751       -0.297128      0.000292668      0.00017843        0.0546508        0.234684
281724                -0.0180926       0.0738592      0.000299389    -9.10119e-05        -0.835547        -0.53816      -0.00023732     5.86087e-05
                     0.000321371    -8.66825e-05        0.0953492        0.222515       -0.0002436    -0.000115396         0.917841       -0.297382
                       -0.835798       -0.538456     -0.000199022    -7.29837e-05       -0.0591483       0.0479815      0.000328859     0.000156276
                      -0.0001871     0.000112825         0.917401       -0.297437      0.000292651      0.00017835        0.0548051        0.234684
281726                -0.0180878        0.073878      0.000299321    -9.10554e-05        -0.835705        -0.53791     -0.000237286     5.87442e-05
                     0.000321275    -8.68145e-05        0.0953763        0.222543     -0.000243609    -0.000115322         0.917731       -0.297691
                       -0.835957       -0.538206     -0.000199043    -7.29259e-05       -0.0591388       0.0480202      0.000328843     0.000156133
                    -0.000187029      0.00011288         0.917292       -0.297746      0.000292635      0.00017827        0.0549595        0.234685
281728                -0.0180831       0.0738968      0.000299252     -9.1099e-05        -0.835864       -0.537661     -0.000237252     5.88798e-05
                     0.000321178    -8.69464e-05        0.0954033         0.22257     -0.000243617    -0.000115249         0.917622       -0.298001
                       -0.836116       -0.537957     -0.000199064    -7.28682e-05       -0.0591292        0.048059      0.000328826     0.000155989
                    -0.000186958     0.000112935         0.917183       -0.298055      0.000292618      0.00017819        0.0551139        0.234685
281730                -0.0180783       0.0739155      0.000299183    -9.11425e-05        -0.836023       -0.537411     -0.000237219     5.90153e-05
                     0.000321082    -8.70783e-05        0.0954304        0.222598     -0.000243625    -0.000115175         0.917511        -0.29831
                       -0.836275       -0.537707     -0.000199085    -7.28108e-05       -0.0591197       0.0480978      0.000328809     0.000155846
                    -0.000186886     0.000112991         0.917074       -0.298364      0.000292601      0.00017811        0.0552683        0.234685
281732                -0.0180736       0.0739343      0.000299114     -9.1186e-05        -0.836181       -0.537162     -0.000237184     5.91509e-05
                     0.000320985    -8.72102e-05        0.0954574        0.222625     -0.000243634    -0.000115101         0.917401       -0.298619
                       -0.836433       -0.537457     -0.000199105    -7.27535e-05       -0.0591101       0.0481366      0.000328792     0.000155703
                    -0.000186815     0.000113046         0.916964       -0.298673      0.000292584      0.00017803        0.0554227        0.234685
281734                -0.0180689       0.0739531      0.000299045    -9.12294e-05         -0.83634       -0.536912      -0.00023715     5.92865e-05
                     0.000320888     -8.7342e-05        0.0954845        0.222653     -0.000243642    -0.000115027         0.917291       -0.298929
                       -0.836592       -0.537208     -0.000199125    -7.26963e-05       -0.0591005       0.0481754      0.000328775      0.00015556
                    -0.000186744     0.000113101         0.916854       -0.298982      0.000292568      0.00017795        0.0555772        0.234686
281736                -0.0180641       0.0739719      0.000298976    -9.12729e-05        -0.836498       -0.536663     -0.000237115      5.9422e-05
                     0.000320792    -8.74737e-05        0.0955116         0.22268      -0.00024365    -0.000114953         0.917181       -0.299238
                       -0.836751       -0.536958     -0.000199146    -7.26393e-05       -0.0590909       0.0482142      0.000328758     0.000155417
                    -0.000186673     0.000113156         0.916745       -0.299291      0.000292551      0.00017787        0.0557317        0.234685
281738                -0.0180593       0.0739906      0.000298907    -9.13163e-05        -0.836656       -0.536413      -0.00023708     5.95576e-05
                     0.000320695    -8.76054e-05        0.0955387        0.222708     -0.000243659    -0.000114879          0.91707       -0.299547
                       -0.836909       -0.536708     -0.000199166    -7.25824e-05       -0.0590812       0.0482529      0.000328741     0.000155274
                    -0.000186601     0.000113211         0.916635         -0.2996      0.000292534      0.00017779        0.0558862        0.234685
281740                -0.0180546       0.0740094      0.000298838    -9.13597e-05        -0.836815       -0.536163     -0.000237045     5.96931e-05
                     0.000320598     -8.7737e-05        0.0955658        0.222736     -0.000243667    -0.000114805          0.91696       -0.299856
                       -0.837067       -0.536458     -0.000199186    -7.25257e-05       -0.0590716       0.0482917      0.000328723     0.000155131
                     -0.00018653     0.000113266         0.916525       -0.299909      0.000292518     0.000177709        0.0560407        0.234685
281742                -0.0180498       0.0740282      0.000298768    -9.14031e-05        -0.836973       -0.535913      -0.00023701     5.98287e-05
                     0.000320501    -8.78686e-05        0.0955929        0.222763     -0.000243675    -0.000114731         0.916849       -0.300165
                       -0.837226       -0.536208     -0.000199206    -7.24692e-05       -0.0590619       0.0483305      0.000328705     0.000154988
                    -0.000186459     0.000113321         0.916415       -0.300218      0.000292501     0.000177629        0.0561953        0.234685
281744                -0.0180451       0.0740469      0.000298699    -9.14464e-05        -0.837131       -0.535663     -0.000236974     5.99642e-05
                     0.000320404    -8.80001e-05          0.09562        0.222791     -0.000243683    -0.000114657         0.916738       -0.300474
                       -0.837384       -0.535958     -0.000199225    -7.24127e-05       -0.0590522       0.0483693      0.000328687     0.000154845
                    -0.000186387     0.000113376         0.916305       -0.300526      0.000292484     0.000177549        0.0563499        0.234684
281746                -0.0180403       0.0740657      0.000298629    -9.14898e-05        -0.837289       -0.535413     -0.000236939     6.00997e-05
                     0.000320307    -8.81315e-05        0.0956471        0.222818     -0.000243692    -0.000114583         0.916627       -0.300783
                       -0.837542       -0.535708     -0.000199245    -7.23565e-05       -0.0590424       0.0484081      0.000328669     0.000154703
                    -0.000186316     0.000113431         0.916195       -0.300835      0.000292468     0.000177469        0.0565045        0.234684
281748                -0.0180355       0.0740845      0.000298559    -9.15331e-05        -0.837447       -0.535163     -0.000236903     6.02351e-05
                     0.000320209    -8.82628e-05        0.0956742        0.222846       -0.0002437     -0.00011451         0.916516       -0.301092
                         -0.8377       -0.535458     -0.000199265    -7.23004e-05       -0.0590326        0.048447      0.000328651      0.00015456
                    -0.000186244     0.000113485         0.916084       -0.301144      0.000292451     0.000177389        0.0566591        0.234683
281750                -0.0180307       0.0741032      0.000298489    -9.15764e-05        -0.837605       -0.534913     -0.000236867     6.03706e-05
                     0.000320112     -8.8394e-05        0.0957013        0.222874     -0.000243708    -0.000114436         0.916405       -0.301401
                       -0.837858       -0.535208     -0.000199284    -7.22444e-05       -0.0590229       0.0484858      0.000328633     0.000154418
                    -0.000186172      0.00011354         0.915974       -0.301453      0.000292434     0.000177309        0.0568138        0.234683
281752                 -0.018026        0.074122      0.000298419    -9.16198e-05        -0.837763       -0.534663      -0.00023683      6.0506e-05
                     0.000320014    -8.85248e-05        0.0957284        0.222901     -0.000243717    -0.000114362         0.916294        -0.30171
                       -0.838016       -0.534957     -0.000199303    -7.21886e-05        -0.059013       0.0485246      0.000328614     0.000154275
                      -0.0001861     0.000113595         0.915863       -0.301761      0.000292418     0.000177228        0.0569685        0.234682
281754                -0.0180212       0.0741408      0.000298348    -9.16631e-05         -0.83792       -0.534413     -0.000236794     6.06415e-05
                     0.000319916    -8.86538e-05        0.0957556        0.222929     -0.000243726    -0.000114287         0.916182       -0.302019
                       -0.838174       -0.534707     -0.000199322    -7.21329e-05       -0.0590032       0.0485634      0.000328595     0.000154133
                    -0.000186028     0.000113652         0.915752        -0.30207      0.000292403     0.000177147        0.0571232        0.234681
281756                -0.0180164       0.0741595      0.000298278    -9.17064e-05        -0.838078       -0.534163     -0.000236757     6.07769e-05
                     0.000319822    -8.87984e-05        0.0957827        0.222956     -0.000243734    -0.000114212         0.916071       -0.302328
                       -0.838332       -0.534457     -0.000199341    -7.20773e-05       -0.0589933       0.0486022      0.000328576      0.00015399
                    -0.000185963     0.000113693         0.915642       -0.302378      0.000292387     0.000177068        0.0572779         0.23468
281758                -0.0180116       0.0741783      0.000298208    -9.17499e-05        -0.838236       -0.533913      -0.00023672     6.09122e-05
                     0.000319723    -8.89223e-05        0.0958099        0.222984     -0.000243741    -0.000114138         0.915959       -0.302637
                        -0.83849       -0.534206      -0.00019936    -7.20219e-05       -0.0589834        0.048641      0.000328557     0.000153848
                    -0.000185887     0.000113755         0.915531       -0.302687       0.00029237     0.000176988        0.0574327        0.234679
281760                -0.0180068       0.0741971      0.000298137    -9.17935e-05        -0.838393       -0.533662     -0.000236683     6.10476e-05
                     0.000319625    -8.90525e-05         0.095837        0.223012     -0.000243749    -0.000114064         0.915848       -0.302945
                       -0.838647       -0.533956     -0.000199379    -7.19665e-05       -0.0589735       0.0486799      0.000328538     0.000153706
                    -0.000185815      0.00011381          0.91542       -0.302995      0.000292353     0.000176908        0.0575875        0.234678
281762                 -0.018002       0.0742159      0.000298068    -9.18381e-05        -0.838551       -0.533412     -0.000236645      6.1183e-05
                     0.000319527    -8.91833e-05        0.0958642        0.223039     -0.000243757     -0.00011399         0.915736       -0.303254
                       -0.838805       -0.533705     -0.000199398     -7.1911e-05       -0.0589636       0.0487187      0.000328518     0.000153563
