! TOUCHSTONE file generated by CST MICROWAVE STUDIO
! Date and time: Wed Oct 15 17:33:21 2025
! Project name: Teste_Macro_Metasurface_Nanopilar.cst
! Parameters = {H=600; L_x=165; L_y=145; Lambda=1064; Max_L=200; Min_L=70; PathPara=1; Phi=0; Step_L=10; Theta=0; p=520; phaseX=180; phaseY=0}
! Header version: 2018
! Port assignment regex: !\s*Touchstone port\s*([0-9]+)\s*=\s*(CST MWS port|CST DS port)\s*([0-9]+|Zmin|Zmax)\s*\(\"(.*)\"\)(\s*mode\s*([0-9]+))?.*
! Touchstone port assignment:
! Touchstone port 1 = CST MWS port Zmax ("") mode 1
! Touchstone port 2 = CST MWS port Zmax ("") mode 2
! Touchstone port 3 = CST MWS port Zmin ("") mode 1
! Touchstone port 4 = CST MWS port Zmin ("") mode 2
! S-Parameters are not renormalized. Each port impedance will be approximated by the real part at minimum frequency. The values are described via the [Reference] keyword.
! Default impedance is overridden by [Reference]
[Version] 2.0
# GHz S RI R 376.73
[Number of Ports] 4
[Reference]
376.73 376.73 259.888 259.888 
[Number of Frequencies] 51
[Network Data]
281700                  0.310132       -0.212652      0.000177789    -0.000310999         0.888765       -0.192203      0.000365163      0.00029337
                      0.00018989    -0.000510616          0.17141      -0.0419311     -0.000130411     0.000512704         0.742027       -0.639277
                        0.888666       -0.192441     -0.000198733     0.000546735        -0.348389      -0.0927411      -0.00057868    -0.000215376
                      0.00025162      0.00059287         0.742602       -0.639768     -0.000634188    -0.000293739       -0.0660862        0.157625
281702                    0.3099       -0.212505      0.000177375    -0.000310883         0.888779       -0.192763      0.000365268     0.000292986
                     0.000189335    -0.000510415         0.171403      -0.0419006     -0.000129652     0.000512327         0.741828       -0.639512
                         0.88868       -0.192999     -0.000198249     0.000546411        -0.348248      -0.0922383     -0.000578524    -0.000215058
                     0.000252092     0.000592237         0.742406       -0.640005     -0.000634397    -0.000293268       -0.0659555        0.157666
281704                  0.309669       -0.212358      0.000176966    -0.000310772         0.888793       -0.193322      0.000365364      0.00029262
                      0.00018878    -0.000510212         0.171397        -0.04187     -0.000128896     0.000511951          0.74163       -0.639748
                        0.888694       -0.193557     -0.000197761     0.000546096        -0.348106      -0.0917362     -0.000578368    -0.000214741
                     0.000252564     0.000591604         0.742209       -0.640243     -0.000634602    -0.000292797       -0.0658247        0.157707
281706                  0.309438       -0.212212      0.000176563    -0.000310667         0.888806       -0.193881       0.00036545     0.000292259
                     0.000188226    -0.000510009          0.17139      -0.0418395     -0.000128141     0.000511575         0.741431       -0.639983
                        0.888708       -0.194115     -0.000197269     0.000545791        -0.347965       -0.091235     -0.000578212    -0.000214424
                     0.000253036      0.00059097         0.742012        -0.64048     -0.000634805    -0.000292326       -0.0656939        0.157748
281708                  0.309207       -0.212065      0.000176167     -0.00031057         0.888818       -0.194439      0.000365532     0.000291901
                     0.000187672    -0.000509804         0.171384       -0.041809     -0.000127389     0.000511199         0.741232       -0.640218
                        0.888721       -0.194672     -0.000196772     0.000545498        -0.347823      -0.0907344     -0.000578056    -0.000214108
                     0.000253507     0.000590337         0.741814       -0.640717     -0.000635005    -0.000291856       -0.0655631        0.157789
281710                  0.308977       -0.211918      0.000175778     -0.00031048          0.88883       -0.194997      0.000365609     0.000291544
                     0.000187119    -0.000509599         0.171377      -0.0417785     -0.000126638     0.000510823         0.741033       -0.640454
                        0.888733       -0.195229     -0.000196269     0.000545217        -0.347681      -0.0902347     -0.000577899    -0.000213793
                     0.000253977     0.000589704         0.741616       -0.640953     -0.000635203    -0.000291387       -0.0654323         0.15783
281712                  0.308748       -0.211772      0.000175396      -0.0003104         0.888841       -0.195555      0.000365684     0.000291187
                     0.000186566    -0.000509394          0.17137      -0.0417479      -0.00012589     0.000510448         0.740835       -0.640689
                        0.888745       -0.195786      -0.00019576      0.00054495        -0.347538      -0.0897357     -0.000577742    -0.000213478
                     0.000254447      0.00058907         0.741418       -0.641189     -0.000635398    -0.000290918       -0.0653015         0.15787
281714                  0.308519       -0.211625      0.000175022    -0.000310329         0.888852       -0.196112      0.000365757     0.000290831
                     0.000186014    -0.000509187         0.171364      -0.0417174     -0.000125143     0.000510073         0.740636       -0.640924
                        0.888757       -0.196342     -0.000195244     0.000544697        -0.347395      -0.0892374     -0.000577584    -0.000213164
                     0.000254917     0.000588436          0.74122       -0.641425      -0.00063559    -0.000290449       -0.0651706        0.157911
281716                   0.30829       -0.211479      0.000174658    -0.000310271         0.888862       -0.196669      0.000365829     0.000290474
                     0.000185462     -0.00050898         0.171357      -0.0416869     -0.000124399     0.000509698         0.740437       -0.641159
                        0.888767       -0.196898      -0.00019472     0.000544462        -0.347251        -0.08874     -0.000577426    -0.000212851
                     0.000255386     0.000587802         0.741021        -0.64166      -0.00063578    -0.000289981       -0.0650398        0.157951
281718                  0.308062       -0.211332      0.000174304    -0.000310225         0.888872       -0.197226      0.000365899     0.000290118
                      0.00018491    -0.000508772          0.17135      -0.0416565     -0.000123657     0.000509323         0.740238       -0.641393
                        0.888778       -0.197453     -0.000194187     0.000544246        -0.347107      -0.0882432     -0.000577268    -0.000212538
                     0.000255855     0.000587168         0.740821       -0.641895     -0.000635967    -0.000289514        -0.064909        0.157991
281720                  0.307834       -0.211186      0.000173961    -0.000310196         0.888881       -0.197782      0.000365968     0.000289762
                     0.000184359    -0.000508563         0.171343       -0.041626     -0.000122917     0.000508949         0.740039       -0.641628
                        0.888787       -0.198008     -0.000193645     0.000544051        -0.346963      -0.0877473     -0.000577109    -0.000212225
                     0.000256323     0.000586534         0.740621       -0.642129     -0.000636152    -0.000289046       -0.0647782        0.158032
281722                  0.307607        -0.21104       0.00017363    -0.000310184          0.88889       -0.198337      0.000366036     0.000289405
                     0.000183809    -0.000508354         0.171336      -0.0415956     -0.000122179     0.000508575         0.739839       -0.641863
                        0.888796       -0.198563     -0.000193091     0.000543879        -0.346819       -0.087252     -0.000576949    -0.000211913
                     0.000256791       0.0005859          0.74042       -0.642363     -0.000636334     -0.00028858       -0.0646473        0.158072
281724                   0.30738       -0.210893      0.000173313    -0.000310193         0.888898       -0.198893      0.000366103     0.000289049
                     0.000183258    -0.000508144         0.171329      -0.0415652     -0.000121443     0.000508201          0.73964       -0.642098
                        0.888805       -0.199117     -0.000192526     0.000543733        -0.346674      -0.0867576     -0.000576789    -0.000211601
                     0.000257258     0.000585266         0.740218       -0.642596     -0.000636514    -0.000288113       -0.0645165        0.158112
281726                  0.307154       -0.210747      0.000173012    -0.000310226         0.888905       -0.199448      0.000366169     0.000288693
                     0.000182709    -0.000507933         0.171322      -0.0415348      -0.00012071     0.000507827         0.739441       -0.642332
                        0.888813       -0.199671     -0.000191947     0.000543617        -0.346528      -0.0862639     -0.000576628     -0.00021129
                     0.000257725     0.000584631         0.740015       -0.642829     -0.000636691    -0.000287647       -0.0643857        0.158151
281728                  0.306928       -0.210601      0.000172727    -0.000310286         0.888912       -0.200002      0.000366235     0.000288337
                      0.00018216    -0.000507721         0.171315      -0.0415045     -0.000119978     0.000507454         0.739242       -0.642567
                         0.88882       -0.200224     -0.000191353     0.000543532        -0.346383      -0.0857709     -0.000576467    -0.000210979
                     0.000258191     0.000583996         0.739811        -0.64306     -0.000636865    -0.000287182       -0.0642548        0.158191
281730                  0.306702       -0.210455      0.000172461    -0.000310378         0.888919       -0.200557        0.0003663     0.000287981
                     0.000181611    -0.000507508         0.171308      -0.0414742     -0.000119249      0.00050708         0.739042       -0.642801
                        0.888827       -0.200778     -0.000190744     0.000543483        -0.346237      -0.0852787     -0.000576305    -0.000210669
                     0.000258657     0.000583362         0.739606       -0.643291     -0.000637037    -0.000286716        -0.064124        0.158231
281732                  0.306477       -0.210309      0.000172215    -0.000310506         0.888924        -0.20111      0.000366364     0.000287626
                     0.000181063    -0.000507295         0.171301      -0.0414439     -0.000118522     0.000506707         0.738843       -0.643035
                        0.888834        -0.20133     -0.000190119      0.00054347         -0.34609      -0.0847872     -0.000576142    -0.000210359
                     0.000259123     0.000582727         0.739398       -0.643521     -0.000637206    -0.000286251       -0.0639931        0.158271
281734                  0.306252       -0.210163      0.000171988    -0.000310672          0.88893       -0.201664      0.000366428      0.00028727
                     0.000180515    -0.000507081         0.171294      -0.0414137     -0.000117797     0.000506335         0.738643       -0.643269
                         0.88884       -0.201883     -0.000189478     0.000543496        -0.345944      -0.0842965     -0.000575979    -0.000210049
                     0.000259588     0.000582091         0.739189       -0.643751     -0.000637373    -0.000285787       -0.0638623         0.15831
281736                  0.306028       -0.210017       0.00017178    -0.000310879         0.888934       -0.202217      0.000366491     0.000286915
                     0.000179968    -0.000506866         0.171287      -0.0413835     -0.000117074     0.000505962         0.738443       -0.643504
                        0.888845       -0.202435     -0.000188822     0.000543557        -0.345797      -0.0838065     -0.000575815    -0.000209739
                     0.000260052     0.000581456         0.738977        -0.64398     -0.000637537    -0.000285323       -0.0637314        0.158349
281738                  0.305804       -0.209871      0.000171586    -0.000311121         0.888939        -0.20277      0.000366553     0.000286559
                     0.000179421     -0.00050665          0.17128      -0.0413534     -0.000116353      0.00050559         0.738244       -0.643738
                         0.88885       -0.202986     -0.000188158     0.000543646        -0.345649      -0.0833173      -0.00057565    -0.000209429
                     0.000260516      0.00058082         0.738762       -0.644209     -0.000637699    -0.000284859       -0.0636005        0.158389
281740                  0.305581       -0.209725      0.000171397    -0.000311384         0.888942       -0.203322      0.000366615     0.000286204
                     0.000178874    -0.000506433         0.171273      -0.0413232     -0.000115635     0.000505218         0.738044       -0.643972
                        0.888854       -0.203538     -0.000187493     0.000543744        -0.345501      -0.0828288     -0.000575485    -0.000209119
                      0.00026098     0.000580184         0.738546        -0.64444     -0.000637858    -0.000284396       -0.0634697        0.158428
281742                  0.305358       -0.209579      0.000171193    -0.000311629         0.888946       -0.203874      0.000366676     0.000285849
                     0.000178329    -0.000506216         0.171266      -0.0412931     -0.000114918     0.000504846         0.737844       -0.644206
                        0.888858       -0.204088     -0.000186846     0.000543809        -0.345353      -0.0823411     -0.000575319     -0.00020881
                     0.000261442     0.000579548          0.73833       -0.644672     -0.000638015    -0.000283933       -0.0633388        0.158467
281744                  0.305135       -0.209434      0.000170934    -0.000311779         0.888948       -0.204426      0.000366736     0.000285494
                     0.000177783    -0.000505998         0.171259      -0.0412629     -0.000114204     0.000504475         0.737644        -0.64444
                        0.888861       -0.204639     -0.000186248      0.00054377        -0.345205      -0.0818541     -0.000575153      -0.0002085
                     0.000261905     0.000578912         0.738118       -0.644906     -0.000638169     -0.00028347       -0.0632079        0.158506
281746                  0.304913       -0.209288      0.000170557    -0.000311694          0.88895       -0.204977      0.000366796      0.00028514
                     0.000177239    -0.000505779         0.171253      -0.0412326     -0.000113492     0.000504104         0.737444       -0.644673
                        0.888864       -0.205189     -0.000185756     0.000543498        -0.345056      -0.0813679     -0.000574986     -0.00020819
                     0.000262367     0.000578275          0.73792       -0.645141     -0.000638321    -0.000283008        -0.063077        0.158545
281748                  0.304692       -0.209142      0.000169954    -0.000311165         0.888952       -0.205528      0.000366855     0.000284785
                     0.000176695    -0.000505559         0.171247       -0.041202     -0.000112782     0.000503733         0.737244       -0.644907
                        0.888866       -0.205739      -0.00018546     0.000542786        -0.344907      -0.0808823     -0.000574819    -0.000207881
                     0.000262828     0.000577639         0.737745        -0.64538      -0.00063847    -0.000282546       -0.0629461        0.158584
281750                   0.30447       -0.208997      0.000168981    -0.000309977         0.888953       -0.206078      0.000366914     0.000284431
                     0.000176151    -0.000505339         0.171242      -0.0411711     -0.000112075     0.000503362         0.737044       -0.645141
                        0.888868       -0.206288     -0.000185505     0.000541355        -0.344757      -0.0803976     -0.000574651    -0.000207571
                     0.000263289     0.000577001           0.7376        -0.64563     -0.000638616    -0.000282085       -0.0628152        0.158623
281752                  0.304249       -0.208851      0.000167512    -0.000308091         0.888953       -0.206628      0.000366972     0.000284077
                     0.000175608    -0.000505117         0.171238      -0.0411402     -0.000111369     0.000502992         0.736844       -0.645374
                        0.888869       -0.206837     -0.000186085     0.000538935        -0.344607      -0.0799135     -0.000574483    -0.000207261
                     0.000263749     0.000576364         0.737466       -0.645908      -0.00063876    -0.000281625       -0.0626843        0.158661
281754                  0.304029       -0.208706      0.000165591     -0.00030582         0.888953       -0.207178      0.000367029     0.000283723
                     0.000175065    -0.000504895         0.171239      -0.0411122     -0.000110665     0.000502623         0.736644       -0.645608
                        0.888869       -0.207386     -0.000187372     0.000535478        -0.344457      -0.0794302     -0.000574315    -0.000206951
                     0.000264208     0.000575726          0.73731       -0.646203     -0.000638901    -0.000281165       -0.0625534          0.1587
281756                  0.303809       -0.208561      0.000163522    -0.000303685         0.888953       -0.207727      0.000367086     0.000283369
                     0.000174523    -0.000504672         0.171236      -0.0410926     -0.000109963     0.000502254         0.736444       -0.645841
                        0.888869       -0.207934     -0.000189334     0.000531402        -0.344307      -0.0789477     -0.000574146    -0.000206641
                     0.000264667     0.000575087         0.737126       -0.646488     -0.000639039    -0.000280706       -0.0624225        0.158738
281758                   0.30359       -0.208415      0.000161687    -0.000302038         0.888952       -0.208276      0.000367141     0.000283016
                     0.000173982    -0.000504448         0.171223      -0.0410697     -0.000109263     0.000501886         0.736244       -0.646074
                        0.888869       -0.208482     -0.000191574     0.000527488        -0.344156      -0.0784658     -0.000573977    -0.000206331
                     0.000265125     0.000574448         0.736928       -0.646755     -0.000639174    -0.000280249       -0.0622916        0.158776
281760                   0.30337        -0.20827       0.00016028    -0.000300923          0.88895       -0.208824      0.000367196     0.000282662
                     0.000173443    -0.000504221         0.171211      -0.0410401     -0.000108565     0.000501519         0.736043       -0.646308
                        0.888868       -0.209029     -0.000193506     0.000524384        -0.344005      -0.0779847     -0.000573808    -0.000206022
                     0.000265581     0.000573805         0.736725       -0.647007     -0.000639306    -0.000279794       -0.0621607        0.158815
281762                  0.303152       -0.208125      0.000159285    -0.000300219         0.888948       -0.209373       0.00036725      0.00028231
                     0.000172908    -0.000503989         0.171202      -0.0410093     -0.000107866     0.000501156         0.735843       -0.646541
                        0.888866       -0.209577     -0.000194752      0.00052227        -0.343853      -0.0775044     -0.000573638    -0.000205714
