! TOUCHSTONE file generated by CST MICROWAVE STUDIO
! Date and time: Wed Oct 15 17:33:21 2025
! Project name: Teste_Macro_Metasurface_Nanopilar.cst
! Parameters = {H=600; L_x=165; L_y=140; Lambda=1064; Max_L=200; Min_L=70; PathPara=1; Phi=0; Step_L=10; Theta=0; p=520; phaseX=180; phaseY=0}
! Header version: 2018
! Port assignment regex: !\s*Touchstone port\s*([0-9]+)\s*=\s*(CST MWS port|CST DS port)\s*([0-9]+|Zmin|Zmax)\s*\(\"(.*)\"\)(\s*mode\s*([0-9]+))?.*
! Touchstone port assignment:
! Touchstone port 1 = CST MWS port Zmax ("") mode 1
! Touchstone port 2 = CST MWS port Zmax ("") mode 2
! Touchstone port 3 = CST MWS port Zmin ("") mode 1
! Touchstone port 4 = CST MWS port Zmin ("") mode 2
! S-Parameters are not renormalized. Each port impedance will be approximated by the real part at minimum frequency. The values are described via the [Reference] keyword.
! Default impedance is overridden by [Reference]
[Version] 2.0
# GHz S RI R 376.73
[Number of Ports] 4
[Reference]
376.73 376.73 259.888 259.888 
[Number of Frequencies] 51
[Network Data]
281700                  0.377275        0.474034     -0.000400889    -0.000233415         0.368183        -0.66913      4.13254e-05     1.19947e-05
                     -0.00028934     0.000192801          0.18472       -0.086109      0.000430961    -0.000746982         0.791747       -0.566379
                        0.368497       -0.669399      0.000662399    -0.000506278         0.589202     -0.00291695     -0.000425784     0.000331602
                    -0.000202996     0.000287474         0.791845       -0.566391     -0.000582752    -0.000346671        -0.139277        0.139593
281702                  0.377829        0.474236     -0.000399865    -0.000231579         0.367353       -0.669067      4.20099e-05     1.19597e-05
                    -0.000289969     0.000193374           0.1847      -0.0860672      0.000430501    -0.000748144         0.791567       -0.566648
                        0.367662       -0.669337      0.000660624    -0.000506642         0.589678     -0.00382498     -0.000426445     0.000334131
                    -0.000202226     0.000288833         0.791666       -0.566659     -0.000583417     -0.00034643        -0.139139        0.139684
281704                  0.378384        0.474439     -0.000398805    -0.000229753         0.366523       -0.669002      4.27115e-05     1.19101e-05
                    -0.000290608     0.000193941          0.18468      -0.0860254      0.000430041    -0.000749308         0.791386       -0.566917
                        0.366827       -0.669273       0.00065882    -0.000506967         0.590153     -0.00473558     -0.000427078     0.000336654
                    -0.000201437      0.00029019         0.791487       -0.566927     -0.000584091    -0.000346188        -0.139001        0.139775
281706                  0.378939        0.474641     -0.000397702    -0.000227939         0.365691       -0.668936        4.343e-05     1.18439e-05
                    -0.000291258     0.000194501          0.18466      -0.0859835      0.000429582    -0.000750473         0.791205       -0.567186
                        0.365991       -0.669206      0.000656982    -0.000507248         0.590627     -0.00564875     -0.000427679     0.000339166
                    -0.000200626     0.000291545         0.791308       -0.567196     -0.000584774    -0.000345945        -0.138863        0.139865
281708                  0.379494        0.474843     -0.000396548    -0.000226137         0.364859       -0.668867      4.41649e-05     1.17586e-05
                    -0.000291924     0.000195051          0.18464      -0.0859417      0.000429124     -0.00075164         0.791024       -0.567455
                        0.365155       -0.669137      0.000655104    -0.000507478         0.591099     -0.00656448     -0.000428244      0.00034166
                    -0.000199796     0.000292898         0.791128       -0.567464     -0.000585468    -0.000345702        -0.138725        0.139956
281710                   0.38005        0.475045     -0.000395334    -0.000224349         0.364026       -0.668797      4.49156e-05     1.16512e-05
                    -0.000292608     0.000195592          0.18462      -0.0858998      0.000428668    -0.000752809         0.790843       -0.567724
                        0.364319       -0.669066      0.000653179    -0.000507647         0.591571     -0.00748277      -0.00042877     0.000344129
                    -0.000198944     0.000294249         0.790949       -0.567732     -0.000586175     -0.00034546        -0.138587        0.140045
281712                  0.380607        0.475247     -0.000394047    -0.000222576         0.363192       -0.668724      4.56807e-05     1.15181e-05
                    -0.000293317     0.000196122           0.1846      -0.0858579      0.000428216    -0.000753978         0.790661       -0.567992
                        0.363483       -0.668993      0.000651196    -0.000507743         0.592041     -0.00840361     -0.000429251     0.000346563
                    -0.000198072     0.000295596         0.790769       -0.567999       -0.0005869    -0.000345221        -0.138448        0.140135
281714                  0.381163        0.475448      -0.00039267     -0.00022082         0.362358        -0.66865      4.64587e-05     1.13549e-05
                    -0.000294057     0.000196642          0.18458      -0.0858159       0.00042777    -0.000755149          0.79048       -0.568261
                        0.362646       -0.668918      0.000649143    -0.000507753          0.59251     -0.00932701     -0.000429681      0.00034895
                    -0.000197177     0.000296939         0.790589       -0.568267     -0.000587644    -0.000344987        -0.138309        0.140224
281716                  0.381721        0.475648     -0.000391181    -0.000219085         0.361523       -0.668574      4.72471e-05     1.11563e-05
                    -0.000294836     0.000197154          0.18456      -0.0857739      0.000427333    -0.000756318         0.790298       -0.568529
                        0.361809       -0.668841      0.000647001    -0.000507658         0.592978      -0.0102529     -0.000430051     0.000351275
                     -0.00019626     0.000298278         0.790408       -0.568535     -0.000588414    -0.000344763         -0.13817        0.140313
281718                  0.382278        0.475847     -0.000389551    -0.000217374         0.360687       -0.668496      4.80424e-05     1.09157e-05
                    -0.000295666     0.000197662          0.18454      -0.0857317      0.000426907    -0.000757486         0.790116       -0.568797
                        0.360971       -0.668761       0.00064475    -0.000507433         0.593444      -0.0111814     -0.000430353     0.000353517
                    -0.000195321     0.000299612         0.790228       -0.568802     -0.000589216    -0.000344556        -0.138031        0.140402
281720                  0.382836        0.476045     -0.000387739    -0.000215693          0.35985       -0.668417      4.88399e-05     1.06247e-05
                    -0.000296558     0.000198175         0.184521      -0.0856893      0.000426498    -0.000758649         0.789933       -0.569065
                        0.360133        -0.66868      0.000642356    -0.000507045         0.593909      -0.0121124     -0.000430571     0.000355652
                    -0.000194358      0.00030094         0.790047        -0.56907     -0.000590056    -0.000344377        -0.137891        0.140491
281722                  0.383395        0.476242     -0.000385688    -0.000214053         0.359013       -0.668335      4.96327e-05     1.02724e-05
                    -0.000297526      0.00019871         0.184501      -0.0856466      0.000426111      -0.0007598         0.789751       -0.569334
                        0.359295       -0.668596      0.000639775    -0.000506449         0.594374       -0.013046      -0.00043069     0.000357644
                    -0.000193372     0.000302262         0.789866       -0.569337     -0.000590941    -0.000344246        -0.137752        0.140579
281724                  0.383955        0.476438     -0.000383315    -0.000212468         0.358174       -0.668252      5.04116e-05     9.84459e-06
                    -0.000298579     0.000199293         0.184482      -0.0856032      0.000425756     -0.00076093         0.789568       -0.569602
                        0.358456       -0.668511      0.000636944    -0.000505584         0.594837      -0.0139821     -0.000430685     0.000359445
                    -0.000192362     0.000303578         0.789684       -0.569604     -0.000591876    -0.000344195        -0.137612        0.140667
281726                  0.384516        0.476633     -0.000380495    -0.000210958         0.357335       -0.668167      5.11635e-05     9.32221e-06
                    -0.000299717      0.00019996         0.184462      -0.0855586      0.000425441    -0.000762019         0.789385        -0.56987
                        0.357617       -0.668423      0.000633763    -0.000504362         0.595299      -0.0149207     -0.000430522     0.000360988
                    -0.000191327     0.000304886         0.789503       -0.569871      -0.00059285    -0.000344276        -0.137472        0.140755
281728                  0.385078        0.476826      -0.00037703    -0.000209559         0.356496       -0.668079      5.18699e-05     8.67863e-06
                    -0.000300921     0.000200755         0.184442      -0.0855117      0.000425173     -0.00076303         0.789201       -0.570138
                        0.356777       -0.668333      0.000630078    -0.000502654         0.595759      -0.0158618     -0.000430151     0.000362174
                    -0.000190267     0.000306187         0.789321       -0.570138     -0.000593815    -0.000344561        -0.137331        0.140842
281730                  0.385642        0.477019     -0.000372595     -0.00020833         0.355655        -0.66799      5.25042e-05     7.87571e-06
                    -0.000302144     0.000201715         0.184417      -0.0854614      0.000424934    -0.000763901         0.789018       -0.570405
                        0.355936       -0.668242      0.000625632    -0.000500266         0.596219      -0.0168054     -0.000429499     0.000362853
                    -0.000189182     0.000307478         0.789138       -0.570405     -0.000594639    -0.000345119        -0.137191         0.14093
281732                  0.386207         0.47721     -0.000366602    -0.000207379         0.354813         -0.6679      5.30277e-05     6.85636e-06
                    -0.000303317     0.000202853         0.184379      -0.0854173      0.000424645    -0.000764543         0.788834       -0.570673
                        0.355096       -0.668148      0.000619965    -0.000496898         0.596678      -0.0177515     -0.000428442     0.000362786
                     -0.00018807      0.00030876         0.788956       -0.570672     -0.000595082    -0.000345904         -0.13705        0.141017
281734                  0.386774          0.4774     -0.000357889    -0.000206926         0.353971       -0.667807      5.33829e-05     5.53082e-06
                    -0.000304365     0.000204139         0.184349      -0.0853914      0.000424088     -0.00076493          0.78865       -0.570941
                        0.354254       -0.668052       0.00061218    -0.000492066         0.597135      -0.0187002     -0.000426773     0.000361562
                    -0.000186932     0.000310032         0.788773       -0.570939     -0.000594946     -0.00034661        -0.136909        0.141104
281736                  0.387343         0.47759     -0.000343787    -0.000207488         0.353128       -0.667713      5.34827e-05     3.74907e-06
                    -0.000305241     0.000205506         0.184334      -0.0853601      0.000423014    -0.000765316         0.788466       -0.571208
                        0.353412       -0.667955      0.000600306    -0.000485018         0.597592      -0.0196513     -0.000424099     0.000358416
                    -0.000185765     0.000311294         0.788589       -0.571206     -0.000594402    -0.000346803        -0.136768        0.141191
281738                  0.387914        0.477779     -0.000316538    -0.000210631         0.352284       -0.667616      5.31934e-05     1.24065e-06
                     -0.00030594     0.000206875         0.184318      -0.0853222      0.000421564    -0.000766153         0.788281       -0.571476
                         0.35257       -0.667855      0.000579285    -0.000474903         0.598047      -0.0206049     -0.000419579     0.000351735
                    -0.000184571     0.000312544         0.788406       -0.571473     -0.000593913    -0.000346392        -0.136627        0.141278
281740                  0.388487        0.477968     -0.000240187    -0.000224255         0.351439       -0.667518      5.23146e-05    -2.53142e-06
                    -0.000306496     0.000208183         0.184301       -0.085282      0.000420207    -0.000767495         0.788096       -0.571743
                        0.351727       -0.667754      0.000533466    -0.000464749         0.598502      -0.0215611     -0.000411032     0.000337432
                    -0.000183347     0.000313783         0.788222        -0.57174     -0.000593757    -0.000345642        -0.136486        0.141365
281742                  0.389061        0.478156       0.00125307    -0.000914272         0.350593       -0.667418      5.06016e-05    -8.77345e-06
                     -0.00030696       0.0002094         0.184283      -0.0852411      0.000419146    -0.000769048         0.787911       -0.572011
                        0.350884       -0.667651      0.000425038    -0.000512784         0.598955      -0.0225197     -0.000390488     0.000301233
                    -0.000182093      0.00031501         0.788037       -0.572008     -0.000593925    -0.000344818        -0.136344        0.141452
281744                  0.389637        0.478344     -0.000596311    -0.000160756         0.349746       -0.667316      4.82443e-05    -2.06355e-05
                    -0.000307379     0.000210521         0.184264      -0.0851998       0.00041831    -0.000770606         0.787726       -0.572278
                        0.350039       -0.667546      0.000492789    -0.000716353         0.599408      -0.0234808     -0.000288284     0.000134809
                    -0.000180807     0.000316225         0.787853       -0.572275     -0.000594308    -0.000344039        -0.136203        0.141538
281746                  0.390214        0.478532     -0.000493411    -0.000172182         0.348899       -0.667212      5.07535e-05      -4.704e-05
                    -0.000307786     0.000211556         0.184245      -0.0851586      0.000417598    -0.000772105         0.787541       -0.572544
                        0.349195       -0.667439      0.000620075    -0.000672798         0.599859      -0.0244443      -0.00059082       0.0008155
                    -0.000179487     0.000317429         0.787668       -0.572543     -0.000594814    -0.000343334        -0.136061        0.141625
281748                  0.390794         0.47872     -0.000461694    -0.000174822          0.34805       -0.667106      0.000101722    -8.42297e-05
                    -0.000308205     0.000212522         0.184225      -0.0851173       0.00041694    -0.000773544         0.787355       -0.572811
                         0.34835       -0.667331       0.00064182    -0.000627163          0.60031      -0.0254104     -0.000495938     0.000530587
                    -0.000178132     0.000318622         0.787483       -0.572811     -0.000595383    -0.000342694         -0.13592        0.141711
281750                  0.391375        0.478908     -0.000446534    -0.000175072         0.347201       -0.666999      0.000152892    -2.55459e-05
                    -0.000308647     0.000213437         0.184205       -0.085076      0.000416299    -0.000774937         0.787169       -0.573077
                        0.347504        -0.66722      0.000644166    -0.000604071          0.60076      -0.0263789     -0.000475592     0.000484978
                    -0.000176737     0.000319806         0.787297       -0.573079     -0.000595983    -0.000342102        -0.135779        0.141798
281752                  0.391957        0.479095     -0.000437911     -0.00017433          0.34635       -0.666889      0.000133328     6.31934e-06
                    -0.000309119     0.000214316         0.184186      -0.0850348      0.000415654    -0.000776299         0.786983       -0.573343
                        0.346657       -0.667109      0.000642768    -0.000591499         0.601209      -0.0273499     -0.000466917     0.000467969
                    -0.000175298     0.000320984         0.787112       -0.573348     -0.000596595     -0.00034154        -0.135638        0.141884
281754                  0.392541        0.479283      -0.00043262     -0.00017308         0.345499       -0.666778      0.000120262     1.19149e-05
                    -0.000309623     0.000215168         0.184166      -0.0849936       0.00041499    -0.000777642         0.786798       -0.573607
                         0.34581       -0.666995      0.000640611    -0.000584209         0.601657      -0.0283234      -0.00046214     0.000460024
                    -0.000173809     0.000322161         0.786927       -0.573617     -0.000597206     -0.00034099        -0.135497        0.141971
281756                  0.393126        0.479471     -0.000429343    -0.000171541         0.344646       -0.666665      0.000114204     1.18963e-05
                    -0.000310159     0.000216005         0.184146      -0.0849524      0.000414292    -0.000778976         0.786612       -0.573872
                        0.344963       -0.666881      0.000638415    -0.000579925         0.602105      -0.0292993     -0.000459111     0.000456049
                     -0.00017226     0.000323345         0.786742       -0.573887     -0.000597807    -0.000340434        -0.135356        0.142057
281758                  0.393713        0.479658     -0.000427456    -0.000169836         0.343793        -0.66655      0.000111708     1.03676e-05
                     -0.00031073     0.000216832         0.184125      -0.0849113      0.000413542    -0.000780309         0.786428       -0.574135
                        0.344115       -0.666765      0.000636386    -0.000577555         0.602552      -0.0302777     -0.000456994      0.00045411
                    -0.000170635     0.000324547         0.786557       -0.574157     -0.000598389    -0.000339852        -0.135216        0.142143
281760                  0.394301        0.479846     -0.000426648    -0.000168054         0.342938       -0.666433      0.000111148     8.21623e-06
                    -0.000311337     0.000217654         0.184105      -0.0848703      0.000412711    -0.000781647         0.786244       -0.574398
                        0.343266       -0.666649      0.000634598    -0.000576537         0.602998      -0.0312586     -0.000455392     0.000453292
                    -0.000168908     0.000325788         0.786373       -0.574428      -0.00059894    -0.000339215        -0.135076        0.142229
281762                  0.394891        0.480034      -0.00042677     -0.00016628         0.342083       -0.666315      0.000111748     5.62273e-06
                    -0.000311987     0.000218476         0.184085      -0.0848293      0.000411744     -0.00078299         0.786063       -0.574662
                        0.342417       -0.666532      0.000633096    -0.000576566         0.603444      -0.0322419     -0.000454084     0.000453082
