! TOUCHSTONE file generated by CST MICROWAVE STUDIO
! Date and time: Wed Oct 15 17:32:02 2025
! Project name: Teste_Macro_Metasurface_Nanopilar.cst
! Parameters = {H=600; L_x=140; L_y=200; Lambda=1064; Max_L=200; Min_L=70; PathPara=1; Phi=0; Step_L=10; Theta=0; p=520; phaseX=180; phaseY=0}
! Header version: 2018
! Port assignment regex: !\s*Touchstone port\s*([0-9]+)\s*=\s*(CST MWS port|CST DS port)\s*([0-9]+|Zmin|Zmax)\s*\(\"(.*)\"\)(\s*mode\s*([0-9]+))?.*
! Touchstone port assignment:
! Touchstone port 1 = CST MWS port Zmax ("") mode 1
! Touchstone port 2 = CST MWS port Zmax ("") mode 2
! Touchstone port 3 = CST MWS port Zmin ("") mode 1
! Touchstone port 4 = CST MWS port Zmin ("") mode 2
! S-Parameters are not renormalized. Each port impedance will be approximated by the real part at minimum frequency. The values are described via the [Reference] keyword.
! Default impedance is overridden by [Reference]
[Version] 2.0
# GHz S RI R 376.73
[Number of Ports] 4
[Reference]
376.73 376.73 259.888 259.888 
[Number of Frequencies] 51
[Network Data]
281700                  0.226575         0.07885      0.000140138     3.38823e-05         0.250076       -0.934202      0.000168426     6.69506e-05
                     9.41572e-05     8.42422e-05         0.179459      -0.0146537      0.000132515      0.00022936         0.802551       -0.560238
                        0.250115       -0.934238      0.000154279     0.000266391         0.233577       0.0418159      7.99899e-05     0.000125438
                     0.000163476     0.000104495         0.801793        -0.56025      2.30558e-05     8.88173e-05       -0.0745449        0.157825
281702                  0.226596       0.0788577      0.000139926     3.38452e-05         0.249801        -0.93427      0.000168434     6.70282e-05
                     9.40323e-05     8.41757e-05         0.179446      -0.0146272      0.000132707     0.000229242         0.802372       -0.560501
                        0.249839       -0.934305      0.000154498     0.000266238         0.233624       0.0416828       7.9911e-05     0.000125372
                     0.000163537     0.000104491         0.801612       -0.560514        2.296e-05     8.89061e-05       -0.0744129        0.157874
281704                  0.226617       0.0788654      0.000139713     3.38092e-05         0.249525       -0.934338      0.000168444     6.71062e-05
                     9.39072e-05      8.4109e-05         0.179433      -0.0146007      0.000132899     0.000229125         0.802194       -0.560764
                        0.249563       -0.934373      0.000154717     0.000266083         0.233671       0.0415496      7.98318e-05     0.000125305
                     0.000163598     0.000104486         0.801431       -0.560778      2.28647e-05     8.89942e-05       -0.0742808        0.157923
281706                  0.226638       0.0788731      0.000139497     3.37748e-05          0.24925       -0.934406      0.000168454     6.71845e-05
                     9.37819e-05     8.40423e-05          0.17942      -0.0145742      0.000133091     0.000229008         0.802015       -0.561027
                        0.249288       -0.934441      0.000154934     0.000265927         0.233718       0.0414165      7.97524e-05     0.000125237
                     0.000163659     0.000104481          0.80125       -0.561041      2.27702e-05     8.90817e-05       -0.0741487        0.157971
281708                  0.226659       0.0788808      0.000139276     3.37433e-05         0.248974       -0.934474      0.000168465     6.72632e-05
                     9.36563e-05     8.39755e-05         0.179407      -0.0145477      0.000133282     0.000228891         0.801836        -0.56129
                        0.249012       -0.934509      0.000155151     0.000265769         0.233765       0.0412833      7.96726e-05     0.000125169
                      0.00016372     0.000104477          0.80107       -0.561306      2.26763e-05     8.91686e-05       -0.0740167         0.15802
281710                   0.22668       0.0788885      0.000139041     3.37182e-05         0.248699       -0.934542      0.000168477     6.73422e-05
                     9.35305e-05     8.39087e-05         0.179394      -0.0145213      0.000133472     0.000228775         0.801657       -0.561553
                        0.248736       -0.934576      0.000155366      0.00026561         0.233811       0.0411501      7.95925e-05       0.0001251
                     0.000163781     0.000104472         0.800889       -0.561571       2.2583e-05     8.92548e-05       -0.0738847        0.158068
281712                  0.226701       0.0788961      0.000138757     3.37149e-05         0.248423       -0.934609       0.00016849     6.74215e-05
                     9.34045e-05     8.38418e-05         0.179381      -0.0144949      0.000133662     0.000228659         0.801478       -0.561816
                         0.24846       -0.934644      0.000155578      0.00026545         0.233858       0.0410168      7.95122e-05      0.00012503
                     0.000163842     0.000104467         0.800707       -0.561835      2.24905e-05     8.93404e-05       -0.0737526        0.158117
281714                  0.226722       0.0789038      0.000137634      3.4043e-05         0.248148       -0.934677      0.000168504     6.75012e-05
                     9.32782e-05     8.37749e-05         0.179368      -0.0144686      0.000133852     0.000228543         0.801299       -0.562078
                        0.248184       -0.934711      0.000155789     0.000265291         0.233904       0.0408835      7.94314e-05      0.00012496
                     0.000163904     0.000104463         0.800526       -0.562099      2.23986e-05     8.94254e-05       -0.0736206        0.158165
281716                  0.226743       0.0789115      0.000138767     3.34477e-05         0.247872       -0.934744      0.000168518     6.75812e-05
                     9.31518e-05      8.3708e-05         0.179355      -0.0144422      0.000134041     0.000228428          0.80112       -0.562341
                        0.247909       -0.934778      0.000155998     0.000265133         0.233951       0.0407502      7.93503e-05      0.00012489
                     0.000163965     0.000104458         0.800344       -0.562363      2.23074e-05     8.95098e-05       -0.0734885        0.158213
281718                  0.226764       0.0789191      0.000138425     3.34752e-05         0.247597       -0.934812      0.000168534     6.76615e-05
                     9.30252e-05     8.36412e-05         0.179343      -0.0144159       0.00013423     0.000228313         0.800941       -0.562603
                        0.247633       -0.934845      0.000156208     0.000264977         0.233997       0.0406168      7.92688e-05     0.000124818
                     0.000164027     0.000104453         0.800163       -0.562627      2.22168e-05     8.95935e-05       -0.0733565        0.158261
281720                  0.226785       0.0789268      0.000138181     3.34567e-05         0.247321       -0.934879       0.00016855     6.77422e-05
                     9.28984e-05     8.35744e-05          0.17933      -0.0143896      0.000134418     0.000228198         0.800761       -0.562866
                        0.247357       -0.934913       0.00015642     0.000264821         0.234043       0.0404834       7.9187e-05     0.000124746
                     0.000164089     0.000104448         0.799981        -0.56289      2.21269e-05     8.96767e-05       -0.0732245        0.158309
281722                  0.226806       0.0789344      0.000137958     3.34288e-05         0.247046       -0.934946      0.000168567     6.78232e-05
                     9.27715e-05     8.35076e-05         0.179317      -0.0143633      0.000134606     0.000228084         0.800582       -0.563128
                        0.247081        -0.93498      0.000156636     0.000264664          0.23409         0.04035      7.91047e-05     0.000124674
                     0.000164151     0.000104443         0.799799       -0.563154      2.20377e-05     8.97593e-05       -0.0730925        0.158357
281724                  0.226827        0.078942      0.000137743     3.33976e-05          0.24677       -0.935014      0.000168585     6.79046e-05
                     9.26444e-05     8.34408e-05         0.179304       -0.014337      0.000134793      0.00022797         0.800402        -0.56339
                        0.246805       -0.935047      0.000156853     0.000264505         0.234136       0.0402165       7.9022e-05     0.000124601
                     0.000164212     0.000104438         0.799618       -0.563417      2.19491e-05     8.98413e-05       -0.0729605        0.158405
281726                  0.226848       0.0789497      0.000137532     3.33648e-05         0.246495       -0.935081      0.000168604     6.79863e-05
                     9.25171e-05     8.33742e-05         0.179291      -0.0143108       0.00013498     0.000227857         0.800223       -0.563652
                        0.246529       -0.935113       0.00015707     0.000264342         0.234182        0.040083      7.89388e-05     0.000124527
                     0.000164274     0.000104433         0.799436       -0.563681      2.18613e-05     8.99227e-05       -0.0728285        0.158452
281728                  0.226869       0.0789573      0.000137324     3.33315e-05         0.246219       -0.935148      0.000168624     6.80683e-05
                     9.23897e-05     8.33076e-05         0.179279      -0.0142846      0.000135167     0.000227744         0.800043       -0.563914
                        0.246253        -0.93518      0.000157287     0.000264177         0.234228       0.0399495      7.88552e-05     0.000124453
                     0.000164337     0.000104427         0.799254       -0.563944       2.1774e-05     9.00036e-05       -0.0726965          0.1585
281730                   0.22689       0.0789649      0.000137117     3.32978e-05         0.245943       -0.935215      0.000168645     6.81506e-05
                     9.22622e-05     8.32411e-05         0.179266      -0.0142584      0.000135353     0.000227631         0.799864       -0.564176
                        0.245977       -0.935247      0.000157504     0.000264009         0.234274       0.0398159      7.87711e-05     0.000124378
                     0.000164399     0.000104422         0.799072       -0.564207      2.16874e-05     9.00839e-05       -0.0725645        0.158547
281732                  0.226911       0.0789725      0.000136911      3.3264e-05         0.245668       -0.935281      0.000168667     6.82332e-05
                     9.21345e-05     8.31747e-05         0.179253      -0.0142323      0.000135539     0.000227518         0.799684       -0.564438
                        0.245701       -0.935314      0.000157719      0.00026384         0.234319       0.0396823      7.86866e-05     0.000124303
                     0.000164461     0.000104416          0.79889       -0.564471      2.16015e-05     9.01636e-05       -0.0724325        0.158594
281734                  0.226932       0.0789801      0.000136706     3.32302e-05         0.245392       -0.935348       0.00016869     6.83162e-05
                     9.20068e-05     8.31085e-05          0.17924      -0.0142061      0.000135724     0.000227406         0.799504         -0.5647
                        0.245425        -0.93538      0.000157934     0.000263669         0.234365       0.0395487      7.86015e-05     0.000124227
                     0.000164523      0.00010441         0.798708       -0.564734      2.15162e-05     9.02428e-05       -0.0723005        0.158641
281736                  0.226954       0.0789877      0.000136501     3.31966e-05         0.245117       -0.935415      0.000168713     6.83994e-05
                     9.18789e-05     8.30423e-05         0.179228        -0.01418      0.000135909     0.000227294         0.799324       -0.564961
                        0.245149       -0.935447      0.000158149     0.000263496         0.234411        0.039415      7.85159e-05     0.000124151
                     0.000164585     0.000104404         0.798526       -0.564997      2.14316e-05     9.03214e-05       -0.0721685        0.158688
281738                  0.226975       0.0789953      0.000136297     3.31631e-05         0.244841       -0.935481      0.000168738      6.8483e-05
                      9.1751e-05     8.29763e-05         0.179215      -0.0141539      0.000136094     0.000227182         0.799144       -0.565223
                        0.244873       -0.935513      0.000158363     0.000263322         0.234456       0.0392813      7.84298e-05     0.000124074
                     0.000164648     0.000104398         0.798343        -0.56526      2.13476e-05     9.03995e-05       -0.0720365        0.158735
281740                  0.226996       0.0790029      0.000136094     3.31299e-05         0.244565       -0.935548      0.000168763     6.85669e-05
                      9.1623e-05     8.29105e-05         0.179202      -0.0141278      0.000136278     0.000227071         0.798964       -0.565484
                        0.244597       -0.935579      0.000158576     0.000263147         0.234502       0.0391476      7.83432e-05     0.000123997
                      0.00016471     0.000104392         0.798161       -0.565522      2.12643e-05      9.0477e-05       -0.0719045        0.158782
281742                  0.227017       0.0790105       0.00013589     3.30969e-05         0.244289       -0.935614       0.00016879     6.86511e-05
                      9.1495e-05     8.28448e-05         0.179189      -0.0141018      0.000136462      0.00022696         0.798784       -0.565746
                        0.244321       -0.935646      0.000158789      0.00026297         0.234547       0.0390139       7.8256e-05     0.000123919
                     0.000164772     0.000104385         0.797979       -0.565785      2.11815e-05     9.05538e-05       -0.0717726        0.158829
281744                  0.227038       0.0790181      0.000135687     3.30641e-05         0.244014       -0.935681      0.000168817     6.87355e-05
                     9.13669e-05     8.27792e-05         0.179177      -0.0140758      0.000136645      0.00022685         0.798603       -0.566007
                        0.244045       -0.935712      0.000159002     0.000262792         0.234593       0.0388801      7.81682e-05     0.000123841
                     0.000164834     0.000104378         0.797796       -0.566048      2.10992e-05     9.06301e-05       -0.0716406        0.158876
281746                  0.227059       0.0790257      0.000135484     3.30317e-05         0.243738       -0.935747      0.000168846     6.88202e-05
                     9.12387e-05     8.27138e-05         0.179164      -0.0140498      0.000136829      0.00022674         0.798423       -0.566268
                        0.243769       -0.935778      0.000159214     0.000262613         0.234638       0.0387462      7.80799e-05     0.000123762
                     0.000164896     0.000104371         0.797614        -0.56631      2.10172e-05     9.07055e-05       -0.0715087        0.158922
281748                   0.22708       0.0790332      0.000135282     3.29996e-05         0.243462       -0.935813      0.000168875     6.89053e-05
                     9.11105e-05     8.26486e-05         0.179151      -0.0140238      0.000137012     0.000226631         0.798243       -0.566529
                        0.243493       -0.935844      0.000159425     0.000262432         0.234683       0.0386124      7.79909e-05     0.000123683
                     0.000164957     0.000104363         0.797431       -0.566573      2.09351e-05     9.07796e-05       -0.0713767        0.158968
281750                  0.227101       0.0790408      0.000135079     3.29679e-05         0.243187       -0.935879      0.000168906     6.89905e-05
                     9.09824e-05     8.25836e-05         0.179139      -0.0139979      0.000137197     0.000226527         0.798062        -0.56679
                        0.243217        -0.93591      0.000159637      0.00026225         0.234728       0.0384785      7.79014e-05     0.000123603
                     0.000165019     0.000104356         0.797248       -0.566835      2.08497e-05     9.08509e-05       -0.0712448        0.159015
281752                  0.227122       0.0790484      0.000134877     3.29365e-05         0.242911       -0.935945      0.000168938     6.90761e-05
                     9.08542e-05     8.25187e-05         0.179126      -0.0139719       0.00013738     0.000226378         0.797882       -0.567051
                        0.242941       -0.935976      0.000159848     0.000262067         0.234773       0.0383446      7.78112e-05     0.000123523
                     0.000165079     0.000104348         0.797066       -0.567098      2.07413e-05     9.09675e-05       -0.0711128        0.159061
281754                  0.227143       0.0790559      0.000134675     3.29055e-05         0.242635       -0.936011       0.00016897     6.91618e-05
                      9.0726e-05     8.24541e-05         0.179114       -0.013946      0.000137555     0.000226292         0.797701       -0.567312
                        0.242665       -0.936041      0.000160059     0.000261882         0.234818       0.0382106      7.77204e-05     0.000123442
                      0.00016514     0.000104339         0.796883        -0.56736      2.07055e-05     9.10214e-05       -0.0709809        0.159107
281756                  0.227164       0.0790635      0.000134472     3.28748e-05         0.242359       -0.936077      0.000169004     6.92478e-05
                     9.05978e-05     8.23896e-05         0.179101      -0.0139201      0.000137736     0.000226186          0.79752       -0.567573
                        0.242389       -0.936107      0.000160269     0.000261696         0.234863       0.0380766       7.7629e-05     0.000123361
                       0.0001652     0.000104331           0.7967       -0.567622      2.06265e-05     9.10893e-05        -0.070849        0.159153
281758                  0.227185        0.079071       0.00013427     3.28446e-05         0.242083       -0.936143      0.000169039     6.93341e-05
                     9.04697e-05     8.23254e-05         0.179088      -0.0138943      0.000137917     0.000226078         0.797339       -0.567834
                        0.242112       -0.936172       0.00016048     0.000261509         0.234908       0.0379426      7.75369e-05     0.000123279
                     0.000165259     0.000104322         0.796517       -0.567884      2.05486e-05     9.11607e-05       -0.0707171        0.159199
281760                  0.227206       0.0790786      0.000134068     3.28148e-05         0.241808       -0.936208      0.000169074     6.94206e-05
                     9.03416e-05     8.22614e-05         0.179076      -0.0138685      0.000138097      0.00022597         0.797158       -0.568094
                        0.241836       -0.936238       0.00016069      0.00026132         0.234953       0.0378085      7.74441e-05     0.000123197
                     0.000165318     0.000104314         0.796334       -0.568146      2.04716e-05     9.12328e-05       -0.0705851        0.159245
281762                  0.227227       0.0790861      0.000133866     3.27855e-05         0.241532       -0.936274      0.000169111     6.95072e-05
                     9.02136e-05     8.21976e-05         0.179063      -0.0138426      0.000138277     0.000225862         0.796977       -0.568355
                         0.24156       -0.936303      0.000160899      0.00026113         0.234997       0.0376744      7.73507e-05     0.000123114
