! TOUCHSTONE file generated by CST MICROWAVE STUDIO
! Date and time: Wed Oct 15 17:28:28 2025
! Project name: Teste_Macro_Metasurface_Nanopilar.cst
! Parameters = {H=600; L_x=80; L_y=140; Lambda=1064; Max_L=200; Min_L=70; PathPara=1; Phi=0; Step_L=10; Theta=0; p=520; phaseX=180; phaseY=0}
! Header version: 2018
! Port assignment regex: !\s*Touchstone port\s*([0-9]+)\s*=\s*(CST MWS port|CST DS port)\s*([0-9]+|Zmin|Zmax)\s*\(\"(.*)\"\)(\s*mode\s*([0-9]+))?.*
! Touchstone port assignment:
! Touchstone port 1 = CST MWS port Zmax ("") mode 1
! Touchstone port 2 = CST MWS port Zmax ("") mode 2
! Touchstone port 3 = CST MWS port Zmin ("") mode 1
! Touchstone port 4 = CST MWS port Zmin ("") mode 2
! S-Parameters are not renormalized. Each port impedance will be approximated by the real part at minimum frequency. The values are described via the [Reference] keyword.
! Default impedance is overridden by [Reference]
[Version] 2.0
# GHz S RI R 376.73
[Number of Ports] 4
[Reference]
376.73 376.73 259.888 259.888 
[Number of Frequencies] 51
[Network Data]
281700                 0.0755894       -0.146296     -5.59281e-05    -0.000317314        -0.375332        0.901684      0.000100704    -8.73317e-06
                    -0.000166492    -0.000439872      -0.00631394       -0.079146     -1.61815e-05    -5.27471e-05        -0.221955       -0.970941
                       -0.375378        0.901912     -0.000164752    -0.000118769       -0.0526167        0.156231      0.000218999    -0.000263319
                     0.000239645     6.10595e-05         -0.22202       -0.970924      0.000129332    -0.000335315        0.0285481       0.0743113
281702                 0.0755456       -0.146294     -5.59551e-05    -0.000317323        -0.374969        0.901839      0.000100707     -8.7569e-06
                    -0.000166575    -0.000439756      -0.00632572      -0.0791399     -1.61808e-05    -5.28257e-05        -0.222199       -0.970885
                       -0.375016        0.902066     -0.000164918    -0.000118696       -0.0525203         0.15624      0.000218957    -0.000263457
                      0.00023955     6.09046e-05        -0.222264       -0.970869      0.000129158    -0.000335253         0.028572       0.0742966
281704                 0.0755017       -0.146291     -5.59823e-05    -0.000317333        -0.374605        0.901994       0.00010071    -8.78064e-06
                    -0.000166657    -0.000439641       -0.0063375      -0.0791337     -1.61804e-05    -5.29042e-05        -0.222443        -0.97083
                       -0.374653         0.90222     -0.000165084    -0.000118622        -0.052424        0.156249      0.000218915    -0.000263595
                     0.000239455     6.07497e-05        -0.222507       -0.970813      0.000128984     -0.00033519         0.028596       0.0742819
281706                 0.0754578       -0.146289     -5.60098e-05    -0.000317343        -0.374242        0.902149      0.000100712    -8.80438e-06
                     -0.00016674    -0.000439525      -0.00634929      -0.0791276     -1.61803e-05    -5.29828e-05        -0.222687       -0.970774
                        -0.37429        0.902374     -0.000165251    -0.000118549       -0.0523276        0.156258      0.000218872    -0.000263733
                      0.00023936     6.05947e-05        -0.222751       -0.970757       0.00012881    -0.000335128          0.02862       0.0742672
281708                 0.0754139       -0.146286     -5.60375e-05    -0.000317352        -0.373879        0.902303      0.000100715    -8.82812e-06
                    -0.000166823    -0.000439409      -0.00636107      -0.0791215     -1.61804e-05    -5.30615e-05         -0.22293       -0.970718
                       -0.373928        0.902528     -0.000165418    -0.000118475       -0.0522313        0.156267       0.00021883    -0.000263871
                     0.000239264     6.04398e-05        -0.222995       -0.970701      0.000128636    -0.000335065         0.028644       0.0742525
281710                   0.07537       -0.146284     -5.60655e-05    -0.000317362        -0.373516        0.902458      0.000100717    -8.85186e-06
                    -0.000166905    -0.000439293      -0.00637285      -0.0791153     -1.61808e-05    -5.31401e-05        -0.223174       -0.970663
                       -0.373565        0.902682     -0.000165585    -0.000118401       -0.0521349        0.156276      0.000218787    -0.000264009
                     0.000239169     6.02847e-05        -0.223239       -0.970645      0.000128462    -0.000335002        0.0286679       0.0742378
281712                 0.0753261       -0.146281     -5.60938e-05    -0.000317372        -0.373152        0.902612      0.000100719     -8.8756e-06
                    -0.000166988    -0.000439177      -0.00638463      -0.0791092     -1.61815e-05    -5.32187e-05        -0.223418       -0.970607
                       -0.373202        0.902835     -0.000165752    -0.000118327       -0.0520386        0.156285      0.000218745    -0.000264147
                     0.000239074     6.01297e-05        -0.223482       -0.970589      0.000128289     -0.00033494        0.0286919        0.074223
281714                 0.0752822       -0.146279     -5.61223e-05    -0.000317382        -0.372789        0.902766      0.000100722    -8.89933e-06
                    -0.000167071    -0.000439061      -0.00639641      -0.0791031     -1.61824e-05    -5.32974e-05        -0.223661       -0.970551
                       -0.372839        0.902989      -0.00016592    -0.000118252       -0.0519423        0.156294      0.000218702    -0.000264286
                     0.000238978     5.99746e-05        -0.223726       -0.970533      0.000128116    -0.000334877        0.0287158       0.0742083
281716                 0.0752383       -0.146276     -5.61511e-05    -0.000317392        -0.372426         0.90292      0.000100724    -8.92306e-06
                    -0.000167153    -0.000438945      -0.00640819      -0.0790969     -1.61836e-05     -5.3376e-05        -0.223905       -0.970495
                       -0.372476        0.903142     -0.000166089    -0.000118177        -0.051846        0.156302      0.000218659    -0.000264424
                     0.000238882     5.98194e-05         -0.22397       -0.970476      0.000127943    -0.000334814        0.0287398       0.0741935
281718                 0.0751944       -0.146273     -5.61801e-05    -0.000317402        -0.372062        0.903074      0.000100726    -8.94678e-06
                    -0.000167236    -0.000438829      -0.00641997      -0.0790908      -1.6185e-05    -5.34547e-05        -0.224149       -0.970439
                       -0.372113        0.903295     -0.000166257    -0.000118103       -0.0517496        0.156311      0.000218616    -0.000264563
                     0.000238786     5.96642e-05        -0.224214        -0.97042      0.000127771    -0.000334751        0.0287637       0.0741788
281720                 0.0751505       -0.146271     -5.62095e-05    -0.000317412        -0.371698        0.903228      0.000100728     -8.9705e-06
                    -0.000167318    -0.000438713      -0.00643175      -0.0790846     -1.61866e-05    -5.35334e-05        -0.224392       -0.970383
                        -0.37175        0.903448     -0.000166426    -0.000118028       -0.0516534         0.15632      0.000218573    -0.000264702
                      0.00023869      5.9509e-05        -0.224457       -0.970364      0.000127598    -0.000334688        0.0287876        0.074164
281722                 0.0751066       -0.146268      -5.6239e-05    -0.000317423        -0.371335        0.903381       0.00010073     -8.9942e-06
                    -0.000167401    -0.000438596      -0.00644352      -0.0790785     -1.61886e-05     -5.3612e-05        -0.224636       -0.970327
                       -0.371387        0.903601     -0.000166595    -0.000117952       -0.0515571        0.156328       0.00021853     -0.00026484
                     0.000238594     5.93538e-05        -0.224701       -0.970307      0.000127426    -0.000334626        0.0288115       0.0741492
281724                 0.0750627       -0.146266     -5.62689e-05    -0.000317434        -0.370971        0.903535      0.000100731    -9.01789e-06
                    -0.000167483     -0.00043848       -0.0064553      -0.0790724     -1.61907e-05    -5.36907e-05         -0.22488       -0.970271
                       -0.371024        0.903754     -0.000166765    -0.000117877       -0.0514608        0.156337      0.000218487    -0.000264979
                     0.000238498     5.91985e-05        -0.224945       -0.970251      0.000127254    -0.000334563        0.0288354       0.0741345
281726                 0.0750188       -0.146263      -5.6299e-05    -0.000317444        -0.370607        0.903688      0.000100733    -9.04157e-06
                    -0.000167565    -0.000438364      -0.00646707      -0.0790662     -1.61932e-05    -5.37694e-05        -0.225123       -0.970215
                       -0.370661        0.903906     -0.000166935    -0.000117801       -0.0513645        0.156345      0.000218443    -0.000265118
                     0.000238402     5.90432e-05        -0.225188       -0.970194      0.000127082      -0.0003345        0.0288593       0.0741197
281728                 0.0749749        -0.14626     -5.63293e-05    -0.000317455        -0.370243        0.903841      0.000100735    -9.06524e-06
                    -0.000167648    -0.000438248      -0.00647885      -0.0790601     -1.61959e-05    -5.38481e-05        -0.225367       -0.970158
                       -0.370297        0.904059     -0.000167105    -0.000117726       -0.0512683        0.156353        0.0002184    -0.000265257
                     0.000238306     5.88879e-05        -0.225432       -0.970138      0.000126911    -0.000334437        0.0288832       0.0741049
281730                  0.074931       -0.146258     -5.63599e-05    -0.000317466        -0.369879        0.903994      0.000100737    -9.08889e-06
                     -0.00016773    -0.000438132      -0.00649062      -0.0790539     -1.61988e-05    -5.39269e-05         -0.22561       -0.970102
                       -0.369934        0.904211     -0.000167275     -0.00011765        -0.051172        0.156362      0.000218356    -0.000265396
                     0.000238209     5.87327e-05        -0.225676       -0.970081      0.000126739    -0.000334374        0.0289071       0.0740901
281732                 0.0748871       -0.146255     -5.63908e-05    -0.000317477        -0.369515        0.904147      0.000100738    -9.11252e-06
                    -0.000167813    -0.000438016       -0.0065024      -0.0790478      -1.6202e-05    -5.40056e-05        -0.225854       -0.970045
                        -0.36957        0.904363     -0.000167446    -0.000117574       -0.0510758         0.15637      0.000218313    -0.000265535
                     0.000238113     5.85774e-05        -0.225919       -0.970024      0.000126568    -0.000334311         0.028931       0.0740753
281734                 0.0748432       -0.146252     -5.64219e-05    -0.000317489        -0.369151          0.9043      0.000100739    -9.13614e-06
                    -0.000167895      -0.0004379      -0.00651417      -0.0790416     -1.62054e-05    -5.40843e-05        -0.226097       -0.969989
                       -0.369207        0.904515     -0.000167617    -0.000117497       -0.0509795        0.156378      0.000218269    -0.000265674
                     0.000238016     5.84223e-05        -0.226163       -0.969967      0.000126397    -0.000334248        0.0289549       0.0740605
281736                 0.0747993        -0.14625     -5.64532e-05      -0.0003175        -0.368787        0.904452      0.000100741    -9.15973e-06
                    -0.000167978    -0.000437783      -0.00652594      -0.0790355     -1.62091e-05     -5.4163e-05        -0.226341       -0.969932
                       -0.368843        0.904667     -0.000167788    -0.000117421       -0.0508833        0.156386      0.000218225    -0.000265813
                     0.000237919     5.82675e-05        -0.226406       -0.969911      0.000126227    -0.000334185        0.0289787       0.0740457
281738                 0.0747554       -0.146247     -5.64848e-05    -0.000317512        -0.368423        0.904605      0.000100742    -9.18331e-06
                     -0.00016806    -0.000437667      -0.00653771      -0.0790293     -1.62131e-05    -5.42418e-05        -0.226584       -0.969876
                        -0.36848        0.904819      -0.00016796    -0.000117344       -0.0507871        0.156394      0.000218181    -0.000265952
                     0.000237822     5.81131e-05         -0.22665       -0.969854      0.000126056    -0.000334122        0.0290026       0.0740308
281740                 0.0747115       -0.146244     -5.65165e-05    -0.000317524        -0.368058        0.904757      0.000100743    -9.20686e-06
                    -0.000168142    -0.000437551      -0.00654948      -0.0790232     -1.62172e-05    -5.43205e-05        -0.226828       -0.969819
                       -0.368116         0.90497     -0.000168131    -0.000117267       -0.0506909        0.156402      0.000218137    -0.000266092
                     0.000237725     5.79599e-05        -0.226894       -0.969797      0.000125886    -0.000334059        0.0290265        0.074016
281742                 0.0746675       -0.146242     -5.65485e-05    -0.000317536        -0.367694        0.904909      0.000100744    -9.23038e-06
                    -0.000168225    -0.000437435      -0.00656125       -0.079017     -1.62217e-05    -5.43993e-05        -0.227071       -0.969763
                       -0.367752        0.905122     -0.000168303    -0.000117191       -0.0505947         0.15641      0.000218093    -0.000266231
                     0.000237629     5.78087e-05        -0.227137        -0.96974      0.000125716    -0.000333996        0.0290503       0.0740012
281744                 0.0746236       -0.146239     -5.65807e-05    -0.000317548         -0.36733        0.905061      0.000100745    -9.25388e-06
                    -0.000168308     -0.00043732      -0.00657302      -0.0790109     -1.62264e-05     -5.4478e-05        -0.227315       -0.969706
                       -0.367388        0.905273     -0.000168475    -0.000117114       -0.0504985        0.156418      0.000218049    -0.000266371
                     0.000237539     5.76569e-05        -0.227381       -0.969683      0.000125546    -0.000333933        0.0290741       0.0739863
281746                 0.0745801       -0.146236     -5.66131e-05    -0.000317561        -0.366965        0.905213      0.000100746    -9.27736e-06
                    -0.000168391    -0.000437204      -0.00658479      -0.0790047     -1.62313e-05    -5.45568e-05        -0.227558       -0.969649
                       -0.367024        0.905424     -0.000168648    -0.000117036       -0.0504023        0.156426      0.000218005     -0.00026651
                     0.000237449     5.74982e-05        -0.227624       -0.969625      0.000125376     -0.00033387         0.029098       0.0739715
281748                 0.0745358       -0.146233     -5.66456e-05    -0.000317574        -0.366601        0.905365      0.000100747    -9.30081e-06
                    -0.000168476    -0.000437089      -0.00659656      -0.0789986     -1.62365e-05    -5.46356e-05        -0.227802       -0.969592
                        -0.36666        0.905575      -0.00016882    -0.000116959       -0.0503062        0.156433       0.00021796    -0.000266649
                     0.000237354     5.73381e-05        -0.227868       -0.969568      0.000125207    -0.000333807        0.0291218       0.0739566
281750                 0.0744919        -0.14623     -5.66781e-05    -0.000317588        -0.366236        0.905516      0.000100748    -9.32423e-06
                    -0.000168562    -0.000436971      -0.00660833      -0.0789924     -1.62419e-05    -5.47144e-05        -0.228045       -0.969535
                       -0.366296        0.905726     -0.000168992    -0.000116882         -0.05021        0.156441      0.000217916    -0.000266789
                     0.000237257       5.718e-05        -0.228111       -0.969511      0.000125037    -0.000333744        0.0291456       0.0739417
281752                  0.074448       -0.146228     -5.67105e-05    -0.000317602        -0.365871        0.905668      0.000100749    -9.34763e-06
                    -0.000168645    -0.000436851      -0.00662009      -0.0789862     -1.62476e-05    -5.47931e-05        -0.228289       -0.969478
                       -0.365932        0.905877     -0.000169165    -0.000116805       -0.0501139        0.156449      0.000217871    -0.000266929
                      0.00023716     5.70231e-05        -0.228355       -0.969454      0.000124868    -0.000333681        0.0291694       0.0739269
281754                  0.074404       -0.146225     -5.67425e-05    -0.000317618        -0.365507        0.905819      0.000100749    -9.37101e-06
                    -0.000168726    -0.000436733      -0.00663186      -0.0789801     -1.62536e-05    -5.48719e-05        -0.228532       -0.969421
                       -0.365568        0.906027     -0.000169336    -0.000116728       -0.0500177        0.156456      0.000217827    -0.000267068
                     0.000237064     5.68668e-05        -0.228598       -0.969396      0.000124699    -0.000333617        0.0291932        0.073912
281756                 0.0743601       -0.146222      -5.6773e-05    -0.000317636        -0.365142         0.90597       0.00010075    -9.39437e-06
                    -0.000168807    -0.000436616      -0.00664362      -0.0789739     -1.62599e-05    -5.49508e-05        -0.228775       -0.969364
                       -0.365204        0.906177     -0.000169505    -0.000116652       -0.0499216        0.156464      0.000217782    -0.000267208
                     0.000236967     5.67108e-05        -0.228842       -0.969339      0.000124531    -0.000333554         0.029217       0.0738971
281758                 0.0743162       -0.146219     -5.67981e-05    -0.000317662        -0.364777        0.906121       0.00010075    -9.41775e-06
                    -0.000168889    -0.000436499      -0.00665538      -0.0789678     -1.62665e-05    -5.50297e-05        -0.229019       -0.969307
                       -0.364839        0.906328     -0.000169666     -0.00011658       -0.0498255        0.156471      0.000217738    -0.000267347
                     0.000236871      5.6555e-05        -0.229085       -0.969281      0.000124363     -0.00033349        0.0292408       0.0738822
281760                 0.0742723       -0.146216      -5.6755e-05    -0.000317741        -0.364412        0.906272       0.00010075    -9.44119e-06
                    -0.000168971    -0.000436383      -0.00666709      -0.0789617     -1.62739e-05    -5.51089e-05        -0.229262       -0.969249
                       -0.364475        0.906478      -0.00016969    -0.000116525       -0.0497294        0.156478      0.000217693    -0.000267487
                     0.000236775     5.63993e-05        -0.229328       -0.969224      0.000124196    -0.000333426        0.0292645       0.0738673
281762                 0.0742284       -0.146213     -5.69117e-05    -0.000317581        -0.364048        0.906423       0.00010075    -9.46489e-06
                    -0.000169054    -0.000436267      -0.00667896      -0.0789553     -1.62816e-05    -5.52061e-05        -0.229506       -0.969192
                        -0.36411        0.906628     -0.000170089    -0.000116378       -0.0496333        0.156486      0.000217648    -0.000267627
