! TOUCHSTONE file generated by CST MICROWAVE STUDIO
! Date and time: Wed Oct 15 17:33:01 2025
! Project name: Teste_Macro_Metasurface_Nanopilar.cst
! Parameters = {H=600; L_x=160; L_y=120; Lambda=1064; Max_L=200; Min_L=70; PathPara=1; Phi=0; Step_L=10; Theta=0; p=520; phaseX=180; phaseY=0}
! Header version: 2018
! Port assignment regex: !\s*Touchstone port\s*([0-9]+)\s*=\s*(CST MWS port|CST DS port)\s*([0-9]+|Zmin|Zmax)\s*\(\"(.*)\"\)(\s*mode\s*([0-9]+))?.*
! Touchstone port assignment:
! Touchstone port 1 = CST MWS port Zmax ("") mode 1
! Touchstone port 2 = CST MWS port Zmax ("") mode 2
! Touchstone port 3 = CST MWS port Zmin ("") mode 1
! Touchstone port 4 = CST MWS port Zmin ("") mode 2
! S-Parameters are not renormalized. Each port impedance will be approximated by the real part at minimum frequency. The values are described via the [Reference] keyword.
! Default impedance is overridden by [Reference]
[Version] 2.0
# GHz S RI R 376.73
[Number of Ports] 4
[Reference]
376.73 376.73 259.888 259.888 
[Number of Frequencies] 51
[Network Data]
281700                 0.0606241       0.0651306       0.00055234     0.000374532         0.911116        0.386465     -0.000133021    -0.000464117
                     0.000531009     0.000250449         0.346201        0.443074     -0.000546697    -0.000671979         0.409163       -0.699838
                        0.911128        0.385882     -0.000539958    -0.000615879       -0.0877988      0.00332604      0.000179203      0.00035988
                     1.02062e-05    -0.000522268         0.409554        -0.70002      4.46071e-05     0.000265301         0.551272       0.0539887
281702                 0.0606328       0.0651466      0.000552537     0.000374493         0.911247        0.386148     -0.000133403    -0.000464071
                     0.000531155     0.000250227         0.346481        0.443193     -0.000529226    -0.000668555         0.408638       -0.699914
                        0.911261        0.385566     -0.000540322    -0.000615726        -0.087814      0.00339142      0.000179701     0.000359619
                     1.00825e-05     -0.00052227         0.409029       -0.700096      4.47242e-05     0.000265388         0.551585       0.0534574
281704                 0.0606415       0.0651626      0.000552735     0.000374455          0.91138        0.385832     -0.000133786    -0.000464025
                     0.000531301     0.000250004          0.34676        0.443312     -0.000528318    -0.000667825         0.408111        -0.69999
                        0.911393        0.385249     -0.000540686    -0.000615573       -0.0878294      0.00345705      0.000180199     0.000359357
                     9.95891e-06    -0.000522272         0.408503       -0.700172      4.50604e-05     0.000265245         0.551897       0.0529254
281706                 0.0606502       0.0651786      0.000552933     0.000374418         0.911514        0.385516     -0.000134168    -0.000463979
                     0.000531447     0.000249782          0.34704        0.443431     -0.000548191    -0.000671758         0.407585       -0.700065
                        0.911526        0.384932      -0.00054105    -0.000615419        -0.087845      0.00352302      0.000180698     0.000359095
                     9.83538e-06    -0.000522273         0.407976       -0.700247       4.5729e-05     0.000264747         0.552209       0.0523925
281708                 0.0606589       0.0651946      0.000553132      0.00037438         0.911652        0.385202     -0.000134551    -0.000463932
                     0.000531592     0.000249559          0.34732         0.44355     -0.000512647    -0.000624625         0.407058        -0.70014
                        0.911658        0.384616     -0.000541415    -0.000615265       -0.0878611       0.0035895      0.000181197     0.000358832
                     9.71194e-06    -0.000522274         0.407449       -0.700321      4.68744e-05     0.000263826         0.552521       0.0518589
281710                 0.0606676       0.0652105      0.000553331     0.000374344         0.911794         0.38489     -0.000134934    -0.000463886
                     0.000531738     0.000249335         0.347601        0.443669     -0.000511738    -0.000643904          0.40653       -0.700214
                        0.911791        0.384299     -0.000541779     -0.00061511       -0.0878778      0.00365685      0.000181697     0.000358569
                      9.5886e-06    -0.000522275         0.406922       -0.700395      4.86321e-05     0.000262562         0.552833       0.0513245
281712                 0.0606763       0.0652265       0.00055353     0.000374307         0.911947        0.384584     -0.000135317     -0.00046384
                     0.000531883     0.000249112         0.347882        0.443788      -0.00051321    -0.000647628         0.406003       -0.700288
                        0.911923        0.383982     -0.000542144    -0.000614956       -0.0878956      0.00372593      0.000182197     0.000358305
                     9.46535e-06    -0.000522275         0.406395       -0.700469      5.10143e-05     0.000261226         0.553144       0.0507893
281714                  0.060685       0.0652425       0.00055373     0.000374271         0.912131         0.38429       -0.0001357    -0.000463793
                     0.000532029     0.000248888         0.348163        0.443907     -0.000514149    -0.000648951         0.405475       -0.700361
                        0.912055        0.383665     -0.000542508      -0.0006148       -0.0879158      0.00379931      0.000182697      0.00035804
                     9.34222e-06    -0.000522275         0.405867       -0.700542      5.37964e-05     0.000260156         0.553455       0.0502533
281716                 0.0606937       0.0652584       0.00055393     0.000374236         0.912494        0.384063     -0.000136084    -0.000463747
                     0.000532174     0.000248664         0.348445        0.444026      -0.00051485     -0.00064954         0.404946       -0.700434
                        0.912187        0.383349     -0.000542873    -0.000614644       -0.0879397      0.00388878      0.000183198     0.000357775
                      9.2192e-06    -0.000522275         0.405339       -0.700615      5.65876e-05     0.000259528         0.553766       0.0497165
281718                 0.0607024       0.0652744       0.00055413     0.000374201         0.911652        0.383195     -0.000136468      -0.0004637
                     0.000532319      0.00024844         0.348727        0.444144     -0.000515441    -0.000649828         0.404418       -0.700506
                        0.912319        0.383032     -0.000543238    -0.000614488       -0.0878759      0.00404755        0.0001837     0.000357509
                     9.09632e-06    -0.000522275         0.404811       -0.700687      5.90598e-05      0.00025928         0.554076       0.0491789
281720                 0.0607111       0.0652904      0.000554331     0.000374166         0.912205        0.383177     -0.000136852    -0.000463653
                     0.000532464     0.000248215          0.34901        0.444263     -0.000515975    -0.000649971         0.403889       -0.700577
                        0.912451        0.382715     -0.000543603    -0.000614331       -0.0878666      0.00396172      0.000184201     0.000357243
                     8.97358e-06    -0.000522274         0.404282       -0.700758       6.1079e-05      0.00025924         0.554387       0.0486406
281722                 0.0607198       0.0653063      0.000554533     0.000374132         0.912405        0.382899     -0.000137237    -0.000463606
                     0.000532609      0.00024799         0.349293        0.444382     -0.000516478    -0.000650036         0.403359       -0.700648
                        0.912582        0.382398     -0.000543968    -0.000614174        -0.087918      0.00402346      0.000184703     0.000356977
                     8.85099e-06    -0.000522273         0.403753       -0.700829      6.26661e-05     0.000259263         0.554696       0.0481014
281724                 0.0607285       0.0653223      0.000554734     0.000374098         0.912563        0.382597     -0.000137621    -0.000463559
                     0.000532754     0.000247765         0.349576          0.4445     -0.000516964    -0.000650057         0.402829       -0.700719
                        0.912714        0.382081     -0.000544333    -0.000614017       -0.0879446      0.00409162      0.000185206     0.000356709
                     8.72856e-06    -0.000522271         0.403223       -0.700899      6.39054e-05     0.000259271         0.555006       0.0475615
281726                 0.0607372       0.0653382      0.000554936     0.000374065         0.912707        0.382287     -0.000138006    -0.000463512
                     0.000532899      0.00024754          0.34986        0.444619     -0.000517439    -0.000650051         0.402299       -0.700789
                        0.912845        0.381764     -0.000544698    -0.000613859       -0.0879647      0.00415911      0.000185709     0.000356441
                     8.60631e-06     -0.00052227         0.402694       -0.700969       6.4887e-05     0.000259232         0.555315       0.0470207
281728                  0.060746       0.0653542      0.000555139     0.000374032         0.912846        0.381975     -0.000138391    -0.000463465
                     0.000533044     0.000247314         0.350144        0.444737     -0.000517907    -0.000650028         0.401769       -0.700859
                        0.912977        0.381447     -0.000545064    -0.000613701       -0.0879824      0.00422602      0.000186212     0.000356173
                     8.48424e-06    -0.000522268         0.402164       -0.701039      6.56846e-05     0.000259142         0.555624       0.0464792
281730                 0.0607547       0.0653701      0.000555342        0.000374         0.912982        0.381661     -0.000138777    -0.000463418
                     0.000533188     0.000247088         0.350428        0.444855     -0.000518371    -0.000649994         0.401238       -0.700927
                        0.913108         0.38113     -0.000545429    -0.000613542       -0.0879989      0.00429255      0.000186716     0.000355904
                     8.36237e-06    -0.000522265         0.401633       -0.701107      6.63529e-05     0.000259008         0.555933       0.0459369
281732                 0.0607634       0.0653861      0.000555545     0.000373968         0.913117        0.381346     -0.000139162     -0.00046337
                     0.000533333     0.000246862         0.350713        0.444974     -0.000518832    -0.000649953         0.400707       -0.700996
                        0.913239        0.380813     -0.000545795    -0.000613383       -0.0880147      0.00435887       0.00018722     0.000355635
                     8.24071e-06    -0.000522262         0.401102       -0.701176      6.69309e-05     0.000258838         0.556242       0.0453937
281734                 0.0607721        0.065402      0.000555749     0.000373936          0.91325         0.38103     -0.000139548    -0.000463323
                     0.000533477     0.000246635         0.350998        0.445092     -0.000519292    -0.000649907         0.400176       -0.701064
                         0.91337        0.380495      -0.00054616    -0.000613223       -0.0880301      0.00442505      0.000187724     0.000355364
                     8.11928e-06    -0.000522259         0.400571       -0.701244      6.74459e-05     0.000258641          0.55655       0.0448498
281736                 0.0607809        0.065418      0.000555953     0.000373905         0.913382        0.380714     -0.000139934    -0.000463275
                     0.000533622     0.000246408         0.351284         0.44521      -0.00051975    -0.000649858         0.399644       -0.701131
                        0.913501        0.380178     -0.000546526    -0.000613063       -0.0880452      0.00449114      0.000188229     0.000355094
                     7.99809e-06    -0.000522256          0.40004       -0.701311      6.79167e-05     0.000258424         0.556858       0.0443051
281738                 0.0607896       0.0654339      0.000556157     0.000373874         0.913514        0.380397      -0.00014032    -0.000463228
                     0.000533766     0.000246181          0.35157        0.445328     -0.000520209    -0.000649806         0.399112       -0.701198
                        0.913632        0.379861     -0.000546892    -0.000612903       -0.0880601      0.00455717      0.000188734     0.000354823
                     7.87715e-06    -0.000522252         0.399508       -0.701377      6.83567e-05     0.000258193         0.557165       0.0437596
281740                 0.0607984       0.0654498      0.000556362     0.000373844         0.913645        0.380081     -0.000140707     -0.00046318
                      0.00053391     0.000245954         0.351857        0.445446     -0.000520666    -0.000649752          0.39858       -0.701264
                        0.913762        0.379544     -0.000547258    -0.000612742       -0.0880748      0.00462318       0.00018924     0.000354551
                     7.75649e-06    -0.000522248         0.398976       -0.701444      6.87751e-05     0.000257952         0.557473       0.0432133
281742                 0.0608071       0.0654658      0.000556568     0.000373814         0.913776        0.379764     -0.000141094    -0.000463132
                     0.000534054     0.000245726         0.352144        0.445564     -0.000521124    -0.000649698         0.398047        -0.70133
                        0.913893        0.379226     -0.000547624    -0.000612581       -0.0880894      0.00468917      0.000189746     0.000354279
                     7.63612e-06    -0.000522244         0.398443       -0.701509      6.91786e-05     0.000257703          0.55778       0.0426662
281744                 0.0608159       0.0654817      0.000556774     0.000373784         0.913906        0.379447     -0.000141481    -0.000463084
                     0.000534198     0.000245498         0.352431        0.445682     -0.000521582    -0.000649642         0.397514       -0.701395
                        0.914023        0.378909     -0.000547991    -0.000612419        -0.088104      0.00475515      0.000190253     0.000354006
                     7.51607e-06     -0.00052224          0.39791       -0.701574      6.95719e-05     0.000257449         0.558087       0.0421182
281746                 0.0608246       0.0654976       0.00055698     0.000373755         0.914037         0.37913     -0.000141868    -0.000463035
                     0.000534342      0.00024527         0.352719          0.4458      -0.00052204    -0.000649586          0.39698        -0.70146
                        0.914153        0.378591     -0.000548357    -0.000612257       -0.0881184      0.00482113       0.00019076     0.000353732
                     7.39638e-06    -0.000522235         0.397377       -0.701639      6.99581e-05      0.00025719         0.558393       0.0415695
281748                 0.0608334       0.0655135      0.000557186     0.000373727         0.914167        0.378813     -0.000142255    -0.000462987
                     0.000534486     0.000245041         0.353007        0.445918     -0.000522499    -0.000649529         0.396446       -0.701524
                        0.914284        0.378274     -0.000548723    -0.000612094       -0.0881328      0.00488712      0.000191268     0.000353458
                      7.2771e-06     -0.00052223         0.396844       -0.701703      7.03397e-05     0.000256929         0.558699         0.04102
281750                 0.0608421       0.0655294      0.000557393     0.000373699         0.914297        0.378496     -0.000142643    -0.000462939
                     0.000534629     0.000244812         0.353295        0.446035     -0.000522957    -0.000649472         0.395912       -0.701588
                        0.914414        0.377957      -0.00054909    -0.000611931       -0.0881471      0.00495311      0.000191775     0.000353184
                      7.1583e-06    -0.000522224          0.39631       -0.701766      7.07184e-05     0.000256666         0.559005       0.0404697
281752                 0.0608509       0.0655454      0.000557601     0.000373671         0.914427        0.378179     -0.000143031     -0.00046289
                     0.000534775     0.000244582         0.353584        0.446153     -0.000523416    -0.000649414         0.395378       -0.701651
                        0.914544        0.377639     -0.000549457    -0.000611768       -0.0881613      0.00501912      0.000192284     0.000352909
                     7.04008e-06    -0.000522219         0.395776       -0.701829      7.10954e-05     0.000256402         0.559311       0.0399185
281754                 0.0608597       0.0655613      0.000557809     0.000373644         0.914557        0.377862     -0.000143419    -0.000462841
                     0.000534919     0.000244353         0.353873         0.44627     -0.000523876    -0.000649357         0.394843       -0.701713
                        0.914674        0.377321     -0.000549823    -0.000611604       -0.0881755      0.00508514      0.000192792     0.000352633
                     6.92243e-06    -0.000522214         0.395241       -0.701891      7.14714e-05     0.000256136         0.559616       0.0393666
281756                 0.0608684       0.0655772      0.000558015     0.000373613         0.914687        0.377545     -0.000143809    -0.000462793
                     0.000535063     0.000244123         0.354163        0.446388     -0.000524335    -0.000649299         0.394308       -0.701775
                        0.914803        0.377004     -0.000550192    -0.000611441       -0.0881897      0.00515117        0.0001933     0.000352357
                     6.80467e-06     -0.00052221         0.394706       -0.701953      7.18472e-05     0.000255869         0.559921       0.0388139
281758                 0.0608772       0.0655931      0.000558225      0.00037359         0.914816        0.377227     -0.000144195    -0.000462744
                     0.000535207     0.000243893         0.354453        0.446505     -0.000524795    -0.000649241         0.393772       -0.701837
                        0.914933        0.376686     -0.000550557    -0.000611275       -0.0882037      0.00521722      0.000193815     0.000352079
                     6.68558e-06    -0.000522205         0.394171       -0.702015       7.2223e-05     0.000255602         0.560226       0.0382603
281760                  0.060886        0.065609      0.000558435     0.000373564         0.914946         0.37691     -0.000144584    -0.000462695
                     0.000535351     0.000243662         0.354744        0.446623     -0.000525256    -0.000649182         0.393237       -0.701897
                        0.915062        0.376369     -0.000550924     -0.00061111       -0.0882178      0.00528329      0.000194323     0.000351802
                     6.56623e-06    -0.000522199         0.393636       -0.702075      7.25992e-05     0.000255334          0.56053        0.037706
281762                 0.0608948       0.0656249      0.000558644     0.000373538         0.915075        0.376593     -0.000144973    -0.000462645
                     0.000535495     0.000243432         0.355034         0.44674     -0.000525716    -0.000649124           0.3927       -0.701958
                        0.915192        0.376051     -0.000551291    -0.000610945       -0.0882318      0.00534937      0.000194833     0.000351524
