! TOUCHSTONE file generated by CST MICROWAVE STUDIO
! Date and time: Wed Oct 15 17:32:31 2025
! Project name: Teste_Macro_Metasurface_Nanopilar.cst
! Parameters = {H=600; L_x=150; L_y=150; Lambda=1064; Max_L=200; Min_L=70; PathPara=1; Phi=0; Step_L=10; Theta=0; p=520; phaseX=180; phaseY=0}
! Header version: 2018
! Port assignment regex: !\s*Touchstone port\s*([0-9]+)\s*=\s*(CST MWS port|CST DS port)\s*([0-9]+|Zmin|Zmax)\s*\(\"(.*)\"\)(\s*mode\s*([0-9]+))?.*
! Touchstone port assignment:
! Touchstone port 1 = CST MWS port Zmax ("") mode 1
! Touchstone port 2 = CST MWS port Zmax ("") mode 2
! Touchstone port 3 = CST MWS port Zmin ("") mode 1
! Touchstone port 4 = CST MWS port Zmin ("") mode 2
! S-Parameters are not renormalized. Each port impedance will be approximated by the real part at minimum frequency. The values are described via the [Reference] keyword.
! Default impedance is overridden by [Reference]
[Version] 2.0
# GHz S RI R 376.73
[Number of Ports] 4
[Reference]
376.73 376.73 259.888 259.888 
[Number of Frequencies] 51
[Network Data]
281700                  0.443935       -0.285698      0.000996076    -9.44705e-05         0.820487      -0.0260476     -0.000944133      0.00184345
                      0.00109107    -0.000127434         0.447881       -0.287416     -0.000441432      0.00176425         0.817529      -0.0218865
                        0.820712      -0.0261976      -0.00038106      0.00174993        -0.414246       -0.297226      0.000331273      -0.0018848
                     -0.00074296      0.00161481         0.817288      -0.0220439      0.000397699      -0.0020054        -0.414401       -0.303902
281702                  0.443479       -0.285605      0.000994055    -9.51016e-05         0.820782      -0.0267158      -0.00094029      0.00184262
                      0.00108903    -0.000128295         0.447412       -0.287326     -0.000438171       0.0017632         0.817837      -0.0225605
                        0.821007      -0.0268655     -0.000378001      0.00174898         -0.41432       -0.296396      0.000327759      -0.0018816
                    -0.000739926      0.00161477         0.817595      -0.0227176      0.000394065     -0.00200228        -0.414484       -0.303057
281704                  0.443023       -0.285511      0.000992037    -9.57265e-05         0.821075      -0.0273839     -0.000936459      0.00184179
                        0.001087    -0.000129148         0.446944       -0.287235     -0.000434919      0.00176215         0.818144      -0.0232344
                        0.821299      -0.0275333     -0.000374952      0.00174803        -0.414392       -0.295567      0.000324258     -0.00187839
                    -0.000736901      0.00161473         0.817901      -0.0233912      0.000390445     -0.00199917        -0.414566       -0.302213
281706                  0.442568       -0.285418      0.000990023    -9.63452e-05         0.821366      -0.0280518     -0.000932638      0.00184096
                      0.00108497    -0.000129994         0.446477       -0.287144     -0.000431678      0.00176109         0.818449       -0.023908
                        0.821591      -0.0282008     -0.000371914      0.00174707        -0.414464        -0.29474       0.00032077     -0.00187518
                    -0.000733883      0.00161467         0.818206      -0.0240646      0.000386839     -0.00199606        -0.414646       -0.301371
281708                  0.442113       -0.285324      0.000988013    -9.69578e-05         0.821657      -0.0287195     -0.000928828      0.00184012
                      0.00108294    -0.000130833          0.44601       -0.287053     -0.000428446      0.00176003         0.818753      -0.0245816
                        0.821881      -0.0288683     -0.000368884      0.00174611        -0.414533       -0.293913      0.000317296     -0.00187198
                    -0.000730872      0.00161462          0.81851      -0.0247378      0.000383246     -0.00199296        -0.414725       -0.300529
281710                   0.44166       -0.285229      0.000986007    -9.75643e-05         0.821946       -0.029387     -0.000925029      0.00183928
                      0.00108092    -0.000131665         0.445545       -0.286961     -0.000425225      0.00175897         0.819055      -0.0252549
                         0.82217      -0.0295355     -0.000365865      0.00174515        -0.414602       -0.293088      0.000313835     -0.00186878
                     -0.00072787      0.00161455         0.818812      -0.0254109      0.000379668     -0.00198986        -0.414802       -0.299689
281712                  0.441207       -0.285134      0.000984004    -9.81649e-05         0.822234      -0.0300544     -0.000921241      0.00183844
                       0.0010789    -0.000132489          0.44508       -0.286869     -0.000422014       0.0017579         0.819356      -0.0259281
                        0.822458      -0.0302026     -0.000362855      0.00174418        -0.414669       -0.292263      0.000310387     -0.00186559
                    -0.000724875      0.00161448         0.819113      -0.0260838      0.000376103     -0.00198676        -0.414879        -0.29885
281714                  0.440755       -0.285039      0.000982006    -9.87595e-05         0.822521      -0.0307216     -0.000917463       0.0018376
                      0.00107689    -0.000133306         0.444616       -0.286776     -0.000418812      0.00175683         0.819656      -0.0266011
                        0.822745      -0.0308695     -0.000359854      0.00174322        -0.414735        -0.29144      0.000306952     -0.00186239
                    -0.000721888       0.0016144         0.819413      -0.0267565      0.000372552     -0.00198366        -0.414953       -0.298011
281716                  0.440304       -0.284943      0.000980012    -9.93482e-05         0.822806      -0.0313886     -0.000913697      0.00183675
                      0.00107488    -0.000134116         0.444153       -0.286683      -0.00041562      0.00175576         0.819955       -0.027274
                         0.82303      -0.0315362     -0.000356863      0.00174225          -0.4148       -0.290617       0.00030353      -0.0018592
                    -0.000718909      0.00161431         0.819711      -0.0274291      0.000369015     -0.00198056        -0.415027       -0.297174
281718                  0.439854       -0.284847      0.000978022     -9.9931e-05          0.82309      -0.0320554     -0.000909941       0.0018359
                      0.00107287    -0.000134919         0.443691        -0.28659     -0.000412439      0.00175469         0.820252      -0.0279467
                        0.823314      -0.0322027     -0.000353882      0.00174127        -0.414863       -0.289796      0.000300122     -0.00185601
                    -0.000715938      0.00161422         0.820008      -0.0281015      0.000365492     -0.00197747        -0.415099       -0.296338
281720                  0.439405       -0.284751      0.000976036    -0.000100508         0.823373       -0.032722     -0.000906196      0.00183505
                      0.00107087    -0.000135715         0.443229       -0.286496     -0.000409267      0.00175361         0.820548      -0.0286192
                        0.823596      -0.0328691      -0.00035091      0.00174029        -0.414925       -0.288976      0.000296726     -0.00185283
                    -0.000712974      0.00161412         0.820304      -0.0287737      0.000361982     -0.00197437        -0.415169       -0.295503
281722                  0.438956       -0.284654      0.000974054    -0.000101079         0.823654      -0.0333885     -0.000902462       0.0018342
                      0.00106888    -0.000136503         0.442769       -0.286402     -0.000406104      0.00175253         0.820842      -0.0292916
                        0.823878      -0.0335352     -0.000347947      0.00173932        -0.414985       -0.288156      0.000293343     -0.00184965
                    -0.000710018      0.00161402         0.820598      -0.0294457      0.000358486     -0.00197129        -0.415239       -0.294669
281724                  0.438509       -0.284557      0.000972076    -0.000101645         0.823935      -0.0340547     -0.000898738      0.00183334
                      0.00106688    -0.000137285         0.442309       -0.286307     -0.000402952      0.00175145         0.821136      -0.0299637
                        0.824158      -0.0342012     -0.000344994      0.00173833        -0.415045       -0.287338      0.000289973     -0.00184647
                     -0.00070707      0.00161391         0.820891      -0.0301176      0.000355003      -0.0019682        -0.415307       -0.293836
281726                  0.438062       -0.284459      0.000970103    -0.000102205         0.824214      -0.0347208     -0.000895024      0.00183249
                       0.0010649    -0.000138059          0.44185       -0.286212     -0.000399809      0.00175036         0.821428      -0.0306357
                        0.824437       -0.034867      -0.00034205      0.00173735        -0.415103       -0.286521      0.000286616     -0.00184329
                     -0.00070413      0.00161379         0.821183      -0.0307893      0.000351534     -0.00196512        -0.415373       -0.293004
281728                  0.437616       -0.284362      0.000968133    -0.000102759         0.824491      -0.0353867     -0.000891321      0.00183163
                      0.00106291    -0.000138827         0.441392       -0.286117     -0.000396676      0.00174928         0.821718      -0.0313075
                        0.824715      -0.0355326     -0.000339115      0.00173636         -0.41516       -0.285705      0.000283271     -0.00184011
                    -0.000701197      0.00161367         0.821473      -0.0314608      0.000348078     -0.00196203        -0.415439       -0.292174
281730                   0.43717       -0.284263      0.000966168    -0.000103307         0.824768      -0.0360524     -0.000887629      0.00183077
                      0.00106093    -0.000139588         0.440935       -0.286021     -0.000393552      0.00174818         0.822008      -0.0319792
                        0.824991       -0.036198      -0.00033619      0.00173537        -0.415215        -0.28489      0.000279938     -0.00183694
                    -0.000698272      0.00161354         0.821762      -0.0321321      0.000344635     -0.00195895        -0.415503       -0.291344
281732                  0.436726       -0.284165      0.000964207     -0.00010385         0.825043      -0.0367179     -0.000883946       0.0018299
                      0.00105896    -0.000140342         0.440479       -0.285925     -0.000390439      0.00174709         0.822296      -0.0326506
                        0.825266      -0.0368632     -0.000333274      0.00173438         -0.41527       -0.284076      0.000276617     -0.00183377
                    -0.000695355       0.0016134          0.82205      -0.0328032      0.000341206     -0.00195588        -0.415565       -0.290515
281734                  0.436282       -0.284066       0.00096225    -0.000104388         0.825317      -0.0373832     -0.000880273      0.00182904
                      0.00105699    -0.000141089         0.440023       -0.285828     -0.000387334      0.00174599         0.822583      -0.0333219
                         0.82554      -0.0375283     -0.000330366      0.00173338        -0.415323       -0.283263      0.000273308      -0.0018306
                    -0.000692445      0.00161326         0.822337      -0.0334741       0.00033779      -0.0019528        -0.415627       -0.289688
281736                   0.43584       -0.283967      0.000960298     -0.00010492          0.82559      -0.0380483      -0.00087661      0.00182817
                      0.00105502    -0.000141829         0.439569       -0.285731      -0.00038424       0.0017449         0.822868      -0.0339929
                        0.825813      -0.0381931     -0.000327468      0.00173238        -0.415374       -0.282451      0.000270009     -0.00182744
                    -0.000689543      0.00161311         0.822622      -0.0341449      0.000334387     -0.00194973        -0.415687       -0.288861
281738                  0.435398       -0.283867      0.000958349    -0.000105446         0.825862      -0.0387132     -0.000872955       0.0018273
                      0.00105306    -0.000142562         0.439115       -0.285634     -0.000381154      0.00174379         0.823153      -0.0346638
                        0.826084      -0.0388577     -0.000324579      0.00173138        -0.415425        -0.28164       0.00026672     -0.00182428
                    -0.000686649      0.00161296         0.822906      -0.0348155      0.000330998     -0.00194666        -0.415745       -0.288036
281740                  0.434956       -0.283767      0.000956404    -0.000105966         0.826132      -0.0393779     -0.000869307      0.00182642
                       0.0010511    -0.000143289         0.438662       -0.285536     -0.000378079      0.00174269         0.823436      -0.0353345
                        0.826354      -0.0395221       -0.0003217      0.00173038        -0.415474        -0.28083      0.000263438     -0.00182112
                    -0.000683762       0.0016128         0.823189      -0.0354858      0.000327621      -0.0019436        -0.415803       -0.287212
281742                  0.434516       -0.283667      0.000954462     -0.00010648         0.826401      -0.0400424      -0.00086566      0.00182554
                      0.00104915    -0.000144009          0.43821       -0.285438     -0.000375013      0.00174158         0.823717       -0.036005
                        0.826623      -0.0401864     -0.000318829      0.00172937        -0.415522       -0.280021      0.000260152     -0.00181797
                    -0.000680883      0.00161263          0.82347       -0.036156      0.000324257     -0.00194053        -0.415859       -0.286388
281744                  0.434076       -0.283566      0.000952516    -0.000106984         0.826669      -0.0407067     -0.000861992      0.00182465
                       0.0010472    -0.000144722         0.437758        -0.28534     -0.000371956      0.00174047         0.823998      -0.0366752
                        0.826891      -0.0408504     -0.000315967      0.00172836        -0.415569       -0.279213      0.000256827     -0.00181481
                    -0.000678012      0.00161246         0.823751       -0.036826      0.000320907     -0.00193747        -0.415914       -0.285566
281746                  0.433637       -0.283465      0.000949919    -0.000106277         0.826936      -0.0413708     -0.000857868      0.00182381
                      0.00104526    -0.000145428         0.437308       -0.285241     -0.000368909      0.00173936         0.824275      -0.0373453
                        0.827158      -0.0415142     -0.000313113      0.00172735        -0.415614       -0.278407      0.000252694     -0.00181151
                    -0.000675148      0.00161228          0.82403      -0.0374958       0.00031757     -0.00193442        -0.415967       -0.284746
281748                  0.433199       -0.283364       0.00094871    -0.000108021         0.827201      -0.0420347     -0.000855063      0.00182301
                      0.00104332    -0.000146128         0.436858       -0.285142     -0.000365871      0.00173825         0.824555      -0.0380158
                        0.827423      -0.0421778     -0.000310266      0.00172633        -0.415659       -0.277601      0.000250845     -0.00180851
                    -0.000672292       0.0016121         0.824307      -0.0381653      0.000314246     -0.00193136         -0.41602       -0.283925
281750                  0.432762       -0.283262      0.000946777    -0.000108509         0.827465      -0.0426984     -0.000851389      0.00182208
                      0.00104138    -0.000146822         0.436409       -0.285043     -0.000362843      0.00173713         0.824832      -0.0386853
                        0.827687      -0.0428413     -0.000307429      0.00172532        -0.415702       -0.276796      0.000247487     -0.00180537
                    -0.000669443      0.00161191         0.824584      -0.0388347      0.000310938     -0.00192831        -0.416071       -0.283106
281752                  0.432326        -0.28316      0.000944856    -0.000108997         0.827728       -0.043362     -0.000847787      0.00182118
                      0.00103945    -0.000147508         0.435961       -0.284943     -0.000359812      0.00173604         0.825107      -0.0393548
                         0.82795      -0.0435045     -0.000304602       0.0017243        -0.415744       -0.275993      0.000244251     -0.00180224
                    -0.000666602      0.00161171         0.824859      -0.0395039      0.000307568      -0.0019252         -0.41612       -0.282288
281754                   0.43189       -0.283058      0.000942943    -0.000109482          0.82799       -0.044025     -0.000844209      0.00182029
                      0.00103752    -0.000148188         0.435514       -0.284843     -0.000356806      0.00173488         0.825381      -0.0400241
                        0.828212      -0.0441674     -0.000301785      0.00172328        -0.415784        -0.27519      0.000241051      -0.0017991
                    -0.000663767      0.00161151         0.825133      -0.0401728      0.000304334     -0.00192221        -0.416169       -0.281472
281756                  0.431455       -0.282955      0.000941035    -0.000109962         0.828251      -0.0446881     -0.000840647       0.0018194
                       0.0010356    -0.000148862         0.435068       -0.284742     -0.000353808      0.00173376         0.825654      -0.0406932
                        0.828472      -0.0448302     -0.000298976      0.00172225        -0.415824       -0.274389      0.000237871     -0.00179597
                     -0.00066094       0.0016113         0.825405      -0.0408416      0.000301063     -0.00191917        -0.416216       -0.280656
281758                  0.431021       -0.282852      0.000939132    -0.000110437          0.82851      -0.0453509     -0.000837097      0.00181851
                      0.00103369    -0.000149529         0.434622       -0.284641     -0.000350817      0.00173264         0.825925       -0.041362
                        0.828731      -0.0454928     -0.000296175      0.00172123        -0.415862       -0.273588      0.000234708     -0.00179283
                    -0.000658119      0.00161109         0.825677      -0.0415101      0.000297803     -0.00191612        -0.416262       -0.279841
281760                  0.430588       -0.282749      0.000937234    -0.000110907         0.828768      -0.0460135     -0.000833559      0.00181762
                      0.00103178    -0.000150189         0.434178        -0.28454     -0.000347835      0.00173151         0.826196      -0.0420307
                        0.828989      -0.0461552     -0.000293384       0.0017202        -0.415899       -0.272789       0.00023156     -0.00178971
                    -0.000655302      0.00161086         0.825947      -0.0421785      0.000294554     -0.00191309        -0.416306       -0.279027
281762                  0.430156       -0.282645       0.00093534    -0.000111373         0.829025      -0.0466759     -0.000830032      0.00181672
                      0.00102989    -0.000150842         0.433734       -0.284438     -0.000344861      0.00173038         0.826465      -0.0426992
                        0.829246      -0.0468173       -0.0002906      0.00171917        -0.415935       -0.271991      0.000228425     -0.00178658
