! TOUCHSTONE file generated by CST MICROWAVE STUDIO
! Date and time: Wed Oct 15 17:32:24 2025
! Project name: Teste_Macro_Metasurface_Nanopilar.cst
! Parameters = {H=600; L_x=150; L_y=100; Lambda=1064; Max_L=200; Min_L=70; PathPara=1; Phi=0; Step_L=10; Theta=0; p=520; phaseX=180; phaseY=0}
! Header version: 2018
! Port assignment regex: !\s*Touchstone port\s*([0-9]+)\s*=\s*(CST MWS port|CST DS port)\s*([0-9]+|Zmin|Zmax)\s*\(\"(.*)\"\)(\s*mode\s*([0-9]+))?.*
! Touchstone port assignment:
! Touchstone port 1 = CST MWS port Zmax ("") mode 1
! Touchstone port 2 = CST MWS port Zmax ("") mode 2
! Touchstone port 3 = CST MWS port Zmin ("") mode 1
! Touchstone port 4 = CST MWS port Zmin ("") mode 2
! S-Parameters are not renormalized. Each port impedance will be approximated by the real part at minimum frequency. The values are described via the [Reference] keyword.
! Default impedance is overridden by [Reference]
[Version] 2.0
# GHz S RI R 376.73
[Number of Ports] 4
[Reference]
376.73 376.73 259.888 259.888 
[Number of Frequencies] 51
[Network Data]
281700                 0.0919729        0.119479       0.00077822     1.73843e-05         -0.98139       0.0465242     -6.72479e-05     0.000668886
                     0.000763952     1.13545e-05        0.0483406        0.139017      0.000102131    -0.000745167         0.978948       0.0923997
                       -0.981456       0.0456641      9.98734e-05    -0.000669328       -0.0789419        0.127937      0.000968885     0.000139561
                     -5.3272e-05     0.000658478         0.979077       0.0924472       0.00101492     0.000161139       -0.0723022        0.128164
281702                 0.0919963        0.119482      0.000778342     1.70264e-05        -0.981371       0.0468655     -6.70146e-05     0.000668998
                     0.000764053     1.10529e-05          0.04836        0.139033        0.0001018    -0.000745245         0.978976       0.0920686
                       -0.981437       0.0460053      9.96041e-05     -0.00066944        -0.078876        0.127997       0.00096909     0.000139285
                    -5.30434e-05     0.000658589         0.979105       0.0921161       0.00101512     0.000160906       -0.0722376        0.128225
281704                 0.0920197        0.119485      0.000778463     1.66683e-05        -0.981351       0.0472067     -6.67811e-05      0.00066911
                     0.000764153     1.07511e-05        0.0483794        0.139048      0.000101469    -0.000745323         0.979004       0.0917374
                       -0.981418       0.0463464      9.93348e-05    -0.000669552         -0.07881        0.128057      0.000969295     0.000139009
                    -5.28148e-05     0.000658699         0.979134       0.0917849       0.00101533     0.000160674        -0.072173        0.128285
281706                 0.0920431        0.119488      0.000778584     1.63102e-05        -0.981332        0.047548     -6.65476e-05     0.000669221
                     0.000764253     1.04492e-05        0.0483988        0.139064      0.000101138    -0.000745401         0.979033       0.0914063
                       -0.981398       0.0466876      9.90654e-05    -0.000669664        -0.078744        0.128117      0.000969499     0.000138732
                    -5.25861e-05     0.000658809         0.979162       0.0914538       0.00101554     0.000160442       -0.0721083        0.128346
281708                 0.0920665         0.11949      0.000778706      1.5952e-05        -0.981312       0.0478892      -6.6314e-05     0.000669333
                     0.000764353     1.01472e-05        0.0484181         0.13908      0.000100808    -0.000745479         0.979061       0.0910751
                       -0.981379       0.0470288      9.87958e-05    -0.000669776       -0.0786779        0.128177      0.000969703     0.000138455
                    -5.23574e-05     0.000658919          0.97919       0.0911227       0.00101574     0.000160209       -0.0720436        0.128407
281710                 0.0920899        0.119493      0.000778827     1.55937e-05        -0.981293       0.0482305     -6.60804e-05     0.000669444
                     0.000764453     9.84507e-06        0.0484375        0.139096      0.000100477    -0.000745556         0.979088       0.0907439
                       -0.981359       0.0473699      9.85262e-05    -0.000669887       -0.0786118        0.128237      0.000969908     0.000138179
                    -5.21286e-05     0.000659029         0.979217       0.0907915       0.00101595     0.000159977       -0.0719789        0.128467
281712                 0.0921133        0.119496      0.000778947     1.52354e-05        -0.981273       0.0485717     -6.58466e-05     0.000669556
                     0.000764553     9.54286e-06        0.0484569        0.139112      0.000100146    -0.000745633         0.979116       0.0904127
                        -0.98134       0.0477111      9.82565e-05    -0.000669999       -0.0785456        0.128296      0.000970112     0.000137902
                    -5.18999e-05     0.000659138         0.979245       0.0904604       0.00101616     0.000159745       -0.0719141        0.128528
281714                 0.0921367        0.119498      0.000779068     1.48769e-05        -0.981253        0.048913     -6.56128e-05     0.000669667
                     0.000764653     9.24054e-06        0.0484763        0.139128      9.98154e-05    -0.000745711         0.979144       0.0900816
                        -0.98132       0.0480522      9.79867e-05    -0.000670111       -0.0784794        0.128356      0.000970316     0.000137625
                    -5.16711e-05     0.000659248         0.979273       0.0901292       0.00101636     0.000159513       -0.0718492        0.128589
281716                 0.0921601        0.119501      0.000779188     1.45183e-05        -0.981233       0.0492542     -6.53789e-05     0.000669778
                     0.000764752     8.93813e-06        0.0484957        0.139144      9.94848e-05    -0.000745788         0.979171       0.0897504
                         -0.9813       0.0483934      9.77169e-05    -0.000670222       -0.0784132        0.128416       0.00097052     0.000137347
                    -5.14422e-05     0.000659357           0.9793       0.0897981       0.00101657     0.000159281       -0.0717843        0.128649
281718                 0.0921835        0.119504      0.000779308     1.41597e-05        -0.981213       0.0495955      -6.5145e-05     0.000669889
                     0.000764852     8.63561e-06         0.048515         0.13916      9.91543e-05    -0.000745865         0.979199       0.0894192
                        -0.98128       0.0487345      9.74469e-05    -0.000670333       -0.0783469        0.128475      0.000970724      0.00013707
                    -5.12133e-05     0.000659466         0.979328       0.0894669       0.00101677     0.000159048       -0.0717194         0.12871
281720                 0.0922069        0.119506      0.000779428      1.3801e-05        -0.981193       0.0499367     -6.49109e-05         0.00067
                     0.000764951     8.33299e-06        0.0485344        0.139176      9.88237e-05    -0.000745941         0.979226        0.089088
                        -0.98126       0.0490757      9.71768e-05    -0.000670445       -0.0782806        0.128535      0.000970928     0.000136793
                    -5.09844e-05     0.000659575         0.979355       0.0891358       0.00101698     0.000158816       -0.0716544         0.12877
281722                 0.0922303        0.119509      0.000779548     1.34422e-05        -0.981172        0.050278     -6.46768e-05     0.000670111
                      0.00076505     8.03026e-06        0.0485538        0.139192      9.84933e-05    -0.000746018         0.979253       0.0887568
                        -0.98124       0.0494168      9.69067e-05    -0.000670556       -0.0782142        0.128595      0.000971132     0.000136515
                    -5.07554e-05     0.000659684         0.979382       0.0888046       0.00101719     0.000158584       -0.0715894        0.128831
281724                 0.0922538        0.119512      0.000779668     1.30833e-05        -0.981152       0.0506192     -6.44426e-05     0.000670222
                     0.000765149     7.72744e-06        0.0485732        0.139208      9.81628e-05    -0.000746095         0.979281       0.0884256
                       -0.981219        0.049758      9.66365e-05    -0.000670667       -0.0781478        0.128654      0.000971335     0.000136238
                    -5.05264e-05     0.000659793         0.979409       0.0884735       0.00101739     0.000158352       -0.0715243        0.128891
281726                 0.0922772        0.119514      0.000779787     1.27243e-05        -0.981131       0.0509605     -6.42083e-05     0.000670332
                     0.000765248     7.42451e-06        0.0485926        0.139224      9.78324e-05    -0.000746171         0.979308       0.0880944
                       -0.981199       0.0500991      9.63662e-05    -0.000670778       -0.0780813        0.128714      0.000971539      0.00013596
                    -5.02973e-05     0.000659902         0.979436       0.0881423        0.0010176      0.00015812       -0.0714591        0.128951
281728                 0.0923006        0.119517      0.000779906     1.23652e-05         -0.98111       0.0513017      -6.3974e-05     0.000670443
                     0.000765346     7.12148e-06         0.048612         0.13924      9.75021e-05    -0.000746247         0.979334       0.0877632
                       -0.981178       0.0504403      9.60958e-05    -0.000670889       -0.0780148        0.128773      0.000971742     0.000135682
                    -5.00682e-05      0.00066001         0.979463       0.0878111        0.0010178     0.000157888        -0.071394        0.129012
281730                  0.092324         0.11952      0.000780025     1.20061e-05        -0.981089        0.051643     -6.37396e-05     0.000670553
                     0.000765445     6.81835e-06        0.0486313        0.139256      9.71718e-05    -0.000746324         0.979361        0.087432
                       -0.981157       0.0507814      9.58253e-05       -0.000671       -0.0779482        0.128832      0.000971946     0.000135404
                     -4.9839e-05     0.000660119         0.979489         0.08748       0.00101801     0.000157656       -0.0713287        0.129072
281732                 0.0923474        0.119522      0.000780144     1.16469e-05        -0.981068       0.0519842     -6.35051e-05     0.000670664
                     0.000765543     6.51513e-06        0.0486507        0.139272      9.68415e-05      -0.0007464         0.979388       0.0871008
                       -0.981137       0.0511226      9.55547e-05    -0.000671111       -0.0778816        0.128892      0.000972149     0.000135126
                    -4.96098e-05     0.000660227         0.979516       0.0871488       0.00101821     0.000157423       -0.0712635        0.129132
281734                 0.0923709        0.119525      0.000780263     1.12875e-05        -0.981047       0.0523255     -6.32705e-05     0.000670774
                     0.000765641      6.2118e-06        0.0486701        0.139288      9.65112e-05    -0.000746476         0.979414       0.0867696
                       -0.981116       0.0514637      9.52841e-05    -0.000671222        -0.077815        0.128951      0.000972352     0.000134848
                    -4.93805e-05     0.000660335         0.979543       0.0868176       0.00101842     0.000157191       -0.0711981        0.129193
281736                 0.0923943        0.119527      0.000780381     1.09281e-05        -0.981026       0.0526667     -6.30359e-05     0.000670884
                     0.000765739     5.90837e-06        0.0486895        0.139303       9.6181e-05    -0.000746552         0.979441       0.0864383
                       -0.981094       0.0518049      9.50133e-05    -0.000671333       -0.0777483        0.129011      0.000972555      0.00013457
                    -4.91511e-05     0.000660443         0.979569       0.0864864       0.00101862     0.000156959       -0.0711328        0.129253
281738                 0.0924177         0.11953      0.000780499     1.05687e-05        -0.981005        0.053008     -6.28011e-05     0.000670994
                     0.000765837     5.60485e-06        0.0487089        0.139319      9.58509e-05    -0.000746627         0.979467       0.0861071
                       -0.981073        0.052146      9.47425e-05    -0.000671443       -0.0776815         0.12907      0.000972758     0.000134292
                    -4.89217e-05     0.000660551         0.979595       0.0861552       0.00101883     0.000156726       -0.0710673        0.129313
281740                 0.0924412        0.119533      0.000780617     1.02091e-05        -0.980983       0.0533492     -6.25663e-05     0.000671104
                     0.000765935     5.30122e-06        0.0487283        0.139335      9.55208e-05    -0.000746703         0.979493       0.0857759
                       -0.981052       0.0524872      9.44716e-05    -0.000671554       -0.0776148        0.129129      0.000972961     0.000134013
                    -4.86923e-05     0.000660659         0.979621       0.0858241       0.00101903     0.000156494       -0.0710019        0.129373
281742                 0.0924646        0.119535      0.000780735     9.84944e-06        -0.980962       0.0536904     -6.23315e-05     0.000671214
                     0.000766033      4.9975e-06        0.0487477        0.139351      9.51908e-05    -0.000746778         0.979519       0.0854447
                        -0.98103       0.0528283      9.42006e-05    -0.000671664       -0.0775479        0.129188      0.000973164     0.000133734
                    -4.84627e-05     0.000660767         0.979647       0.0854929       0.00101924     0.000156262       -0.0709364        0.129433
281744                  0.092488        0.119538      0.000780853     9.48971e-06         -0.98094       0.0540317     -6.20965e-05     0.000671323
                      0.00076613     4.69369e-06        0.0487671        0.139367      9.48609e-05    -0.000746854         0.979545       0.0851134
                       -0.981009       0.0531695      9.39295e-05    -0.000671775       -0.0774811        0.129247      0.000973367     0.000133456
                     -4.8233e-05     0.000660874         0.979673       0.0851617       0.00101944     0.000156029       -0.0708708        0.129493
281746                 0.0925115         0.11954       0.00078097     9.12989e-06        -0.980918       0.0543729     -6.18615e-05     0.000671433
                     0.000766227     4.38978e-06        0.0487865        0.139383      9.45312e-05    -0.000746929         0.979571       0.0847822
                       -0.980987       0.0535106      9.36583e-05    -0.000671885       -0.0774142        0.129307       0.00097357     0.000133177
                     -4.8003e-05     0.000660982         0.979699       0.0848305       0.00101965     0.000155797       -0.0708052        0.129553
281748                 0.0925349        0.119543      0.000781088     8.76999e-06        -0.980896       0.0547142     -6.16264e-05     0.000671542
                     0.000766324     4.08576e-06        0.0488059        0.139399       9.4202e-05    -0.000747004         0.979597        0.084451
                       -0.980965       0.0538518      9.33871e-05    -0.000671995       -0.0773472        0.129366      0.000973772     0.000132898
                    -4.77719e-05     0.000661089         0.979725       0.0844993       0.00101985     0.000155566       -0.0707395        0.129613
281750                 0.0925584        0.119546      0.000781205     8.41001e-06        -0.980874       0.0550554     -6.13912e-05     0.000671651
                     0.000766424      3.7807e-06        0.0488253        0.139415       9.3874e-05    -0.000747079         0.979623       0.0841197
                       -0.980944       0.0541928      9.31158e-05    -0.000672106       -0.0772802        0.129425      0.000973974     0.000132619
                    -4.75499e-05     0.000661192          0.97975       0.0841681       0.00102006     0.000155335       -0.0706738        0.129673
281752                 0.0925818        0.119548      0.000781322     8.04995e-06        -0.980852       0.0553966      -6.1156e-05      0.00067176
                     0.000766519     3.47726e-06        0.0488447        0.139431      9.35518e-05    -0.000747153         0.979648       0.0837885
                       -0.980921        0.054534      9.28443e-05    -0.000672216       -0.0772132        0.129484      0.000974177      0.00013234
                    -4.73163e-05     0.000661302         0.979776       0.0838369       0.00102026     0.000155111       -0.0706081        0.129733
281754                 0.0926053        0.119551      0.000781438      7.6898e-06         -0.98083       0.0557382      -6.0921e-05     0.000671868
                     0.000766616     3.17302e-06        0.0488641        0.139447      9.31586e-05    -0.000747261         0.979674       0.0834572
                       -0.980899       0.0548752      9.25728e-05    -0.000672326       -0.0771461        0.129543      0.000974377     0.000132063
                    -4.70859e-05     0.000661409         0.979801       0.0835056       0.00102039     0.000154777       -0.0705423        0.129793
281756                 0.0926287        0.119553      0.000781555     7.32958e-06        -0.980807       0.0560792     -6.06852e-05     0.000671982
                     0.000766712     2.86863e-06        0.0488835        0.139463      9.28672e-05    -0.000747307         0.979699        0.083126
                       -0.980877       0.0552163      9.23013e-05    -0.000672436        -0.077079        0.129602      0.000974585     0.000131777
                    -4.68558e-05     0.000661516         0.979826       0.0831744       0.00102067     0.000154613       -0.0704765        0.129853
281758                 0.0926522        0.119556      0.000781671     6.96927e-06        -0.980785       0.0564205     -6.04497e-05      0.00067209
                     0.000766808     2.56414e-06        0.0489028        0.139478      9.25411e-05    -0.000747381         0.979724       0.0827947
                       -0.980855       0.0555575      9.20296e-05    -0.000672546       -0.0770118        0.129661      0.000974785       0.0001315
                    -4.66257e-05     0.000661623         0.979851       0.0828432       0.00102087     0.000154386       -0.0704106        0.129913
281760                 0.0926756        0.119558      0.000781787     6.60887e-06        -0.980762       0.0567617     -6.02142e-05     0.000672198
                     0.000766905     2.25955e-06        0.0489222        0.139494      9.22123e-05    -0.000747455         0.979749       0.0824635
                       -0.980832       0.0558986      9.17578e-05    -0.000672655       -0.0769446         0.12972      0.000974987      0.00013122
                    -4.63956e-05     0.000661729         0.979876        0.082512       0.00102108     0.000154155       -0.0703446        0.129973
281762                 0.0926991        0.119561      0.000781903     6.24839e-06        -0.980739       0.0571029     -5.99785e-05     0.000672307
                     0.000767001     1.95486e-06        0.0489416         0.13951      9.18828e-05    -0.000747529         0.979774       0.0821322
                       -0.980809       0.0562397       9.1486e-05    -0.000672765       -0.0768773        0.129778      0.000975189     0.000130941
