! TOUCHSTONE file generated by CST MICROWAVE STUDIO
! Date and time: Wed Oct 15 17:30:10 2025
! Project name: Teste_Macro_Metasurface_Nanopilar.cst
! Parameters = {H=600; L_x=110; L_y=125; Lambda=1064; Max_L=200; Min_L=70; PathPara=1; Phi=0; Step_L=10; Theta=0; p=520; phaseX=180; phaseY=0}
! Header version: 2018
! Port assignment regex: !\s*Touchstone port\s*([0-9]+)\s*=\s*(CST MWS port|CST DS port)\s*([0-9]+|Zmin|Zmax)\s*\(\"(.*)\"\)(\s*mode\s*([0-9]+))?.*
! Touchstone port assignment:
! Touchstone port 1 = CST MWS port Zmax ("") mode 1
! Touchstone port 2 = CST MWS port Zmax ("") mode 2
! Touchstone port 3 = CST MWS port Zmin ("") mode 1
! Touchstone port 4 = CST MWS port Zmin ("") mode 2
! S-Parameters are not renormalized. Each port impedance will be approximated by the real part at minimum frequency. The values are described via the [Reference] keyword.
! Default impedance is overridden by [Reference]
[Version] 2.0
# GHz S RI R 376.73
[Number of Ports] 4
[Reference]
376.73 376.73 259.888 259.888 
[Number of Frequencies] 51
[Network Data]
281700                 0.0422311      -0.0666591      0.000218153     -0.00123353        0.0974328         0.98311       -0.0001007    -5.10245e-05
                     0.000174006     -0.00124226         0.166822       0.0414823      8.99663e-05    -0.000135294        -0.855181        0.473206
                       0.0970628        0.982339      7.30121e-05    -0.000188466        0.0518248       0.0585911     -0.000813181     0.000998588
                    -4.23447e-05    -7.20606e-05        -0.854545          0.4738     -0.000883678     0.000945841       -0.0529146        0.162747
281702                 0.0422043       -0.066639      0.000217337     -0.00123364        0.0978334        0.983073     -0.000100824    -5.07906e-05
                     0.000173332     -0.00124225          0.16683         0.04146      8.99054e-05    -0.000135263        -0.854999        0.473533
                       0.0974642        0.982302      7.29238e-05    -0.000188501         0.051842        0.058534     -0.000812843     0.000998715
                    -4.25012e-05    -7.19745e-05        -0.854363        0.474127      -0.00088347     0.000945939       -0.0528137        0.162782
281704                 0.0421775      -0.0666188       0.00021652     -0.00123374         0.098234        0.983035     -0.000100948     -5.0556e-05
                     0.000172658     -0.00124223         0.166838       0.0414377      8.98446e-05    -0.000135233        -0.854818        0.473859
                       0.0978657        0.982264      7.28364e-05    -0.000188535        0.0518591       0.0584769     -0.000812505     0.000998842
                    -4.26575e-05    -7.18885e-05         -0.85418        0.474454     -0.000883263     0.000946037       -0.0527127        0.162818
281706                 0.0421507      -0.0665987      0.000215704     -0.00123385        0.0986345        0.982998     -0.000101071    -5.03208e-05
                     0.000171983     -0.00124222         0.166847       0.0414155       8.9784e-05    -0.000135202        -0.854636        0.474186
                       0.0982671        0.982227        7.275e-05     -0.00018857        0.0518763       0.0584198     -0.000812166     0.000998969
                    -4.28136e-05    -7.18025e-05        -0.853997        0.474781     -0.000883055     0.000946135       -0.0526118        0.162853
281708                 0.0421239      -0.0665785      0.000214887     -0.00123396        0.0990351         0.98296     -0.000101195    -5.00849e-05
                     0.000171309     -0.00124221         0.166855       0.0413932      8.97235e-05    -0.000135172        -0.854453        0.474512
                       0.0986686        0.982189      7.26643e-05    -0.000188604        0.0518933       0.0583628     -0.000811828     0.000999097
                    -4.29696e-05    -7.17166e-05        -0.853814        0.475108     -0.000882848     0.000946232       -0.0525108        0.162888
281710                 0.0420971      -0.0665583      0.000214071     -0.00123406        0.0994356        0.982922     -0.000101317    -4.98483e-05
                     0.000170635      -0.0012422         0.166863       0.0413709      8.96631e-05    -0.000135142        -0.854271        0.474839
                         0.09907        0.982151      7.25794e-05    -0.000188639        0.0519103       0.0583057     -0.000811488     0.000999224
                    -4.31253e-05    -7.16308e-05        -0.853631        0.475435     -0.000882641     0.000946329       -0.0524098        0.162924
281712                 0.0420703      -0.0665381      0.000213255     -0.00123417        0.0998361        0.982883      -0.00010144    -4.96111e-05
                      0.00016996     -0.00124218         0.166871       0.0413487      8.96029e-05    -0.000135111        -0.854089        0.475165
                       0.0994714        0.982113       7.2495e-05    -0.000188673        0.0519273       0.0582486     -0.000811149     0.000999352
                    -4.32808e-05    -7.15449e-05        -0.853447        0.475761     -0.000882434     0.000946426       -0.0523087        0.162959
281714                 0.0420435      -0.0665179      0.000212439     -0.00123427         0.100237        0.982845     -0.000101562    -4.93734e-05
                     0.000169286     -0.00124217         0.166879       0.0413264      8.95428e-05    -0.000135081        -0.853906        0.475491
                       0.0998727        0.982074      7.24112e-05    -0.000188708        0.0519442       0.0581916     -0.000810809      0.00099948
                    -4.34361e-05    -7.14591e-05        -0.853264        0.476088     -0.000882227     0.000946523       -0.0522077        0.162994
281716                 0.0420168      -0.0664977      0.000211622     -0.00123438         0.100637        0.982806     -0.000101683     -4.9135e-05
                     0.000168611     -0.00124216         0.166888       0.0413041      8.94829e-05    -0.000135051        -0.853724        0.475817
                        0.100274        0.982036      7.23279e-05    -0.000188742        0.0519611       0.0581345      -0.00081047     0.000999608
                    -4.35913e-05    -7.13733e-05         -0.85308        0.476415     -0.000882021     0.000946621       -0.0521066        0.163029
281718                   0.04199      -0.0664774      0.000210806     -0.00123448         0.101037        0.982768     -0.000101805    -4.88961e-05
                     0.000167936     -0.00124214         0.166896       0.0412818      8.94231e-05     -0.00013502        -0.853541        0.476144
                        0.100675        0.981997       7.2245e-05    -0.000188777        0.0519779       0.0580774     -0.000810129     0.000999736
                    -4.37462e-05    -7.12874e-05        -0.852897        0.476741     -0.000881814     0.000946718       -0.0520054        0.163064
281720                 0.0419633      -0.0664572       0.00020999     -0.00123459         0.101438        0.982729     -0.000101925    -4.86566e-05
                     0.000167261     -0.00124213         0.166904       0.0412595      8.93635e-05     -0.00013499        -0.853358         0.47647
                        0.101077        0.981958      7.21624e-05    -0.000188812        0.0519946       0.0580204     -0.000809789     0.000999864
                     -4.3901e-05    -7.12016e-05        -0.852713        0.477067     -0.000881608     0.000946815       -0.0519043        0.163099
281722                 0.0419365       -0.066437      0.000209174     -0.00123469         0.101838         0.98269     -0.000102046    -4.84168e-05
                     0.000166586     -0.00124212         0.166912       0.0412372       8.9304e-05     -0.00013496        -0.853175        0.476796
                        0.101478        0.981919      7.20802e-05    -0.000188847        0.0520113       0.0579633     -0.000809448     0.000999992
                    -4.40556e-05    -7.11157e-05        -0.852529        0.477394     -0.000881401     0.000946912       -0.0518031        0.163133
281724                 0.0419098      -0.0664167      0.000208358     -0.00123479         0.102239         0.98265     -0.000102166    -4.81765e-05
                     0.000165912      -0.0012421          0.16692       0.0412149      8.92446e-05     -0.00013493        -0.852992        0.477122
                        0.101879         0.98188      7.19984e-05    -0.000188882        0.0520279       0.0579062     -0.000809107      0.00100012
                      -4.421e-05    -7.10298e-05        -0.852345         0.47772     -0.000881195     0.000947008       -0.0517019        0.163168
281726                 0.0418831      -0.0663965      0.000207541      -0.0012349         0.102639        0.982611     -0.000102286    -4.79359e-05
                     0.000165236     -0.00124209         0.166928       0.0411926      8.91854e-05      -0.0001349        -0.852808        0.477448
                        0.102281        0.981841      7.19167e-05    -0.000188917        0.0520445       0.0578492     -0.000808765      0.00100025
                    -4.43643e-05    -7.09438e-05        -0.852161        0.478046     -0.000880989     0.000947105       -0.0516007        0.163203
281728                 0.0418563      -0.0663762      0.000206725       -0.001235         0.103039        0.982572     -0.000102406    -4.76953e-05
                     0.000164561     -0.00124207         0.166937       0.0411703      8.91263e-05     -0.00013487        -0.852625        0.477773
                        0.102682        0.981801      7.18354e-05    -0.000188953        0.0520611       0.0577921     -0.000808423      0.00100038
                    -4.45183e-05    -7.08577e-05        -0.851976        0.478373     -0.000880783     0.000947202       -0.0514994        0.163238
281730                 0.0418296      -0.0663559      0.000205909      -0.0012351          0.10344        0.982532     -0.000102525    -4.74547e-05
                     0.000163886     -0.00124206         0.166945        0.041148      8.90674e-05     -0.00013484        -0.852442        0.478099
                        0.103083        0.981762      7.17542e-05    -0.000188988        0.0520775       0.0577351     -0.000808081      0.00100051
                    -4.46722e-05    -7.07716e-05        -0.851792        0.478699     -0.000880576     0.000947299       -0.0513981        0.163272
281732                 0.0418029      -0.0663356      0.000205093      -0.0012352          0.10384        0.982492     -0.000102644    -4.72148e-05
                     0.000163211     -0.00124204         0.166953       0.0411257      8.90086e-05     -0.00013481        -0.852258        0.478425
                        0.103484        0.981722      7.16732e-05    -0.000189023         0.052094        0.057678     -0.000807739      0.00100063
                    -4.48259e-05    -7.06854e-05        -0.851607        0.479025      -0.00088037     0.000947396       -0.0512968        0.163307
281734                 0.0417762      -0.0663153      0.000204277     -0.00123531          0.10424        0.982452     -0.000102763    -4.69762e-05
                     0.000162536     -0.00124203         0.166961       0.0411034        8.895e-05     -0.00013478        -0.852074        0.478751
                        0.103886        0.981682      7.15924e-05    -0.000189059        0.0521103       0.0576209     -0.000807396      0.00100076
                    -4.49795e-05    -7.05991e-05        -0.851423        0.479351     -0.000880164     0.000947492       -0.0511955        0.163341
281736                 0.0417495       -0.066295      0.000203461     -0.00123541         0.104641        0.982412     -0.000102881    -4.67407e-05
                      0.00016186     -0.00124201         0.166969       0.0410811      8.88915e-05     -0.00013475         -0.85189        0.479076
                        0.104287        0.981642      7.15117e-05    -0.000189094        0.0521267       0.0575639     -0.000807053      0.00100089
                    -4.51329e-05    -7.05127e-05        -0.851238        0.479677     -0.000879958     0.000947589       -0.0510941        0.163375
281738                 0.0417229      -0.0662747      0.000202645     -0.00123551         0.105041        0.982371     -0.000102994    -4.65124e-05
                     0.000161185     -0.00124199         0.166977       0.0410587      8.88331e-05    -0.000134721        -0.851706        0.479402
                        0.104688        0.981601      7.14312e-05     -0.00018913        0.0521429       0.0575068      -0.00080671      0.00100102
                    -4.52861e-05    -7.04262e-05        -0.851053        0.480003     -0.000879752     0.000947685       -0.0509927         0.16341
281740                 0.0416962      -0.0662544      0.000201829     -0.00123561         0.105441        0.982331     -0.000103091       -4.63e-05
                      0.00016051     -0.00124198         0.166985       0.0410364      8.87749e-05    -0.000134691        -0.851522        0.479727
                        0.105089        0.981561      7.13508e-05    -0.000189165        0.0521592       0.0574498     -0.000806367      0.00100115
                    -4.54391e-05    -7.03396e-05        -0.850868        0.480328     -0.000879546     0.000947782       -0.0508913        0.163444
281742                 0.0416695       -0.066234      0.000201013     -0.00123571         0.105841         0.98229       -0.0001031    -4.60615e-05
                     0.000159834     -0.00124196         0.166993       0.0410141      8.87169e-05    -0.000134661        -0.851338        0.480053
                         0.10549         0.98152      7.12704e-05    -0.000189201        0.0521753       0.0573927     -0.000806025      0.00100127
                     -4.5592e-05    -7.02528e-05        -0.850683        0.480654     -0.000879339     0.000947878       -0.0507899        0.163478
281744                 0.0416429      -0.0662137      0.000200197     -0.00123581         0.106242        0.982249     -0.000103223    -4.56733e-05
                     0.000159159     -0.00124194         0.167001       0.0409917      8.86589e-05    -0.000134632        -0.851153        0.480378
                        0.105891         0.98148      7.11902e-05    -0.000189237        0.0521914       0.0573357     -0.000805686       0.0010014
                    -4.57447e-05    -7.01659e-05        -0.850497         0.48098     -0.000879133     0.000947975       -0.0506884        0.163512
281746                 0.0416162      -0.0661933       0.00019938     -0.00123591         0.106642        0.982208     -0.000103402    -4.54157e-05
                     0.000158483     -0.00124192          0.16701       0.0409694      8.86012e-05    -0.000134602        -0.850968        0.480702
                        0.106292        0.981439      7.11101e-05    -0.000189272        0.0522075       0.0572786     -0.000805361      0.00100153
                    -4.58972e-05    -7.00789e-05        -0.850312        0.481306     -0.000878927     0.000948071        -0.050587        0.163546
281748                 0.0415896       -0.066173      0.000198564       -0.001236         0.107042        0.982167     -0.000103542    -4.51765e-05
                     0.000157808     -0.00124191         0.167018       0.0409471      8.85435e-05    -0.000134573        -0.850784        0.481028
                        0.106693        0.981398        7.103e-05    -0.000189308        0.0522235       0.0572216     -0.000804995       0.0010017
                    -4.60496e-05    -6.99917e-05        -0.850126        0.481631     -0.000878721     0.000948168       -0.0504854         0.16358
281750                  0.041563      -0.0661526      0.000197748      -0.0012361         0.107442        0.982126     -0.000103668    -4.49347e-05
                     0.000157132     -0.00124189         0.167026       0.0409247       8.8486e-05    -0.000134543        -0.850599        0.481353
                        0.107094        0.981356        7.095e-05    -0.000189344        0.0522395       0.0571645     -0.000804634      0.00100181
                    -4.62018e-05    -6.99044e-05         -0.84994        0.481957     -0.000878515     0.000948264       -0.0503839        0.163614
281752                 0.0415363      -0.0661322      0.000196932      -0.0012362         0.107842        0.982084      -0.00010379      -4.469e-05
                     0.000156456     -0.00124187         0.167034       0.0409024      8.84286e-05    -0.000134514        -0.850414        0.481678
                        0.107495        0.981315        7.087e-05     -0.00018938        0.0522554       0.0571075     -0.000804287      0.00100193
                    -4.63538e-05    -6.98169e-05        -0.849755        0.482282     -0.000878309      0.00094836       -0.0502823        0.163648
281754                 0.0415097      -0.0661118      0.000196116      -0.0012363         0.108242        0.982042     -0.000103909    -4.44434e-05
                     0.000155781     -0.00124185         0.167042         0.04088      8.83714e-05    -0.000134484        -0.850229        0.482003
                        0.107896        0.981273      7.07901e-05    -0.000189415        0.0522712       0.0570504     -0.000803941      0.00100206
                    -4.65056e-05    -6.97292e-05        -0.849569        0.482608     -0.000878103     0.000948456       -0.0501807        0.163681
281756                 0.0414831      -0.0660914        0.0001953     -0.00123639         0.108642           0.982     -0.000104026    -4.41954e-05
                     0.000155105     -0.00124183          0.16705       0.0408576      8.83142e-05    -0.000134455        -0.850044        0.482328
                        0.108297        0.981231      7.07102e-05    -0.000189451         0.052287       0.0569934     -0.000803594      0.00100219
                    -4.66573e-05    -6.96413e-05        -0.849382        0.482933     -0.000877897     0.000948552       -0.0500791        0.163715
281758                 0.0414565       -0.066071      0.000194484     -0.00123649         0.109042        0.981958     -0.000104143    -4.39463e-05
                     0.000154429     -0.00124181         0.167058       0.0408353      8.82571e-05    -0.000134425        -0.849858        0.482653
                        0.108698         0.98119      7.06304e-05    -0.000189487        0.0523027       0.0569363     -0.000803247      0.00100231
                    -4.68089e-05    -6.95532e-05        -0.849196        0.483258     -0.000877691     0.000948648       -0.0499774        0.163749
281760                 0.0414299      -0.0660506      0.000193668     -0.00123659         0.109442        0.981916     -0.000104259    -4.36963e-05
                     0.000153754     -0.00124179         0.167066       0.0408129      8.81999e-05    -0.000134396        -0.849673        0.482978
                        0.109099        0.981147      7.05506e-05    -0.000189523        0.0523184       0.0568793     -0.000802899      0.00100244
                    -4.69602e-05    -6.94649e-05         -0.84901        0.483583     -0.000877484     0.000948744       -0.0498758        0.163782
281762                 0.0414033      -0.0660301      0.000192852     -0.00123668         0.109842        0.981874     -0.000104375    -4.34455e-05
                     0.000153078     -0.00124177         0.167074       0.0407905      8.81425e-05    -0.000134367        -0.849487        0.483303
                          0.1095        0.981105      7.04708e-05    -0.000189559        0.0523341       0.0568223     -0.000802552      0.00100257
