! TOUCHSTONE file generated by CST MICROWAVE STUDIO
! Date and time: Wed Oct 15 17:30:42 2025
! Project name: Teste_Macro_Metasurface_Nanopilar.cst
! Parameters = {H=600; L_x=120; L_y=110; Lambda=1064; Max_L=200; Min_L=70; PathPara=1; Phi=0; Step_L=10; Theta=0; p=520; phaseX=180; phaseY=0}
! Header version: 2018
! Port assignment regex: !\s*Touchstone port\s*([0-9]+)\s*=\s*(CST MWS port|CST DS port)\s*([0-9]+|Zmin|Zmax)\s*\(\"(.*)\"\)(\s*mode\s*([0-9]+))?.*
! Touchstone port assignment:
! Touchstone port 1 = CST MWS port Zmax ("") mode 1
! Touchstone port 2 = CST MWS port Zmax ("") mode 2
! Touchstone port 3 = CST MWS port Zmin ("") mode 1
! Touchstone port 4 = CST MWS port Zmin ("") mode 2
! S-Parameters are not renormalized. Each port impedance will be approximated by the real part at minimum frequency. The values are described via the [Reference] keyword.
! Default impedance is overridden by [Reference]
[Version] 2.0
# GHz S RI R 376.73
[Number of Ports] 4
[Reference]
376.73 376.73 259.888 259.888 
[Number of Frequencies] 51
[Network Data]
281700                  0.156439       0.0555595     -0.000690988    -0.000561285        -0.931792        0.299709     -0.000645705    -0.000770932
                    -0.000824504    -0.000667557         0.130083      -0.0728655     -0.000752893    -0.000641375        -0.469983         0.85938
                       -0.931818        0.299736     -0.000875777    -0.000648267       -0.0938179        0.136156     -0.000721139    -0.000891563
                    -0.000571558    -0.000780787         -0.47003        0.859216     -0.000847318    -0.000932249       0.00707735        0.148203
281702                  0.156453       0.0555408     -0.000691223    -0.000561078        -0.931679        0.300054      -0.00064602    -0.000770635
                    -0.000824742    -0.000667279         0.130053      -0.0728782     -0.000753214    -0.000641103        -0.469634        0.859573
                       -0.931706        0.300081     -0.000876111    -0.000647919       -0.0937386        0.136218     -0.000721512    -0.000891288
                    -0.000571963    -0.000780551        -0.469681        0.859409      -0.00084769      -0.0009319       0.00717106        0.148179
281704                  0.156466       0.0555222     -0.000691459    -0.000560871        -0.931566        0.300399     -0.000646335    -0.000770338
                    -0.000824979       -0.000667         0.130024      -0.0728909     -0.000753535     -0.00064083        -0.469285        0.859767
                       -0.931593        0.300426     -0.000876445    -0.000647572       -0.0936593         0.13628     -0.000721884    -0.000891014
                    -0.000572369    -0.000780315        -0.469332        0.859603     -0.000848067    -0.000931549       0.00726475        0.148155
281706                  0.156479       0.0555035     -0.000691695    -0.000560664        -0.931453        0.300744      -0.00064665     -0.00077004
                    -0.000825217    -0.000666722         0.129995      -0.0729035     -0.000753855    -0.000640557        -0.468936         0.85996
                        -0.93148        0.300772     -0.000876778    -0.000647226         -0.09358        0.136342     -0.000722257    -0.000890739
                    -0.000572774    -0.000780078        -0.468984        0.859796     -0.000848461    -0.000931178       0.00735841        0.148131
281708                  0.156492       0.0554849     -0.000691932    -0.000560456         -0.93134         0.30109     -0.000646964    -0.000769743
                    -0.000825454    -0.000666443         0.129965      -0.0729162     -0.000754176    -0.000640284        -0.468587        0.860153
                       -0.931366        0.301117     -0.000877109     -0.00064688       -0.0935006        0.136404     -0.000722629    -0.000890465
                    -0.000573179    -0.000779841        -0.468635        0.859989     -0.000848764    -0.000930798       0.00745204        0.148107
281710                  0.156505       0.0554662     -0.000692169    -0.000560248        -0.931227        0.301435     -0.000647278    -0.000769446
                    -0.000825691    -0.000666164         0.129936      -0.0729288     -0.000754496     -0.00064001        -0.468238        0.860346
                       -0.931253        0.301462      -0.00087744    -0.000646535       -0.0934212        0.136465     -0.000723001     -0.00089019
                    -0.000573585    -0.000779604        -0.468286        0.860182     -0.000849132    -0.000930476       0.00754565        0.148083
281712                  0.156518       0.0554475     -0.000692406     -0.00056004        -0.931113         0.30178     -0.000647592    -0.000769149
                    -0.000825927    -0.000665885         0.129907      -0.0729415     -0.000754815    -0.000639736        -0.467889        0.860539
                       -0.931139        0.301807      -0.00087777    -0.000646191       -0.0933418        0.136527     -0.000723372    -0.000889915
                     -0.00057399    -0.000779366        -0.467937        0.860375     -0.000849503    -0.000930131       0.00763923        0.148058
281714                  0.156532       0.0554289     -0.000692643    -0.000559831           -0.931        0.302125     -0.000647905    -0.000768852
                    -0.000826163    -0.000665606         0.129877      -0.0729541     -0.000755135    -0.000639461         -0.46754        0.860732
                       -0.931026        0.302152     -0.000878099    -0.000645847       -0.0932622        0.136589     -0.000723743     -0.00088964
                    -0.000574395    -0.000779128        -0.467587        0.860568     -0.000849873    -0.000929782       0.00773278        0.148034
281716                  0.156545       0.0554102     -0.000692881    -0.000559622        -0.930886         0.30247     -0.000648219    -0.000768554
                    -0.000826399    -0.000665327         0.129848      -0.0729667     -0.000755454    -0.000639186        -0.467191        0.860924
                       -0.930912        0.302497     -0.000878428    -0.000645504       -0.0931827        0.136651     -0.000724112    -0.000889365
                      -0.0005748     -0.00077889        -0.467238         0.86076     -0.000850241    -0.000929432       0.00782631         0.14801
281718                  0.156558       0.0553915     -0.000693119    -0.000559412        -0.930772        0.302815     -0.000648532    -0.000768257
                    -0.000826635    -0.000665048         0.129819      -0.0729793     -0.000755773    -0.000638911        -0.466841        0.861117
                       -0.930798        0.302842     -0.000878756    -0.000645161       -0.0931031        0.136712     -0.000724481    -0.000889093
                    -0.000575205    -0.000778652        -0.466889        0.860953     -0.000850608     -0.00092908       0.00791981        0.147985
281720                  0.156571       0.0553728     -0.000693358    -0.000559203        -0.930658         0.30316     -0.000648845     -0.00076796
                     -0.00082687    -0.000664769         0.129789      -0.0729919     -0.000756092    -0.000638635        -0.466492        0.861309
                       -0.930684        0.303187     -0.000879083    -0.000644818       -0.0930235        0.136774     -0.000724845    -0.000888827
                     -0.00057561    -0.000778413        -0.466539        0.861145     -0.000850976    -0.000928729       0.00801328        0.147961
281722                  0.156584       0.0553541     -0.000693596    -0.000558993        -0.930544        0.303505     -0.000649158    -0.000767663
                    -0.000827105    -0.000664489          0.12976      -0.0730044      -0.00075641    -0.000638359        -0.466143        0.861501
                        -0.93057        0.303532     -0.000879409    -0.000644476       -0.0929438        0.136835     -0.000725213    -0.000888611
                    -0.000576015    -0.000778174         -0.46619        0.861337     -0.000851342    -0.000928376       0.00810673        0.147936
281724                  0.156597       0.0553354     -0.000693835    -0.000558783         -0.93043         0.30385      -0.00064947    -0.000767365
                     -0.00082734     -0.00066421         0.129731       -0.073017     -0.000756728    -0.000638083        -0.465793        0.861693
                       -0.930456        0.303877     -0.000879735    -0.000644135        -0.092864        0.136897     -0.000725677    -0.000888229
                     -0.00057642    -0.000777934         -0.46584        0.861529     -0.000851709    -0.000928024       0.00820014        0.147912
281726                   0.15661       0.0553167     -0.000694074    -0.000558572        -0.930316        0.304195     -0.000649783    -0.000767068
                    -0.000827574     -0.00066393         0.129701      -0.0730296     -0.000757045    -0.000637806        -0.465443        0.861885
                       -0.930341        0.304221      -0.00088006    -0.000643794       -0.0927843        0.136958     -0.000726003    -0.000887953
                    -0.000576825    -0.000777695        -0.465491        0.861721     -0.000852075    -0.000927671       0.00829353        0.147887
281728                  0.156623        0.055298     -0.000694313    -0.000558361        -0.930201         0.30454     -0.000650095    -0.000766771
                    -0.000827808     -0.00066365         0.129672      -0.0730421     -0.000757362     -0.00063753        -0.465094        0.862077
                       -0.930227        0.304566     -0.000880384    -0.000643453       -0.0927044         0.13702     -0.000726363     -0.00088768
                     -0.00057723    -0.000777455        -0.465141        0.861913     -0.000852441    -0.000927318        0.0083869        0.147862
281730                  0.156637       0.0552792     -0.000694552     -0.00055815        -0.930087        0.304884     -0.000650407    -0.000766474
                    -0.000828042     -0.00066337         0.129643      -0.0730546     -0.000757678    -0.000637253        -0.464744        0.862269
                       -0.930112        0.304911     -0.000880708    -0.000643112       -0.0926246        0.137081     -0.000726729    -0.000887403
                    -0.000577635    -0.000777215        -0.464791        0.862104     -0.000852807    -0.000926964       0.00848023        0.147838
281732                   0.15665       0.0552605     -0.000694791    -0.000557939        -0.929972        0.305229     -0.000650719    -0.000766176
                    -0.000828276     -0.00066309         0.129613      -0.0730671     -0.000757994    -0.000636977        -0.464394         0.86246
                       -0.929998        0.305256     -0.000881031    -0.000642772       -0.0925447        0.137142     -0.000727096    -0.000887126
                     -0.00057804    -0.000776974        -0.464441        0.862296     -0.000853173    -0.000926611       0.00857354        0.147813
281734                  0.156663       0.0552418     -0.000695031    -0.000557728        -0.929857        0.305574     -0.000651031    -0.000765879
                    -0.000828509     -0.00066281         0.129584      -0.0730796      -0.00075831    -0.000636701        -0.464044        0.862652
                       -0.929883          0.3056     -0.000881354    -0.000642432       -0.0924647        0.137204     -0.000727465    -0.000886847
                    -0.000578445    -0.000776734        -0.464091        0.862487     -0.000853538    -0.000926257       0.00866683        0.147788
281736                  0.156676        0.055223     -0.000695271    -0.000557516        -0.929742        0.305919     -0.000651343    -0.000765581
                    -0.000828742     -0.00066253         0.129554      -0.0730921     -0.000758626    -0.000636425        -0.463694        0.862843
                       -0.929768        0.305945     -0.000881677    -0.000642093       -0.0923847        0.137265     -0.000727833    -0.000886568
                    -0.000578849    -0.000776493        -0.463741        0.862678     -0.000853904    -0.000925903       0.00876008        0.147763
281738                  0.156689       0.0552043      -0.00069551    -0.000557304        -0.929627        0.306263     -0.000651655    -0.000765284
                    -0.000828975     -0.00066225         0.129525      -0.0731046     -0.000758942    -0.000636149        -0.463343        0.863034
                       -0.929652         0.30629     -0.000881998    -0.000641753       -0.0923047        0.137326     -0.000728202    -0.000886289
                    -0.000579254    -0.000776251        -0.463391        0.862869     -0.000854269    -0.000925549       0.00885331        0.147738
281740                  0.156702       0.0551855      -0.00069575    -0.000557092        -0.929512        0.306608     -0.000651966    -0.000764986
                    -0.000829208    -0.000661969         0.129496      -0.0731171     -0.000759258    -0.000635873        -0.462993        0.863225
                       -0.929537        0.306634      -0.00088232    -0.000641414       -0.0922246        0.137387     -0.000728571    -0.000886009
                    -0.000579659     -0.00077601        -0.463041         0.86306     -0.000854634    -0.000925194       0.00894651        0.147713
281742                  0.156715       0.0551668      -0.00069599     -0.00055688        -0.929396        0.306953     -0.000652278    -0.000764688
                     -0.00082944    -0.000661688         0.129466      -0.0731296     -0.000759574    -0.000635597        -0.462643        0.863416
                       -0.929422        0.306979     -0.000882641    -0.000641076       -0.0921445        0.137448     -0.000728939    -0.000885729
                    -0.000580063    -0.000775768        -0.462691        0.863251     -0.000854999     -0.00092484       0.00903968        0.147687
281744                  0.156728        0.055148      -0.00069623    -0.000556668        -0.929281        0.307297     -0.000652589    -0.000764391
                    -0.000829672    -0.000661407         0.129437       -0.073142      -0.00075989    -0.000635321        -0.462292        0.863606
                       -0.929306        0.307323     -0.000882961    -0.000640737       -0.0920643        0.137509     -0.000729308    -0.000885448
                    -0.000580468    -0.000775527         -0.46234        0.863441     -0.000855364    -0.000924485       0.00913283        0.147662
281746                  0.156741       0.0551292      -0.00069647    -0.000556455        -0.929165        0.307642     -0.000652901    -0.000764093
                    -0.000829904    -0.000661126         0.129407      -0.0731544     -0.000760206    -0.000635044        -0.461942        0.863797
                        -0.92919        0.307668     -0.000883281    -0.000640398       -0.0919841         0.13757     -0.000729676    -0.000885167
                    -0.000580872    -0.000775284         -0.46199        0.863632     -0.000855729     -0.00092413       0.00922594        0.147637
281748                  0.156754       0.0551105      -0.00069671    -0.000556242         -0.92905        0.307986     -0.000653212    -0.000763795
                    -0.000830135    -0.000660845         0.129378      -0.0731669     -0.000760523    -0.000634767        -0.461591        0.863987
                       -0.929075        0.308012     -0.000883601     -0.00064006       -0.0919038        0.137631     -0.000730044    -0.000884886
                    -0.000581277    -0.000775042        -0.461639        0.863822     -0.000856093    -0.000923774       0.00931903        0.147611
281750                  0.156767       0.0550917      -0.00069695    -0.000556029        -0.928934        0.308331     -0.000653523    -0.000763497
                    -0.000830367    -0.000660563         0.129348      -0.0731793     -0.000760839     -0.00063449        -0.461241        0.864178
                       -0.928959        0.308357      -0.00088392    -0.000639722       -0.0918235        0.137692     -0.000730412    -0.000884604
                    -0.000581682      -0.0007748        -0.461288        0.864012     -0.000856458    -0.000923419       0.00941209        0.147586
281752                   0.15678       0.0550729     -0.000697191    -0.000555816        -0.928818        0.308675     -0.000653834    -0.000763199
                    -0.000830599    -0.000660281         0.129319      -0.0731917     -0.000761156    -0.000634213         -0.46089        0.864368
                       -0.928843        0.308701     -0.000884239    -0.000639384       -0.0917432        0.137753      -0.00073078    -0.000884322
                    -0.000582086    -0.000774557        -0.460938        0.864202     -0.000856822    -0.000923063       0.00950513         0.14756
281754                  0.156793       0.0550541     -0.000697431    -0.000555603        -0.928702         0.30902     -0.000654145    -0.000762901
                    -0.000830831    -0.000659998          0.12929      -0.0732041     -0.000761472    -0.000633935        -0.460539        0.864558
                       -0.928726        0.309045     -0.000884557    -0.000639046       -0.0916628        0.137814     -0.000731147     -0.00088404
                    -0.000582491    -0.000774315        -0.460587        0.864392     -0.000857187    -0.000922707       0.00959813        0.147535
281756                  0.156806       0.0550353     -0.000697671    -0.000555389        -0.928585        0.309364     -0.000654456    -0.000762603
                     -0.00083107    -0.000659713          0.12926      -0.0732165     -0.000761788    -0.000633657        -0.460188        0.864747
                        -0.92861         0.30939     -0.000884875    -0.000638708       -0.0915824        0.137874     -0.000731515    -0.000883757
                    -0.000582896    -0.000774072        -0.460236        0.864582     -0.000857551    -0.000922351       0.00969111        0.147509
281758                  0.156819       0.0550165     -0.000697911    -0.000555175        -0.928469        0.309708     -0.000654767    -0.000762304
                    -0.000831294    -0.000659463         0.129231      -0.0732288     -0.000762104    -0.000633379        -0.459837        0.864937
                       -0.928494        0.309734     -0.000885193     -0.00063837       -0.0915019        0.137935     -0.000731882    -0.000883474
                    -0.000583302     -0.00077383        -0.459885        0.864772     -0.000857915    -0.000921995       0.00978406        0.147483
281760                  0.156832       0.0549977     -0.000698151    -0.000554961        -0.928352        0.310053     -0.000655078    -0.000762006
                    -0.000831515    -0.000659167         0.129201      -0.0732412      -0.00076242      -0.0006331        -0.459486        0.865127
                       -0.928377        0.310078      -0.00088551    -0.000638032       -0.0914214        0.137996     -0.000732249    -0.000883191
                    -0.000583709    -0.000773588        -0.459534        0.864961     -0.000858279    -0.000921639       0.00987699        0.147458
281762                  0.156845       0.0549789     -0.000698391    -0.000554747        -0.928236        0.310397     -0.000655388    -0.000761707
                    -0.000831745    -0.000658882         0.129172      -0.0732536     -0.000762736    -0.000632821        -0.459135        0.865316
                        -0.92826        0.310422     -0.000885827    -0.000637695       -0.0913408        0.138056     -0.000732616    -0.000882908
