! TOUCHSTONE file generated by CST MICROWAVE STUDIO
! Date and time: Wed Oct 15 17:28:39 2025
! Project name: Teste_Macro_Metasurface_Nanopilar.cst
! Parameters = {H=600; L_x=85; L_y=95; Lambda=1064; Max_L=200; Min_L=70; PathPara=1; Phi=0; Step_L=10; Theta=0; p=520; phaseX=180; phaseY=0}
! Header version: 2018
! Port assignment regex: !\s*Touchstone port\s*([0-9]+)\s*=\s*(CST MWS port|CST DS port)\s*([0-9]+|Zmin|Zmax)\s*\(\"(.*)\"\)(\s*mode\s*([0-9]+))?.*
! Touchstone port assignment:
! Touchstone port 1 = CST MWS port Zmax ("") mode 1
! Touchstone port 2 = CST MWS port Zmax ("") mode 2
! Touchstone port 3 = CST MWS port Zmin ("") mode 1
! Touchstone port 4 = CST MWS port Zmin ("") mode 2
! S-Parameters are not renormalized. Each port impedance will be approximated by the real part at minimum frequency. The values are described via the [Reference] keyword.
! Default impedance is overridden by [Reference]
[Version] 2.0
# GHz S RI R 376.73
[Number of Ports] 4
[Reference]
376.73 376.73 259.888 259.888 
[Number of Frequencies] 51
[Network Data]
281700                  0.006621      -0.0760905     -1.84625e-05    -7.67209e-05        -0.202111       -0.975755     -0.000128664     6.02075e-06
                    -1.29022e-05    -9.94769e-05        0.0199587       -0.101279     -0.000112771      4.7357e-05       -0.0606533       -0.992193
                       -0.201804       -0.975336     -0.000235552     0.000125226        0.0360477        0.067423     -0.000162247     9.18587e-05
                    -9.94974e-05    -5.23288e-05       -0.0604458       -0.991983     -3.77713e-05     8.14928e-05        0.0320151       0.0982144
281702                0.00660997      -0.0760854      -1.8499e-05    -7.66999e-05        -0.202356       -0.975705     -0.000128605     6.06952e-06
                    -1.30279e-05    -9.94855e-05        0.0199465       -0.101277     -0.000112715     4.73999e-05       -0.0608964       -0.992178
                       -0.202049       -0.975286     -0.000235469     0.000125363        0.0360694       0.0674046     -0.000162636     9.19868e-05
                    -9.95115e-05    -5.22757e-05       -0.0606887       -0.991969     -3.80299e-05     8.16488e-05        0.0320509       0.0981982
281704                0.00659895      -0.0760803     -1.85351e-05    -7.66789e-05        -0.202602       -0.975654     -0.000128547      6.1182e-06
                    -1.31535e-05    -9.94942e-05        0.0199343       -0.101275     -0.000112659     4.74441e-05       -0.0611394       -0.992164
                       -0.202294       -0.975235     -0.000235385       0.0001255        0.0360911       0.0673862     -0.000163025     9.21157e-05
                    -9.95255e-05    -5.22226e-05       -0.0609315       -0.991954     -3.82885e-05     8.18048e-05        0.0320866        0.098182
281706                0.00658792      -0.0760752     -1.85709e-05    -7.66579e-05        -0.202847       -0.975604     -0.000128489     6.16678e-06
                     -1.3279e-05    -9.95027e-05        0.0199221       -0.101273     -0.000112601     4.74893e-05       -0.0613824       -0.992149
                        -0.20254       -0.975185     -0.000235302     0.000125637        0.0361129       0.0673678     -0.000163414     9.22452e-05
                    -9.95395e-05    -5.21696e-05       -0.0611744       -0.991939     -3.85472e-05     8.19609e-05        0.0321223       0.0981658
281708                 0.0065769      -0.0760702     -1.86064e-05    -7.66369e-05        -0.203093       -0.975553      -0.00012843     6.21527e-06
                    -1.34045e-05    -9.95112e-05        0.0199099       -0.101271     -0.000112543     4.75352e-05       -0.0616255       -0.992134
                       -0.202785       -0.975134     -0.000235218     0.000125774        0.0361346       0.0673494     -0.000163802     9.23754e-05
                    -9.95533e-05    -5.21166e-05       -0.0614173       -0.991925     -3.88058e-05      8.2117e-05         0.032158       0.0981496
281710                0.00656588      -0.0760651     -1.86416e-05     -7.6616e-05        -0.203338       -0.975502     -0.000128371     6.26367e-06
                      -1.353e-05    -9.95196e-05        0.0198976       -0.101269     -0.000112483     4.75814e-05       -0.0618685       -0.992119
                       -0.203031       -0.975084     -0.000235134     0.000125911        0.0361563        0.067331     -0.000164191     9.25062e-05
                    -9.95671e-05    -5.20637e-05       -0.0616602        -0.99191     -3.90643e-05     8.22733e-05        0.0321937       0.0981333
281712                0.00655486        -0.07606     -1.86765e-05     -7.6595e-05        -0.203584       -0.975451     -0.000128313     6.31197e-06
                    -1.36554e-05    -9.95279e-05        0.0198854       -0.101267     -0.000112424     4.76278e-05       -0.0621115       -0.992105
                       -0.203276       -0.975033     -0.000235051     0.000126047         0.036178       0.0673126     -0.000164579     9.26377e-05
                    -9.95807e-05    -5.20109e-05        -0.061903       -0.991895     -3.93229e-05     8.24296e-05        0.0322294       0.0981171
281714                0.00654383      -0.0760549      -1.8711e-05     -7.6574e-05        -0.203829       -0.975401     -0.000128254     6.36017e-06
                    -1.37807e-05    -9.95361e-05        0.0198732       -0.101265     -0.000112363     4.76743e-05       -0.0623546        -0.99209
                       -0.203521       -0.974982     -0.000234967     0.000126184        0.0361997       0.0672941     -0.000164967     9.27699e-05
                    -9.95943e-05    -5.19582e-05       -0.0621459        -0.99188     -3.95813e-05     8.25861e-05        0.0322651       0.0981008
281716                0.00653281      -0.0760499     -1.87453e-05    -7.65531e-05        -0.204075        -0.97535     -0.000128195     6.40828e-06
                     -1.3906e-05    -9.95443e-05         0.019861       -0.101263     -0.000112302     4.77207e-05       -0.0625976       -0.992075
                       -0.203767       -0.974931     -0.000234883      0.00012632        0.0362214       0.0672757     -0.000165355     9.29027e-05
                    -9.96078e-05    -5.19055e-05       -0.0623888       -0.991865     -3.98397e-05     8.27428e-05        0.0323008       0.0980845
281718                0.00652179      -0.0760448     -1.87792e-05    -7.65322e-05         -0.20432       -0.975299     -0.000128136      6.4563e-06
                    -1.40312e-05    -9.95524e-05        0.0198488       -0.101261     -0.000112241      4.7767e-05       -0.0628406        -0.99206
                       -0.204012        -0.97488     -0.000234799     0.000126456         0.036243       0.0672573     -0.000165743     9.30362e-05
                    -9.96211e-05    -5.18529e-05       -0.0626316        -0.99185      -4.0098e-05     8.28997e-05        0.0323365       0.0980682
281720                0.00651077      -0.0760397     -1.88128e-05    -7.65113e-05        -0.204566       -0.975248     -0.000128078     6.50422e-06
                    -1.41564e-05    -9.95604e-05        0.0198366       -0.101259     -0.000112179     4.78131e-05       -0.0630836       -0.992045
                       -0.204258       -0.974829     -0.000234716     0.000126591        0.0362647       0.0672388      -0.00016613     9.31703e-05
                    -9.96344e-05    -5.18003e-05       -0.0628745       -0.991835     -4.03562e-05     8.30569e-05        0.0323721       0.0980519
281722                0.00649975      -0.0760346     -1.88462e-05    -7.64904e-05        -0.204811       -0.975197     -0.000128019     6.55204e-06
                    -1.42816e-05    -9.95684e-05        0.0198244       -0.101257     -0.000112117     4.78591e-05       -0.0633266        -0.99203
                       -0.204503       -0.974778     -0.000234632     0.000126727        0.0362864       0.0672203     -0.000166518     9.33051e-05
                    -9.96476e-05    -5.17478e-05       -0.0631173        -0.99182     -4.06143e-05     8.32142e-05        0.0324078       0.0980356
281724                0.00648873      -0.0760295     -1.88792e-05    -7.64695e-05        -0.205057       -0.975145      -0.00012796     6.59977e-06
                    -1.44066e-05    -9.95763e-05        0.0198121       -0.101255     -0.000112054      4.7905e-05       -0.0635697       -0.992014
                       -0.204748       -0.974727     -0.000234548     0.000126863         0.036308       0.0672019     -0.000166905     9.34406e-05
                    -9.96607e-05    -5.16954e-05       -0.0633602       -0.991805     -4.08723e-05     8.33719e-05        0.0324434       0.0980193
281726                0.00647771      -0.0760244      -1.8912e-05    -7.64487e-05        -0.205302       -0.975094       -0.0001279     6.64741e-06
                    -1.45317e-05    -9.95841e-05        0.0197999       -0.101253     -0.000111992     4.79506e-05       -0.0638127       -0.991999
                       -0.204994       -0.974676     -0.000234464     0.000126998        0.0363296       0.0671834     -0.000167292     9.35767e-05
                    -9.96737e-05    -5.16431e-05        -0.063603        -0.99179     -4.11301e-05     8.35299e-05        0.0324791        0.098003
281728                0.00646669      -0.0760193     -1.89444e-05    -7.64279e-05        -0.205548       -0.975043     -0.000127841     6.69495e-06
                    -1.46566e-05    -9.95918e-05        0.0197877       -0.101251     -0.000111929     4.79961e-05       -0.0640557       -0.991984
                       -0.205239       -0.974625      -0.00023438     0.000127133        0.0363513       0.0671649     -0.000167679     9.37135e-05
                    -9.96865e-05    -5.15908e-05       -0.0638459       -0.991775     -4.13878e-05     8.36883e-05        0.0325147       0.0979866
281730                0.00645567      -0.0760143     -1.89766e-05    -7.64071e-05        -0.205793       -0.974992     -0.000127782      6.7424e-06
                    -1.47815e-05    -9.95995e-05        0.0197755       -0.101249     -0.000111866     4.80414e-05       -0.0642987       -0.991968
                       -0.205484       -0.974573     -0.000234296     0.000127268        0.0363729       0.0671465     -0.000168065     9.38509e-05
                    -9.96993e-05    -5.15386e-05       -0.0640887       -0.991759     -4.16453e-05      8.3847e-05        0.0325503       0.0979702
281732                0.00644466      -0.0760092     -1.90084e-05    -7.63863e-05        -0.206039        -0.97494     -0.000127723     6.78976e-06
                    -1.49064e-05    -9.96071e-05        0.0197633       -0.101247     -0.000111803     4.80865e-05       -0.0645417       -0.991953
                       -0.205729       -0.974522     -0.000234212     0.000127403        0.0363945        0.067128     -0.000168451      9.3989e-05
                     -9.9712e-05    -5.14865e-05       -0.0643316       -0.991744     -4.19027e-05     8.40062e-05         0.032586       0.0979539
281734                0.00643364      -0.0760041       -1.904e-05    -7.63656e-05        -0.206284       -0.974889     -0.000127663     6.83702e-06
                    -1.50312e-05    -9.96146e-05        0.0197511       -0.101245      -0.00011174     4.81315e-05       -0.0647847       -0.991938
                       -0.205975        -0.97447     -0.000234129     0.000127538        0.0364161       0.0671095     -0.000168838     9.41278e-05
                    -9.97246e-05    -5.14344e-05       -0.0645744       -0.991729     -4.21598e-05     8.41657e-05        0.0326216       0.0979375
281736                0.00642262       -0.075999     -1.90713e-05    -7.63449e-05        -0.206529       -0.974837     -0.000127604     6.88418e-06
                     -1.5156e-05    -9.96221e-05        0.0197389       -0.101243     -0.000111676     4.81762e-05       -0.0650277       -0.991922
                        -0.20622       -0.974419     -0.000234045     0.000127673        0.0364377        0.067091     -0.000169224     9.42672e-05
                    -9.97371e-05    -5.13824e-05       -0.0648173       -0.991713     -4.24168e-05     8.43258e-05        0.0326572       0.0979211
281738                0.00641161      -0.0759939     -1.91024e-05    -7.63242e-05        -0.206775       -0.974786     -0.000127544     6.93125e-06
                    -1.52807e-05    -9.96295e-05        0.0197266       -0.101241     -0.000111613     4.82208e-05       -0.0652706       -0.991906
                       -0.206465       -0.974367     -0.000233961     0.000127807        0.0364592       0.0670725     -0.000169609     9.44072e-05
                    -9.97496e-05    -5.13305e-05       -0.0650601       -0.991697     -4.26735e-05     8.44863e-05        0.0326928       0.0979047
281740                0.00640059      -0.0759888     -1.91331e-05    -7.63036e-05         -0.20702       -0.974734     -0.000127485     6.97823e-06
                    -1.54053e-05    -9.96368e-05        0.0197144       -0.101239     -0.000111549     4.82653e-05       -0.0655136       -0.991891
                        -0.20671       -0.974316     -0.000233877     0.000127942        0.0364808       0.0670539     -0.000169995     9.45479e-05
                    -9.97619e-05    -5.12786e-05       -0.0653029       -0.991682     -4.29301e-05     8.46473e-05        0.0327283       0.0978882
281742                0.00638958      -0.0759837     -1.91636e-05     -7.6283e-05        -0.207265       -0.974682     -0.000127425     7.02511e-06
                    -1.55299e-05     -9.9644e-05        0.0197022       -0.101237     -0.000111486     4.83096e-05       -0.0657566       -0.991875
                       -0.206956       -0.974264     -0.000233793     0.000128076        0.0365024       0.0670354      -0.00017038     9.46893e-05
                    -9.97741e-05    -5.12268e-05       -0.0655457       -0.991666     -4.31864e-05     8.48089e-05        0.0327639       0.0978718
281744                0.00637856      -0.0759786     -1.91938e-05    -7.62624e-05        -0.207511       -0.974631     -0.000127365      7.0719e-06
                    -1.56544e-05    -9.96512e-05          0.01969       -0.101234     -0.000111422     4.83537e-05       -0.0659996       -0.991859
                       -0.207201       -0.974212     -0.000233709      0.00012821        0.0365239       0.0670169     -0.000170765     9.48313e-05
                    -9.97862e-05    -5.11751e-05       -0.0657886        -0.99165     -4.34424e-05      8.4971e-05        0.0327995       0.0978553
281746                0.00636755      -0.0759735     -1.92238e-05    -7.62418e-05        -0.207756       -0.974579     -0.000127306      7.1186e-06
                    -1.57789e-05    -9.96583e-05        0.0196778       -0.101232     -0.000111358     4.83977e-05       -0.0662426       -0.991843
                       -0.207446        -0.97416     -0.000233625     0.000128345        0.0365455       0.0669984      -0.00017115      9.4974e-05
                    -9.97982e-05    -5.11235e-05       -0.0660314       -0.991635     -4.36983e-05     8.51337e-05         0.032835       0.0978389
281748                0.00635653      -0.0759684     -1.92535e-05    -7.62213e-05        -0.208002       -0.974527     -0.000127246      7.1652e-06
                    -1.59033e-05    -9.96653e-05        0.0196656        -0.10123     -0.000111295     4.84415e-05       -0.0664855       -0.991827
                       -0.207691       -0.974109     -0.000233541     0.000128479         0.036567       0.0669798     -0.000171535     9.51173e-05
                    -9.98102e-05    -5.10719e-05       -0.0662742       -0.991619     -4.39538e-05      8.5297e-05        0.0328706       0.0978224
281750                0.00634552      -0.0759633     -1.92829e-05    -7.62009e-05        -0.208247       -0.974475     -0.000127186     7.21171e-06
                    -1.60277e-05    -9.96723e-05        0.0196534       -0.101228     -0.000111231     4.84852e-05       -0.0667285       -0.991811
                       -0.207936       -0.974057     -0.000233457     0.000128613        0.0365885       0.0669613     -0.000171919     9.52613e-05
                     -9.9822e-05    -5.10203e-05        -0.066517       -0.991603     -4.42091e-05     8.54609e-05        0.0329061       0.0978059
281752                0.00633451      -0.0759582     -1.93121e-05    -7.61804e-05        -0.208492       -0.974423     -0.000127126     7.25812e-06
                     -1.6152e-05    -9.96792e-05        0.0196412       -0.101226     -0.000111167     4.85288e-05       -0.0669715       -0.991795
                       -0.208182       -0.974005     -0.000233372     0.000128747          0.03661       0.0669427     -0.000172303      9.5406e-05
                    -9.98338e-05    -5.09689e-05       -0.0667598       -0.991587     -4.44641e-05     8.56255e-05        0.0329417       0.0977894
281754                0.00632349      -0.0759531      -1.9341e-05      -7.616e-05        -0.208737       -0.974371     -0.000127066     7.30445e-06
                    -1.62763e-05    -9.96861e-05        0.0196289       -0.101224     -0.000111104     4.85722e-05       -0.0672144       -0.991779
                       -0.208427       -0.973953     -0.000233288      0.00012888        0.0366315       0.0669242     -0.000172687     9.55513e-05
                    -9.98454e-05    -5.09175e-05       -0.0670026       -0.991571     -4.47189e-05     8.57907e-05        0.0329772       0.0977729
281756                0.00631248       -0.075948     -1.93697e-05    -7.61397e-05        -0.208983       -0.974319     -0.000127006     7.35068e-06
                    -1.64005e-05    -9.96928e-05        0.0196167       -0.101222      -0.00011104     4.86155e-05       -0.0674574       -0.991763
                       -0.208672         -0.9739     -0.000233204     0.000129014         0.036653       0.0669056     -0.000173071     9.56972e-05
                     -9.9857e-05    -5.08662e-05       -0.0672454       -0.991555     -4.49733e-05     8.59566e-05        0.0330127       0.0977564
281758                0.00630147      -0.0759428     -1.93981e-05    -7.61194e-05        -0.209228       -0.974266     -0.000126946     7.39681e-06
                    -1.65246e-05    -9.96995e-05        0.0196045        -0.10122     -0.000110976     4.86586e-05       -0.0677004       -0.991747
                       -0.208917       -0.973848      -0.00023312     0.000129148        0.0366745        0.066887     -0.000173454     9.58438e-05
                    -9.98684e-05    -5.08149e-05       -0.0674882       -0.991539     -4.52274e-05     8.61232e-05        0.0330482       0.0977398
281760                0.00629046      -0.0759377     -1.94263e-05    -7.60991e-05        -0.209473       -0.974214     -0.000126885     7.44286e-06
                    -1.66487e-05    -9.97061e-05        0.0195923       -0.101218     -0.000110912     4.87016e-05       -0.0679433       -0.991731
                       -0.209162       -0.973796     -0.000233036     0.000129281         0.036696       0.0668685     -0.000173838      9.5991e-05
                    -9.98798e-05    -5.07637e-05        -0.067731       -0.991522     -4.54813e-05     8.62905e-05        0.0330837       0.0977233
281762                0.00627945      -0.0759326     -1.94542e-05    -7.60789e-05        -0.209718       -0.974162     -0.000126825     7.48882e-06
                    -1.67727e-05    -9.97127e-05        0.0195801       -0.101216     -0.000110848     4.87445e-05       -0.0681863       -0.991714
                       -0.209407       -0.973744     -0.000232952     0.000129415        0.0367175       0.0668499     -0.000174221     9.61389e-05
