! TOUCHSTONE file generated by CST MICROWAVE STUDIO
! Date and time: Wed Oct 15 17:32:29 2025
! Project name: Teste_Macro_Metasurface_Nanopilar.cst
! Parameters = {H=600; L_x=150; L_y=135; Lambda=1064; Max_L=200; Min_L=70; PathPara=1; Phi=0; Step_L=10; Theta=0; p=520; phaseX=180; phaseY=0}
! Header version: 2018
! Port assignment regex: !\s*Touchstone port\s*([0-9]+)\s*=\s*(CST MWS port|CST DS port)\s*([0-9]+|Zmin|Zmax)\s*\(\"(.*)\"\)(\s*mode\s*([0-9]+))?.*
! Touchstone port assignment:
! Touchstone port 1 = CST MWS port Zmax ("") mode 1
! Touchstone port 2 = CST MWS port Zmax ("") mode 2
! Touchstone port 3 = CST MWS port Zmin ("") mode 1
! Touchstone port 4 = CST MWS port Zmin ("") mode 2
! S-Parameters are not renormalized. Each port impedance will be approximated by the real part at minimum frequency. The values are described via the [Reference] keyword.
! Default impedance is overridden by [Reference]
[Version] 2.0
# GHz S RI R 376.73
[Number of Ports] 4
[Reference]
376.73 376.73 259.888 259.888 
[Number of Frequencies] 51
[Network Data]
281700                  0.112838        0.151981     -1.00049e-05    -0.000208794         0.934311        -0.28766      0.000195862     0.000280512
                     4.25542e-05    -0.000176625         0.228679        0.361187      0.000322101     0.000175149         0.595258       -0.665903
                        0.934236       -0.287086        0.0002229     0.000307079      -0.00660242        0.187984     -0.000481177     -6.7833e-06
                     0.000396921     0.000199329         0.595933       -0.666029     -0.000191825     0.000109646         0.385184        0.168996
281702                  0.112853        0.151998     -1.05242e-05    -0.000209223         0.934215       -0.287958      0.000196421     0.000280518
                     4.36077e-05    -0.000176973         0.228826        0.361321      0.000322665     0.000174997         0.594858       -0.666125
                         0.93414       -0.287383      0.000222525     0.000307113      -0.00648377         0.18801     -0.000481781    -6.44949e-06
                      0.00039594     0.000200889         0.595525       -0.666256     -0.000192087     0.000110082         0.385507        0.168716
281704                  0.112867        0.152016     -1.10477e-05    -0.000209637         0.934118       -0.288257      0.000196982      0.00028052
                     4.45877e-05    -0.000177267         0.228974        0.361456      0.000323231      0.00017484         0.594458       -0.666347
                        0.934043        -0.28768      0.000222153     0.000307163      -0.00636509        0.188036     -0.000482384    -6.11357e-06
                      0.00039499     0.000202262         0.595118       -0.666483     -0.000192347     0.000110524          0.38583        0.168436
281706                  0.112881        0.152033     -1.15746e-05    -0.000210037         0.934022       -0.288555      0.000197546     0.000280515
                     4.54943e-05    -0.000177513         0.229121         0.36159      0.000323799     0.000174678         0.594058       -0.666569
                        0.933947       -0.287977      0.000221784      0.00030723      -0.00624637        0.188062     -0.000482984    -5.77565e-06
                     0.000394077     0.000203459          0.59471       -0.666709     -0.000192607     0.000110972         0.386154        0.168155
281708                  0.112895         0.15205     -1.21036e-05    -0.000210419         0.933925       -0.288853      0.000198113     0.000280502
                     4.63282e-05    -0.000177713         0.229269        0.361725       0.00032437      0.00017451         0.593657       -0.666791
                         0.93385       -0.288274       0.00022142     0.000307317      -0.00612761        0.188087     -0.000483583    -5.43587e-06
                     0.000393204      0.00020449         0.594302       -0.666935     -0.000192865     0.000111427         0.386477        0.167874
281710                   0.11291        0.152067     -1.26332e-05     -0.00021078         0.933829       -0.289151      0.000198683     0.000280479
                       4.709e-05    -0.000177871         0.229417        0.361859      0.000324941     0.000174337         0.593256       -0.667013
                        0.933753       -0.288572      0.000221062     0.000307426      -0.00600883        0.188113      -0.00048418    -5.09435e-06
                     0.000392373     0.000205365         0.593894        -0.66716     -0.000193121     0.000111888         0.386801        0.167592
281712                  0.112924        0.152084     -1.31612e-05    -0.000211117         0.933732        -0.28945      0.000199257     0.000280443
                     4.77807e-05    -0.000177989         0.229565        0.361994      0.000325514     0.000174157         0.592855       -0.667234
                        0.933656       -0.288869      0.000220712      0.00030756         -0.00589        0.188139     -0.000484775     -4.7512e-06
                     0.000391585     0.000206093         0.593486       -0.667385     -0.000193374     0.000112357         0.387125         0.16731
281714                  0.112938        0.152102     -1.36848e-05    -0.000211425         0.933635       -0.289748      0.000199832     0.000280389
                     4.84015e-05     -0.00017807         0.229714        0.362129      0.000326087     0.000173969         0.592453       -0.667456
                        0.933559       -0.289166      0.000220372     0.000307721      -0.00577115        0.188164     -0.000485369    -4.40654e-06
                     0.000390841     0.000206683         0.593078        -0.66761     -0.000193623     0.000112833         0.387449        0.167027
281716                  0.112953        0.152119     -1.42001e-05    -0.000211701         0.933538       -0.290046      0.000200407      0.00028031
                     4.89537e-05    -0.000178116         0.229862        0.362264      0.000326659     0.000173774          0.59205       -0.667677
                        0.933461       -0.289463      0.000220046     0.000307915      -0.00565225         0.18819     -0.000485961    -4.06048e-06
                     0.000390142     0.000207141          0.59267       -0.667834     -0.000193868     0.000113318         0.387774        0.166744
281718                  0.112967        0.152136     -1.47017e-05    -0.000211936         0.933441       -0.290344      0.000200976     0.000280196
                     4.94387e-05    -0.000178127          0.23001        0.362399      0.000327231     0.000173571         0.591647       -0.667898
                        0.933364        -0.28976      0.000219738     0.000308145      -0.00553333        0.188215     -0.000486551    -3.71311e-06
                     0.000389486     0.000207474         0.592262       -0.668058     -0.000194106      0.00011381         0.388098         0.16646
281720                  0.112981        0.152153     -1.51823e-05    -0.000212123         0.933344       -0.290642      0.000201524     0.000280029
                     4.98581e-05    -0.000178106         0.230159        0.362535      0.000327801      0.00017336         0.591244       -0.668119
                        0.933266       -0.290057      0.000219452     0.000308418      -0.00541437        0.188241     -0.000487139    -3.36455e-06
                     0.000388871     0.000207688         0.591854       -0.668282     -0.000194336     0.000114311         0.388423        0.166175
281722                  0.112995         0.15217      -1.5632e-05    -0.000212252         0.933247        -0.29094      0.000202016     0.000279788
                     5.02133e-05    -0.000178051         0.230307         0.36267      0.000328367     0.000173139          0.59084        -0.66834
                        0.933168       -0.290355      0.000219195      0.00030874      -0.00529537        0.188266     -0.000487726    -3.01488e-06
                     0.000388296     0.000207787         0.591446       -0.668505     -0.000194557     0.000114819         0.388748        0.165891
281724                   0.11301        0.152188     -1.60362e-05    -0.000212308         0.933149       -0.291238      0.000202364     0.000279467
                     5.05059e-05    -0.000177963         0.230455        0.362806      0.000328928      0.00017291         0.590436       -0.668561
                         0.93307       -0.290652      0.000218978     0.000309122      -0.00517634        0.188291     -0.000488311    -2.66418e-06
                     0.000387757     0.000207774         0.591038       -0.668729     -0.000194767     0.000115334         0.389073        0.165605
281726                  0.113024        0.152205     -1.63742e-05    -0.000212272         0.933052       -0.291536      0.000202414     0.000279173
                     5.07374e-05     -0.00017784         0.230604        0.362943      0.000329482     0.000172672         0.590032       -0.668782
                        0.932972       -0.290949      0.000218814     0.000309576      -0.00505727        0.188317     -0.000488895    -2.31254e-06
                      0.00038725     0.000207651          0.59063       -0.668952     -0.000194962     0.000115855         0.389398        0.165319
281728                  0.113038        0.152222     -1.66151e-05    -0.000212118         0.932954       -0.291834      0.000202174     0.000279292
                     5.09091e-05     -0.00017768         0.230752         0.36308      0.000330028     0.000172426         0.589627       -0.669002
                        0.932874       -0.291246      0.000218722     0.000310117      -0.00493817        0.188342     -0.000489477    -1.96004e-06
                      0.00038677     0.000207418         0.590223       -0.669175     -0.000195142      0.00011638         0.389724        0.165033
281730                  0.113053        0.152239     -1.67121e-05    -0.000211806         0.932857       -0.292132      0.000202233     0.000279989
                      5.1022e-05    -0.000177478         0.230899        0.363218      0.000330563     0.000172172         0.589222       -0.669223
                        0.932776       -0.291543      0.000218729     0.000310771      -0.00481904        0.188367     -0.000490058    -1.60673e-06
                     0.000386311     0.000207071         0.589816       -0.669399     -0.000195302     0.000116906          0.39005        0.164746
281732                  0.113067        0.152257       -1.659e-05    -0.000211277         0.932759        -0.29243      0.000202869     0.000280667
                     5.10765e-05    -0.000177228         0.231047        0.363357      0.000331085     0.000171913         0.588816       -0.669443
                        0.932677        -0.29184      0.000218878      0.00031157      -0.00469987        0.188392     -0.000490637    -1.25269e-06
                     0.000385863     0.000206606          0.58941       -0.669624     -0.000195441      0.00011743         0.390375        0.164458
281734                  0.113081        0.152274     -1.61236e-05     -0.00021043         0.932661       -0.292728      0.000203711     0.000281037
                      5.1072e-05    -0.000176919         0.231194          0.3635      0.000331592     0.000171649          0.58841       -0.669663
                        0.932579       -0.292137      0.000219235     0.000312569      -0.00458066        0.188417     -0.000491215    -8.97958e-07
                     0.000385417     0.000206009         0.589005       -0.669851     -0.000195557     0.000117946         0.390701         0.16417
281736                  0.113096        0.152291     -1.50887e-05    -0.000209082         0.932563       -0.293026      0.000204535     0.000281201
                     5.10061e-05    -0.000176536         0.231344        0.363647      0.000332081     0.000171385         0.588003       -0.669883
                         0.93248       -0.292434       0.00021991     0.000313861      -0.00446142        0.188441     -0.000491791    -5.42595e-07
                     0.000384957     0.000205261         0.588604       -0.670081     -0.000195646     0.000118447         0.391027        0.163882
281738                   0.11311        0.152308     -1.30452e-05    -0.000206859         0.932465       -0.293324      0.000205303     0.000281268
                     5.08723e-05    -0.000176054         0.231501        0.363798      0.000332549     0.000171123         0.587596       -0.670103
                        0.932381       -0.292731      0.000221103      0.00031562      -0.00434215        0.188466     -0.000492365    -1.86653e-07
                     0.000384465     0.000204324         0.588209       -0.670317     -0.000195708     0.000118923         0.391354        0.163593
281740                  0.113125        0.152326     -9.01114e-06    -0.000202826         0.932367       -0.293622      0.000206025     0.000281289
                      5.0656e-05    -0.000175434         0.231673        0.363946      0.000332991     0.000170869         0.587189       -0.670322
                        0.932282       -0.293028      0.000223204      0.00031823      -0.00422285        0.188491     -0.000492936     1.69799e-07
                     0.000383916     0.000203137          0.58783       -0.670565     -0.000195744     0.000119358          0.39168        0.163303
281742                  0.113139        0.152343     -3.42559e-07    -0.000193849         0.932269       -0.293919      0.000206716     0.000281287
                     5.03233e-05    -0.000174609         0.231849        0.364075      0.000333402     0.000170637         0.586781       -0.670542
                        0.932183       -0.293325      0.000227095     0.000322735       -0.0041035        0.188516     -0.000493506     5.26641e-07
                     0.000383282      0.00020158         0.587508        -0.67083     -0.000195761     0.000119724         0.392007        0.163013
281744                  0.113153         0.15236      2.13576e-05    -0.000161187         0.932171       -0.294217      0.000207389     0.000281273
                     4.97906e-05     -0.00017346          0.23201        0.364195      0.000333777     0.000170453         0.586372       -0.670761
                        0.932084       -0.293622       0.00023503     0.000333167      -0.00398413         0.18854     -0.000494071      8.8359e-07
                     0.000382544      0.00019942          0.58738       -0.670942       -0.0001958     0.000119977         0.392334        0.162722
281746                  0.113168        0.152377     -0.000167488    -4.06171e-05         0.932072       -0.294515       0.00020806     0.000281249
                     4.88267e-05     -0.00017177         0.232163        0.364318      0.000334145     0.000170376         0.585963       -0.670981
                        0.931985       -0.293919      0.000245745     0.000378448      -0.00386472        0.188565      -0.00049463     1.23985e-06
                     0.000381783     0.000196151         0.586746       -0.670786     -0.000195992     0.000120098         0.392662        0.162431
281748                  0.113182        0.152395     -0.000103246     -0.00022132         0.931974       -0.294813      0.000208752     0.000281214
                     4.66823e-05    -0.000169192         0.232312        0.364447      0.000334662     0.000170429         0.585554       -0.671201
                        0.931885       -0.294216      0.000125501      0.00035115      -0.00374527        0.188589     -0.000495179     1.59274e-06
                     0.000381644     0.000190642         0.586173       -0.671087     -0.000196499      0.00012032          0.39299         0.16214
281750                  0.113196        0.152412     -7.28461e-05    -0.000221341         0.931875        -0.29511      0.000209554     0.000281176
                     4.06898e-05    -0.000166166         0.232462        0.364579      0.000335413     0.000170332         0.585146       -0.671423
                        0.931785       -0.294512      0.000170809     0.000312594      -0.00362579        0.188613     -0.000495707     1.93116e-06
                     0.000385849     0.000181314         0.585733       -0.671356     -0.000196999     0.000120935         0.393319        0.161852
281752                  0.113211        0.152429     -6.26868e-05    -0.000217859         0.931776       -0.295408      0.000210907     0.000281967
                     2.89875e-05    -0.000172342         0.232613        0.364713      0.000336071      0.00017001         0.584741       -0.671642
                        0.931686       -0.294809      0.000185569     0.000312965      -0.00350626        0.188638      -0.00049621     2.19958e-06
                     0.000403185     0.000177678         0.585319       -0.671596     -0.000197201     0.000121633         0.393643        0.161565
281754                  0.113225        0.152446     -5.80128e-05    -0.000214298         0.931677       -0.295706      0.000210033     0.000281716
                     3.33556e-05    -0.000185286         0.232765        0.364848      0.000336586     0.000169685         0.584333       -0.671857
                        0.931586       -0.295105         0.000192     0.000315432      -0.00338676        0.188662     -0.000496905     2.34757e-06
                     0.000411067     0.000192951         0.584914        -0.67182     -0.000197273     0.000122208         0.393965        0.161272
281756                   0.11324        0.152464     -5.53252e-05    -0.000210577         0.931579       -0.296003      0.000210764     0.000281422
                     4.01075e-05     -0.00018601         0.232918        0.364984      0.000337047     0.000169411         0.583923       -0.672073
                        0.931487       -0.295402      0.000195795     0.000318189      -0.00326718        0.188686     -0.000497666      2.8144e-06
                     0.000406019     0.000200529         0.584515       -0.672037     -0.000197334     0.000122684          0.39429        0.160976
281758                  0.113254        0.152481     -5.32462e-05     -0.00020653          0.93148       -0.296301      0.000211424     0.000281331
                     4.27525e-05    -0.000184496         0.233072        0.365121      0.000337496     0.000169177         0.583512        -0.67229
                        0.931388       -0.295698      0.000198667     0.000321084      -0.00314757         0.18871     -0.000498241     3.26536e-06
                     0.000401857     0.000201979         0.584123       -0.672248     -0.000197417     0.000123105         0.394616        0.160681
281760                  0.113269        0.152499     -5.09625e-05    -0.000202113         0.931381       -0.296598      0.000212053     0.000281278
                     4.36922e-05     -0.00018317         0.233228        0.365259      0.000337947     0.000168969         0.583101       -0.672507
                        0.931288       -0.295995      0.000201375     0.000324092      -0.00302792        0.188734     -0.000498798     3.66287e-06
                     0.000399382     0.000201641         0.583741       -0.672458     -0.000197528     0.000123497         0.394942        0.160385
281762                  0.113283        0.152516     -4.78413e-05    -0.000197477         0.931281       -0.296896      0.000212668     0.000281239
                     4.39221e-05    -0.000182148         0.233386        0.365399      0.000338404     0.000168779         0.582689       -0.672724
                        0.931188       -0.296292       0.00020437     0.000327142      -0.00290824        0.188758     -0.000499357     4.04082e-06
