! TOUCHSTONE file generated by CST MICROWAVE STUDIO
! Date and time: Wed Oct 15 17:31:25 2025
! Project name: Teste_Macro_Metasurface_Nanopilar.cst
! Parameters = {H=600; L_x=130; L_y=175; Lambda=1064; Max_L=200; Min_L=70; PathPara=1; Phi=0; Step_L=10; Theta=0; p=520; phaseX=180; phaseY=0}
! Header version: 2018
! Port assignment regex: !\s*Touchstone port\s*([0-9]+)\s*=\s*(CST MWS port|CST DS port)\s*([0-9]+|Zmin|Zmax)\s*\(\"(.*)\"\)(\s*mode\s*([0-9]+))?.*
! Touchstone port assignment:
! Touchstone port 1 = CST MWS port Zmax ("") mode 1
! Touchstone port 2 = CST MWS port Zmax ("") mode 2
! Touchstone port 3 = CST MWS port Zmin ("") mode 1
! Touchstone port 4 = CST MWS port Zmin ("") mode 2
! S-Parameters are not renormalized. Each port impedance will be approximated by the real part at minimum frequency. The values are described via the [Reference] keyword.
! Default impedance is overridden by [Reference]
[Version] 2.0
# GHz S RI R 376.73
[Number of Ports] 4
[Reference]
376.73 376.73 259.888 259.888 
[Number of Frequencies] 51
[Network Data]
281700                  0.167671       -0.077038      0.000112738     0.000441659         0.740014       -0.638803     -5.15803e-05    -0.000386125
                    -8.70752e-05     0.000489524         0.115856        0.166881     -0.000263089    -0.000260599         0.902941        -0.36708
                        0.739918       -0.638556     -0.000471458    -0.000102865       -0.0997168        0.147728      0.000447393     0.000256508
                    -7.27971e-05    -0.000211855         0.903056       -0.367148      0.000628347     0.000142864        0.0347512        0.198478
281702                  0.167659      -0.0769967       0.00011284     0.000442044         0.739811       -0.639048     -5.36922e-05    -0.000387378
                    -8.70029e-05     0.000489664         0.115872        0.166908     -0.000263293    -0.000260624         0.902816       -0.367373
                        0.739714       -0.638802     -0.000471935    -0.000103004       -0.0995774        0.147789      0.000442649     0.000256057
                     -7.2793e-05    -0.000212017          0.90293        -0.36744      0.000628502     0.000142465        0.0348885        0.198486
281704                  0.167647      -0.0769555      0.000112941     0.000442428         0.739607       -0.639293     -5.58618e-05    -0.000388613
                    -8.69303e-05     0.000489803         0.115888        0.166935     -0.000263496    -0.000260649         0.902692       -0.367665
                         0.73951       -0.639047      -0.00047241    -0.000103143       -0.0994379         0.14785      0.000436568     0.000255811
                    -7.27894e-05    -0.000212179         0.902804       -0.367732      0.000628657     0.000142065        0.0350258        0.198493
281706                  0.167635      -0.0769143      0.000113041     0.000442812         0.739403       -0.639538     -5.80907e-05    -0.000389827
                    -8.68574e-05     0.000489943         0.115904        0.166962       -0.0002637    -0.000260674         0.902568       -0.367958
                        0.739307       -0.639292     -0.000472883    -0.000103281       -0.0992984        0.147911      0.000428667     0.000256012
                    -7.27861e-05    -0.000212342         0.902678       -0.368024      0.000628811     0.000141664        0.0351632        0.198501
281708                  0.167623      -0.0768731       0.00011314     0.000443195         0.739199       -0.639783     -6.03808e-05    -0.000391017
                    -8.67842e-05     0.000490083          0.11592        0.166989     -0.000263904    -0.000260698         0.902443       -0.368251
                        0.739103       -0.639538     -0.000473355    -0.000103419       -0.0991589        0.147972      0.000418236     0.000257146
                    -7.27833e-05    -0.000212505         0.902551       -0.368316      0.000628965     0.000141264        0.0353007        0.198508
281710                  0.167611      -0.0768319      0.000113239     0.000443579         0.738995       -0.640028     -6.27332e-05    -0.000392176
                    -8.67108e-05     0.000490223         0.115936        0.167016     -0.000264108    -0.000260723         0.902318       -0.368544
                        0.738899       -0.639783     -0.000473824    -0.000103558       -0.0990194        0.148033      0.000404249     0.000260212
                    -7.27809e-05    -0.000212668         0.902425       -0.368607      0.000629118     0.000140863        0.0354382        0.198515
281712                  0.167599      -0.0767908      0.000113337     0.000443962         0.738791       -0.640272     -6.51488e-05    -0.000393301
                     -8.6637e-05     0.000490364         0.115952        0.167043     -0.000264312    -0.000260746         0.902193       -0.368836
                        0.738695       -0.640028     -0.000474291    -0.000103696       -0.0988799        0.148094      0.000385336     0.000267372
                    -7.27789e-05    -0.000212832         0.902298       -0.368899      0.000629271     0.000140462        0.0355758        0.198521
281714                  0.167587      -0.0767496      0.000113434     0.000444344         0.738587       -0.640517     -6.76279e-05    -0.000394386
                     -8.6563e-05     0.000490504         0.115968         0.16707     -0.000264516     -0.00026077         0.902068       -0.369129
                        0.738491       -0.640273     -0.000474757    -0.000103834       -0.0987404        0.148155      0.000360302     0.000283394
                    -7.27773e-05    -0.000212995         0.902171       -0.369191      0.000629423     0.000140061        0.0357135        0.198528
281716                  0.167575      -0.0767085      0.000113531     0.000444726         0.738383       -0.640762     -7.01702e-05    -0.000395424
                    -8.64886e-05     0.000490644         0.115984        0.167097     -0.000264721    -0.000260794         0.901942       -0.369421
                        0.738287       -0.640517     -0.000475221    -0.000103972       -0.0986008        0.148215      0.000331348     0.000318268
                    -7.27761e-05    -0.000213159         0.902044       -0.369482      0.000629575     0.000139659        0.0358512        0.198534
281718                  0.167564      -0.0766674      0.000113626     0.000445108         0.738179       -0.641006     -7.27743e-05    -0.000396409
                     -8.6414e-05     0.000490785         0.116001        0.167124     -0.000264925    -0.000260817         0.901817       -0.369714
                        0.738083       -0.640762     -0.000475683     -0.00010411       -0.0984613        0.148275      0.000316027     0.000385816
                    -7.27754e-05    -0.000213324         0.901917       -0.369774      0.000629726     0.000139257        0.0359889        0.198541
281720                  0.167552      -0.0766263      0.000113721      0.00044549         0.737975        -0.64125     -7.54374e-05    -0.000397334
                     -8.6339e-05     0.000490925         0.116017        0.167151     -0.000265129     -0.00026084         0.901691       -0.370006
                        0.737879       -0.641007     -0.000476144    -0.000104248       -0.0983217        0.148336      0.000357651     0.000471204
                    -7.27751e-05    -0.000213488          0.90179       -0.370065      0.000629877     0.000138855        0.0361268        0.198547
281722                   0.16754      -0.0765852      0.000113816     0.000445872          0.73777       -0.641495     -7.81553e-05     -0.00039819
                    -8.62638e-05     0.000491066         0.116033        0.167178     -0.000265334    -0.000260862         0.901565       -0.370298
                        0.737674       -0.641251     -0.000476603    -0.000104387       -0.0981821        0.148396      0.000452727     0.000501914
                    -7.27752e-05    -0.000213653         0.901663       -0.370357      0.000630027     0.000138453        0.0362646        0.198553
281724                  0.167528      -0.0765441      0.000113909     0.000446253         0.737566       -0.641739     -8.09217e-05    -0.000398972
                    -8.61882e-05     0.000491207         0.116049        0.167205     -0.000265539    -0.000260885         0.901439        -0.37059
                         0.73747       -0.641496      -0.00047706    -0.000104525       -0.0980425        0.148456      0.000524205     0.000470241
                    -7.27757e-05    -0.000213818         0.901536       -0.370648      0.000630177     0.000138051        0.0364026        0.198559
281726                  0.167516      -0.0765031      0.000114002     0.000446634         0.737362       -0.641983     -8.37277e-05    -0.000399671
                    -8.61124e-05     0.000491347         0.116065        0.167232     -0.000265744    -0.000260907         0.901312       -0.370882
                        0.737266        -0.64174     -0.000477515    -0.000104663       -0.0979029        0.148516      0.000554913     0.000427938
                    -7.27767e-05    -0.000213984         0.901409        -0.37094      0.000630326     0.000137648        0.0365406        0.198564
281728                  0.167504       -0.076462      0.000114094     0.000447015         0.737157       -0.642227     -8.65612e-05    -0.000400281
                    -8.60362e-05     0.000491488         0.116081        0.167259     -0.000265948    -0.000260929         0.901186       -0.371174
                        0.737061       -0.641985     -0.000477969    -0.000104801       -0.0977633        0.148576      0.000564537     0.000395145
                    -7.27781e-05    -0.000214149         0.901281       -0.371231      0.000630475     0.000137245        0.0366787         0.19857
281730                  0.167492       -0.076421      0.000114186     0.000447395         0.736952       -0.642471     -8.94057e-05    -0.000400796
                    -8.59598e-05     0.000491629         0.116097        0.167286     -0.000266153    -0.000260951         0.901059       -0.371466
                        0.736857       -0.642229     -0.000478421     -0.00010494       -0.0976236        0.148636      0.000565996     0.000372163
                      -7.278e-05    -0.000214315         0.901153       -0.371523      0.000630624     0.000136841        0.0368168        0.198575
281732                  0.167481        -0.07638      0.000114276     0.000447776         0.736748       -0.642715     -9.22394e-05    -0.000401213
                     -8.5883e-05      0.00049177         0.116113        0.167313     -0.000266358    -0.000260972         0.900932       -0.371758
                        0.736652       -0.642473     -0.000478871    -0.000105078        -0.097484        0.148695      0.000564646       0.0003561
                    -7.27824e-05    -0.000214481         0.901026       -0.371814      0.000630771     0.000136438        0.0369549        0.198581
281734                  0.167469       -0.076339      0.000114366     0.000448156         0.736543       -0.642959     -9.50329e-05    -0.000401532
                    -8.58059e-05     0.000491912         0.116129         0.16734     -0.000266563    -0.000260993         0.900805        -0.37205
                        0.736447       -0.642717      -0.00047932    -0.000105217       -0.0973443        0.148755      0.000562525     0.000344642
                    -7.27851e-05    -0.000214648         0.900898       -0.372105      0.000630919     0.000136034        0.0370932        0.198586
281736                  0.167457       -0.076298      0.000114456     0.000448536         0.736338       -0.643203     -9.77463e-05    -0.000401759
                    -8.57285e-05     0.000492053         0.116145        0.167367     -0.000266768    -0.000261014         0.900677       -0.372341
                        0.736243       -0.642961     -0.000479767    -0.000105355       -0.0972046        0.148814      0.000560404     0.000336291
                    -7.27884e-05    -0.000214815          0.90077       -0.372397      0.000631066      0.00013563        0.0372314        0.198591
281738                  0.167445       -0.076257      0.000114544     0.000448916         0.736133       -0.643446     -0.000100324    -0.000401909
                    -8.56508e-05     0.000492194         0.116162        0.167395     -0.000266973    -0.000261035          0.90055       -0.372633
                        0.736038       -0.643205     -0.000480212    -0.000105494       -0.0970649        0.148874      0.000558572      0.00033012
                    -7.27921e-05    -0.000214982         0.900642       -0.372688      0.000631212     0.000135225        0.0373697        0.198596
281740                  0.167433       -0.076216      0.000114632     0.000449295         0.735928        -0.64369     -0.000102685    -0.000402008
                    -8.55728e-05     0.000492335         0.116178        0.167422     -0.000267178    -0.000261056         0.900422       -0.372925
                        0.735833       -0.643449     -0.000480656    -0.000105633       -0.0969252        0.148933      0.000557141     0.000325569
                    -7.27963e-05    -0.000215149         0.900514       -0.372979      0.000631358     0.000134821         0.037508        0.198601
281742                  0.167422      -0.0761751      0.000114719     0.000449674         0.735723       -0.643933     -0.000104702    -0.000402103
                    -8.54944e-05     0.000492477         0.116194        0.167449     -0.000267383    -0.000261076         0.900294       -0.373216
                        0.735628       -0.643693     -0.000481098    -0.000105772       -0.0967855        0.148992      0.000556178     0.000322331
                    -7.28009e-05    -0.000215316         0.900386        -0.37327      0.000631504     0.000134416        0.0376464        0.198605
281744                   0.16741      -0.0761342      0.000114805     0.000450054         0.735518       -0.644177     -0.000106155    -0.000402266
                    -8.54158e-05     0.000492618          0.11621        0.167476     -0.000267588    -0.000261096         0.900166       -0.373508
                        0.735423       -0.643936     -0.000481538    -0.000105911       -0.0966458        0.149051      0.000555778     0.000320336
                     -7.2806e-05    -0.000215484         0.900257       -0.373561      0.000631649      0.00013401        0.0377847         0.19861
281746                  0.167398      -0.0760933      0.000114891     0.000450433         0.735313        -0.64442     -0.000106618    -0.000402606
                    -8.53368e-05      0.00049276         0.116226        0.167503     -0.000267793    -0.000261116         0.900037       -0.373799
                        0.735218        -0.64418     -0.000481976     -0.00010605        -0.096506         0.14911      0.000556179     0.000319879
                    -7.28116e-05    -0.000215652         0.900129       -0.373852      0.000631794     0.000133604         0.037923        0.198615
281748                  0.167387      -0.0760523      0.000114975     0.000450811         0.735107       -0.644663     -0.000105107    -0.000403211
                    -8.52574e-05     0.000492902         0.116242        0.167531     -0.000267998    -0.000261135         0.899909       -0.374091
                        0.735012       -0.644423     -0.000482412    -0.000106189       -0.0963663        0.149168      0.000558095     0.000322377
                    -7.28177e-05     -0.00021582              0.9       -0.374144      0.000631938     0.000133198        0.0380611         0.19862
281750                  0.167375      -0.0760115      0.000115059     0.000451189         0.734902       -0.644906     -9.88807e-05     -0.00040353
                    -8.51778e-05     0.000493043         0.116258        0.167558     -0.000268203    -0.000261155          0.89978       -0.374383
                        0.734807       -0.644667     -0.000482846    -0.000106329       -0.0962265        0.149227      0.000564316     0.000336566
                    -7.28242e-05    -0.000215989         0.899872       -0.374435      0.000632082     0.000132791        0.0381988        0.198626
281752                  0.167363      -0.0759706       0.00011514     0.000451567         0.734697       -0.645149     -8.01999e-05    -0.000395389
                    -8.50978e-05     0.000493185         0.116275        0.167585     -0.000268408    -0.000261173         0.899652       -0.374675
                        0.734602        -0.64491     -0.000483274    -0.000106467       -0.0960867        0.149286      0.000386963     0.000315215
                    -7.28313e-05    -0.000216158         0.899743       -0.374726      0.000632226     0.000132381        0.0383354        0.198633
281754                  0.167352      -0.0759297      0.000115218     0.000451941         0.734491       -0.645392      -8.4132e-05    -0.000341645
                    -8.50174e-05     0.000493327         0.116291        0.167612     -0.000268612    -0.000261191         0.899523       -0.374969
                        0.734396       -0.645153     -0.000483693    -0.000106604       -0.0959469        0.149344      0.000528841     0.000285192
                    -7.28388e-05    -0.000216327         0.899614       -0.375017      0.000632371     0.000131966        0.0384673        0.198649
281756                   0.16734      -0.0758889      0.000115279     0.000452298         0.734286       -0.645635     -0.000130026    -0.000347545
                    -8.49365e-05     0.000493468         0.116307         0.16764     -0.000268813    -0.000261207         0.899395       -0.375267
                        0.734191       -0.645396     -0.000484054    -0.000106726       -0.0958071        0.149402      0.000538445     0.000292331
                    -7.28469e-05    -0.000216496         0.899485       -0.375307      0.000632604     0.000131531        0.0387317        0.198549
281758                  0.167328       -0.075848      0.000115464     0.000452732          0.73408       -0.645878     -0.000137977    -0.000361488
                    -8.48601e-05     0.000493615         0.116323        0.167667     -0.000269001    -0.000261242         0.899273       -0.375617
                        0.733985       -0.645639     -0.000484749    -0.000106918       -0.0956672         0.14946      0.000541611     0.000294608
                    -7.28562e-05    -0.000216665         0.899356       -0.375599      0.000632657     0.000131202        0.0387708        0.198618
281760                  0.167317      -0.0758072      0.000115498     0.000453098         0.733874       -0.646121     -0.000139552    -0.000367134
                    -8.47751e-05     0.000493754         0.116339        0.167694     -0.000269226    -0.000261264         0.899116       -0.375797
                         0.73378       -0.645882     -0.000485073    -0.000107045       -0.0955275        0.149519      0.000543243     0.000295484
                     -7.2864e-05    -0.000216836         0.899227       -0.375889      0.000632794     0.000130782        0.0389043        0.198629
281762                  0.167305      -0.0757664      0.000115571     0.000453473         0.733668       -0.646363     -0.000140228    -0.000369386
                    -8.46933e-05     0.000493896         0.116355        0.167722     -0.000269434    -0.000261279         0.898994       -0.376106
                        0.733574       -0.646125     -0.000485484    -0.000107183       -0.0953876        0.149576      0.000544315     0.000295811
