! TOUCHSTONE file generated by CST MICROWAVE STUDIO
! Date and time: Wed Oct 15 17:32:26 2025
! Project name: Teste_Macro_Metasurface_Nanopilar.cst
! Parameters = {H=600; L_x=150; L_y=115; Lambda=1064; Max_L=200; Min_L=70; PathPara=1; Phi=0; Step_L=10; Theta=0; p=520; phaseX=180; phaseY=0}
! Header version: 2018
! Port assignment regex: !\s*Touchstone port\s*([0-9]+)\s*=\s*(CST MWS port|CST DS port)\s*([0-9]+|Zmin|Zmax)\s*\(\"(.*)\"\)(\s*mode\s*([0-9]+))?.*
! Touchstone port assignment:
! Touchstone port 1 = CST MWS port Zmax ("") mode 1
! Touchstone port 2 = CST MWS port Zmax ("") mode 2
! Touchstone port 3 = CST MWS port Zmin ("") mode 1
! Touchstone port 4 = CST MWS port Zmin ("") mode 2
! S-Parameters are not renormalized. Each port impedance will be approximated by the real part at minimum frequency. The values are described via the [Reference] keyword.
! Default impedance is overridden by [Reference]
[Version] 2.0
# GHz S RI R 376.73
[Number of Ports] 4
[Reference]
376.73 376.73 259.888 259.888 
[Number of Frequencies] 51
[Network Data]
281700                 0.0623005      -0.0106032      0.000149843      0.00018098         0.450532        0.880672      0.000277651    -0.000641975
                     0.000229089     0.000267601         0.108917        0.181012      0.000172797    -0.000731757         0.922626       -0.308346
                        0.450551        0.880454      0.000152249    -0.000774959         0.043932       -0.041576     -0.000315857     0.000119226
                     0.000302098    -0.000598786         0.922434       -0.308293     -0.000254728     9.19104e-05        0.0230639        0.208801
281702                  0.062288      -0.0105846      0.000149706     0.000180837         0.450876        0.880498      0.000277715    -0.000642326
                      0.00022915     0.000267713         0.108935        0.181032      0.000172587     -0.00073196          0.92252       -0.308646
                        0.450895        0.880279      0.000151887    -0.000775258        0.0438771      -0.0416113     -0.000315627     0.000119652
                     0.000301919    -0.000599016         0.922327       -0.308593     -0.000254669     9.20979e-05        0.0231978        0.208812
281704                 0.0622756       -0.010566      0.000149569     0.000180694          0.45122        0.880323      0.000277778    -0.000642675
                     0.000229212     0.000267825         0.108954        0.181051      0.000172377    -0.000732162         0.922413       -0.308947
                        0.451239        0.880104      0.000151524    -0.000775558        0.0438221      -0.0416466       -0.0003154     0.000120078
                      0.00030174    -0.000599246         0.922221       -0.308892      -0.00025461     9.22859e-05        0.0233318        0.208823
281706                 0.0622632      -0.0105474      0.000149433     0.000180552         0.451564        0.880147       0.00027784    -0.000643023
                     0.000229274     0.000267938         0.108973        0.181071      0.000172168    -0.000732364         0.922306       -0.309247
                        0.451583        0.879929      0.000151162    -0.000775857        0.0437671      -0.0416819     -0.000315175     0.000120504
                     0.000301561    -0.000599476         0.922114       -0.309192      -0.00025455     9.24744e-05        0.0234659        0.208834
281708                 0.0622508      -0.0105288      0.000149298      0.00018041         0.451908        0.879972      0.000277902     -0.00064337
                     0.000229336     0.000268051         0.108991        0.181091      0.000171959    -0.000732567         0.922199       -0.309547
                        0.451927        0.879754      0.000150799    -0.000776156         0.043712      -0.0417171     -0.000314952     0.000120929
                     0.000301381    -0.000599705         0.922007       -0.309492      -0.00025449     9.26635e-05        0.0235999        0.208845
281710                 0.0622384      -0.0105101      0.000149163     0.000180269         0.452252        0.879797      0.000277964    -0.000643715
                     0.000229398     0.000268164          0.10901         0.18111      0.000171749     -0.00073277         0.922092       -0.309847
                        0.452271        0.879578      0.000150437    -0.000776454         0.043657      -0.0417523     -0.000314732     0.000121353
                     0.000301201    -0.000599935         0.921899       -0.309792     -0.000254428     9.28532e-05         0.023734        0.208856
281712                  0.062226      -0.0104915      0.000149029     0.000180128         0.452595        0.879621      0.000278026    -0.000644059
                      0.00022946     0.000268278         0.109029         0.18113      0.000171541    -0.000732972         0.921985       -0.310147
                        0.452614        0.879403      0.000150074    -0.000776753        0.0436019      -0.0417874     -0.000314513     0.000121777
                     0.000301021    -0.000600164         0.921792       -0.310091     -0.000254366     9.30434e-05        0.0238681        0.208866
281714                 0.0622137      -0.0104729      0.000148896     0.000179988         0.452939        0.879446      0.000278087    -0.000644402
                     0.000229521     0.000268392         0.109048        0.181149      0.000171332    -0.000733175         0.921877       -0.310447
                        0.452958        0.879227      0.000149712    -0.000777051        0.0435467      -0.0418225     -0.000314297     0.000122201
                     0.000300841    -0.000600394         0.921684       -0.310391     -0.000254303     9.32341e-05        0.0240023        0.208877
281716                 0.0622013      -0.0104543      0.000148764     0.000179848         0.453283         0.87927      0.000278147    -0.000644743
                     0.000229583     0.000268507         0.109066        0.181169      0.000171124    -0.000733378          0.92177       -0.310747
                          0.4533        0.879051      0.000149349    -0.000777348        0.0434916      -0.0418575     -0.000314083     0.000122624
                      0.00030066    -0.000600623         0.921577        -0.31069     -0.000254239     9.34253e-05        0.0241365        0.208887
281718                 0.0621889      -0.0104357      0.000148633     0.000179709         0.453626        0.879094      0.000278208    -0.000645083
                     0.000229644     0.000268622         0.109085        0.181189      0.000170915    -0.000733581         0.921663       -0.311047
                        0.453645        0.878878      0.000148987    -0.000777646        0.0434364      -0.0418924     -0.000313872     0.000123046
                     0.000300479    -0.000600852         0.921469        -0.31099     -0.000254175     9.36171e-05        0.0242707        0.208898
281720                 0.0621766      -0.0104171      0.000148503      0.00017957          0.45397        0.878918      0.000278268    -0.000645421
                     0.000229705     0.000268738         0.109104        0.181208      0.000170708    -0.000733783         0.921555       -0.311347
                        0.453988        0.878701      0.000148625    -0.000777943        0.0433812      -0.0419273     -0.000313662     0.000123469
                     0.000300298    -0.000601082         0.921361       -0.311289      -0.00025411     9.38094e-05        0.0244049        0.208908
281722                 0.0621643      -0.0103985      0.000148373     0.000179432         0.454313        0.878742      0.000278327    -0.000645758
                     0.000229767     0.000268854         0.109123        0.181228        0.0001705    -0.000733986         0.921447       -0.311646
                        0.454331        0.878525      0.000148263    -0.000778239         0.043326      -0.0419622     -0.000313455      0.00012389
                     0.000300116    -0.000601311         0.921253       -0.311589     -0.000254044     9.40022e-05        0.0245392        0.208919
281724                 0.0621519      -0.0103798      0.000148245     0.000179294         0.454656        0.878566      0.000278387    -0.000646094
                     0.000229828      0.00026897         0.109141        0.181248      0.000170292     -0.00073419          0.92134       -0.311946
                        0.454675        0.878348      0.000147901    -0.000778536        0.0432708       -0.041997      -0.00031325     0.000124311
                     0.000299934     -0.00060154         0.921145       -0.311888     -0.000253977     9.41955e-05        0.0246735        0.208929
281726                 0.0621396      -0.0103612      0.000148118     0.000179157         0.454999        0.878389      0.000278446    -0.000646429
                     0.000229889     0.000269088          0.10916        0.181267      0.000170085    -0.000734393         0.921232       -0.312246
                        0.455018        0.878172      0.000147539    -0.000778832        0.0432155      -0.0420317     -0.000313047     0.000124732
                     0.000299752    -0.000601769         0.921037       -0.312188      -0.00025391     9.43893e-05        0.0248078        0.208939
281728                 0.0621273      -0.0103425      0.000147992     0.000179021         0.455342        0.878213      0.000278504    -0.000646762
                      0.00022995     0.000269205         0.109179        0.181287      0.000169878    -0.000734596         0.921124       -0.312546
                        0.455361        0.877996      0.000147178    -0.000779128        0.0431602      -0.0420664     -0.000312847     0.000125151
                      0.00029957    -0.000601997         0.920929       -0.312487     -0.000253842     9.45837e-05        0.0249421        0.208949
281730                 0.0621149      -0.0103239      0.000147867     0.000178886         0.455685        0.878036      0.000278562    -0.000647094
                     0.000230011     0.000269324         0.109198        0.181306      0.000169671    -0.000734799         0.921016       -0.312845
                        0.455704        0.877819      0.000146817    -0.000779423        0.0431049       -0.042101     -0.000312649      0.00012557
                     0.000299387    -0.000602226          0.92082       -0.312786     -0.000253773     9.47785e-05        0.0250765        0.208959
281732                 0.0621026      -0.0103052      0.000147743     0.000178751         0.456028        0.877859       0.00027862    -0.000647425
                     0.000230072     0.000269442         0.109216        0.181326      0.000169465    -0.000735002         0.920908       -0.313145
                        0.456047        0.877642      0.000146456    -0.000779718        0.0430495      -0.0421356     -0.000312453     0.000125989
                     0.000299204    -0.000602454         0.920712       -0.313085     -0.000253704     9.49738e-05        0.0252109        0.208969
281734                 0.0620903      -0.0102866       0.00014762     0.000178616         0.456371        0.877682      0.000278677    -0.000647754
                     0.000230133     0.000269562         0.109235        0.181346      0.000169259    -0.000735206         0.920799       -0.313445
                        0.456389        0.877465      0.000146096    -0.000780013        0.0429942      -0.0421702     -0.000312259     0.000126407
                     0.000299021    -0.000602683         0.920603       -0.313385     -0.000253633     9.51696e-05        0.0253453        0.208979
281736                  0.062078      -0.0102679      0.000147499     0.000178483         0.456714        0.877505      0.000278734    -0.000648082
                     0.000230194     0.000269682         0.109254        0.181365      0.000169052    -0.000735409         0.920691       -0.313744
                        0.456732        0.877288      0.000145737    -0.000780307        0.0429388      -0.0422047     -0.000312069     0.000126824
                     0.000298838    -0.000602911         0.920494       -0.313684     -0.000253562     9.53659e-05        0.0254798        0.208988
281738                 0.0620657      -0.0102493      0.000147378      0.00017835         0.457057        0.877328      0.000278789    -0.000648408
                     0.000230254     0.000269802         0.109273        0.181385      0.000168846    -0.000735613         0.920583       -0.314044
                        0.457075        0.877111      0.000145378    -0.000780601        0.0428833      -0.0422391     -0.000311882     0.000127241
                     0.000298654    -0.000603139         0.920386       -0.313983     -0.000253491     9.55626e-05        0.0256143        0.208998
281740                 0.0620535      -0.0102306       0.00014726     0.000178218         0.457399        0.877151      0.000278843    -0.000648731
                     0.000230315     0.000269923         0.109291        0.181405      0.000168641    -0.000735817         0.920474       -0.314344
                        0.457417        0.876934       0.00014502    -0.000780895        0.0428279      -0.0422735     -0.000311697     0.000127658
                      0.00029847    -0.000603367         0.920277       -0.314282     -0.000253418     9.57599e-05        0.0257488        0.209008
281742                 0.0620412      -0.0102119      0.000147142     0.000178087         0.457742        0.876973      0.000278902    -0.000649046
                     0.000230376     0.000270044          0.10931        0.181424      0.000168435     -0.00073602         0.920365       -0.314643
                         0.45776        0.876757      0.000144662    -0.000781188        0.0427724      -0.0423078     -0.000311513     0.000128076
                     0.000298285    -0.000603595         0.920168       -0.314581     -0.000253345     9.59576e-05        0.0258833        0.209017
281744                 0.0620289      -0.0101933      0.000147026     0.000177957         0.458084        0.876796      0.000278968    -0.000649372
                     0.000230436     0.000270166         0.109329        0.181444       0.00016823    -0.000736224         0.920257       -0.314943
                        0.458102        0.876579      0.000144305    -0.000781481        0.0427169      -0.0423421     -0.000311331     0.000128493
                     0.000298101    -0.000603822         0.920059        -0.31488     -0.000253271     9.61558e-05        0.0260179        0.209027
281746                 0.0620166      -0.0101746      0.000146912     0.000177828         0.458427        0.876618      0.000279025    -0.000649698
                     0.000230497     0.000270288         0.109348        0.181464      0.000168025    -0.000736428         0.920148       -0.315242
                        0.458445        0.876402      0.000143949    -0.000781773        0.0426614      -0.0423763      -0.00031115     0.000128909
                     0.000297916     -0.00060405          0.91995       -0.315179     -0.000253196     9.63544e-05        0.0261525        0.209036
281748                 0.0620044      -0.0101559      0.000146799       0.0001777         0.458769         0.87644       0.00027908    -0.000650021
                     0.000230557     0.000270411         0.109366        0.181484       0.00016782    -0.000736632         0.920039       -0.315541
                        0.458787        0.876224      0.000143594    -0.000782065        0.0426059      -0.0424104     -0.000310972     0.000129324
                     0.000297731    -0.000604277         0.919841       -0.315478      -0.00025312     9.65535e-05        0.0262871        0.209045
281750                 0.0619921      -0.0101373      0.000146687     0.000177573         0.459111        0.876262      0.000279134    -0.000650341
                     0.000230618     0.000270534         0.109385        0.181503      0.000167615    -0.000736836          0.91993       -0.315841
                        0.459129        0.876046       0.00014324    -0.000782357        0.0425503      -0.0424446     -0.000310796     0.000129737
                     0.000297545    -0.000604504         0.919731       -0.315777     -0.000253044      9.6753e-05        0.0264218        0.209054
281752                 0.0619799      -0.0101186      0.000146576     0.000177446         0.459454        0.876084      0.000279189     -0.00065066
                     0.000230678     0.000270657         0.109404        0.181523      0.000167411     -0.00073704         0.919821        -0.31614
                        0.459472        0.875868      0.000142886    -0.000782648        0.0424947      -0.0424786     -0.000310623      0.00013015
                      0.00029736     -0.00060473         0.919622       -0.316076     -0.000252967     9.69529e-05        0.0265565        0.209063
281754                 0.0619676      -0.0100999      0.000146467     0.000177321         0.459796        0.875906      0.000279244    -0.000650977
                     0.000230738     0.000270781         0.109423        0.181543      0.000167206    -0.000737244         0.919711       -0.316439
                        0.459814         0.87569      0.000142534    -0.000782938        0.0424391      -0.0425126     -0.000310452     0.000130563
                     0.000297173    -0.000604957         0.919512       -0.316375     -0.000252889     9.71533e-05        0.0266912        0.209072
281756                 0.0619554      -0.0100812      0.000146358     0.000177197         0.460138        0.875727      0.000279298    -0.000651293
                     0.000230798     0.000270905         0.109442        0.181563      0.000167001    -0.000737448         0.919602       -0.316739
                        0.460156        0.875512      0.000142181    -0.000783229        0.0423834      -0.0425466     -0.000310284     0.000130974
                     0.000296987    -0.000605183         0.919403       -0.316674     -0.000252809     9.73538e-05        0.0268259        0.209081
281758                 0.0619432      -0.0100626       0.00014625     0.000177073          0.46048        0.875549      0.000279352    -0.000651608
                     0.000230858     0.000271029          0.10946        0.181582      0.000166801    -0.000737647         0.919493       -0.317038
                        0.460498        0.875333      0.000141829    -0.000783518        0.0423277      -0.0425805     -0.000310118     0.000131385
                       0.0002968     -0.00060541         0.919293       -0.316973     -0.000252722     9.75455e-05        0.0269607         0.20909
281760                  0.061931      -0.0100439       0.00014614      0.00017695         0.460822         0.87537      0.000279406    -0.000651921
                     0.000230918     0.000271153         0.109479        0.181602      0.000166597    -0.000737857         0.919383       -0.317337
                        0.460839        0.875155      0.000141477    -0.000783808         0.042272      -0.0426144     -0.000309954     0.000131795
                     0.000296613    -0.000605636         0.919183       -0.317272     -0.000252659     9.77562e-05        0.0270955        0.209099
281762                 0.0619188      -0.0100252      0.000146029     0.000176827         0.461163        0.875191       0.00027946    -0.000652234
                     0.000230978     0.000271278         0.109498        0.181622      0.000166393    -0.000738062         0.919273       -0.317636
                        0.461181        0.874976      0.000141123    -0.000784097        0.0422163      -0.0426482     -0.000309793     0.000132205
