! TOUCHSTONE file generated by CST MICROWAVE STUDIO
! Date and time: Wed Oct 15 17:34:33 2025
! Project name: Teste_Macro_Metasurface_Nanopilar.cst
! Parameters = {H=600; L_x=185; L_y=175; Lambda=1064; Max_L=200; Min_L=70; PathPara=1; Phi=0; Step_L=10; Theta=0; p=520; phaseX=180; phaseY=0}
! Header version: 2018
! Port assignment regex: !\s*Touchstone port\s*([0-9]+)\s*=\s*(CST MWS port|CST DS port)\s*([0-9]+|Zmin|Zmax)\s*\(\"(.*)\"\)(\s*mode\s*([0-9]+))?.*
! Touchstone port assignment:
! Touchstone port 1 = CST MWS port Zmax ("") mode 1
! Touchstone port 2 = CST MWS port Zmax ("") mode 2
! Touchstone port 3 = CST MWS port Zmin ("") mode 1
! Touchstone port 4 = CST MWS port Zmin ("") mode 2
! S-Parameters are not renormalized. Each port impedance will be approximated by the real part at minimum frequency. The values are described via the [Reference] keyword.
! Default impedance is overridden by [Reference]
[Version] 2.0
# GHz S RI R 376.73
[Number of Ports] 4
[Reference]
376.73 376.73 259.888 259.888 
[Number of Frequencies] 51
[Network Data]
281700                  0.170432        0.756312      0.000829229     1.68592e-05         0.342357       -0.272196      0.000154515     5.71973e-05
                     4.82383e-05     5.84229e-05         0.195739       0.0680834      0.000233758     0.000286535         0.129711       -0.964977
                        0.342329       -0.272196       0.00107307     9.07999e-05         0.399395        0.670566     -7.15446e-05     0.000320434
                     1.04355e-05     0.000175705         0.129484       -0.965063     -0.000150572     0.000446735         0.204954      -0.0123039
281702                   0.17233         0.75523      0.000831535     1.27696e-05         0.343868       -0.273629      0.000130786     4.83298e-05
                     4.87467e-05     5.71284e-05         0.195725       0.0680735      0.000232768     0.000283069         0.129408       -0.965021
                         0.34382       -0.273625        0.0010787     8.57937e-05          0.40102        0.668816     -8.08264e-05     0.000330165
                     1.12247e-05     0.000174389         0.129179       -0.965112      -0.00014759     0.000448861          0.20493      -0.0124238
281704                  0.174216        0.754142       0.00083353     8.68695e-06         0.345364       -0.275065      0.000109965      5.0587e-05
                     4.92135e-05     5.58655e-05         0.195712       0.0680635      0.000231417     0.000279542         0.129106       -0.965065
                        0.345298       -0.275059       0.00108372     8.08153e-05         0.402629        0.667065     -9.00766e-05     0.000340314
                     1.20049e-05     0.000173136         0.128873       -0.965161     -0.000144082     0.000451059         0.204906      -0.0125437
281706                  0.176088        0.753048      0.000835203     4.61752e-06         0.346843       -0.276504      9.53383e-05     5.89359e-05
                     4.96427e-05      5.4634e-05         0.195698       0.0680535      0.000229564     0.000275934         0.128804       -0.965108
                        0.346762       -0.276497       0.00108812     7.58799e-05         0.404222        0.665315     -9.91342e-05     0.000350936
                     1.27775e-05      0.00017195         0.128567       -0.965209     -0.000139858     0.000453308         0.204881      -0.0126636
281708                  0.177947         0.75195      0.000836547     5.67441e-07         0.348306       -0.277947      8.66519e-05     6.93977e-05
                     5.00377e-05     5.34332e-05         0.195685       0.0680435      0.000226965     0.000272214         0.128501       -0.965151
                        0.348213        -0.27794       0.00109188     7.10023e-05         0.405799        0.663565     -0.000107797     0.000362087
                     1.35436e-05     0.000170842         0.128261       -0.965257     -0.000134627     0.000455551         0.204857      -0.0127835
281710                  0.179792        0.750846      0.000837552    -3.45721e-06         0.349753       -0.279392       8.2518e-05     7.98532e-05
                     5.04019e-05     5.22625e-05         0.195671       0.0680335      0.000223178     0.000268352         0.128198       -0.965194
                         0.34965       -0.279386         0.001095     6.61968e-05         0.407359        0.661815     -0.000115816     0.000373808
                     1.43039e-05      0.00016982         0.127955       -0.965305      -0.00012793     0.000457645         0.204832      -0.0129034
281712                  0.181624        0.749737      0.000838213    -7.45046e-06         0.351185        -0.28084      8.16036e-05     8.94201e-05
                     5.07382e-05      5.1121e-05         0.195657       0.0680235      0.000217281     0.000264359         0.127895       -0.965237
                        0.351074       -0.280836       0.00109747     6.14771e-05         0.408905        0.660065     -0.000122886     0.000386116
                     1.50577e-05     0.000168899         0.127649       -0.965353     -0.000119002      0.00045922         0.204808      -0.0130233
281714                  0.183443        0.748623      0.000838521    -1.14065e-05         0.352602       -0.282291      8.29237e-05     9.78285e-05
                     5.10494e-05     5.00077e-05         0.195644       0.0680135      0.000207067     0.000260527         0.127592        -0.96528
                        0.352485       -0.282289       0.00109929     5.68559e-05         0.410434        0.658315     -0.000128645      0.00039898
                     1.58026e-05     0.000168097         0.127344         -0.9654     -0.000106553     0.000459302         0.204783      -0.0131432
281716                  0.185249        0.747504      0.000838471    -1.53198e-05         0.354003       -0.283744      8.58127e-05     0.000105064
                     5.13379e-05     4.89216e-05          0.19563       0.0680034      0.000185888     0.000259284         0.127289       -0.965323
                        0.353882       -0.283746       0.00110044     5.23453e-05         0.411949        0.656565     -0.000132682     0.000412294
                      1.6533e-05     0.000167437         0.127038       -0.965448     -8.85356e-05     0.000455116         0.204758      -0.0132631
281718                  0.187042        0.746381      0.000838059     -1.9185e-05          0.35539       -0.285199      8.98322e-05     0.000111198
                     5.16059e-05     4.78615e-05         0.195617       0.0679933      0.000130727     0.000289351         0.126986       -0.965365
                        0.355266       -0.285206       0.00110092     4.79563e-05         0.413448        0.654816     -0.000134546     0.000425841
                      1.7238e-05     0.000166948         0.126732       -0.965494     -6.33939e-05      0.00043837         0.204734       -0.013383
281720                  0.188822        0.745253      0.000837278     -2.2997e-05         0.356761       -0.286657      9.46931e-05     0.000116319
                     5.18554e-05     4.68264e-05         0.195603       0.0679832      0.000247321     0.000429011         0.126683       -0.965407
                        0.356637        -0.28667       0.00110075     4.36987e-05         0.414932        0.653067     -0.000133789     0.000439258
                     1.78974e-05     0.000166672         0.126426       -0.965541      -4.3781e-05     0.000389546         0.204709      -0.0135029
281722                  0.190589        0.744122      0.000836127    -2.67512e-05         0.358117       -0.288117        0.0001002     0.000120505
                     5.20881e-05     4.58149e-05          0.19559       0.0679731      0.000292931     0.000314808         0.126379        -0.96545
                        0.357994       -0.288136       0.00109992     3.95809e-05         0.416401        0.651318     -0.000130021     0.000452008
                      1.8475e-05     0.000166658          0.12612       -0.965587     -8.69495e-05      0.00032342         0.204684      -0.0136228
281724                  0.192343        0.742985      0.000834602    -3.04433e-05         0.359459       -0.289579      0.000106214     0.000123815
                     5.23056e-05      4.4826e-05         0.195576        0.067963      0.000277771     0.000283254         0.126076       -0.965492
                        0.359338       -0.289604       0.00109844     3.56105e-05         0.417856        0.649569     -0.000122997     0.000463373
                     1.89067e-05     0.000166971         0.125815       -0.965633     -0.000160976      0.00033242         0.204659      -0.0137427
281726                  0.194085        0.741845      0.000832702    -3.40693e-05         0.360786       -0.291043      0.000112631     0.000126287
                     5.25092e-05     4.38585e-05         0.195563       0.0679528      0.000268361     0.000270202         0.125772       -0.965533
                        0.360669       -0.291076       0.00109631     3.17931e-05         0.419296        0.647821     -0.000112715     0.000472497
                     1.90805e-05     0.000167683         0.125509       -0.965679     -0.000187509     0.000371522         0.204634      -0.0138625
281728                  0.195813        0.740701      0.000830426    -3.76261e-05         0.362099       -0.292509      0.000119366     0.000127944
                     5.27001e-05      4.2911e-05         0.195549       0.0679427       0.00026236     0.000262393         0.125468       -0.965575
                        0.361986       -0.292549       0.00109354     2.81331e-05         0.420722        0.646073     -9.95043e-05     0.000478482
                     1.88029e-05     0.000168863         0.125203       -0.965725     -0.000190217      0.00039949          0.20461      -0.0139824
281730                  0.197529        0.739553      0.000827775    -4.11107e-05         0.363398       -0.293977      0.000126344     0.000128795
                     5.28792e-05     4.19827e-05         0.195536       0.0679325      0.000258116     0.000256689         0.125164       -0.965617
                         0.36329       -0.294025       0.00109016     2.46336e-05         0.422133        0.644326     -8.40596e-05     0.000480538
                      1.7754e-05     0.000170517         0.124898        -0.96577     -0.000186726     0.000417412         0.204585      -0.0141023
281732                  0.199232        0.738402       0.00082475     -4.4521e-05         0.364682       -0.295447      0.000133491     0.000128838
                     5.30472e-05     4.10722e-05         0.195522       0.0679223      0.000254841      0.00025203          0.12486       -0.965659
                        0.364582       -0.295503       0.00108616     2.12956e-05          0.42353        0.642579     -6.73901e-05     0.000478154
                     1.54569e-05     0.000172461         0.124592       -0.965815     -0.000181949      0.00042961         0.204559      -0.0142222
281734                  0.200923        0.737247      0.000821354    -4.78555e-05         0.365952       -0.296918      0.000140732     0.000128065
                     5.32047e-05     4.01785e-05         0.195509       0.0679121      0.000252124      0.00024797         0.124556         -0.9657
                         0.36586       -0.296982       0.00108156     1.81188e-05         0.424914        0.640832     -5.06769e-05     0.000471228
                     1.13783e-05     0.000174078         0.124286       -0.965859      -0.00017708     0.000438584         0.204534       -0.014342
281736                  0.202601        0.736089       0.00081759    -5.11136e-05         0.367208       -0.298391      0.000147984     0.000126466
                     5.33521e-05     3.93007e-05         0.195495       0.0679019      0.000249733     0.000244297         0.124252       -0.965741
                        0.367124       -0.298464       0.00107638     1.51011e-05         0.426283        0.639086     -3.50725e-05     0.000460106
                     5.39675e-06     0.000174106         0.123981       -0.965904      -0.00017235     0.000445644         0.204509      -0.0144619
281738                  0.204267        0.734927      0.000813463    -5.42954e-05         0.368449       -0.299866       0.00015516     0.000124029
                     5.34895e-05     3.84377e-05         0.195481       0.0678917      0.000247527       0.0002409         0.123948       -0.965783
                        0.368376       -0.299947       0.00107064     1.22384e-05         0.427638        0.637341     -2.15108e-05     0.000445509
                    -1.38945e-06     0.000171103         0.123676       -0.965948     -0.000167731     0.000451499         0.204484      -0.0145817
281740                   0.20592        0.733763      0.000808979    -5.74024e-05         0.369677       -0.301342      0.000162165     0.000120748
                     5.36167e-05     3.75889e-05         0.195468       0.0678814      0.000245408     0.000237721         0.123644       -0.965824
                        0.369615       -0.301431       0.00106436     9.52491e-06         0.428979        0.635596     -1.05888e-05     0.000428382
                    -6.72379e-06     0.000164916          0.12337       -0.965992     -0.000163123     0.000456538         0.204459      -0.0147015
281742                  0.207561        0.732595      0.000804145    -6.04372e-05          0.37089       -0.302819      0.000168892     0.000116622
                     5.37336e-05     3.67534e-05         0.195454       0.0678711       0.00024331     0.000234735          0.12334       -0.965865
                        0.370841       -0.302916       0.00105755     6.95267e-06         0.430307        0.633852     -2.54479e-06     0.000409721
                    -9.03315e-06     0.000157296         0.123065       -0.966035     -0.000158414     0.000460976         0.204433      -0.0148213
281744                   0.20919        0.731424      0.000798969    -6.34039e-05         0.372088       -0.304298      0.000175231     0.000111657
                     5.38392e-05     3.59307e-05         0.195441       0.0678608      0.000241183     0.000231934         0.123035       -0.965906
                        0.372054       -0.304403       0.00105023     4.51157e-06          0.43162        0.632109      2.68424e-06     0.000390431
                    -8.62554e-06     0.000150246          0.12276       -0.966079     -0.000153491     0.000464907         0.204408      -0.0149411
281746                  0.210807        0.730251      0.000793458    -6.63089e-05         0.373272       -0.305779      0.000181063     0.000105871
                     5.39326e-05     3.51205e-05         0.195427       0.0678504      0.000238989     0.000229331         0.122731       -0.965947
                        0.373254        -0.30589       0.00104242     2.18917e-06         0.432919        0.630366       5.3652e-06     0.000371246
                    -6.71375e-06     0.000144632         0.122454       -0.966122     -0.000148251     0.000468344         0.204382      -0.0150608
281748                  0.212411        0.729075      0.000787623    -6.91612e-05         0.374439       -0.307262      0.000186264     9.92946e-05
                      5.4012e-05     3.43226e-05         0.195413       0.0678401      0.000236703      0.00022695         0.122427       -0.965988
                        0.374441       -0.307378       0.00103413    -2.93369e-08         0.434204        0.628625      5.86859e-06     0.000352706
                    -4.28313e-06     0.000140399         0.122149       -0.966164     -0.000142609     0.000471223         0.204356      -0.0151806
281750                  0.214004        0.727897      0.000781471    -7.19732e-05         0.375588        -0.30875       0.00019071     9.19675e-05
                      5.4075e-05     3.35374e-05           0.1954       0.0678297      0.000234309     0.000224832         0.122123       -0.966029
                        0.375615       -0.308867       0.00102537    -2.16099e-06         0.435473        0.626885      4.58765e-06     0.000335171
                    -1.84732e-06     0.000137191         0.121844       -0.966207     -0.000136515     0.000473407          0.20433      -0.0153003
281752                  0.215584        0.726716      0.000775009    -7.47623e-05         0.376717       -0.310246      0.000194276     8.39408e-05
                     5.41182e-05     3.27658e-05         0.195386       0.0678193      0.000231811     0.000223029         0.121818        -0.96607
                        0.376777       -0.310357       0.00101615    -4.22431e-06         0.436726        0.625147      1.88335e-06     0.000318857
                     3.94905e-07     0.000134668         0.121539       -0.966249     -0.000129988     0.000474696         0.204304        -0.01542
281754                  0.217152        0.725534      0.000768241    -7.75521e-05         0.377823       -0.311763       0.00019684     7.52714e-05
                     5.41364e-05     3.20096e-05         0.195372       0.0678088      0.000229233     0.000221607         0.121514        -0.96611
                        0.377925       -0.311846       0.00100645    -6.23716e-06         0.437958        0.623409     -1.94808e-06     0.000303871
                     2.39784e-06     0.000132578         0.121235       -0.966291     -0.000123151     0.000474842         0.204278      -0.0155397
281756                  0.218709        0.724349      0.000761159    -8.03741e-05         0.378923       -0.313337      0.000198285     6.60173e-05
                      5.4122e-05     3.12721e-05         0.195358       0.0677983      0.000226628     0.000220635          0.12121       -0.966151
                        0.379061       -0.313336      0.000996255    -8.21177e-06         0.439164        0.621671     -6.69249e-06     0.000290248
                     4.17846e-06     0.000130747          0.12093       -0.966332     -0.000116273     0.000473608         0.204252      -0.0156593
281758                  0.220254        0.723163       0.00075374    -8.32675e-05         0.380135       -0.314956        0.0001985     5.62282e-05
                     5.40628e-05     3.05591e-05         0.195344       0.0677878       0.00022409     0.000220177         0.120906       -0.966191
                        0.380184       -0.314826      0.000985516    -1.01439e-05         0.440327        0.619922     -1.22281e-05     0.000277971
                     5.77581e-06     0.000129048         0.120625       -0.966374     -0.000109785     0.000470844         0.204226       -0.015779
281760                  0.221786        0.721976      0.000745924    -8.62741e-05         0.381402       -0.316397      0.000197386     4.59331e-05
                     5.39388e-05     2.98814e-05         0.195331       0.0677772      0.000221754     0.000220272         0.120602       -0.966232
                        0.381295       -0.316316      0.000974165    -1.19919e-05         0.441419        0.618087      -1.8535e-05      0.00026698
                     7.23532e-06     0.000127379         0.120321       -0.966415     -0.000104232     0.000466607         0.204199      -0.0158987
281762                  0.223307         0.72079      0.000737599    -8.94149e-05         0.382527       -0.317791      0.000194855     3.51232e-05
                     5.37144e-05     2.92603e-05         0.195317       0.0677666      0.000219787     0.000220908         0.120299       -0.966272
                        0.382393       -0.317806      0.000962125    -1.36441e-05         0.442726        0.616039     -2.57089e-05     0.000257167
