! TOUCHSTONE file generated by CST MICROWAVE STUDIO
! Date and time: Wed Oct 15 17:34:01 2025
! Project name: Teste_Macro_Metasurface_Nanopilar.cst
! Parameters = {H=600; L_x=175; L_y=190; Lambda=1064; Max_L=200; Min_L=70; PathPara=1; Phi=0; Step_L=10; Theta=0; p=520; phaseX=180; phaseY=0}
! Header version: 2018
! Port assignment regex: !\s*Touchstone port\s*([0-9]+)\s*=\s*(CST MWS port|CST DS port)\s*([0-9]+|Zmin|Zmax)\s*\(\"(.*)\"\)(\s*mode\s*([0-9]+))?.*
! Touchstone port assignment:
! Touchstone port 1 = CST MWS port Zmax ("") mode 1
! Touchstone port 2 = CST MWS port Zmax ("") mode 2
! Touchstone port 3 = CST MWS port Zmin ("") mode 1
! Touchstone port 4 = CST MWS port Zmin ("") mode 2
! S-Parameters are not renormalized. Each port impedance will be approximated by the real part at minimum frequency. The values are described via the [Reference] keyword.
! Default impedance is overridden by [Reference]
[Version] 2.0
# GHz S RI R 376.73
[Number of Ports] 4
[Reference]
376.73 376.73 259.888 259.888 
[Number of Frequencies] 51
[Network Data]
281700                  0.194187       0.0682174     -0.000516706     -7.1748e-05       0.00841025       -0.972623      0.000235767    -1.94816e-05
                    -0.000445297    -0.000105772         0.305329         0.17214      0.000273493    -0.000182648         0.329369       -0.872094
                      0.00819369       -0.972662      0.000253081     -0.00027845         0.194052      -0.0605809     -0.000466373     0.000144078
                     0.000226624    -2.77687e-05          0.32982       -0.872798     -0.000417036     0.000188824         0.341279       0.0735728
281702                  0.194153       0.0682023     -0.000516975    -7.18084e-05       0.00808018       -0.972631      0.000235783    -1.95009e-05
                    -0.000445194    -0.000105872         0.305334         0.17211      0.000273388    -0.000182572         0.329107       -0.872198
                      0.00786403        -0.97267      0.000253662     -0.00027871         0.193976      -0.0606936     -0.000466186     0.000144269
                     0.000226879    -2.76518e-05         0.329558         -0.8729     -0.000416918     0.000189003         0.341308       0.0733905
281704                  0.194118       0.0681871     -0.000517241    -7.18696e-05       0.00775005        -0.97264      0.000235798    -1.95203e-05
                    -0.000445092    -0.000105972          0.30534         0.17208      0.000273282    -0.000182495         0.328845       -0.872302
                      0.00753433       -0.972677      0.000254241    -0.000278967           0.1939      -0.0608063     -0.000465999     0.000144459
                     0.000227133    -2.75352e-05         0.329297       -0.873001     -0.000416799     0.000189182         0.341337       0.0732081
281706                  0.194084        0.068172     -0.000517505    -7.19314e-05       0.00741987       -0.972648      0.000235815    -1.95397e-05
                     -0.00044499    -0.000106072         0.305346         0.17205      0.000273177    -0.000182419         0.328583       -0.872406
                      0.00720457       -0.972685      0.000254817    -0.000279222         0.193824      -0.0609188     -0.000465811     0.000144649
                     0.000227388    -2.74188e-05         0.329035       -0.873103     -0.000416682      0.00018936         0.341366       0.0730258
281708                   0.19405       0.0681568     -0.000517768     -7.1994e-05       0.00708964       -0.972657      0.000235831    -1.95592e-05
                    -0.000444889    -0.000106173         0.305351         0.17202      0.000273073    -0.000182342          0.32832        -0.87251
                      0.00687476       -0.972692      0.000255391    -0.000279475         0.193748      -0.0610314     -0.000465623     0.000144839
                     0.000227641    -2.73026e-05         0.328774       -0.873205     -0.000416565     0.000189538         0.341395       0.0728435
281710                  0.194015       0.0681416     -0.000518028    -7.20573e-05       0.00675936       -0.972665      0.000235847    -1.95787e-05
                    -0.000444789    -0.000106274         0.305357         0.17199      0.000272969    -0.000182266         0.328058       -0.872614
                       0.0065449       -0.972699      0.000255963    -0.000279726         0.193672      -0.0611438     -0.000465434     0.000145028
                     0.000227895    -2.71867e-05         0.328512       -0.873306     -0.000416449     0.000189715         0.341424       0.0726611
281712                   0.19398       0.0681265     -0.000518287    -7.21212e-05       0.00642903       -0.972673      0.000235863    -1.95982e-05
                    -0.000444688    -0.000106376         0.305363         0.17196      0.000272866     -0.00018219         0.327796       -0.872718
                      0.00621499       -0.972706      0.000256533    -0.000279974         0.193596      -0.0612562     -0.000465246     0.000145217
                     0.000228148    -2.70711e-05         0.328251       -0.873408     -0.000416334     0.000189892         0.341452       0.0724788
281714                  0.193946       0.0681113     -0.000518543    -7.21858e-05       0.00609865       -0.972681       0.00023588    -1.96178e-05
                    -0.000444589    -0.000106478         0.305368         0.17193      0.000272764    -0.000182114         0.327534       -0.872821
                      0.00588503       -0.972713        0.0002571    -0.000280221         0.193519      -0.0613686     -0.000465057     0.000145406
                     0.000228401    -2.69556e-05         0.327989       -0.873509     -0.000416219     0.000190068         0.341481       0.0722965
281716                  0.193911       0.0680961     -0.000518798    -7.22511e-05       0.00576821       -0.972689      0.000235897    -1.96374e-05
                    -0.000444489    -0.000106581         0.305374          0.1719      0.000272661    -0.000182038         0.327272       -0.872925
                      0.00555501        -0.97272      0.000257665    -0.000280464         0.193443      -0.0614809     -0.000464867     0.000145594
                     0.000228653    -2.68405e-05         0.327728        -0.87361     -0.000416105     0.000190244          0.34151       0.0721141
281718                  0.193877       0.0680809     -0.000519051    -7.23171e-05       0.00543773       -0.972697      0.000235914    -1.96571e-05
                    -0.000444391    -0.000106683          0.30538         0.17187       0.00027256    -0.000181963          0.32701       -0.873028
                      0.00522495       -0.972727      0.000258228    -0.000280706         0.193366      -0.0615931     -0.000464677     0.000145782
                     0.000228905    -2.67255e-05         0.327466       -0.873711     -0.000415992      0.00019042         0.341538       0.0719318
281720                  0.193842       0.0680658     -0.000519301    -7.23837e-05       0.00510719       -0.972705      0.000235931    -1.96768e-05
                    -0.000444292    -0.000106787         0.305385        0.171841      0.000272459    -0.000181887         0.326748       -0.873132
                      0.00489483       -0.972733      0.000258789    -0.000280945         0.193289      -0.0617052     -0.000464487      0.00014597
                     0.000229157    -2.66108e-05         0.327205       -0.873812     -0.000415879     0.000190594         0.341567       0.0717494
281722                  0.193807       0.0680506     -0.000519549    -7.24509e-05       0.00477661       -0.972713      0.000235948    -1.96965e-05
                    -0.000444194     -0.00010689         0.305391        0.171811      0.000272358    -0.000181812         0.326485       -0.873235
                      0.00456466        -0.97274      0.000259348    -0.000281182         0.193212      -0.0618173     -0.000464297     0.000146158
                     0.000229408    -2.64963e-05         0.326943       -0.873913     -0.000415767     0.000190769         0.341595       0.0715671
281724                  0.193772       0.0680354     -0.000519796    -7.25187e-05       0.00444597        -0.97272      0.000235965    -1.97162e-05
                    -0.000444097    -0.000106994         0.305397        0.171781      0.000272258    -0.000181736         0.326223       -0.873338
                      0.00423444       -0.972746      0.000259904    -0.000281416         0.193135      -0.0619293     -0.000464106     0.000146346
                     0.000229658    -2.63821e-05         0.326681       -0.874014     -0.000415656     0.000190943         0.341623       0.0713848
281726                  0.193737       0.0680202      -0.00052004    -7.25872e-05       0.00411528       -0.972728      0.000235983     -1.9736e-05
                       -0.000444    -0.000107098         0.305403        0.171751      0.000272159    -0.000181661         0.325961       -0.873441
                      0.00390416       -0.972753      0.000260458    -0.000281648         0.193058      -0.0620412     -0.000463915     0.000146534
                     0.000229908     -2.6268e-05         0.326419       -0.874115     -0.000415545     0.000191116         0.341651       0.0712024
281728                  0.193702       0.0680051     -0.000520282    -7.26562e-05       0.00378454       -0.972735      0.000236001    -1.97558e-05
                    -0.000443903    -0.000107203         0.305408        0.171721       0.00027206    -0.000181586         0.325699       -0.873544
                      0.00357384       -0.972759       0.00026101    -0.000281877         0.192981      -0.0621531     -0.000463724     0.000146721
                     0.000230158    -2.61542e-05         0.326158       -0.874216     -0.000415435     0.000191289         0.341679       0.0710201
281730                  0.193667       0.0679899     -0.000520523    -7.27258e-05       0.00345375       -0.972742      0.000236019    -1.97756e-05
                    -0.000443807    -0.000107308         0.305414        0.171692      0.000271962    -0.000181511         0.325436       -0.873647
                      0.00324346       -0.972765       0.00026156    -0.000282104         0.192904       -0.062265     -0.000463532     0.000146909
                     0.000230408    -2.60406e-05         0.325896       -0.874316     -0.000415326     0.000191461         0.341707       0.0708377
281732                  0.193632       0.0679747     -0.000520761     -7.2796e-05       0.00312291       -0.972749      0.000236037    -1.97954e-05
                    -0.000443711    -0.000107414          0.30542        0.171662      0.000271864    -0.000181436         0.325174        -0.87375
                      0.00291303       -0.972771      0.000262107    -0.000282328         0.192826      -0.0623767      -0.00046334     0.000147096
                     0.000230656    -2.59272e-05         0.325634       -0.874417     -0.000415218     0.000191633         0.341735       0.0706554
281734                  0.193597       0.0679595     -0.000520997    -7.28668e-05       0.00279202       -0.972756      0.000236055    -1.98152e-05
                    -0.000443615    -0.000107519         0.305426        0.171632      0.000271766    -0.000181362         0.324912       -0.873853
                      0.00258255       -0.972777      0.000262652    -0.000282549         0.192749      -0.0624884     -0.000463148     0.000147284
                     0.000230905    -2.58139e-05         0.325372       -0.874517      -0.00041511     0.000191804         0.341763       0.0704731
281736                  0.193562       0.0679444      -0.00052123    -7.29381e-05       0.00246107       -0.972763      0.000236074    -1.98351e-05
                     -0.00044352    -0.000107625         0.305431        0.171602      0.000271669    -0.000181287         0.324649       -0.873955
                      0.00225202       -0.972783      0.000263195    -0.000282768         0.192671         -0.0626     -0.000462955     0.000147471
                     0.000231153    -2.57009e-05         0.325111       -0.874618     -0.000415003     0.000191974         0.341791       0.0702907
281738                  0.193527       0.0679292     -0.000521462      -7.301e-05       0.00213008        -0.97277      0.000236092    -1.98549e-05
                    -0.000443425    -0.000107732         0.305437        0.171573      0.000271573    -0.000181212         0.324387       -0.874058
                      0.00192143       -0.972788      0.000263736    -0.000282985         0.192593      -0.0627116     -0.000462762     0.000147659
                       0.0002314    -2.55881e-05         0.324849       -0.874718     -0.000414897     0.000192144         0.341818       0.0701084
281740                  0.193492        0.067914     -0.000521692    -7.30824e-05       0.00179903       -0.972776      0.000236111    -1.98747e-05
                    -0.000443331    -0.000107838         0.305443        0.171543      0.000271478    -0.000181138         0.324125        -0.87416
                      0.00159079       -0.972794      0.000264274    -0.000283198         0.192515      -0.0628231     -0.000462568     0.000147846
                     0.000231647    -2.54754e-05         0.324587       -0.874818     -0.000414791     0.000192314         0.341846        0.069926
281742                  0.193457       0.0678988     -0.000521919    -7.31553e-05       0.00146793       -0.972783      0.000236131    -1.98946e-05
                    -0.000443237    -0.000107946         0.305449        0.171513      0.000271383    -0.000181065         0.323862       -0.874263
                      0.00126011       -0.972799       0.00026481     -0.00028341         0.192437      -0.0629345     -0.000462374     0.000148034
                     0.000231893    -2.53629e-05         0.324325       -0.874918     -0.000414686     0.000192483         0.341874       0.0697437
281744                  0.193421       0.0678836     -0.000522144    -7.32288e-05       0.00113678       -0.972789       0.00023615    -1.99144e-05
                    -0.000443143    -0.000108053         0.305454        0.171484       0.00027129    -0.000180993           0.3236       -0.874365
                     0.000929365       -0.972805      0.000265344    -0.000283618         0.192359      -0.0630459     -0.000462179     0.000148222
                     0.000232139    -2.52506e-05         0.324063       -0.875018     -0.000414582     0.000192651         0.341901       0.0695613
281746                  0.193386       0.0678684     -0.000522367    -7.33027e-05      0.000805581       -0.972796       0.00023617    -1.99342e-05
                     -0.00044305    -0.000108161          0.30546        0.171454       0.00027119    -0.000180893         0.323338       -0.874467
                     0.000598572        -0.97281      0.000265875    -0.000283823         0.192281      -0.0631572     -0.000461984      0.00014841
                     0.000232384    -2.51385e-05         0.323801       -0.875118     -0.000414477     0.000192819         0.341928        0.069379
281748                  0.193351       0.0678533     -0.000522588    -7.33772e-05      0.000474325       -0.972802       0.00023619     -1.9954e-05
                    -0.000442957    -0.000108269         0.305466        0.171424      0.000271097    -0.000180835         0.323075       -0.874569
                     0.000267727       -0.972815      0.000266405    -0.000284026         0.192202      -0.0632684     -0.000461788     0.000148599
                     0.000232629    -2.50265e-05         0.323539       -0.875218     -0.000414373     0.000192989         0.341956       0.0691966
281750                  0.193315       0.0678381     -0.000522807    -7.34521e-05      0.000142987       -0.972808       0.00023621    -1.99737e-05
                    -0.000442864    -0.000108377         0.305472        0.171395      0.000271004    -0.000180762         0.322813       -0.874671
                    -6.31696e-05        -0.97282      0.000266932    -0.000284226         0.192124      -0.0633795     -0.000461592     0.000148787
                     0.000232873    -2.49146e-05         0.323277       -0.875318      -0.00041429      0.00019317         0.341983       0.0690143
281752                   0.19328       0.0678229     -0.000523023    -7.35275e-05     -0.000188379       -0.972814      0.000236231    -1.99934e-05
                    -0.000442772    -0.000108486         0.305478        0.171365      0.000270911    -0.000180689          0.32255       -0.874773
                    -0.000394119       -0.972825      0.000267456    -0.000284424         0.192045      -0.0634907     -0.000461395     0.000148976
                     0.000233117     -2.4803e-05         0.323015       -0.875418     -0.000414181     0.000193315          0.34201       0.0688319
281754                  0.193244       0.0678077     -0.000523237    -7.36034e-05     -0.000519716        -0.97282      0.000236251    -2.00131e-05
                     -0.00044268    -0.000108595         0.305484        0.171336      0.000270819    -0.000180615         0.322288       -0.874875
                     -0.00072512        -0.97283      0.000267979    -0.000284618         0.191966      -0.0636017     -0.000461197     0.000149165
                      0.00023336    -2.46914e-05         0.322753       -0.875517     -0.000414078      0.00019348         0.342037       0.0686496
281756                  0.193209       0.0677925     -0.000523449    -7.36797e-05      -0.00085117       -0.972826      0.000236272    -2.00327e-05
                    -0.000442588    -0.000108704         0.305489        0.171306      0.000270728    -0.000180541         0.322025       -0.874976
                     -0.00105617       -0.972835      0.000268499     -0.00028481         0.191887      -0.0637127     -0.000460999     0.000149355
                     0.000233602      -2.458e-05         0.322491       -0.875617     -0.000413977     0.000193644         0.342064       0.0684672
281758                  0.193173       0.0677773     -0.000523659    -7.37565e-05      -0.00118268       -0.972831      0.000236294    -2.00523e-05
                    -0.000442497    -0.000108814         0.305495        0.171277      0.000270636    -0.000180467         0.321763       -0.875078
                     -0.00138728       -0.972839      0.000269017    -0.000284999         0.191808      -0.0638236       -0.0004608     0.000149545
                     0.000233844    -2.44687e-05         0.322229       -0.875716     -0.000413877     0.000193807         0.342091       0.0682849
281760                  0.193137       0.0677621     -0.000523867    -7.38338e-05      -0.00151423       -0.972837      0.000236315    -2.00718e-05
                    -0.000442405    -0.000108924         0.305501        0.171247      0.000270545    -0.000180393           0.3215       -0.875179
                     -0.00171843       -0.972844      0.000269532    -0.000285185         0.191729      -0.0639344       -0.0004606     0.000149735
                     0.000234086    -2.43575e-05         0.321967       -0.875816     -0.000413779      0.00019397         0.342117       0.0681025
281762                  0.193101       0.0677469     -0.000524072    -7.39114e-05      -0.00184584       -0.972842      0.000236337    -2.00913e-05
                    -0.000442315    -0.000109034         0.305507        0.171218      0.000270455    -0.000180319         0.321238       -0.875281
                     -0.00204964       -0.972848      0.000270045    -0.000285368          0.19165      -0.0640452       -0.0004604     0.000149925
