! TOUCHSTONE file generated by CST MICROWAVE STUDIO
! Date and time: Wed Oct 15 17:28:46 2025
! Project name: Teste_Macro_Metasurface_Nanopilar.cst
! Parameters = {H=600; L_x=85; L_y=150; Lambda=1064; Max_L=200; Min_L=70; PathPara=1; Phi=0; Step_L=10; Theta=0; p=520; phaseX=180; phaseY=0}
! Header version: 2018
! Port assignment regex: !\s*Touchstone port\s*([0-9]+)\s*=\s*(CST MWS port|CST DS port)\s*([0-9]+|Zmin|Zmax)\s*\(\"(.*)\"\)(\s*mode\s*([0-9]+))?.*
! Touchstone port assignment:
! Touchstone port 1 = CST MWS port Zmax ("") mode 1
! Touchstone port 2 = CST MWS port Zmax ("") mode 2
! Touchstone port 3 = CST MWS port Zmin ("") mode 1
! Touchstone port 4 = CST MWS port Zmin ("") mode 2
! S-Parameters are not renormalized. Each port impedance will be approximated by the real part at minimum frequency. The values are described via the [Reference] keyword.
! Default impedance is overridden by [Reference]
[Version] 2.0
# GHz S RI R 376.73
[Number of Ports] 4
[Reference]
376.73 376.73 259.888 259.888 
[Number of Frequencies] 51
[Network Data]
281700                -0.0477278       0.0384424     -0.000520641    -8.10442e-05         0.678154        0.721529     -0.000185516     0.000101523
                    -0.000502038    -0.000121639       -0.0253482      -0.0275671      0.000135909    -8.77072e-05         -0.46022       -0.885718
                         0.67808        0.720565      0.000103108     0.000107545       -0.0422688       0.0477336       2.0784e-05    -0.000597389
                    -2.55193e-05     0.000142899         -0.45939       -0.885822      3.24373e-05    -0.000477617       0.00788039       0.0371248
281702                -0.0477177       0.0384807     -0.000520543    -8.08129e-05         0.678427        0.721272     -0.000185344     0.000101671
                     -0.00050201    -0.000121357       -0.0253566      -0.0275554       0.00013583    -8.77644e-05        -0.460454       -0.885597
                        0.678354        0.720307      0.000103113     0.000107679       -0.0422703       0.0477528      2.07117e-05     -0.00059721
                    -2.54928e-05     0.000142988        -0.459624       -0.885701      3.24122e-05    -0.000477539       0.00788562       0.0371208
281704                -0.0477076       0.0385189     -0.000520445    -8.05817e-05           0.6787        0.721014     -0.000185172     0.000101819
                    -0.000501982    -0.000121076        -0.025365      -0.0275437      0.000135751    -8.78216e-05        -0.460687       -0.885476
                        0.678628        0.720048      0.000103119     0.000107814       -0.0422717        0.047772      2.06396e-05     -0.00059703
                    -2.54663e-05     0.000143078        -0.459858        -0.88558       3.2387e-05    -0.000477461       0.00789085       0.0371168
281706                -0.0476974       0.0385572     -0.000520346    -8.03505e-05         0.678974        0.720756        -0.000185     0.000101967
                    -0.000501954    -0.000120794       -0.0253734      -0.0275321      0.000135672    -8.78788e-05        -0.460921       -0.885355
                        0.678901         0.71979      0.000103125     0.000107949       -0.0422732       0.0477912      2.05676e-05     -0.00059685
                    -2.54399e-05     0.000143168        -0.460092       -0.885458      3.23616e-05    -0.000477383       0.00789607       0.0371128
281708                -0.0476872       0.0385954     -0.000520247    -8.01194e-05         0.679247        0.720498     -0.000184828     0.000102115
                    -0.000501927    -0.000120513       -0.0253817      -0.0275204      0.000135593    -8.79359e-05        -0.461154       -0.885233
                        0.679175        0.719531      0.000103131     0.000108084       -0.0422746       0.0478105      2.04957e-05    -0.000596671
                    -2.54134e-05     0.000143258        -0.460326       -0.885337      3.23359e-05    -0.000477305       0.00790129       0.0371088
281710                -0.0476771       0.0386336     -0.000520148    -7.98883e-05          0.67952         0.72024     -0.000184655     0.000102263
                    -0.000501899    -0.000120231       -0.0253901      -0.0275087      0.000135514    -8.79931e-05        -0.461387       -0.885112
                        0.679448        0.719272      0.000103138     0.000108219        -0.042276       0.0478298      2.04241e-05    -0.000596491
                     -2.5387e-05     0.000143349         -0.46056       -0.885215        3.231e-05    -0.000477226       0.00790652       0.0371049
281712                -0.0476669       0.0386719     -0.000520049    -7.96573e-05         0.679793        0.719981     -0.000184483     0.000102411
                    -0.000501871    -0.000119949       -0.0253985      -0.0274971      0.000135435    -8.80503e-05        -0.461621       -0.884991
                        0.679721        0.719013      0.000103145     0.000108354       -0.0422774        0.047849      2.03525e-05    -0.000596311
                    -2.53606e-05     0.000143439        -0.460794       -0.885094       3.2284e-05    -0.000477148       0.00791173       0.0371009
281714                -0.0476567       0.0387101     -0.000519949    -7.94263e-05         0.680065        0.719723      -0.00018431     0.000102559
                    -0.000501842    -0.000119668       -0.0254068      -0.0274854      0.000135356    -8.81075e-05        -0.461854       -0.884869
                        0.679994        0.718754      0.000103151      0.00010849       -0.0422788       0.0478683      2.02811e-05    -0.000596131
                    -2.53342e-05     0.000143529        -0.461028       -0.884972      3.22577e-05    -0.000477069       0.00791695       0.0370969
281716                -0.0476465       0.0387483      -0.00051985    -7.91953e-05         0.680338        0.719465     -0.000184137     0.000102707
                    -0.000501814    -0.000119386       -0.0254152      -0.0274737      0.000135278    -8.81647e-05        -0.462087       -0.884748
                        0.680267        0.718495      0.000103158     0.000108625       -0.0422802       0.0478877      2.02099e-05    -0.000595951
                    -2.53078e-05     0.000143619        -0.461262       -0.884851      3.22312e-05    -0.000476991       0.00792217        0.037093
281718                -0.0476363       0.0387865      -0.00051975    -7.89644e-05         0.680611        0.719206     -0.000183964     0.000102855
                    -0.000501786    -0.000119105       -0.0254236       -0.027462      0.000135199    -8.82219e-05        -0.462321       -0.884626
                         0.68054        0.718236      0.000103166     0.000108761       -0.0422816        0.047907      2.01389e-05    -0.000595771
                    -2.52815e-05     0.000143709        -0.461495       -0.884729      3.22046e-05    -0.000476912       0.00792738        0.037089
281720                 -0.047626       0.0388247      -0.00051965    -7.87335e-05         0.680883        0.718947     -0.000183791     0.000103002
                    -0.000501758    -0.000118824       -0.0254319      -0.0274504      0.000135121    -8.82791e-05        -0.462554       -0.884504
                        0.680813        0.717977      0.000103173     0.000108897        -0.042283       0.0479264       2.0068e-05     -0.00059559
                    -2.52552e-05       0.0001438        -0.461729       -0.884607      3.21777e-05    -0.000476832       0.00793259       0.0370851
281722                -0.0476158       0.0388629     -0.000519549    -7.85026e-05         0.681156        0.718689     -0.000183617      0.00010315
                    -0.000501729    -0.000118542       -0.0254403      -0.0274387      0.000135042    -8.83363e-05        -0.462787       -0.884383
                        0.681086        0.717717      0.000103181     0.000109033       -0.0422843       0.0479458      1.99972e-05     -0.00059541
                    -2.52289e-05      0.00014389        -0.461963       -0.884485      3.21507e-05    -0.000476753        0.0079378       0.0370811
281724                -0.0476056       0.0389011     -0.000519449    -7.82718e-05         0.681428         0.71843     -0.000183444     0.000103298
                    -0.000501701    -0.000118261       -0.0254486       -0.027427      0.000134964    -8.83936e-05         -0.46302       -0.884261
                        0.681358        0.717458      0.000103189     0.000109169       -0.0422857       0.0479652      1.99266e-05    -0.000595229
                    -2.52026e-05     0.000143981        -0.462197       -0.884363      3.21234e-05    -0.000476674       0.00794301       0.0370771
281726                -0.0475953       0.0389393     -0.000519348     -7.8041e-05           0.6817        0.718171      -0.00018327     0.000103446
                    -0.000501672     -0.00011798        -0.025457      -0.0274153      0.000134886    -8.84508e-05        -0.463253       -0.884139
                        0.681631        0.717198      0.000103198     0.000109306        -0.042287       0.0479846      1.98562e-05    -0.000595049
                    -2.51764e-05     0.000144071         -0.46243       -0.884241       3.2096e-05    -0.000476594       0.00794821       0.0370732
281728                -0.0475851       0.0389775     -0.000519247    -7.78102e-05         0.681972        0.717912     -0.000183096     0.000103593
                    -0.000501644    -0.000117698       -0.0254654      -0.0274036      0.000134808    -8.85081e-05        -0.463486       -0.884017
                        0.681903        0.716938      0.000103206     0.000109442       -0.0422884       0.0480041       1.9786e-05    -0.000594868
                    -2.51502e-05     0.000144162        -0.462664       -0.884119      3.20684e-05    -0.000476515       0.00795342       0.0370693
281730                -0.0475748       0.0390156     -0.000519145    -7.75794e-05         0.682244        0.717652     -0.000182922     0.000103741
                    -0.000501615    -0.000117417       -0.0254737       -0.027392       0.00013473    -8.85653e-05         -0.46372       -0.883895
                        0.682175        0.716679      0.000103215     0.000109579       -0.0422897       0.0480235      1.97159e-05    -0.000594687
                     -2.5124e-05     0.000144252        -0.462898       -0.883997      3.20406e-05    -0.000476435       0.00795862       0.0370653
281732                -0.0475645       0.0390538     -0.000519043    -7.73487e-05         0.682516        0.717393     -0.000182748     0.000103889
                    -0.000501586    -0.000117136       -0.0254821      -0.0273803      0.000134651    -8.86226e-05        -0.463953       -0.883773
                        0.682447        0.716419      0.000103225     0.000109716        -0.042291        0.048043       1.9646e-05    -0.000594506
                    -2.50978e-05     0.000144343        -0.463131       -0.883874      3.20126e-05    -0.000476355       0.00796382       0.0370614
281734                -0.0475543        0.039092     -0.000518941     -7.7118e-05         0.682788        0.717134     -0.000182573     0.000104036
                    -0.000501557    -0.000116855       -0.0254904      -0.0273686      0.000134574    -8.86799e-05        -0.464186       -0.883651
                        0.682719        0.716159      0.000103234     0.000109852       -0.0422923       0.0480625      1.95763e-05    -0.000594325
                    -2.50717e-05     0.000144433        -0.463365       -0.883752      3.19845e-05    -0.000476275       0.00796901       0.0370574
281736                 -0.047544       0.0391301     -0.000518839    -7.68873e-05         0.683059        0.716874     -0.000182399     0.000104184
                    -0.000501529    -0.000116574       -0.0254988      -0.0273569      0.000134496    -8.87373e-05        -0.464419       -0.883529
                        0.682991        0.715899      0.000103244     0.000109989       -0.0422936       0.0480821      1.95068e-05    -0.000594144
                    -2.50456e-05     0.000144524        -0.463599        -0.88363      3.19561e-05    -0.000476195       0.00797421       0.0370535
281738                -0.0475337       0.0391683     -0.000518736    -7.66566e-05         0.683331        0.716615     -0.000182224     0.000104332
                      -0.0005015    -0.000116293       -0.0255071      -0.0273452      0.000134418    -8.87946e-05        -0.464652       -0.883407
                        0.683263        0.715638      0.000103254     0.000110126       -0.0422949       0.0481016      1.94374e-05    -0.000593962
                    -2.50196e-05     0.000144614        -0.463832       -0.883507      3.19276e-05    -0.000476114        0.0079794       0.0370496
281740                -0.0475234       0.0392064     -0.000518633    -7.64259e-05         0.683602        0.716355     -0.000182049     0.000104479
                    -0.000501471    -0.000116011       -0.0255154      -0.0273335       0.00013434     -8.8852e-05        -0.464884       -0.883284
                        0.683535        0.715378      0.000103265     0.000110263       -0.0422962       0.0481212      1.93682e-05    -0.000593781
                    -2.49935e-05     0.000144705        -0.464066       -0.883385      3.18989e-05    -0.000476034        0.0079846       0.0370456
281742                -0.0475131       0.0392446     -0.000518529    -7.61953e-05         0.683874        0.716095     -0.000181874     0.000104627
                    -0.000501441     -0.00011573       -0.0255238      -0.0273218      0.000134262    -8.89095e-05        -0.465117       -0.883162
                        0.683807        0.715118      0.000103276       0.0001104       -0.0422974       0.0481408      1.92992e-05    -0.000593599
                    -2.49675e-05     0.000144796        -0.464299       -0.883262        3.187e-05    -0.000475953       0.00798979       0.0370417
281744                -0.0475027       0.0392827     -0.000518425    -7.59646e-05         0.684145        0.715836     -0.000181699     0.000104775
                    -0.000501412    -0.000115449       -0.0255321      -0.0273101      0.000134185     -8.8967e-05         -0.46535        -0.88304
                        0.684078        0.714857      0.000103287     0.000110538       -0.0422987       0.0481604      1.92304e-05    -0.000593418
                    -2.49416e-05     0.000144886        -0.464532        -0.88314      3.18408e-05    -0.000475872       0.00799497       0.0370378
281746                -0.0474924       0.0393208     -0.000518321     -7.5734e-05         0.684416        0.715576     -0.000181524     0.000104923
                    -0.000501383    -0.000115168       -0.0255405      -0.0272984      0.000134108    -8.90246e-05        -0.465583       -0.882917
                         0.68435        0.714597      0.000103299     0.000110675       -0.0422999       0.0481801      1.91618e-05    -0.000593236
                    -2.49157e-05     0.000144977        -0.464766       -0.883017      3.18113e-05    -0.000475791       0.00800016       0.0370338
281748                -0.0474821        0.039359     -0.000518216    -7.55035e-05         0.684687        0.715316     -0.000181348      0.00010507
                    -0.000501354    -0.000114887       -0.0255488      -0.0272867      0.000134031    -8.90825e-05        -0.465816       -0.882795
                        0.684621        0.714336      0.000103311     0.000110812       -0.0423011       0.0481997      1.90933e-05    -0.000593054
                    -2.48899e-05     0.000145067        -0.464999       -0.882894      3.17812e-05    -0.000475709       0.00800534       0.0370299
281750                -0.0474717       0.0393971     -0.000518111     -7.5273e-05         0.684958        0.715056     -0.000181173     0.000105218
                    -0.000501324    -0.000114607       -0.0255571       -0.027275      0.000133957    -8.91421e-05        -0.466049       -0.882672
                        0.684892        0.714075      0.000103324     0.000110949       -0.0423023       0.0482194      1.90251e-05    -0.000592872
                    -2.48642e-05     0.000145158        -0.465233       -0.882772      3.17474e-05    -0.000475625       0.00801053        0.037026
281752                -0.0474614       0.0394352     -0.000518006    -7.50425e-05         0.685229        0.714795     -0.000180997     0.000105366
                    -0.000501295    -0.000114326       -0.0255655      -0.0272633      0.000133868    -8.91921e-05        -0.466281       -0.882549
                        0.685163        0.713814      0.000103336     0.000111087       -0.0423036       0.0482391      1.89571e-05     -0.00059269
                    -2.48386e-05     0.000145249        -0.465466       -0.882649       3.1731e-05    -0.000475552       0.00801571       0.0370221
281754                 -0.047451       0.0394733     -0.000517899     -7.4812e-05         0.685499        0.714535     -0.000180821     0.000105514
                    -0.000501265    -0.000114045       -0.0255738      -0.0272516      0.000133794    -8.92525e-05        -0.466514       -0.882427
                        0.685434        0.713554       0.00010335     0.000111224       -0.0423048       0.0482588      1.88892e-05    -0.000592508
                    -2.48133e-05     0.000145339        -0.465699       -0.882526      3.16969e-05    -0.000475467       0.00802089       0.0370182
281756                -0.0474406       0.0395114     -0.000517793    -7.45816e-05          0.68577        0.714275     -0.000180645     0.000105662
                    -0.000501235    -0.000113764       -0.0255821      -0.0272399      0.000133718    -8.93105e-05        -0.466747       -0.882304
                        0.685705        0.713292      0.000103364     0.000111361       -0.0423059       0.0482785      1.88216e-05    -0.000592325
                    -2.47885e-05      0.00014543        -0.465932       -0.882403      3.16661e-05    -0.000475385       0.00802606       0.0370143
281758                -0.0474302       0.0395495     -0.000517685    -7.43513e-05          0.68604        0.714014     -0.000180468      0.00010581
                    -0.000501206    -0.000113484       -0.0255905      -0.0272282      0.000133641    -8.93683e-05        -0.466979       -0.882181
                        0.685976        0.713031      0.000103378     0.000111498       -0.0423071       0.0482983      1.87541e-05    -0.000592143
                    -2.47652e-05     0.000145522        -0.466166        -0.88228      3.16358e-05    -0.000475303       0.00803124       0.0370104
281760                -0.0474198       0.0395876     -0.000517578     -7.4121e-05         0.686311        0.713753     -0.000180292     0.000105958
                    -0.000501177    -0.000113204       -0.0255988      -0.0272165      0.000133564     -8.9426e-05        -0.467212       -0.882058
                        0.686247         0.71277      0.000103393     0.000111635       -0.0423083       0.0483181      1.86868e-05     -0.00059196
                    -2.47481e-05     0.000145614        -0.466399       -0.882157      3.16054e-05     -0.00047522       0.00803641       0.0370065
281762                -0.0474095       0.0396257     -0.000517469    -7.38908e-05         0.686581        0.713493     -0.000180115     0.000106106
                    -0.000501139    -0.000112936       -0.0256071      -0.0272048      0.000133487    -8.94837e-05        -0.467445       -0.881935
                        0.686517        0.712509      0.000103408     0.000111772       -0.0423094       0.0483379      1.86196e-05    -0.000591777
