! TOUCHSTONE file generated by CST MICROWAVE STUDIO
! Date and time: Wed Oct 15 17:34:17 2025
! Project name: Teste_Macro_Metasurface_Nanopilar.cst
! Parameters = {H=600; L_x=180; L_y=180; Lambda=1064; Max_L=200; Min_L=70; PathPara=1; Phi=0; Step_L=10; Theta=0; p=520; phaseX=180; phaseY=0}
! Header version: 2018
! Port assignment regex: !\s*Touchstone port\s*([0-9]+)\s*=\s*(CST MWS port|CST DS port)\s*([0-9]+|Zmin|Zmax)\s*\(\"(.*)\"\)(\s*mode\s*([0-9]+))?.*
! Touchstone port assignment:
! Touchstone port 1 = CST MWS port Zmax ("") mode 1
! Touchstone port 2 = CST MWS port Zmax ("") mode 2
! Touchstone port 3 = CST MWS port Zmin ("") mode 1
! Touchstone port 4 = CST MWS port Zmin ("") mode 2
! S-Parameters are not renormalized. Each port impedance will be approximated by the real part at minimum frequency. The values are described via the [Reference] keyword.
! Default impedance is overridden by [Reference]
[Version] 2.0
# GHz S RI R 376.73
[Number of Ports] 4
[Reference]
376.73 376.73 259.888 259.888 
[Number of Frequencies] 51
[Network Data]
281700                  0.118753       0.0327067      -0.00112167    -0.000974107         0.107304       -0.977537     -0.000426136    -0.000202836
                     -0.00114446    -0.000967006         0.118168       0.0342196     -0.000429955    -0.000214684         0.103561       -0.978204
                        0.107441       -0.977409     -0.000408229    -0.000199478         0.121721      0.00406156      -0.00135685     0.000700041
                    -0.000454598    -0.000203385         0.104063        -0.97722      -0.00128429     0.000620966         0.121445      0.00159441
281702                  0.118651       0.0326795      -0.00112247    -0.000974081         0.106911       -0.977586     -0.000426967     -0.00020268
                      -0.0011454    -0.000966817         0.118065       0.0341928     -0.000431486     -0.00021302         0.103167       -0.978251
                        0.107048       -0.977457     -0.000409298    -0.000199294         0.121618       0.0039837      -0.00135716     0.000700486
                    -0.000455412    -0.000203134          0.10367        -0.97727      -0.00128518     0.000624342         0.121338      0.00151682
281704                  0.118549       0.0326523      -0.00112327    -0.000974054         0.106518       -0.977634     -0.000427801    -0.000202523
                     -0.00114633    -0.000966628         0.117962        0.034166     -0.000432467    -0.000212348         0.102773       -0.978297
                        0.106655       -0.977506     -0.000410366    -0.000199113         0.121514      0.00390616      -0.00135747     0.000700933
                    -0.000456225    -0.000202883         0.103276       -0.977321      -0.00128555     0.000626172         0.121232      0.00143937
281706                  0.118446       0.0326251      -0.00112407    -0.000974026         0.106125        -0.97768     -0.000428636    -0.000202364
                     -0.00114727    -0.000966438         0.117858       0.0341393     -0.000432636    -0.000212899         0.102379       -0.978343
                        0.106262       -0.977555     -0.000411434    -0.000198935          0.12141      0.00382902      -0.00135778     0.000701384
                    -0.000457038    -0.000202632         0.102882       -0.977371      -0.00128526     0.000625829         0.121125      0.00136204
281708                  0.118344       0.0325979      -0.00112488    -0.000973996         0.105732       -0.977724     -0.000429472    -0.000202203
                     -0.00114821    -0.000966249         0.117755       0.0341125     -0.000431338    -0.000215742         0.101985       -0.978389
                        0.105868       -0.977603     -0.000412501     -0.00019876         0.121305      0.00375246      -0.00135809     0.000701837
                     -0.00045785     -0.00020238         0.102488       -0.977421      -0.00128375     0.000622046         0.121018      0.00128484
281710                  0.118241       0.0325707      -0.00112569    -0.000973964         0.105338       -0.977765     -0.000430311    -0.000202041
                     -0.00114915    -0.000966059         0.117651       0.0340858     -0.000426693    -0.000226027         0.101591       -0.978435
                        0.105474       -0.977651     -0.000413568    -0.000198588           0.1212      0.00367678       -0.0013584     0.000702293
                    -0.000458661    -0.000202128         0.102094       -0.977471      -0.00127877     0.000612065         0.120911      0.00120778
281712                  0.118139       0.0325435      -0.00112651    -0.000973931         0.104944       -0.977799     -0.000431151    -0.000201877
                     -0.00115008     -0.00096587         0.117548        0.034059     -0.000444323     -0.00029969         0.101196       -0.978481
                         0.10508       -0.977699     -0.000414634    -0.000198419         0.121095      0.00360275      -0.00135871     0.000702752
                     -0.00045947    -0.000201875           0.1017       -0.977521      -0.00125995     0.000590656         0.120804      0.00113084
281714                  0.118036       0.0325163      -0.00112732    -0.000973896         0.104548       -0.977819     -0.000431993    -0.000201712
                     -0.00115102     -0.00096568         0.117444       0.0340323     -0.000491729    -0.000184815         0.100802       -0.978526
                        0.104686       -0.977747       -0.0004157    -0.000198252         0.120988      0.00353258      -0.00135902     0.000703214
                    -0.000460278    -0.000201623         0.101305       -0.977571      -0.00118181     0.000580189         0.120696      0.00105404
281716                  0.117933        0.032489      -0.00112814    -0.000973859         0.104142       -0.977791     -0.000432837    -0.000201544
                     -0.00115196    -0.000965491          0.11734       0.0340055     -0.000466634    -0.000188886         0.100407       -0.978572
                        0.104291       -0.977795     -0.000416766    -0.000198088         0.120883      0.00347645      -0.00135934     0.000703679
                    -0.000461085     -0.00020137         0.100911        -0.97762      -0.00115306     0.000704304         0.120588     0.000977363
281718                   0.11783       0.0324618      -0.00112896    -0.000973821         0.103412       -0.977377     -0.000433683    -0.000201375
                     -0.00115289    -0.000965303         0.117236       0.0339788     -0.000460869    -0.000191624         0.100012       -0.978617
                        0.103897       -0.977843     -0.000417831    -0.000197927         0.120912      0.00343248      -0.00135966     0.000704147
                     -0.00046189    -0.000201118         0.100516        -0.97767      -0.00121931     0.000731259          0.12048      0.00090082
281720                  0.117726       0.0324346      -0.00112979    -0.000973782         0.103292       -0.978362      -0.00043453    -0.000201205
                     -0.00115382    -0.000965115         0.117131       0.0339521     -0.000458906    -0.000192943        0.0996163       -0.978662
                        0.103502        -0.97789     -0.000418896    -0.000197768         0.120711      0.00324491      -0.00135997     0.000704617
                    -0.000462693    -0.000200865          0.10012       -0.977719      -0.00124564     0.000724795         0.120372      0.00082441
281722                  0.117623       0.0324074      -0.00113062    -0.000973741         0.102957       -0.978248      -0.00043538    -0.000201033
                     -0.00115476    -0.000964928         0.117027       0.0339253     -0.000458264    -0.000193614        0.0992208       -0.978707
                        0.103107       -0.977938      -0.00041996    -0.000197611         0.120587        0.003182      -0.00136029      0.00070509
                    -0.000463494    -0.000200613        0.0997252       -0.977768      -0.00125653     0.000719432         0.120263     0.000748132
281724                  0.117519       0.0323801      -0.00113145    -0.000973698         0.102572        -0.97825     -0.000436231    -0.000200859
                     -0.00115569    -0.000964742         0.116922       0.0338986     -0.000458216    -0.000193954        0.0988252       -0.978752
                        0.102711       -0.977985     -0.000421024    -0.000197457         0.120476      0.00311116      -0.00136061     0.000705566
                    -0.000464292    -0.000200361        0.0993296       -0.977817      -0.00126191     0.000716403         0.120155     0.000671987
281726                  0.117415       0.0323529      -0.00113228    -0.000973654          0.10218       -0.978277     -0.000437084    -0.000200684
                     -0.00115662    -0.000964556         0.116817       0.0338719     -0.000458479    -0.000194109        0.0984294       -0.978797
                        0.102316       -0.978032     -0.000422088    -0.000197305         0.120367      0.00303765      -0.00136093     0.000706045
                    -0.000465088    -0.000200109        0.0989339       -0.977865       -0.0012649      0.00071491         0.120046     0.000595974
281728                  0.117311       0.0323257      -0.00113312    -0.000973608         0.101787       -0.978312     -0.000437938    -0.000200507
                     -0.00115756    -0.000964372         0.116712       0.0338452     -0.000458918    -0.000194153        0.0980334       -0.978841
                         0.10192       -0.978079     -0.000423151    -0.000197155         0.120259      0.00296306      -0.00136125     0.000706526
                    -0.000465882    -0.000199858         0.098538       -0.977914       -0.0012667     0.000714373         0.119937     0.000520096
281730                  0.117207       0.0322985      -0.00113396    -0.000973561         0.101392       -0.978352     -0.000438794    -0.000200329
                     -0.00115849    -0.000964189         0.116607       0.0338184     -0.000459466    -0.000194125        0.0976372       -0.978886
                        0.101524       -0.978126     -0.000424213    -0.000197007         0.120152      0.00288797      -0.00136158      0.00070701
                    -0.000466672    -0.000199607        0.0981418       -0.977962      -0.00126783     0.000714441         0.119827     0.000444351
281732                  0.117103       0.0322712      -0.00113481    -0.000973513         0.100998       -0.978395     -0.000439653     -0.00020015
                     -0.00115942    -0.000964008         0.116501       0.0337917     -0.000460081     -0.00019405        0.0972408        -0.97893
                        0.101128       -0.978172     -0.000425276    -0.000196861         0.120044      0.00281265       -0.0013619     0.000707497
                    -0.000467459    -0.000199356        0.0977455        -0.97801      -0.00126857     0.000714905         0.119718     0.000368741
281734                  0.116998        0.032244      -0.00113565    -0.000973463         0.100603       -0.978438     -0.000440512    -0.000199968
                     -0.00116035    -0.000963828         0.116396        0.033765     -0.000460741    -0.000193943        0.0968442       -0.978974
                        0.100731       -0.978219     -0.000426338    -0.000196718         0.119937      0.00273724      -0.00136222     0.000707987
                    -0.000468243    -0.000199106         0.097349       -0.978058      -0.00126906     0.000715633         0.119608     0.000293265
281736                  0.116893       0.0322168       -0.0011365    -0.000973411         0.100207       -0.978483     -0.000441374    -0.000199786
                     -0.00116129    -0.000963649          0.11629       0.0337383     -0.000461431    -0.000193813        0.0964474       -0.979018
                        0.100334       -0.978265     -0.000427399    -0.000196576         0.119829      0.00266181      -0.00136255     0.000708479
                    -0.000469023    -0.000198857        0.0969523       -0.978106      -0.00126939     0.000716543         0.119498     0.000217924
281738                  0.116789       0.0321896      -0.00113736    -0.000973358        0.0998118       -0.978528     -0.000442237    -0.000199601
                     -0.00116222    -0.000963472         0.116184       0.0337116      -0.00046214    -0.000193666        0.0960504       -0.979062
                       0.0999373       -0.978312     -0.000428461    -0.000196435         0.119721      0.00258641      -0.00136288     0.000708974
                      -0.0004698    -0.000198608        0.0965554       -0.978154      -0.00126962     0.000717579         0.119388     0.000142719
281740                  0.116684       0.0321624      -0.00113821    -0.000973304         0.099416       -0.978573     -0.000443103    -0.000199416
                     -0.00116315    -0.000963297         0.116078       0.0336849     -0.000462864    -0.000193507        0.0956533       -0.979106
                         0.09954       -0.978358     -0.000429522    -0.000196297         0.119613      0.00251108       -0.0013632     0.000709472
                    -0.000470572     -0.00019836        0.0961582       -0.978201      -0.00126977     0.000718703         0.119277       6.765e-05
281742                  0.116578       0.0321352      -0.00113907    -0.000973248          0.09902       -0.978618     -0.000443969    -0.000199229
                     -0.00116409    -0.000963123         0.115972       0.0336582     -0.000463596     -0.00019334        0.0952559       -0.979149
                       0.0991426       -0.978404     -0.000430582     -0.00019616         0.119505      0.00243583      -0.00136353     0.000709972
                     -0.00047134    -0.000198113        0.0957609       -0.978248      -0.00126988     0.000719891         0.119166    -7.28295e-06
281744                  0.116473        0.032108      -0.00113993    -0.000973191        0.0986238       -0.978663     -0.000444838     -0.00019904
                     -0.00116502     -0.00096295         0.115865       0.0336315     -0.000464335    -0.000193165        0.0948584       -0.979193
                       0.0987448       -0.978449     -0.000431642    -0.000196025         0.119397      0.00236067      -0.00136386     0.000710475
                    -0.000472104    -0.000197867        0.0953634       -0.978295      -0.00126996     0.000721123         0.119056    -8.20792e-05
281746                  0.116367       0.0320808       -0.0011408    -0.000973132        0.0982274       -0.978708     -0.000445708     -0.00019885
                     -0.00116596    -0.000962779         0.115759       0.0336048     -0.000465078    -0.000192984        0.0944607       -0.979236
                       0.0983469       -0.978495     -0.000432702    -0.000195891         0.119288      0.00228563      -0.00136419     0.000710981
                    -0.000472863    -0.000197622        0.0949657       -0.978342      -0.00127002     0.000722387         0.118944    -0.000156738
281748                  0.116262       0.0320536      -0.00114166    -0.000973072        0.0978308       -0.978754     -0.000446581    -0.000198659
                     -0.00116689    -0.000962608         0.115652       0.0335782     -0.000465823      -0.0001928        0.0940628       -0.979279
                       0.0979487        -0.97854     -0.000433762    -0.000195759         0.119179      0.00221069      -0.00136452     0.000711489
                    -0.000473619    -0.000197378        0.0945678       -0.978389      -0.00127006     0.000723673         0.118833     -0.00023126
281750                  0.116156       0.0320264      -0.00114253    -0.000973011         0.097434       -0.978799     -0.000447454    -0.000198466
                     -0.00116783    -0.000962438         0.115545       0.0335515      -0.00046657    -0.000192611        0.0936647       -0.979322
                       0.0975502       -0.978586     -0.000434822    -0.000195628          0.11907      0.00213588      -0.00136485        0.000712
                     -0.00047437    -0.000197135        0.0941697       -0.978435       -0.0012701     0.000724975         0.118721    -0.000305644
281752                   0.11605       0.0319992      -0.00114341    -0.000972948         0.097037       -0.978844      -0.00044833    -0.000198272
                     -0.00116877    -0.000962267         0.115438       0.0335248     -0.000467318     -0.00019242        0.0932664       -0.979365
                       0.0971516       -0.978631     -0.000435881    -0.000195498         0.118961      0.00206119      -0.00136518     0.000712513
                    -0.000475117    -0.000196894        0.0937714       -0.978482      -0.00127014     0.000726288          0.11861    -0.000379889
281754                  0.115943        0.031972      -0.00114428    -0.000972884        0.0966399       -0.978889     -0.000449207    -0.000198076
                      -0.0011697    -0.000962096          0.11533       0.0334982     -0.000468066    -0.000192226        0.0928679       -0.979407
                       0.0967527       -0.978676      -0.00043694     -0.00019537         0.118851      0.00198663      -0.00136551     0.000713029
                    -0.000475862    -0.000196655        0.0933729       -0.978528      -0.00127018     0.000727608         0.118498    -0.000453996
281756                  0.115837       0.0319448      -0.00114516    -0.000972819        0.0962425       -0.978934     -0.000450086    -0.000197879
                     -0.00117064    -0.000961922         0.115223       0.0334715     -0.000468813     -0.00019203        0.0924692        -0.97945
                       0.0963536       -0.978721     -0.000437999    -0.000195243         0.118742       0.0019122      -0.00136584     0.000713548
                    -0.000476605    -0.000196419        0.0929742       -0.978574      -0.00127022     0.000728932         0.118385    -0.000527963
281758                   0.11573       0.0319176      -0.00114604    -0.000972752        0.0958449       -0.978979     -0.000450967    -0.000197681
                     -0.00117156    -0.000961744         0.115115       0.0334448     -0.000469561    -0.000191832        0.0920703       -0.979492
                       0.0959544       -0.978766     -0.000439057    -0.000195118         0.118632       0.0018379      -0.00136618     0.000714069
                    -0.000477347    -0.000196188        0.0925753        -0.97862      -0.00127027     0.000730259         0.118273    -0.000601791
281760                  0.115624       0.0318904      -0.00114693    -0.000972684        0.0954472       -0.979023      -0.00045185    -0.000197481
                     -0.00117248     -0.00096156         0.115007       0.0334182     -0.000470307    -0.000191632        0.0916712       -0.979534
                        0.095555        -0.97881     -0.000440115    -0.000194993         0.118521      0.00176373      -0.00136651     0.000714593
                    -0.000478093    -0.000195966        0.0921762       -0.978665      -0.00127032     0.000731586          0.11816    -0.000675479
281762                  0.115517       0.0318631      -0.00114781    -0.000972615        0.0950493       -0.979068     -0.000452734     -0.00019728
                     -0.00117339    -0.000961364         0.114899       0.0333915     -0.000471054     -0.00019143        0.0912719       -0.979576
                       0.0951556       -0.978855     -0.000441174    -0.000194869         0.118411       0.0016897      -0.00136684     0.000715119
