! TOUCHSTONE file generated by CST MICROWAVE STUDIO
! Date and time: Wed Oct 15 17:33:45 2025
! Project name: Teste_Macro_Metasurface_Nanopilar.cst
! Parameters = {H=600; L_x=170; L_y=200; Lambda=1064; Max_L=200; Min_L=70; PathPara=1; Phi=0; Step_L=10; Theta=0; p=520; phaseX=180; phaseY=0}
! Header version: 2018
! Port assignment regex: !\s*Touchstone port\s*([0-9]+)\s*=\s*(CST MWS port|CST DS port)\s*([0-9]+|Zmin|Zmax)\s*\(\"(.*)\"\)(\s*mode\s*([0-9]+))?.*
! Touchstone port assignment:
! Touchstone port 1 = CST MWS port Zmax ("") mode 1
! Touchstone port 2 = CST MWS port Zmax ("") mode 2
! Touchstone port 3 = CST MWS port Zmin ("") mode 1
! Touchstone port 4 = CST MWS port Zmin ("") mode 2
! S-Parameters are not renormalized. Each port impedance will be approximated by the real part at minimum frequency. The values are described via the [Reference] keyword.
! Default impedance is overridden by [Reference]
[Version] 2.0
# GHz S RI R 376.73
[Number of Ports] 4
[Reference]
376.73 376.73 259.888 259.888 
[Number of Frequencies] 51
[Network Data]
281700                  0.261052       0.0860364      7.08771e-05     0.000449178       -0.0904228       -0.952477      0.000418544     0.000146983
                    -2.93686e-05     0.000435956         0.263155        0.130074      0.000458629     0.000110822         0.320408       -0.897475
                      -0.0903898       -0.952418      0.000350886     0.000166874         0.238518       -0.131895      0.000282773    -0.000154579
                     0.000400869    -5.18472e-05         0.320569       -0.897337       0.00020972    -0.000113844         0.284794        0.064813
281702                  0.261047       0.0860236      7.10833e-05     0.000449174       -0.0907228       -0.952452      0.000418144     0.000146576
                    -2.88837e-05     0.000436134         0.263169        0.130067      0.000458376     0.000110496         0.320157       -0.897563
                      -0.0906881       -0.952387       0.00035096      0.00016684         0.238433       -0.132031      0.000283173     -0.00015372
                     0.000401106    -5.14028e-05         0.320318       -0.897425      0.000209988     -0.00011408         0.284839       0.0646695
281704                  0.261041       0.0860108      7.12894e-05      0.00044917       -0.0910227       -0.952426      0.000417747     0.000146171
                       -2.84e-05     0.000436314         0.263183         0.13006      0.000458118     0.000110169         0.319907       -0.897652
                      -0.0909871       -0.952355      0.000351033     0.000166806         0.238349       -0.132167      0.000283559    -0.000152865
                     0.000401342    -5.09516e-05         0.320067       -0.897512      0.000210258    -0.000114318         0.284883        0.064526
281706                  0.261036       0.0859979      7.14954e-05     0.000449166       -0.0913226         -0.9524      0.000417355     0.000145767
                    -2.79179e-05     0.000436495         0.263196        0.130053      0.000457852     0.000109839         0.319656        -0.89774
                      -0.0912866       -0.952324      0.000351106     0.000166772         0.238264       -0.132302       0.00028393    -0.000152013
                     0.000401578    -5.04929e-05         0.319816       -0.897599       0.00021053    -0.000114556         0.284927       0.0643825
281708                  0.261031       0.0859851      7.17013e-05     0.000449162       -0.0916225       -0.952374      0.000416967     0.000145364
                    -2.74376e-05     0.000436679          0.26321        0.130045       0.00045758     0.000109506         0.319406       -0.897828
                      -0.0915866       -0.952294      0.000351179     0.000166738         0.238179       -0.132438      0.000284284    -0.000151166
                     0.000401813    -5.00263e-05         0.319565       -0.897687      0.000210804    -0.000114795         0.284972        0.064239
281710                  0.261025       0.0859722      7.19072e-05     0.000449158       -0.0919224       -0.952347      0.000416585     0.000144963
                    -2.69595e-05     0.000436864         0.263224        0.130038        0.0004573      0.00010917         0.319155       -0.897915
                      -0.0918871       -0.952263      0.000351252     0.000166705         0.238095       -0.132573      0.000284622    -0.000150324
                     0.000402048    -4.95509e-05         0.319315       -0.897773      0.000211081    -0.000115035         0.285015       0.0640955
281712                   0.26102       0.0859594      7.21129e-05     0.000449154       -0.0922223        -0.95232      0.000416209     0.000144563
                    -2.64842e-05     0.000437053         0.263237        0.130031      0.000457012     0.000108831         0.318904       -0.898003
                      -0.0921879       -0.952232      0.000351325     0.000166672         0.238009       -0.132708       0.00028494    -0.000149489
                     0.000402284    -4.90659e-05         0.319064        -0.89786       0.00021136    -0.000115276         0.285059        0.063952
281714                  0.261015       0.0859466      7.23185e-05     0.000449149       -0.0925222       -0.952293      0.000415839     0.000144165
                    -2.60122e-05     0.000437244         0.263251        0.130024      0.000456716     0.000108487         0.318653       -0.898091
                       -0.092489       -0.952202      0.000351397      0.00016664         0.237924       -0.132844      0.000285237    -0.000148662
                      0.00040252    -4.85705e-05         0.318813       -0.897947      0.000211641    -0.000115518         0.285103       0.0638086
281716                  0.261009       0.0859337      7.25239e-05     0.000449144       -0.0928221       -0.952266      0.000415476     0.000143767
                    -2.55442e-05     0.000437437         0.263265        0.130016      0.000456411      0.00010814         0.318403       -0.898178
                      -0.0927903       -0.952172      0.000351469     0.000166607         0.237839       -0.132979      0.000285511    -0.000147844
                     0.000402757    -4.80635e-05         0.318561       -0.898033      0.000211926    -0.000115761         0.285146       0.0636653
281718                  0.261004       0.0859209      7.27292e-05     0.000449139       -0.0931219       -0.952239      0.000415121     0.000143369
                    -2.50812e-05     0.000437634         0.263278        0.130009      0.000456098     0.000107789         0.318152       -0.898265
                      -0.0930918       -0.952142      0.000351541     0.000166576         0.237753       -0.133114       0.00028576    -0.000147036
                     0.000402996    -4.75437e-05          0.31831        -0.89812      0.000212213    -0.000116006          0.28519        0.063522
281720                  0.260999       0.0859081      7.29343e-05     0.000449134       -0.0934218       -0.952211      0.000414776     0.000142972
                    -2.46243e-05     0.000437834         0.263292        0.130002      0.000455777     0.000107433         0.317901       -0.898353
                      -0.0933934       -0.952113      0.000351613     0.000166545         0.237667       -0.133248       0.00028598     -0.00014624
                     0.000403238    -4.70099e-05         0.318059       -0.898206      0.000212503    -0.000116253         0.285233       0.0633788
281722                  0.260993       0.0858952      7.31392e-05     0.000449129       -0.0937216       -0.952184       0.00041444     0.000142575
                    -2.41749e-05     0.000438036         0.263306        0.129995      0.000455447     0.000107073          0.31765        -0.89844
                      -0.0936951       -0.952083      0.000351684     0.000166515         0.237582       -0.133383      0.000286167    -0.000145458
                     0.000403484    -4.64603e-05         0.317808       -0.898292      0.000212795    -0.000116503         0.285276       0.0632357
281724                  0.260988       0.0858824      7.33438e-05     0.000449124       -0.0940215       -0.952156      0.000414115     0.000142176
                    -2.37347e-05      0.00043824         0.263319        0.129987      0.000455111     0.000106707         0.317399       -0.898527
                      -0.0939969       -0.952054      0.000351755     0.000166486         0.237495       -0.133517      0.000286316     -0.00014469
                     0.000403736    -4.58933e-05         0.317556       -0.898378      0.000213091    -0.000116756         0.285319       0.0630929
281726                  0.260983       0.0858696      7.35482e-05     0.000449119       -0.0943213       -0.952127      0.000413802     0.000141774
                    -2.33059e-05     0.000438443         0.263333         0.12998      0.000454771     0.000106337         0.317148       -0.898614
                      -0.0942987       -0.952025      0.000351826     0.000166458         0.237409       -0.133652      0.000286423    -0.000143939
                     0.000403997    -4.53068e-05         0.317305       -0.898464      0.000213389    -0.000117013         0.285362       0.0629503
281728                  0.260977       0.0858567      7.37523e-05     0.000449114       -0.0946211       -0.952099      0.000413502     0.000141368
                    -2.28912e-05     0.000438643         0.263347        0.129973      0.000454431     0.000105962         0.316897       -0.898701
                      -0.0946004       -0.951996      0.000351896     0.000166431         0.237323       -0.133786      0.000286479    -0.000143204
                      0.00040427    -4.46987e-05         0.317054       -0.898549      0.000213688    -0.000117277         0.285404        0.062808
281730                  0.260972       0.0858439      7.39562e-05     0.000449109        -0.094921        -0.95207      0.000413216     0.000140953
                    -2.24935e-05     0.000438834          0.26336        0.129966      0.000454096     0.000105584         0.316646       -0.898788
                      -0.0949021       -0.951967      0.000351966     0.000166407         0.237236        -0.13392      0.000286477    -0.000142483
                     0.000404562    -4.40667e-05         0.316802       -0.898635      0.000213988    -0.000117549         0.285446       0.0626662
281732                  0.260967        0.085831      7.41598e-05     0.000449105       -0.0952208       -0.952042      0.000412941     0.000140525
                    -2.21154e-05     0.000439005         0.263374        0.129958       0.00045378     0.000105206         0.316395       -0.898874
                      -0.0952038       -0.951938      0.000352036     0.000166385          0.23715       -0.134054      0.000286408    -0.000141769
                     0.000404883    -4.34087e-05          0.31655        -0.89872      0.000214285    -0.000117835         0.285489       0.0625251
281734                  0.260961       0.0858181      7.43633e-05       0.0004491       -0.0955207       -0.952013      0.000412671     0.000140074
                    -2.17578e-05     0.000439137         0.263388        0.129951      0.000453503     0.000104831         0.316144       -0.898961
                      -0.0955053       -0.951909      0.000352107     0.000166367         0.237063       -0.134188      0.000286263    -0.000141045
                     0.000405248    -4.27239e-05         0.316299       -0.898805      0.000214576     -0.00011814         0.285531       0.0623849
281736                  0.260956       0.0858052       7.4567e-05     0.000449097       -0.0958205       -0.951983      0.000412388      0.00013958
                    -2.14144e-05     0.000439197         0.263401        0.129944      0.000453303      0.00010447         0.315893       -0.899048
                      -0.0958068       -0.951881      0.000352179     0.000166353         0.236975       -0.134322      0.000286042    -0.000140266
                     0.000405687    -4.20147e-05         0.316047        -0.89889      0.000214852    -0.000118475         0.285574       0.0622463
281738                  0.260951       0.0857922      7.47718e-05     0.000449094       -0.0961204       -0.951954      0.000412039     0.000139005
                    -2.10588e-05     0.000439131         0.263415        0.129936       0.00045325     0.000104142         0.315642       -0.899136
                       -0.096108       -0.951852      0.000352256     0.000166347         0.236888       -0.134455      0.000285779    -0.000139306
                     0.000406254    -4.12939e-05         0.315795       -0.898975      0.000215097    -0.000118859         0.285622       0.0621102
281740                  0.260946       0.0857789      7.49799e-05     0.000449094       -0.0964203       -0.951925      0.000411447     0.000138241
                    -2.06105e-05      0.00043885         0.263429        0.129929      0.000453493     0.000103888         0.315391       -0.899225
                      -0.0964091       -0.951824      0.000352344     0.000166353         0.236801       -0.134589      0.000285652    -0.000137777
                     0.000407072    -4.06105e-05         0.315543       -0.899059      0.000215282    -0.000119329         0.285689       0.0619715
281742                  0.260941       0.0857651      7.51985e-05       0.0004491       -0.0967203       -0.951896      0.000409812     0.000136877
                    -1.98603e-05     0.000438257         0.263443        0.129922      0.000454371     0.000103802         0.315142       -0.899319
                      -0.0967096       -0.951795      0.000352466     0.000166374         0.236713       -0.134722      0.000286704    -0.000133904
                     0.000408468    -4.01735e-05          0.31529       -0.899144      0.000215339    -0.000119962         0.285746       0.0617501
281744                  0.260934       0.0857522      7.54618e-05     0.000449119       -0.0970206       -0.951868       0.00039562     0.000129466
                    -1.83743e-05     0.000437381         0.263456        0.129915      0.000456839     0.000104147         0.314883        -0.89935
                      -0.0970087       -0.951768      0.000352725     0.000166394         0.236624       -0.134856      0.000312426    -9.53608e-05
                       0.0004115    -4.13869e-05         0.315037       -0.899227      0.000215105    -0.000120945          0.28572       0.0616038
281746                  0.260935       0.0857421      7.63356e-05     0.000449038       -0.0973222       -0.951844      0.000425623     0.000142119
                    -1.56127e-05     0.000436689          0.26347        0.129907      0.000464748     0.000105901         0.314633       -0.899473
                      -0.0972941       -0.951746      0.000353074     0.000165518         0.236535        -0.13499      0.000264515    -0.000160353
                     0.000405322     -5.5433e-05         0.314779       -0.899304      0.000214098    -0.000122867         0.285744       0.0614697
281748                  0.260919       0.0857192      7.53724e-05     0.000448869       -0.0976595       -0.951841       0.00042205     0.000138623
                    -1.15233e-05     0.000437001         0.263483          0.1299      0.000524915     0.000115451         0.314383       -0.899566
                      -0.0976241       -0.951696      0.000352155     0.000165878         0.236437        -0.13513      0.000262999    -0.000153062
                     0.000397848    -3.88177e-05         0.314541       -0.899403      0.000210266    -0.000128769          0.28578       0.0613247
281750                  0.260913       0.0857122      7.56478e-05     0.000448975       -0.0979358       -0.951738      0.000423894     0.000135961
                     -6.4818e-06     0.000438341         0.263497        0.129893      0.000391739     7.66233e-05         0.314131        -0.89966
                      -0.0979205       -0.951673      0.000352177     0.000166219         0.236364       -0.135223      0.000251773    -0.000151413
                     0.000401187    -3.49909e-05         0.314285       -0.899484      0.000244132    -0.000217347          0.28582       0.0611757
281752                  0.260909        0.085701      7.57869e-05     0.000449005       -0.0982266       -0.951718      0.000428647      0.00013024
                     2.53448e-08     0.000439009         0.263511        0.129885      0.000417118     8.80623e-05         0.313878       -0.899761
                      -0.0982201       -0.951646      0.000352198     0.000166528         0.236277       -0.135371      0.000226517    -0.000142819
                     0.000402799    -3.27558e-05         0.314032       -0.899567      0.000241392    -0.000107663         0.285864       0.0610264
281754                  0.260904       0.0856888      7.58053e-05     0.000449036       -0.0985257       -0.951689      0.000431633     0.000112835
                     7.83677e-06     0.000434035         0.263525        0.129878      0.000420584     8.87202e-05         0.313615       -0.899892
                      -0.0985203       -0.951617      0.000352317     0.000167077         0.236188       -0.135504      0.000199252    -8.63218e-05
                      0.00040392    -3.05103e-05         0.313779        -0.89965      0.000235361    -0.000111105         0.285909       0.0608783
281756                  0.260899       0.0856763      7.54693e-05     0.000449146       -0.0988263       -0.951657      0.000404769     9.77172e-05
                     5.94771e-06     0.000421776         0.263538        0.129871      0.000419207     8.70692e-05         0.313039       -0.899798
                      -0.0988207       -0.951588      0.000353248     0.000167887           0.2361       -0.135635      0.000267461    -3.97651e-05
                     0.000405006    -2.79218e-05         0.313526       -0.899734      0.000237379    -0.000111977         0.285953       0.0607315
281758                  0.260894       0.0856637      7.13512e-05     0.000452945       -0.0991279       -0.951624       0.00039058     0.000114977
                    -4.42455e-06     0.000419698         0.263552        0.129863      0.000414877     8.36172e-05         0.313098       -0.899897
                      -0.0991211       -0.951559      0.000354782     0.000166998         0.236012       -0.135765      0.000302808    -6.73809e-05
                     0.000406378     -2.4786e-05         0.313273       -0.899817      0.000245487    -0.000112337         0.285998       0.0605858
281760                  0.260889        0.085651      7.88868e-05     0.000449119       -0.0994303       -0.951589      0.000391821     0.000124337
                    -9.45023e-06     0.000423469         0.263566        0.129856       0.00040728     7.74903e-05         0.312862       -0.900015
                      -0.0994215       -0.951529      0.000354599     0.000165903         0.235924       -0.135894      0.000308401    -8.54625e-05
                     0.000408474    -2.09101e-05          0.31302       -0.899901       0.00027057    -0.000120241         0.286041       0.0604405
281762                  0.260883       0.0856383      7.81391e-05     0.000448959        -0.099734       -0.951554      0.000393869     0.000128098
                    -1.10478e-05     0.000426778         0.263579        0.129848      0.000394695     6.58086e-05         0.312614       -0.900111
                      -0.0997219         -0.9515      0.000354265     0.000165573         0.235837       -0.136021      0.000308577    -9.47015e-05
