! TOUCHSTONE file generated by CST MICROWAVE STUDIO
! Date and time: Wed Oct 15 17:33:07 2025
! Project name: Teste_Macro_Metasurface_Nanopilar.cst
! Parameters = {H=600; L_x=160; L_y=165; Lambda=1064; Max_L=200; Min_L=70; PathPara=1; Phi=0; Step_L=10; Theta=0; p=520; phaseX=180; phaseY=0}
! Header version: 2018
! Port assignment regex: !\s*Touchstone port\s*([0-9]+)\s*=\s*(CST MWS port|CST DS port)\s*([0-9]+|Zmin|Zmax)\s*\(\"(.*)\"\)(\s*mode\s*([0-9]+))?.*
! Touchstone port assignment:
! Touchstone port 1 = CST MWS port Zmax ("") mode 1
! Touchstone port 2 = CST MWS port Zmax ("") mode 2
! Touchstone port 3 = CST MWS port Zmin ("") mode 1
! Touchstone port 4 = CST MWS port Zmin ("") mode 2
! S-Parameters are not renormalized. Each port impedance will be approximated by the real part at minimum frequency. The values are described via the [Reference] keyword.
! Default impedance is overridden by [Reference]
[Version] 2.0
# GHz S RI R 376.73
[Number of Ports] 4
[Reference]
376.73 376.73 259.888 259.888 
[Number of Frequencies] 51
[Network Data]
281700                   0.17173       0.0205381      0.000268421    -0.000426484         0.612482       -0.766272      0.000230443     0.000109199
                      0.00021318    -0.000431828         0.170038       0.0132688      0.000286831     0.000250545         0.655755       -0.730067
                        0.611928       -0.766579      8.73382e-05     0.000345483        0.0574249        0.159559     -0.000436452     0.000470661
                     0.000203826     0.000352174         0.656256       -0.730143     -0.000474051     0.000499795        0.0311853        0.163979
281702                  0.171734       0.0205524      0.000268282    -0.000426387         0.612257       -0.766452      0.000230605     0.000109154
                     0.000213081    -0.000431701         0.170041       0.0132846      0.000286954     0.000250186         0.655539       -0.730261
                        0.611702       -0.766758      8.73948e-05     0.000345101        0.0575336        0.159527     -0.000436298      0.00047062
                     0.000203877      0.00035184          0.65604       -0.730338     -0.000473643     0.000499916        0.0312987        0.163962
281704                  0.171739       0.0205667      0.000268143    -0.000426289         0.612031       -0.766631      0.000230767     0.000109108
                     0.000212982    -0.000431575         0.170043       0.0133004      0.000287076     0.000249826         0.655322       -0.730455
                        0.611477       -0.766937      8.74519e-05     0.000344719        0.0576424        0.159495     -0.000436144     0.000470579
                     0.000203929     0.000351505         0.655823       -0.730532     -0.000473236     0.000500036         0.031412        0.163945
281706                  0.171743        0.020581      0.000268003    -0.000426193         0.611805        -0.76681      0.000230928     0.000109062
                     0.000212882     -0.00043145         0.170046       0.0133161      0.000287195     0.000249467         0.655106       -0.730649
                        0.611252       -0.767116      8.75095e-05     0.000344338        0.0577511        0.159463     -0.000435991     0.000470538
                     0.000203982     0.000351171         0.655606       -0.730727     -0.000472829     0.000500154        0.0315253        0.163928
281708                  0.171748       0.0205953      0.000267863    -0.000426097          0.61158       -0.766989      0.000231089     0.000109016
                     0.000212783    -0.000431324         0.170048       0.0133319      0.000287312     0.000249107          0.65489       -0.730843
                        0.611026       -0.767295      8.75675e-05     0.000343958        0.0578598        0.159431     -0.000435839     0.000470497
                     0.000204035     0.000350835          0.65539       -0.730921     -0.000472424     0.000500272        0.0316386        0.163911
281710                  0.171752       0.0206096      0.000267723    -0.000426001         0.611354       -0.767168       0.00023125      0.00010897
                     0.000212683    -0.000431199         0.170051       0.0133476      0.000287427     0.000248748         0.654673       -0.731036
                        0.610801       -0.767474      8.76261e-05     0.000343579        0.0579685        0.159399      -0.00043569     0.000470454
                     0.000204088       0.0003505         0.655173       -0.731115     -0.000472019     0.000500389        0.0317519        0.163894
281712                  0.171757       0.0206239      0.000267582    -0.000425906         0.611129       -0.767347      0.000231411     0.000108924
                     0.000212583    -0.000431074         0.170053       0.0133634      0.000287539     0.000248389         0.654457        -0.73123
                        0.610575       -0.767653      8.76852e-05       0.0003432        0.0580772        0.159367     -0.000435543      0.00047041
                     0.000204142     0.000350164         0.654956       -0.731309     -0.000471615     0.000500505        0.0318652        0.163876
281714                  0.171761       0.0206381       0.00026744    -0.000425812         0.610903       -0.767526      0.000231571     0.000108877
                     0.000212482     -0.00043095         0.170056       0.0133791      0.000287649     0.000248029          0.65424       -0.731424
                         0.61035       -0.767832      8.77448e-05     0.000342822        0.0581858        0.159335     -0.000435397     0.000470356
                     0.000204197     0.000349827         0.654739       -0.731503     -0.000471212      0.00050062        0.0319784        0.163859
281716                  0.171766       0.0206524      0.000267299    -0.000425718         0.610677       -0.767705       0.00023173      0.00010883
                     0.000212382    -0.000430826         0.170058       0.0133948      0.000287757      0.00024767         0.654024       -0.731617
                        0.610124       -0.768011      8.78048e-05     0.000342444        0.0582944        0.159303     -0.000435234     0.000470293
                     0.000204252      0.00034949         0.654522       -0.731697      -0.00047081     0.000500734        0.0320918        0.163842
281718                   0.17177       0.0206667      0.000267156    -0.000425625         0.610451       -0.767883       0.00023189      0.00010878
                     0.000212281    -0.000430703         0.170061       0.0134106      0.000287863     0.000247311         0.653807       -0.731811
                        0.609898        -0.76819      8.78654e-05     0.000342067         0.058403         0.15927     -0.000435062     0.000470254
                     0.000204308     0.000349153         0.654305       -0.731891     -0.000470409     0.000500847        0.0322049        0.163824
281720                  0.171775       0.0206809      0.000267014    -0.000425532         0.610225       -0.768062      0.000232053     0.000108732
                     0.000212181    -0.000430579         0.170063       0.0134263      0.000287966     0.000246952          0.65359       -0.732004
                        0.609673       -0.768368      8.79265e-05     0.000341691        0.0585116        0.159238     -0.000434905     0.000470222
                     0.000204365     0.000348815         0.654088       -0.732085     -0.000470008     0.000500959        0.0323181        0.163807
281722                   0.17178       0.0206952      0.000266871     -0.00042544         0.609999        -0.76824      0.000232215     0.000108686
                      0.00021208    -0.000430456         0.170066        0.013442      0.000288068     0.000246593         0.653373       -0.732197
                        0.609447       -0.768547      8.79881e-05     0.000341316        0.0586201        0.159206     -0.000434754     0.000470184
                     0.000204422     0.000348477         0.653871       -0.732279     -0.000469609      0.00050107        0.0324313        0.163789
281724                  0.171784       0.0207094      0.000266727    -0.000425349         0.609773       -0.768419      0.000232375     0.000108639
                     0.000211978    -0.000430334         0.170069       0.0134577      0.000288167     0.000246234         0.653157        -0.73239
                        0.609221       -0.768725      8.80502e-05     0.000340941        0.0587286        0.159173     -0.000434604     0.000470145
                     0.000204479     0.000348138         0.653654       -0.732473      -0.00046921      0.00050118        0.0325444        0.163771
281726                  0.171789       0.0207236      0.000266584    -0.000425258         0.609547       -0.768597      0.000232535     0.000108592
                     0.000211877    -0.000430212         0.170071       0.0134734      0.000288263     0.000245875          0.65294       -0.732584
                        0.608995       -0.768904      8.81128e-05     0.000340567        0.0588371         0.15914     -0.000434454     0.000470103
                     0.000204537     0.000347799         0.653437       -0.732666     -0.000468812     0.000501289        0.0326576        0.163754
281728                  0.171793       0.0207379       0.00026644    -0.000425168         0.609321       -0.768776      0.000232695     0.000108545
                     0.000211775     -0.00043009         0.170074       0.0134891      0.000288358     0.000245516         0.652723       -0.732777
                        0.608769       -0.769082       8.8176e-05     0.000340193        0.0589456        0.159108     -0.000434305     0.000470061
                     0.000204596      0.00034746          0.65322        -0.73286     -0.000468415     0.000501398        0.0327707        0.163736
281730                  0.171798       0.0207521      0.000266295    -0.000425079         0.609095       -0.768954      0.000232854     0.000108497
                     0.000211674    -0.000429968         0.170076       0.0135048       0.00028845     0.000245158         0.652506        -0.73297
                        0.608543        -0.76926      8.82396e-05     0.000339821         0.059054        0.159075     -0.000434157     0.000470018
                     0.000204655      0.00034712         0.653002       -0.733053     -0.000468019     0.000501505        0.0328838        0.163718
281732                  0.171802       0.0207663       0.00026615     -0.00042499         0.608869       -0.769132      0.000233014     0.000108449
                     0.000211572    -0.000429847         0.170079       0.0135204       0.00028854     0.000244799         0.652289       -0.733163
                        0.608317       -0.769439      8.83038e-05     0.000339449        0.0591625        0.159042     -0.000434008     0.000469975
                     0.000204714      0.00034678         0.652785       -0.733247     -0.000467624     0.000501612        0.0329969          0.1637
281734                  0.171807       0.0207805      0.000266005    -0.000424901         0.608643        -0.76931      0.000233173     0.000108401
                     0.000211469    -0.000429726         0.170081       0.0135361      0.000288627     0.000244441         0.652072       -0.733356
                        0.608091       -0.769617      8.83685e-05     0.000339078        0.0592709        0.159009      -0.00043386     0.000469931
                     0.000204775     0.000346439         0.652568        -0.73344     -0.000467229     0.000501718        0.0331099        0.163682
281736                  0.171811       0.0207948      0.000265859    -0.000424813         0.608416       -0.769488      0.000233332     0.000108353
                     0.000211367    -0.000429605         0.170084       0.0135518      0.000288713     0.000244083         0.651855       -0.733548
                        0.607865       -0.769795      8.84337e-05     0.000338707        0.0593792        0.158977     -0.000433712     0.000469887
                     0.000204835     0.000346097          0.65235       -0.733633     -0.000466836     0.000501823         0.033223        0.163664
281738                  0.171816        0.020809      0.000265713    -0.000424726          0.60819       -0.769666      0.000233491     0.000108304
                     0.000211265    -0.000429485         0.170086       0.0135674      0.000288796     0.000243725         0.651637       -0.733741
                        0.607639       -0.769973      8.84994e-05     0.000338337        0.0594876        0.158944     -0.000433565     0.000469843
                     0.000204897     0.000345756         0.652133       -0.733827     -0.000466443     0.000501927         0.033336        0.163646
281740                  0.171821       0.0208232      0.000265566     -0.00042464         0.607963       -0.769844      0.000233649     0.000108256
                     0.000211162    -0.000429365         0.170089       0.0135831      0.000288877     0.000243367          0.65142       -0.733934
                        0.607413       -0.770151      8.85656e-05     0.000337968        0.0595959        0.158911     -0.000433418     0.000469798
                     0.000204959     0.000345413         0.651915        -0.73402     -0.000466051      0.00050203         0.033449        0.163628
281742                  0.171825       0.0208373      0.000265419    -0.000424554         0.607737       -0.770022      0.000233808     0.000108207
                     0.000211059    -0.000429245         0.170091       0.0135987      0.000288956     0.000243009         0.651203       -0.734126
                        0.607187       -0.770328      8.86324e-05       0.0003376        0.0597042        0.158877     -0.000433271     0.000469753
                     0.000205021     0.000345071         0.651698       -0.734213      -0.00046566     0.000502133         0.033562        0.163609
281744                   0.17183       0.0208515      0.000265272    -0.000424469         0.607511         -0.7702      0.000233966     0.000108158
                     0.000210956    -0.000429126         0.170094       0.0136143      0.000289032     0.000242651         0.650986       -0.734319
                        0.606961       -0.770506      8.86997e-05     0.000337233        0.0598124        0.158844     -0.000433125     0.000469708
                     0.000205084     0.000344727          0.65148       -0.734406      -0.00046527     0.000502234         0.033675        0.163591
281746                  0.171834       0.0208657      0.000265124    -0.000424384         0.607284       -0.770378      0.000234125     0.000108109
                     0.000210853    -0.000429006         0.170097         0.01363      0.000289106     0.000242294         0.650768       -0.734511
                        0.606734       -0.770684      8.87675e-05     0.000336866        0.0599207        0.158811     -0.000432979     0.000469662
                     0.000205148     0.000344383         0.651262       -0.734599     -0.000464881     0.000502335        0.0337879        0.163572
281748                  0.171839       0.0208799      0.000264976      -0.0004243         0.607057       -0.770555      0.000234283     0.000108059
                      0.00021075    -0.000428884         0.170099       0.0136456      0.000289178     0.000241936         0.650551       -0.734704
                        0.606508       -0.770861      8.88358e-05       0.0003365        0.0600289        0.158778     -0.000432834     0.000469616
                     0.000205212     0.000344037         0.651044       -0.734791     -0.000464493     0.000502435        0.0339009        0.163554
281750                  0.171844        0.020894      0.000264827    -0.000424217         0.606831       -0.770733       0.00023444      0.00010801
                     0.000210643     -0.00042878         0.170102       0.0136612      0.000289248     0.000241579         0.650333       -0.734896
                        0.606282       -0.771039      8.89046e-05     0.000336135        0.0601371        0.158744     -0.000432689      0.00046957
                     0.000205271     0.000343704         0.650827       -0.734984     -0.000464106     0.000502534        0.0340138        0.163535
281752                  0.171848       0.0209082      0.000264678    -0.000424134         0.606604        -0.77091      0.000234598      0.00010796
                      0.00021054    -0.000428655         0.170104       0.0136768      0.000289315     0.000241222         0.650116       -0.735088
                        0.606055       -0.771217       8.8974e-05      0.00033577        0.0602453        0.158711     -0.000432544     0.000469524
                      0.00020534     0.000343354         0.650609       -0.735177     -0.000463719     0.000502632        0.0341267        0.163517
281754                  0.171853       0.0209224      0.000264529    -0.000424052         0.606377       -0.771088      0.000234756      0.00010791
                     0.000210436    -0.000428537         0.170107       0.0136924      0.000289381     0.000240865         0.649898       -0.735281
                        0.605829       -0.771394      8.90439e-05     0.000335407        0.0603534        0.158677       -0.0004324     0.000469477
                     0.000205406     0.000343008         0.650391        -0.73537     -0.000463334     0.000502729        0.0342395        0.163498
281756                  0.171857       0.0209365      0.000264379    -0.000423971          0.60615       -0.771265      0.000234913      0.00010786
                     0.000210331    -0.000428419          0.17011        0.013708      0.000289444     0.000240509          0.64968       -0.735473
                        0.605602       -0.771571      8.91143e-05     0.000335044        0.0604615        0.158644     -0.000432256      0.00046943
                     0.000205472     0.000342661         0.650173       -0.735562     -0.000462949     0.000502826        0.0343524        0.163479
281758                  0.171862       0.0209507      0.000264229     -0.00042389         0.605924       -0.771442       0.00023507      0.00010781
                     0.000210227    -0.000428301         0.170112       0.0137236      0.000289504     0.000240152         0.649463       -0.735665
                        0.605376       -0.771749      8.91852e-05     0.000334682        0.0605696         0.15861     -0.000432113     0.000469383
                     0.000205539     0.000342315         0.649955       -0.735755     -0.000462566     0.000502922        0.0344652         0.16346
281760                  0.171867       0.0209648      0.000264078     -0.00042381         0.605697       -0.771619      0.000235227     0.000107759
                     0.000210122    -0.000428184         0.170115       0.0137392      0.000289562     0.000239795         0.649245       -0.735857
                        0.605149       -0.771926      8.92567e-05     0.000334321        0.0606777        0.158576      -0.00043197     0.000469335
                     0.000205606     0.000341968         0.649737       -0.735947     -0.000462183     0.000503016        0.0345781        0.163441
281762                  0.171871       0.0209789      0.000263927     -0.00042373          0.60547       -0.771797      0.000235384     0.000107709
                     0.000210017    -0.000428068         0.170117       0.0137547      0.000289616     0.000239437         0.649027       -0.736049
                        0.604922       -0.772103      8.93287e-05     0.000333961        0.0607857        0.158543     -0.000431827     0.000469287
