! TOUCHSTONE file generated by CST MICROWAVE STUDIO
! Date and time: Wed Oct 15 17:34:18 2025
! Project name: Teste_Macro_Metasurface_Nanopilar.cst
! Parameters = {H=600; L_x=180; L_y=185; Lambda=1064; Max_L=200; Min_L=70; PathPara=1; Phi=0; Step_L=10; Theta=0; p=520; phaseX=180; phaseY=0}
! Header version: 2018
! Port assignment regex: !\s*Touchstone port\s*([0-9]+)\s*=\s*(CST MWS port|CST DS port)\s*([0-9]+|Zmin|Zmax)\s*\(\"(.*)\"\)(\s*mode\s*([0-9]+))?.*
! Touchstone port assignment:
! Touchstone port 1 = CST MWS port Zmax ("") mode 1
! Touchstone port 2 = CST MWS port Zmax ("") mode 2
! Touchstone port 3 = CST MWS port Zmin ("") mode 1
! Touchstone port 4 = CST MWS port Zmin ("") mode 2
! S-Parameters are not renormalized. Each port impedance will be approximated by the real part at minimum frequency. The values are described via the [Reference] keyword.
! Default impedance is overridden by [Reference]
[Version] 2.0
# GHz S RI R 376.73
[Number of Ports] 4
[Reference]
376.73 376.73 259.888 259.888 
[Number of Frequencies] 51
[Network Data]
281700                 -0.142967        0.069589     -0.000977611    -0.000483425        -0.255157       -0.912562     -0.000319672    -0.000243183
                     -0.00103235    -0.000507027         0.379192        0.275637     -0.000551463    -0.000218672         0.371132       -0.788578
                       -0.254557       -0.912211     -0.000496121    -0.000180664        -0.128928       0.0824424     -0.000986592     0.000148145
                    -0.000429232     -0.00023118         0.371434       -0.789007      -0.00112333     0.000122811          0.44871        0.131113
281702                  -0.14362       0.0699257     -0.000978677    -0.000482802        -0.256043       -0.912077     -0.000319763    -0.000242748
                     -0.00103285    -0.000506361         0.379163        0.275474     -0.000552004    -0.000217899         0.370827       -0.788809
                       -0.255444       -0.911725     -0.000496997    -0.000182341         -0.12945        0.082998     -0.000986524     0.000148994
                    -0.000429565    -0.000230457          0.37113       -0.789236      -0.00112364     0.000124139         0.448682        0.130779
281704                 -0.144275       0.0702645      -0.00097939    -0.000482034        -0.256929       -0.911589     -0.000319851    -0.000242314
                     -0.00103336     -0.00050569         0.379134         0.27531     -0.000552546    -0.000217123         0.370522       -0.789039
                       -0.256332       -0.911236     -0.000497546    -0.000182265        -0.129973       0.0835566     -0.000986455     0.000149844
                    -0.000429895    -0.000229732         0.370825       -0.789466      -0.00112395     0.000125468         0.448654        0.130445
281706                  -0.14493       0.0706056     -0.000979611    -0.000481076        -0.257817       -0.911099     -0.000319936    -0.000241881
                     -0.00103387    -0.000505015         0.379105        0.275147     -0.000553089    -0.000216345         0.370217       -0.789269
                       -0.257221       -0.910744     -0.000497644    -0.000179744        -0.130495       0.0841181     -0.000986387     0.000150693
                    -0.000430223    -0.000229006         0.370519       -0.789696      -0.00112425     0.000126801         0.448626        0.130112
281708                 -0.145588       0.0709488      -0.00097909    -0.000479931        -0.258705       -0.910606     -0.000320018    -0.000241448
                     -0.00103438    -0.000504334         0.379076        0.274984     -0.000553632    -0.000215566         0.369912       -0.789499
                        -0.25811        -0.91025     -0.000497316    -0.000174163        -0.131018       0.0846827     -0.000986319     0.000151542
                    -0.000430547    -0.000228278         0.370211       -0.789927      -0.00112456     0.000128136         0.448598        0.129779
281710                 -0.146246       0.0712942     -0.000977387    -0.000478795        -0.259594        -0.91011     -0.000320098    -0.000241015
                     -0.00103489    -0.000503648         0.379046        0.274821     -0.000554177    -0.000214784         0.369607       -0.789728
                       -0.259001       -0.909753     -0.000496842     -0.00016524        -0.131541       0.0852503      -0.00098625     0.000152392
                     -0.00043087    -0.000227547         0.369899        -0.79016      -0.00112487     0.000129473          0.44857        0.129447
281712                 -0.146906       0.0716419     -0.000973922    -0.000478474        -0.260484       -0.909612     -0.000320174    -0.000240583
                      -0.0010354    -0.000502957         0.379015        0.274656     -0.000554723       -0.000214         0.369302       -0.789957
                       -0.259892       -0.909253     -0.000496753     -0.00015331        -0.132064       0.0858209     -0.000986182     0.000153241
                     -0.00043119    -0.000226814         0.369583       -0.790395      -0.00112517     0.000130814         0.448542        0.129114
281714                 -0.147567       0.0719917     -0.000968926    -0.000481044        -0.261374        -0.90911     -0.000320247    -0.000240151
                     -0.00103592    -0.000502261         0.378982         0.27449     -0.000555269    -0.000213215         0.368997       -0.790186
                       -0.260784        -0.90875     -0.000497604    -0.000139432        -0.132587       0.0863945     -0.000986114      0.00015409
                    -0.000431508    -0.000226079         0.369254       -0.790636      -0.00112548     0.000132156         0.448514        0.128782
281716                 -0.148229       0.0723439     -0.000965966    -0.000488209        -0.262266       -0.908606     -0.000320317    -0.000239719
                     -0.00103644     -0.00050156         0.378944        0.274318     -0.000555816    -0.000212427         0.368691       -0.790414
                       -0.261677       -0.908245     -0.000499648    -0.000125126         -0.13311       0.0869712     -0.000986045     0.000154938
                    -0.000431823     -0.00022534         0.368888        -0.79089      -0.00112578     0.000133502         0.448486        0.128451
281718                 -0.148893       0.0726982     -0.000968965    -0.000495843        -0.263158       -0.908099     -0.000320384    -0.000239288
                     -0.00103697    -0.000500855         0.378885        0.274114     -0.000556364    -0.000211637         0.368386       -0.790642
                        -0.26257       -0.907737     -0.000502686    -0.000111838        -0.133634        0.087551     -0.000985977     0.000155787
                    -0.000432136    -0.000224598         0.368306       -0.791128      -0.00112608     0.000134849         0.448457        0.128119
281720                 -0.149558       0.0730549     -0.000974789     -0.00049926         -0.26405       -0.907589     -0.000320448    -0.000238858
                      -0.0010375    -0.000500144         0.379219        0.274157     -0.000556913    -0.000210845         0.368081        -0.79087
                       -0.263465       -0.907227     -0.000506228    -0.000100507        -0.134157       0.0881339     -0.000985909     0.000156636
                    -0.000432447    -0.000223852         0.368571       -0.790721      -0.00112638       0.0001362         0.448429        0.127788
281722                 -0.150224       0.0734138     -0.000979727    -0.000499507        -0.264944       -0.907077     -0.000320509    -0.000238427
                     -0.00103803    -0.000499429         0.378935        0.273909     -0.000557463    -0.000210051         0.367776       -0.791097
                        -0.26436       -0.906713     -0.000509768    -9.14602e-05        -0.134681       0.0887198     -0.000985841     0.000157485
                    -0.000432756    -0.000223102         0.368253       -0.791317      -0.00112668     0.000137553           0.4484        0.127457
281724                 -0.150891       0.0737751     -0.000983206    -0.000498541        -0.265838       -0.906561     -0.000320567    -0.000237998
                     -0.00103856    -0.000498709         0.378885        0.273731     -0.000558014    -0.000209255         0.367471       -0.791323
                       -0.265256       -0.906197     -0.000512962    -8.45867e-05        -0.135205       0.0893089     -0.000985773     0.000158333
                    -0.000433062    -0.000222348         0.367911       -0.791611      -0.00112698     0.000138909         0.448372        0.127126
281726                  -0.15156       0.0741386     -0.000985645    -0.000497258        -0.266733       -0.906043     -0.000320622    -0.000237568
                      -0.0010391    -0.000497985         0.378848        0.273565     -0.000558566    -0.000208456         0.367166        -0.79155
                       -0.266152       -0.905678     -0.000515654     -7.9559e-05        -0.135729       0.0899011     -0.000985705     0.000159182
                    -0.000433366    -0.000221589         0.367588       -0.791862      -0.00112727     0.000140267         0.448343        0.126796
281728                  -0.15223       0.0745045     -0.000987438     -0.00049595        -0.267629       -0.905522     -0.000320673    -0.000237139
                     -0.00103964    -0.000497256         0.378816        0.273402     -0.000559118    -0.000207656         0.366861       -0.791776
                        -0.26705       -0.905156     -0.000517827    -7.59988e-05        -0.136254       0.0904964     -0.000985637      0.00016003
                    -0.000433668    -0.000220826         0.367273       -0.792101      -0.00112757     0.000141628         0.448314        0.126466
281730                 -0.152901       0.0748727     -0.000988835    -0.000494694        -0.268526       -0.904998     -0.000320722    -0.000236711
                     -0.00104019    -0.000496522         0.378785         0.27324     -0.000559671    -0.000206853         0.366556       -0.792002
                       -0.267948       -0.904631     -0.000519535    -7.35598e-05        -0.136778       0.0910949      -0.00098557     0.000160878
                    -0.000433967    -0.000220058         0.366962       -0.792333      -0.00112786     0.000142991         0.448285        0.126136
281732                 -0.153574       0.0752433     -0.000989982    -0.000493499        -0.269423       -0.904471     -0.000320767    -0.000236283
                     -0.00104073    -0.000495784         0.378755         0.27308     -0.000560225    -0.000206048          0.36625       -0.792227
                       -0.268847       -0.904104     -0.000520861    -7.19575e-05        -0.137303       0.0916965     -0.000985502     0.000161727
                    -0.000434263    -0.000219285         0.366654       -0.792563      -0.00112816     0.000144358         0.448256        0.125806
281734                 -0.154248       0.0756162      -0.00099097    -0.000492356        -0.270321       -0.903941     -0.000320809    -0.000235855
                     -0.00104129    -0.000495041         0.378726         0.27292      -0.00056078    -0.000205241         0.365945       -0.792452
                       -0.269746       -0.903573     -0.000521888    -7.09703e-05        -0.137827       0.0923013     -0.000985435     0.000162575
                    -0.000434557    -0.000218506         0.366346        -0.79279      -0.00112845     0.000145726         0.448227        0.125477
281736                 -0.154923       0.0759915     -0.000991851    -0.000491252         -0.27122       -0.903408     -0.000320848    -0.000235428
                     -0.00104184    -0.000494294         0.378697        0.272761     -0.000561336    -0.000204431          0.36564       -0.792677
                       -0.270647        -0.90304      -0.00052269    -7.04311e-05        -0.138352       0.0929093     -0.000985368     0.000163423
                    -0.000434848    -0.000217723          0.36604       -0.793016      -0.00112874     0.000147098         0.448198        0.125148
281738                 -0.155599       0.0763692     -0.000992661    -0.000490175        -0.272119       -0.902873     -0.000320884    -0.000235001
                      -0.0010424    -0.000493543         0.378668        0.272602     -0.000561892     -0.00020362         0.365335       -0.792901
                       -0.271548       -0.902504     -0.000523326    -7.02155e-05        -0.138877       0.0935205     -0.000985302     0.000164271
                    -0.000435136    -0.000216933         0.365734       -0.793242      -0.00112903     0.000148472         0.448169        0.124819
281740                 -0.156277       0.0767493     -0.000993423    -0.000489117        -0.273019       -0.902334     -0.000320917    -0.000234575
                     -0.00104296    -0.000492788         0.378639        0.272444      -0.00056245    -0.000202806          0.36503       -0.793125
                        -0.27245       -0.901964     -0.000523843    -7.02319e-05        -0.139402        0.094135     -0.000985235     0.000165119
                    -0.000435422    -0.000216138         0.365429       -0.793466      -0.00112931     0.000149849          0.44814        0.124491
281742                 -0.156956       0.0771319     -0.000994152    -0.000488072         -0.27392       -0.901792     -0.000320946    -0.000234149
                     -0.00104352    -0.000492028          0.37861        0.272285     -0.000563008     -0.00020199         0.364725       -0.793349
                       -0.273352       -0.901422     -0.000524276    -7.04129e-05        -0.139927       0.0947526     -0.000985169     0.000165967
                    -0.000435704    -0.000215336         0.365124        -0.79369       -0.0011296     0.000151228         0.448111        0.124163
281744                 -0.157636       0.0775168     -0.000994859    -0.000487034        -0.274822       -0.901248     -0.000320972    -0.000233724
                     -0.00104409    -0.000491264         0.378582        0.272128     -0.000563567    -0.000201171          0.36442       -0.793572
                       -0.274256       -0.900877     -0.000524652    -7.07093e-05        -0.140452       0.0953736     -0.000985104     0.000166815
                    -0.000435983    -0.000214529         0.364819       -0.793913      -0.00112988      0.00015261         0.448081        0.123835
281746                 -0.158318       0.0779042     -0.000995552    -0.000485999        -0.275724         -0.9007     -0.000320995    -0.000233299
                     -0.00104465    -0.000490496         0.378553         0.27197     -0.000564126     -0.00020035         0.364114       -0.793795
                        -0.27516       -0.900329      -0.00052499    -7.10848e-05        -0.140977       0.0959977     -0.000985038     0.000167663
                    -0.000436259    -0.000213715         0.364514       -0.794136      -0.00113017     0.000153995         0.448052        0.123507
281748                    -0.159       0.0782941     -0.000996235    -0.000484966        -0.276627       -0.900149     -0.000321015    -0.000232874
                     -0.00104523    -0.000489724         0.378524        0.271813     -0.000564687    -0.000199527         0.363809       -0.794017
                       -0.276064       -0.899779     -0.000525305    -7.15128e-05        -0.141502       0.0966252     -0.000984973     0.000168511
                    -0.000436532    -0.000212895          0.36421       -0.794358      -0.00113045     0.000155382         0.448022         0.12318
281750                 -0.159684       0.0786865     -0.000996913    -0.000483931        -0.277531       -0.899596     -0.000321031    -0.000232449
                      -0.0010458    -0.000488948         0.378496        0.271656     -0.000565248    -0.000198702         0.363504        -0.79424
                        -0.27697       -0.899225     -0.000525607    -7.19739e-05        -0.142027       0.0972559     -0.000984909     0.000169359
                    -0.000436801    -0.000212068         0.363905        -0.79458      -0.00113073     0.000156772         0.447993        0.122853
281752                 -0.160369       0.0790813     -0.000997589    -0.000482895        -0.278435       -0.899039     -0.000321044    -0.000232025
                     -0.00104638    -0.000488167         0.378467          0.2715     -0.000565809    -0.000197874         0.363199       -0.794461
                       -0.277876       -0.898668     -0.000525903    -7.24538e-05        -0.142552         0.09789     -0.000984844     0.000170206
                    -0.000437067    -0.000211235         0.363601       -0.794801      -0.00113101     0.000158164         0.447963        0.122526
281754                 -0.161056       0.0794787     -0.000998264    -0.000481856         -0.27934       -0.898479     -0.000321054    -0.000231602
                     -0.00104696    -0.000487381         0.378439        0.271343     -0.000566371    -0.000197045         0.362894       -0.794683
                       -0.278783       -0.898108     -0.000526199     -7.2942e-05        -0.143077       0.0985273     -0.000984781     0.000171054
                     -0.00043733    -0.000210395         0.363296       -0.795023      -0.00113128     0.000159559         0.447933        0.122199
281756                 -0.161744       0.0798786     -0.000998941    -0.000480813        -0.280246       -0.897917      -0.00032106    -0.000231179
                     -0.00104754    -0.000486591         0.378411        0.271187     -0.000566932    -0.000196214         0.362589       -0.794904
                        -0.27969       -0.897545     -0.000526498    -7.34309e-05        -0.143602        0.099168     -0.000984717     0.000171902
                     -0.00043759    -0.000209548         0.362992       -0.795243      -0.00113156     0.000160953         0.447903        0.121873
281758                 -0.162433        0.080281     -0.000999619    -0.000479767        -0.281153        -0.89735     -0.000321063    -0.000230756
                     -0.00104813    -0.000485797         0.378382        0.271032     -0.000567483     -0.00019537         0.362284       -0.795125
                       -0.280598       -0.896979     -0.000526803    -7.39152e-05        -0.144127       0.0998121     -0.000984654     0.000172749
                    -0.000437846    -0.000208694         0.362687       -0.795464      -0.00113181     0.000162363         0.447873        0.121547
281760                 -0.163123       0.0806859       -0.0010003    -0.000478716        -0.282059       -0.896782     -0.000321062    -0.000230333
                     -0.00104872    -0.000484998         0.378354        0.270876     -0.000568066    -0.000194528         0.361978       -0.795345
                       -0.281507        -0.89641     -0.000527117    -7.43908e-05        -0.144653        0.100459     -0.000984592     0.000173596
                    -0.000438099    -0.000207833         0.362383       -0.795684      -0.00113211     0.000163776         0.447843        0.121221
281762                 -0.163814       0.0810935      -0.00100099    -0.000477661        -0.282967        -0.89621     -0.000321058     -0.00022991
                     -0.00104932    -0.000484196         0.378326        0.270721     -0.000568633    -0.000193691         0.361673       -0.795566
                       -0.282417       -0.895838     -0.000527439    -7.48551e-05        -0.145178         0.10111      -0.00098453     0.000174444
