! TOUCHSTONE file generated by CST MICROWAVE STUDIO
! Date and time: Wed Oct 15 17:33:14 2025
! Project name: Teste_Macro_Metasurface_Nanopilar.cst
! Parameters = {H=600; L_x=165; L_y=85; Lambda=1064; Max_L=200; Min_L=70; PathPara=1; Phi=0; Step_L=10; Theta=0; p=520; phaseX=180; phaseY=0}
! Header version: 2018
! Port assignment regex: !\s*Touchstone port\s*([0-9]+)\s*=\s*(CST MWS port|CST DS port)\s*([0-9]+|Zmin|Zmax)\s*\(\"(.*)\"\)(\s*mode\s*([0-9]+))?.*
! Touchstone port assignment:
! Touchstone port 1 = CST MWS port Zmax ("") mode 1
! Touchstone port 2 = CST MWS port Zmax ("") mode 2
! Touchstone port 3 = CST MWS port Zmin ("") mode 1
! Touchstone port 4 = CST MWS port Zmin ("") mode 2
! S-Parameters are not renormalized. Each port impedance will be approximated by the real part at minimum frequency. The values are described via the [Reference] keyword.
! Default impedance is overridden by [Reference]
[Version] 2.0
# GHz S RI R 376.73
[Number of Ports] 4
[Reference]
376.73 376.73 259.888 259.888 
[Number of Frequencies] 51
[Network Data]
281700                -0.0350627      -0.0050226      6.24526e-05    -0.000148154        -0.574918       -0.815403      0.000192372     -5.6667e-05
                     6.54755e-05    -0.000238483        0.0364112        0.161855     -5.73333e-05     0.000271964         0.977234        0.077829
                       -0.575248       -0.814804     -7.89748e-05     0.000126227      -0.00696287       0.0353952     -0.000256108    -1.97806e-05
                     0.000227726    -0.000156807         0.976936       0.0780377     -0.000357227     0.000163748       -0.0603403        0.154608
281702                -0.0350695     -0.00500831      4.32845e-05    -0.000133598        -0.575139       -0.815247      0.000192429    -5.67483e-05
                      6.5465e-05    -0.000238501        0.0364261        0.161869     -5.72058e-05     0.000271993         0.977257       0.0774931
                       -0.575469       -0.814647     -5.99955e-05     0.000103643       -0.0069594       0.0354006     -0.000256076    -1.95781e-05
                     0.000227638    -0.000156876         0.977047       0.0776959     -0.000357109      0.00016399       -0.0602598        0.154666
281704                -0.0350763     -0.00499402      4.32706e-05    -0.000133771         -0.57536       -0.815091      0.000192485    -5.68296e-05
                     6.54459e-05    -0.000238515         0.036449        0.161889     -5.70774e-05     0.000272022          0.97728       0.0771572
                        -0.57569        -0.81449     -5.98026e-05      0.00010383      -0.00695594       0.0354061     -0.000256044    -1.93755e-05
                      0.00022755    -0.000156946          0.97707       0.0773604     -0.000356995     0.000164232       -0.0601792        0.154723
281706                 -0.035083     -0.00497973      4.32699e-05    -0.000133921         -0.57558       -0.814934      0.000192541     -5.6911e-05
                      6.5486e-05    -0.000238549        0.0364719        0.161909     -5.69482e-05     0.000272052         0.977302       0.0768213
                       -0.575911       -0.814334      -5.9685e-05     0.000103983      -0.00695247       0.0354116     -0.000256013    -1.91728e-05
                     0.000227461    -0.000157019         0.977093       0.0770251     -0.000356883     0.000164473       -0.0600986         0.15478
281708                -0.0350898     -0.00496543      4.32724e-05    -0.000134066        -0.575801       -0.814778      0.000192597    -5.69925e-05
                     6.54553e-05    -0.000238561        0.0364947        0.161929     -5.68186e-05     0.000272082         0.977325       0.0764855
                       -0.576132       -0.814177     -5.95859e-05     0.000104128      -0.00694899       0.0354171     -0.000255981    -1.89699e-05
                     0.000227359    -0.000157095         0.977115       0.0766898     -0.000356774     0.000164715        -0.060018        0.154837
281710                -0.0350965     -0.00495112      4.32763e-05     -0.00013421        -0.576022       -0.814622      0.000192653    -5.70739e-05
                     6.54429e-05    -0.000238578        0.0365176        0.161949     -5.66886e-05     0.000272113         0.977347       0.0761496
                       -0.576352        -0.81402     -5.94938e-05      0.00010427      -0.00694552       0.0354226      -0.00025595     -1.8767e-05
                     0.000227251    -0.000157144         0.977138       0.0763545     -0.000356666     0.000164956       -0.0599372        0.154894
281712                -0.0351033     -0.00493679      4.32809e-05    -0.000134352        -0.576243       -0.814465       0.00019271    -5.71555e-05
                     6.54324e-05    -0.000238595        0.0365404        0.161969     -5.65584e-05     0.000272144         0.977369       0.0758137
                       -0.576573       -0.813863      -5.9405e-05     0.000104409      -0.00694204        0.035428     -0.000255918    -1.85639e-05
                     0.000227173    -0.000157195         0.977161       0.0760193     -0.000356558     0.000165198       -0.0598565        0.154952
281714                -0.0351103     -0.00492222      4.32859e-05    -0.000134493        -0.576463       -0.814309      0.000192766    -5.72371e-05
                     6.54223e-05    -0.000238613        0.0365633        0.161989     -5.64279e-05     0.000272175         0.977391       0.0754778
                       -0.576796       -0.813705      -5.9318e-05     0.000104548      -0.00693855       0.0354335     -0.000255887    -1.83608e-05
                     0.000227093     -0.00015726         0.977183        0.075684     -0.000356451     0.000165441       -0.0597757        0.155009
281716                -0.0351168     -0.00490839      4.32912e-05    -0.000134635        -0.576684       -0.814152      0.000192822    -5.73187e-05
                     6.54122e-05    -0.000238631        0.0365861        0.162009     -5.62974e-05     0.000272207         0.977413       0.0751419
                       -0.577014       -0.813549     -5.92317e-05     0.000104687      -0.00693507        0.035439     -0.000255855    -1.81575e-05
                      0.00022701    -0.000157327         0.977206       0.0753488     -0.000356344     0.000165683       -0.0596948        0.155066
281718                -0.0351236     -0.00489403      4.32967e-05    -0.000134777        -0.576905       -0.813995      0.000192878    -5.74005e-05
                     6.54021e-05    -0.000238649         0.036609        0.162029     -5.61668e-05     0.000272239         0.977435        0.074806
                       -0.577235       -0.813392      -5.9146e-05     0.000104825      -0.00693158       0.0354446     -0.000255824    -1.79542e-05
                     0.000226924    -0.000157394         0.977228       0.0750135     -0.000356237     0.000165925       -0.0596139        0.155123
281720                -0.0351303     -0.00487971      4.33023e-05    -0.000134918        -0.577125       -0.813838      0.000192934    -5.74822e-05
                     6.53919e-05    -0.000238667        0.0366318        0.162049     -5.60362e-05      0.00027227         0.977457       0.0744701
                       -0.577456       -0.813235     -5.90603e-05     0.000104963      -0.00692809       0.0354501     -0.000255792    -1.77507e-05
                     0.000226838    -0.000157461          0.97725       0.0746783     -0.000356131     0.000166168       -0.0595329         0.15518
281722                -0.0351371      -0.0048654      4.33081e-05     -0.00013506        -0.577346       -0.813682       0.00019299    -5.75641e-05
                     6.53816e-05    -0.000238685        0.0366547        0.162069     -5.59055e-05     0.000272302         0.977478       0.0741342
                       -0.577677       -0.813077     -5.89746e-05     0.000105101      -0.00692459       0.0354556     -0.000255761    -1.75472e-05
                     0.000226752    -0.000157529         0.977272        0.074343     -0.000356024      0.00016641       -0.0594519        0.155237
281724                -0.0351438     -0.00485109      4.33139e-05    -0.000135202        -0.577566       -0.813525      0.000193046     -5.7646e-05
                     6.53711e-05    -0.000238703        0.0366775        0.162089     -5.57748e-05     0.000272334           0.9775       0.0737983
                       -0.577897        -0.81292     -5.88889e-05     0.000105239      -0.00692109       0.0354611     -0.000255729    -1.73435e-05
                     0.000226665    -0.000157596         0.977294       0.0740077     -0.000355917     0.000166652       -0.0593709        0.155294
281726                -0.0351505     -0.00483679      4.33199e-05    -0.000135344        -0.577787       -0.813368      0.000193102     -5.7728e-05
                     6.53605e-05    -0.000238721        0.0367004        0.162109     -5.56442e-05     0.000272366         0.977521       0.0734624
                       -0.578118       -0.812762     -5.88028e-05     0.000105377      -0.00691759       0.0354666     -0.000255697    -1.71398e-05
                     0.000226579    -0.000157663         0.977315       0.0736724      -0.00035581     0.000166895       -0.0592898         0.15535
281728                -0.0351573     -0.00482248       4.3326e-05    -0.000135486        -0.578007       -0.813211      0.000193158    -5.78101e-05
                     6.53498e-05    -0.000238739        0.0367232        0.162129     -5.55136e-05     0.000272397         0.977542       0.0731265
                       -0.578338       -0.812605     -5.87166e-05     0.000105515      -0.00691409       0.0354722     -0.000255665    -1.69359e-05
                     0.000226492     -0.00015773         0.977337       0.0733372     -0.000355703     0.000167137       -0.0592086        0.155407
281730                 -0.035164     -0.00480817      4.33322e-05    -0.000135628        -0.578228       -0.813054      0.000193214    -5.78923e-05
                     6.53389e-05    -0.000238757        0.0367461        0.162149      -5.5383e-05     0.000272429         0.977563       0.0727905
                       -0.578559       -0.812447       -5.863e-05     0.000105654      -0.00691058       0.0354777     -0.000255633    -1.67319e-05
                     0.000226405    -0.000157797         0.977359       0.0730019     -0.000355595     0.000167379       -0.0591274        0.155464
281732                -0.0351708     -0.00479386      4.33385e-05     -0.00013577        -0.578448       -0.812897       0.00019327    -5.79745e-05
                     6.53279e-05    -0.000238775         0.036769        0.162169     -5.52525e-05      0.00027246         0.977584       0.0724546
                       -0.578779        -0.81229     -5.85431e-05     0.000105792      -0.00690707       0.0354832     -0.000255601    -1.65279e-05
                     0.000226319    -0.000157863          0.97738       0.0726666     -0.000355488     0.000167622       -0.0590462        0.155521
281734                -0.0351775     -0.00477954      4.33449e-05    -0.000135913        -0.578668        -0.81274      0.000193326    -5.80568e-05
                     6.53168e-05    -0.000238793        0.0367918        0.162189     -5.51221e-05     0.000272491         0.977605       0.0721187
                       -0.578999       -0.812132     -5.84559e-05     0.000105931      -0.00690355       0.0354888     -0.000255568    -1.63237e-05
                     0.000226232     -0.00015793         0.977401       0.0723313      -0.00035538     0.000167864       -0.0589649        0.155577
281736                -0.0351842     -0.00476523      4.33514e-05    -0.000136055        -0.578889       -0.812582      0.000193382    -5.81392e-05
                     6.53055e-05    -0.000238812        0.0368147        0.162209     -5.49917e-05     0.000272523         0.977626       0.0717828
                        -0.57922       -0.811975     -5.83684e-05      0.00010607      -0.00690003       0.0354943     -0.000255536    -1.61193e-05
                     0.000226145    -0.000157997         0.977423        0.071996     -0.000355271     0.000168106       -0.0588836        0.155634
281738                 -0.035191     -0.00475092      4.33579e-05    -0.000136198        -0.579109       -0.812425      0.000193437    -5.82217e-05
                     6.52942e-05     -0.00023883        0.0368375        0.162229     -5.48614e-05     0.000272554         0.977647       0.0714469
                        -0.57944       -0.811817     -5.82805e-05     0.000106209      -0.00689651       0.0354999     -0.000255503    -1.59149e-05
                     0.000226059    -0.000158064         0.977444       0.0716607     -0.000355163     0.000168348       -0.0588022        0.155691
281740                -0.0351977      -0.0047366      4.33646e-05    -0.000136341        -0.579329       -0.812268      0.000193493    -5.83043e-05
                     6.52827e-05    -0.000238848        0.0368604        0.162249     -5.47312e-05     0.000272585         0.977667        0.071111
                        -0.57966       -0.811659     -5.81923e-05     0.000106348      -0.00689299       0.0355054      -0.00025547    -1.57104e-05
                     0.000225972    -0.000158131         0.977465       0.0713253     -0.000355054      0.00016859       -0.0587207        0.155747
281742                -0.0352044     -0.00472228      4.33714e-05    -0.000136484        -0.579549        -0.81211      0.000193549    -5.83869e-05
                     6.52711e-05    -0.000238866        0.0368833        0.162269      -5.4601e-05     0.000272615         0.977688        0.070775
                        -0.57988       -0.811501     -5.81038e-05     0.000106488      -0.00688946        0.035511     -0.000255437    -1.55057e-05
                     0.000225886    -0.000158197         0.977485         0.07099     -0.000354945     0.000168831       -0.0586393        0.155804
281744                -0.0352112     -0.00470797      4.33783e-05    -0.000136627        -0.579769       -0.811953      0.000193605    -5.84696e-05
                     6.52594e-05    -0.000238884        0.0369062        0.162288     -5.44709e-05     0.000272646         0.977708       0.0704391
                         -0.5801       -0.811343     -5.80149e-05     0.000106628      -0.00688593       0.0355165     -0.000255404    -1.53009e-05
                       0.0002258    -0.000158264         0.977506       0.0706547     -0.000354836     0.000169073       -0.0585577         0.15586
281746                -0.0352179     -0.00469365      4.33854e-05    -0.000136771        -0.579989       -0.811795       0.00019366    -5.85525e-05
                     6.52477e-05    -0.000238903         0.036929        0.162308     -5.43409e-05     0.000272676         0.977728       0.0701032
                       -0.580321       -0.811185     -5.79258e-05     0.000106768      -0.00688239       0.0355221     -0.000255371     -1.5096e-05
                     0.000225713     -0.00015833         0.977527       0.0703194     -0.000354726     0.000169315       -0.0584762        0.155917
281748                -0.0352246     -0.00467932      4.33925e-05    -0.000136914        -0.580209       -0.811638      0.000193716    -5.86354e-05
                     6.52358e-05    -0.000238921        0.0369519        0.162328      -5.4211e-05     0.000272707         0.977748       0.0697673
                       -0.580541       -0.811027     -5.78365e-05     0.000106909      -0.00687885       0.0355277     -0.000255338     -1.4891e-05
                     0.000225627    -0.000158397         0.977547        0.069984     -0.000354616     0.000169556       -0.0583945        0.155973
281750                -0.0352313       -0.004665      4.33998e-05    -0.000137058        -0.580429        -0.81148      0.000193772    -5.87183e-05
                     6.52239e-05    -0.000238939        0.0369748        0.162348     -5.40812e-05     0.000272737         0.977768       0.0694313
                       -0.580761       -0.810869     -5.77469e-05      0.00010705      -0.00687531       0.0355333     -0.000255304    -1.46858e-05
                     0.000225541    -0.000158463         0.977567       0.0696487     -0.000354506     0.000169797       -0.0583129        0.156029
281752                 -0.035238     -0.00465068      4.34072e-05    -0.000137202        -0.580649       -0.811322      0.000193827    -5.88014e-05
                     6.52118e-05    -0.000238958        0.0369977        0.162368     -5.39515e-05     0.000272767         0.977788       0.0690954
                       -0.580981       -0.810711     -5.76572e-05     0.000107192      -0.00687177       0.0355388      -0.00025527    -1.44805e-05
                     0.000225455     -0.00015853         0.977588       0.0693133     -0.000354395     0.000170038       -0.0582311        0.156086
281754                -0.0352448     -0.00463635      4.34148e-05    -0.000137345        -0.580869       -0.811164      0.000193883    -5.88846e-05
                     6.51997e-05    -0.000238976        0.0370206        0.162388     -5.38218e-05     0.000272797         0.977808       0.0687595
                       -0.581201       -0.810552     -5.75673e-05     0.000107333      -0.00686822       0.0355444     -0.000255237    -1.42751e-05
                     0.000225369    -0.000158596         0.977608        0.068978     -0.000354284      0.00017028       -0.0581494        0.156142
281756                -0.0352515     -0.00462202      4.34225e-05    -0.000137489        -0.581089       -0.811007      0.000193938    -5.89678e-05
                     6.51875e-05    -0.000238994        0.0370434        0.162408     -5.36923e-05     0.000272827         0.977827       0.0684236
                        -0.58142       -0.810394     -5.74774e-05     0.000107476      -0.00686467         0.03555     -0.000255203    -1.40696e-05
                     0.000225283    -0.000158662         0.977628       0.0686426     -0.000354173      0.00017052       -0.0580676        0.156198
281758                -0.0352582      -0.0046077      4.34304e-05    -0.000137634        -0.581309       -0.810849      0.000193994    -5.90512e-05
                     6.51753e-05    -0.000239013        0.0370663        0.162428     -5.35628e-05     0.000272856         0.977847       0.0680876
                        -0.58164       -0.810236     -5.73875e-05     0.000107619      -0.00686111       0.0355556     -0.000255169    -1.38639e-05
                     0.000225197    -0.000158728         0.977648       0.0683073     -0.000354061     0.000170761       -0.0579857        0.156255
281760                -0.0352649     -0.00459337      4.34384e-05    -0.000137778        -0.581529       -0.810691      0.000194049    -5.91346e-05
                      6.5163e-05    -0.000239031        0.0370892        0.162448     -5.34334e-05     0.000272886         0.977866       0.0677517
                        -0.58186       -0.810077     -5.72976e-05     0.000107762      -0.00685755       0.0355612     -0.000255134    -1.36582e-05
                     0.000225111    -0.000158794         0.977668       0.0679719     -0.000353949     0.000171002       -0.0579038        0.156311
281762                -0.0352716     -0.00457903      4.34466e-05    -0.000137922        -0.581748       -0.810533      0.000194105    -5.92181e-05
                     6.51506e-05     -0.00023905        0.0371121        0.162468     -5.33041e-05     0.000272915         0.977886       0.0674157
                        -0.58208       -0.809919     -5.72079e-05     0.000107905      -0.00685399       0.0355668       -0.0002551    -1.34523e-05
