! TOUCHSTONE file generated by CST MICROWAVE STUDIO
! Date and time: Wed Oct 15 17:30:32 2025
! Project name: Teste_Macro_Metasurface_Nanopilar.cst
! Parameters = {H=600; L_x=115; L_y=165; Lambda=1064; Max_L=200; Min_L=70; PathPara=1; Phi=0; Step_L=10; Theta=0; p=520; phaseX=180; phaseY=0}
! Header version: 2018
! Port assignment regex: !\s*Touchstone port\s*([0-9]+)\s*=\s*(CST MWS port|CST DS port)\s*([0-9]+|Zmin|Zmax)\s*\(\"(.*)\"\)(\s*mode\s*([0-9]+))?.*
! Touchstone port assignment:
! Touchstone port 1 = CST MWS port Zmax ("") mode 1
! Touchstone port 2 = CST MWS port Zmax ("") mode 2
! Touchstone port 3 = CST MWS port Zmin ("") mode 1
! Touchstone port 4 = CST MWS port Zmin ("") mode 2
! S-Parameters are not renormalized. Each port impedance will be approximated by the real part at minimum frequency. The values are described via the [Reference] keyword.
! Default impedance is overridden by [Reference]
[Version] 2.0
# GHz S RI R 376.73
[Number of Ports] 4
[Reference]
376.73 376.73 259.888 259.888 
[Number of Frequencies] 51
[Network Data]
281700                  0.507989        0.485635      2.29704e-05     3.11716e-05         0.212813       -0.650876      0.000172999      0.00027949
                     6.38447e-05     0.000116456        0.0614857       0.0217798      5.23178e-06     0.000360991         0.728198        0.671676
                        0.213237       -0.650694      0.000157095     0.000476304         0.677557       -0.143527      -0.00023733     0.000502321
                      7.1139e-05     0.000226283         0.727757        0.671097     -9.14617e-05     0.000272602        -0.026265      -0.0569494
281702                  0.508443        0.485644      2.26687e-05     3.09456e-05          0.21221       -0.650684      0.000173208     0.000279138
                     6.34817e-05     0.000116385        0.0614832       0.0217982      5.36463e-06     0.000360646         0.728445        0.671408
                        0.212634       -0.650501      0.000157696     0.000475963          0.67771       -0.144382     -0.000236954     0.000502807
                     7.08909e-05     0.000226201         0.728004        0.670829     -9.12487e-05     0.000272474       -0.0263254      -0.0569262
281704                  0.508897        0.485652       2.2366e-05     3.07199e-05         0.211608        -0.65049      0.000173418     0.000278785
                     6.31184e-05     0.000116314        0.0614806       0.0218166      5.49684e-06       0.0003603         0.728693         0.67114
                        0.212032       -0.650308      0.000158298     0.000475621         0.677862       -0.145238     -0.000236576     0.000503292
                     7.06425e-05     0.000226119          0.72825         0.67056     -9.10357e-05     0.000272346       -0.0263858      -0.0569029
281706                  0.509352         0.48566      2.20623e-05     3.04943e-05         0.211005       -0.650296      0.000173628     0.000278432
                     6.27548e-05     0.000116245         0.061478        0.021835      5.62845e-06     0.000359954          0.72894        0.670872
                        0.211429       -0.650113        0.0001589     0.000475278         0.678012       -0.146095     -0.000236197     0.000503779
                     7.03938e-05     0.000226039         0.728497        0.670292     -9.08227e-05     0.000272217       -0.0264462      -0.0568796
281708                  0.509807        0.485667      2.17576e-05     3.02689e-05         0.210403       -0.650101      0.000173838     0.000278078
                     6.23907e-05     0.000116178        0.0614755       0.0218533      5.75948e-06     0.000359607         0.729187        0.670603
                        0.210826       -0.649918      0.000159502     0.000474934         0.678162       -0.146952     -0.000235817     0.000504266
                     7.01448e-05     0.000225959         0.728744        0.670024     -9.06097e-05     0.000272088       -0.0265065      -0.0568562
281710                  0.510263        0.485674       2.1452e-05     3.00436e-05           0.2098       -0.649904      0.000174047     0.000277723
                     6.20264e-05     0.000116111         0.061473       0.0218717      5.88996e-06      0.00035926         0.729435        0.670335
                        0.210223       -0.649721      0.000160105     0.000474589         0.678311       -0.147811     -0.000235436     0.000504754
                     6.98956e-05      0.00022588          0.72899        0.669755     -9.03967e-05     0.000271958       -0.0265668      -0.0568327
281712                   0.51072        0.485681      2.11453e-05     2.98185e-05         0.209197       -0.649707      0.000174257     0.000277368
                     6.16617e-05     0.000116046        0.0614704       0.0218901      6.01991e-06     0.000358912         0.729682        0.670067
                         0.20962       -0.649523      0.000160707     0.000474243         0.678458        -0.14867     -0.000235055     0.000505243
                      6.9646e-05     0.000225802         0.729237        0.669487     -9.01836e-05     0.000271827       -0.0266271      -0.0568092
281714                  0.511176        0.485687      2.08377e-05     2.95936e-05         0.208595       -0.649508      0.000174467     0.000277012
                     6.12967e-05     0.000115982        0.0614679       0.0219084      6.14934e-06     0.000358563         0.729929        0.669798
                        0.209017       -0.649325       0.00016131     0.000473895         0.678605       -0.149531     -0.000234672     0.000505733
                     6.93963e-05     0.000225725         0.729483        0.669218     -8.99704e-05     0.000271696       -0.0266874      -0.0567857
281716                  0.511634        0.485692      2.05291e-05     2.93689e-05         0.207992       -0.649309      0.000174677     0.000276655
                     6.09314e-05     0.000115919        0.0614654       0.0219268      6.27828e-06     0.000358214         0.730176        0.669529
                        0.208414       -0.649125      0.000161913     0.000473546         0.678751       -0.150392     -0.000234288     0.000506223
                     6.91462e-05     0.000225648         0.729729         0.66895     -8.97571e-05     0.000271564       -0.0267477      -0.0567621
281718                  0.512091        0.485697      2.02195e-05     2.91444e-05         0.207389       -0.649109      0.000174887     0.000276298
                     6.05658e-05     0.000115858        0.0614629       0.0219452      6.40674e-06     0.000357865         0.730422        0.669261
                        0.207811       -0.648925      0.000162516     0.000473196         0.678896       -0.151255     -0.000233903     0.000506714
                     6.88959e-05     0.000225573         0.729975        0.668681     -8.95437e-05     0.000271432       -0.0268079      -0.0567385
281720                   0.51255        0.485702       1.9909e-05       2.892e-05         0.206786       -0.648907      0.000175096      0.00027594
                     6.01999e-05     0.000115797        0.0614603       0.0219636      6.53475e-06     0.000357515         0.730669        0.668992
                        0.207208       -0.648723       0.00016312     0.000472845         0.679039       -0.152118     -0.000233518     0.000507206
                     6.86454e-05     0.000225498         0.730221        0.668412     -8.93301e-05     0.000271299       -0.0268681      -0.0567148
281722                  0.513008        0.485706      1.95974e-05     2.86959e-05         0.206183       -0.648705      0.000175306     0.000275581
                     5.98337e-05     0.000115738        0.0614578       0.0219819       6.6623e-06     0.000357164         0.730916        0.668723
                        0.206605       -0.648521      0.000163723     0.000472493         0.679182       -0.152983     -0.000233131     0.000507699
                     6.83946e-05     0.000225425         0.730467        0.668143     -8.91164e-05     0.000271165       -0.0269283       -0.056691
281724                  0.513467         0.48571      1.92849e-05     2.84719e-05          0.20558       -0.648501      0.000175516     0.000275221
                     5.94672e-05      0.00011568        0.0614553       0.0220003      6.78941e-06     0.000356813         0.731162        0.668454
                        0.206002       -0.648317      0.000164327      0.00047214         0.679324       -0.153848     -0.000232744     0.000508192
                     6.81435e-05     0.000225352         0.730713        0.667874     -8.89025e-05     0.000271031       -0.0269885      -0.0566672
281726                  0.513927        0.485713      1.89714e-05     2.82481e-05         0.204977       -0.648297      0.000175726     0.000274861
                     5.91005e-05     0.000115624        0.0614528       0.0220187       6.9161e-06     0.000356462         0.731409        0.668185
                        0.205399       -0.648112      0.000164931     0.000471786         0.679465       -0.154715     -0.000232355     0.000508686
                     6.78923e-05      0.00022528         0.730959        0.667605     -8.86884e-05     0.000270897       -0.0270486      -0.0566434
281728                  0.514387        0.485716      1.86569e-05     2.80245e-05         0.204374       -0.648091      0.000175936       0.0002745
                     5.87335e-05     0.000115568        0.0614504        0.022037      7.04237e-06      0.00035611         0.731655        0.667916
                        0.204795       -0.647907      0.000165536      0.00047143         0.679604       -0.155582     -0.000231966     0.000509181
                     6.76408e-05     0.000225209         0.731204        0.667336     -8.84742e-05     0.000270761       -0.0271088      -0.0566195
281730                  0.514848        0.485718      1.83414e-05     2.78011e-05         0.203771       -0.647885      0.000176146     0.000274139
                     5.83662e-05     0.000115514        0.0614479       0.0220554      7.16822e-06     0.000355757         0.731901        0.667647
                        0.204192         -0.6477       0.00016614     0.000471073         0.679743       -0.156451     -0.000231575     0.000509676
                      6.7389e-05     0.000225139          0.73145        0.667066     -8.82597e-05     0.000270626       -0.0271689      -0.0565955
281732                  0.515309         0.48572      1.80249e-05     2.75779e-05         0.203167       -0.647677      0.000176357     0.000273776
                     5.79987e-05     0.000115462        0.0614454       0.0220738      7.29367e-06     0.000355404         0.732147        0.667378
                        0.203589       -0.647492      0.000166745     0.000470716          0.67988        -0.15732     -0.000231184     0.000510173
                     6.71371e-05     0.000225069         0.731695        0.666797     -8.80451e-05     0.000270489        -0.027229      -0.0565715
281734                  0.515771        0.485721      1.77075e-05     2.73549e-05         0.202564       -0.647469      0.000176567     0.000273413
                      5.7631e-05      0.00011541        0.0614429       0.0220922      7.41871e-06     0.000355051         0.732393        0.667108
                        0.202985       -0.647284      0.000167349     0.000470357         0.680017        -0.15819     -0.000230792     0.000510669
                     6.68849e-05     0.000225001          0.73194        0.666528     -8.78302e-05     0.000270353        -0.027289      -0.0565474
281736                  0.516233        0.485722      1.73891e-05     2.71321e-05         0.201961       -0.647259      0.000176778      0.00027305
                      5.7263e-05      0.00011536        0.0614405       0.0221105      7.54336e-06     0.000354697         0.732639        0.666839
                        0.202382       -0.647074      0.000167954     0.000469997         0.680152       -0.159061       -0.0002304     0.000511167
                     6.66325e-05     0.000224933         0.732185        0.666258     -8.76151e-05     0.000270215       -0.0273491      -0.0565233
281738                  0.516696        0.485722      1.70697e-05     2.69095e-05         0.201357       -0.647049      0.000176989     0.000272688
                     5.68949e-05      0.00011531         0.061438       0.0221289      7.66761e-06     0.000354342         0.732885        0.666569
                        0.201778       -0.646863      0.000168559     0.000469636         0.680287       -0.159934     -0.000230007     0.000511662
                     6.63798e-05     0.000224866          0.73243        0.665988     -8.73998e-05     0.000270077       -0.0274091      -0.0564992
281740                  0.517159        0.485722      1.67493e-05     2.66872e-05         0.200754       -0.646837      0.000177197     0.000272327
                     5.65265e-05     0.000115263        0.0614356       0.0221473      7.79147e-06     0.000353988          0.73313          0.6663
                        0.201175       -0.646652      0.000169165     0.000469274          0.68042       -0.160807     -0.000229609     0.000512154
                      6.6127e-05       0.0002248         0.732675        0.665719     -8.71842e-05     0.000269939       -0.0274691       -0.056475
281742                  0.517623        0.485721       1.6428e-05     2.64651e-05         0.200151       -0.646625      0.000177401      0.00027196
                     5.61579e-05     0.000115216        0.0614331       0.0221656      7.91494e-06     0.000353632         0.733376        0.666029
                        0.200571       -0.646439       0.00016977     0.000468911         0.680553       -0.161681     -0.000229203     0.000512657
                     6.58739e-05     0.000224735          0.73292        0.665449     -8.69684e-05     0.000269799       -0.0275291      -0.0564506
281744                  0.518087         0.48572      1.61059e-05     2.62433e-05         0.199547       -0.646411       0.00017761     0.000271589
                      5.5789e-05      0.00011517        0.0614307        0.022184      8.03801e-06     0.000353276         0.733621         0.66576
                        0.199967       -0.646225      0.000170375     0.000468547         0.680684       -0.162556     -0.000228804     0.000513163
                     6.56206e-05      0.00022467         0.733165        0.665179     -8.67524e-05      0.00026966        -0.027589      -0.0564264
281746                  0.518552        0.485719      1.57831e-05     2.60219e-05         0.198944       -0.646196      0.000177821      0.00027122
                       5.542e-05     0.000115126        0.0614283       0.0222024      8.16068e-06      0.00035292         0.733867         0.66549
                        0.199364        -0.64601       0.00017098     0.000468183         0.680814       -0.163432     -0.000228406     0.000513667
                     6.53671e-05     0.000224607          0.73341        0.664909     -8.65362e-05     0.000269519        -0.027649       -0.056402
281748                  0.519017        0.485716      1.54624e-05     2.58026e-05          0.19834       -0.645981      0.000178032     0.000270851
                     5.50507e-05     0.000115083        0.0614258       0.0222207      8.28296e-06     0.000352563         0.734112         0.66522
                         0.19876       -0.645794      0.000171576     0.000467827         0.680944       -0.164309     -0.000228007      0.00051417
                     6.51132e-05     0.000224544         0.733654        0.664639     -8.63197e-05     0.000269379       -0.0277089      -0.0563776
281750                  0.519482        0.485714      1.51268e-05     2.55759e-05         0.197737       -0.645764      0.000178242     0.000270481
                      5.4681e-05     0.000115041        0.0614234       0.0222391      8.40484e-06     0.000352206         0.734357         0.66495
                        0.198156       -0.645578      0.000172202     0.000467432         0.681072       -0.165188     -0.000227607     0.000514674
                     6.48589e-05     0.000224482         0.733898        0.664369     -8.61029e-05     0.000269237       -0.0277688      -0.0563531
281752                  0.519949        0.485711      1.48034e-05     2.53561e-05         0.197133       -0.645546      0.000178453     0.000270111
                     5.43103e-05     0.000114999         0.061421       0.0222575      8.52632e-06     0.000351849         0.734602         0.66468
                        0.197553        -0.64536      0.000172804      0.00046707         0.681199       -0.166067     -0.000227205     0.000515179
                     6.46034e-05     0.000224421         0.734143        0.664099      -8.5886e-05     0.000269095       -0.0278287      -0.0563286
281754                  0.520415        0.485707      1.44767e-05     2.51355e-05          0.19653       -0.645328      0.000178663      0.00026974
                      5.3928e-05     0.000114961        0.0614186       0.0222758      8.64739e-06      0.00035149         0.734847         0.66441
                        0.196949       -0.645141       0.00017341     0.000466702         0.681325       -0.166947     -0.000226803     0.000515684
                     6.46631e-05     0.000224339         0.734387        0.663828     -8.56688e-05     0.000268953       -0.0278885       -0.056304
281756                  0.520882        0.485703      1.41485e-05      2.4915e-05         0.195926       -0.645108      0.000178874     0.000269369
                     5.35731e-05     0.000114932        0.0614162       0.0222942      8.76805e-06     0.000351132         0.735092        0.664139
                        0.196345       -0.644921      0.000174017     0.000466331          0.68145       -0.167828     -0.000226399      0.00051619
                     6.41012e-05     0.000224302         0.734631        0.663558     -8.54514e-05      0.00026881       -0.0279483      -0.0562794
281758                   0.52135        0.485699      1.38193e-05     2.46946e-05         0.195323       -0.644887      0.000179084     0.000268997
                     5.32039e-05     0.000114892        0.0614138       0.0223126      8.88828e-06     0.000350773         0.735337        0.663869
                        0.195741         -0.6447      0.000174623     0.000465959         0.681574        -0.16871     -0.000225994     0.000516697
                     6.38452e-05     0.000224243         0.734875        0.663288     -8.52338e-05     0.000268666       -0.0280081      -0.0562547
281760                  0.521818        0.485694       1.3489e-05     2.44744e-05         0.194719       -0.644665      0.000179294     0.000268624
                     5.28339e-05     0.000114856        0.0614114       0.0223309       9.0081e-06     0.000350413         0.735581        0.663598
                        0.195138       -0.644478       0.00017523     0.000465586         0.681697       -0.169592     -0.000225588     0.000517204
                       6.359e-05     0.000224185         0.735119        0.663017     -8.50159e-05     0.000268522       -0.0280679        -0.05623
281762                  0.522287        0.485688      1.31576e-05     2.42544e-05         0.194115       -0.644442      0.000179505      0.00026825
                     5.24637e-05     0.000114821         0.061409       0.0223493      9.12748e-06     0.000350053         0.735826        0.663328
                        0.194534       -0.644255      0.000175837     0.000465212         0.681819       -0.170476     -0.000225181     0.000517712
