! TOUCHSTONE file generated by CST MICROWAVE STUDIO
! Date and time: Wed Oct 15 17:29:16 2025
! Project name: Teste_Macro_Metasurface_Nanopilar.cst
! Parameters = {H=600; L_x=95; L_y=120; Lambda=1064; Max_L=200; Min_L=70; PathPara=1; Phi=0; Step_L=10; Theta=0; p=520; phaseX=180; phaseY=0}
! Header version: 2018
! Port assignment regex: !\s*Touchstone port\s*([0-9]+)\s*=\s*(CST MWS port|CST DS port)\s*([0-9]+|Zmin|Zmax)\s*\(\"(.*)\"\)(\s*mode\s*([0-9]+))?.*
! Touchstone port assignment:
! Touchstone port 1 = CST MWS port Zmax ("") mode 1
! Touchstone port 2 = CST MWS port Zmax ("") mode 2
! Touchstone port 3 = CST MWS port Zmin ("") mode 1
! Touchstone port 4 = CST MWS port Zmin ("") mode 2
! S-Parameters are not renormalized. Each port impedance will be approximated by the real part at minimum frequency. The values are described via the [Reference] keyword.
! Default impedance is overridden by [Reference]
[Version] 2.0
# GHz S RI R 376.73
[Number of Ports] 4
[Reference]
376.73 376.73 259.888 259.888 
[Number of Frequencies] 51
[Network Data]
281700                  0.167268       0.0189505      -1.0636e-05     6.67118e-05        -0.942693        0.262084     -2.46283e-05    -0.000289765
                     4.50589e-05     2.20249e-05       -0.0231015       0.0051117      0.000174438    -9.30823e-05        -0.601127       -0.796027
                       -0.942856        0.261347      0.000126457    -0.000213806        -0.132736        0.102725     -4.00823e-05     2.33506e-05
                     1.15216e-05    -0.000230496        -0.600882       -0.796621     -0.000190678    -8.06889e-05         -0.01133       0.0215588
281702                  0.167277       0.0189287     -1.05812e-05     6.67026e-05        -0.942595        0.262431     -2.46924e-05    -0.000289766
                     4.52338e-05     2.19981e-05       -0.0231052      0.00512795      0.000174533    -9.33262e-05        -0.601348        -0.79586
                       -0.942757        0.261694      0.000126359    -0.000213891         -0.13268        0.102808      -4.0147e-05     2.33524e-05
                     1.13276e-05    -0.000230486        -0.601102       -0.796454     -0.000190747    -8.05425e-05       -0.0113347       0.0215643
281704                  0.167286       0.0189068     -1.05265e-05     6.66934e-05        -0.942497        0.262778     -2.47564e-05    -0.000289766
                      4.5408e-05     2.19715e-05       -0.0231089       0.0051442      0.000174629    -9.35705e-05        -0.601569       -0.795693
                       -0.942659        0.262041      0.000126262    -0.000213975        -0.132623        0.102892     -4.02117e-05     2.33542e-05
                     1.11346e-05    -0.000230477        -0.601323       -0.796287     -0.000190816    -8.03961e-05       -0.0113394       0.0215697
281706                  0.167295        0.018885     -1.04719e-05     6.66841e-05        -0.942398        0.263125     -2.48205e-05    -0.000289767
                     4.55817e-05     2.19449e-05       -0.0231126      0.00516045      0.000174724     -9.3815e-05         -0.60179       -0.795526
                       -0.942561        0.262388      0.000126164     -0.00021406        -0.132567        0.102975     -4.02763e-05      2.3356e-05
                     1.09425e-05    -0.000230467        -0.601544        -0.79612     -0.000190884    -8.02497e-05        -0.011344       0.0215752
281708                  0.167304       0.0188631     -1.04172e-05     6.66747e-05        -0.942299        0.263472     -2.48845e-05    -0.000289768
                     4.57547e-05     2.19185e-05       -0.0231163       0.0051767      0.000174818    -9.40598e-05         -0.60201       -0.795359
                       -0.942462        0.262734      0.000126067    -0.000214144         -0.13251        0.103059     -4.03409e-05     2.33579e-05
                     1.07512e-05    -0.000230457        -0.601765       -0.795953     -0.000190951    -8.01032e-05       -0.0113487       0.0215807
281710                  0.167312       0.0188413     -1.03627e-05     6.66652e-05          -0.9422        0.263818     -2.49485e-05    -0.000289768
                     4.59272e-05     2.18921e-05         -0.02312      0.00519295      0.000174912    -9.43049e-05        -0.602231       -0.795191
                       -0.942363        0.263081      0.000125969    -0.000214228        -0.132453        0.103142     -4.04054e-05     2.33598e-05
                     1.05607e-05    -0.000230448        -0.601986       -0.795785     -0.000191018    -7.99567e-05       -0.0113534       0.0215862
281712                  0.167321       0.0188194     -1.03081e-05     6.66557e-05        -0.942101        0.264165     -2.50126e-05    -0.000289769
                      4.6099e-05     2.18658e-05       -0.0231237       0.0052092      0.000175005    -9.45503e-05        -0.602452       -0.795024
                       -0.942265        0.263428      0.000125871    -0.000214312        -0.132396        0.103225     -4.04698e-05     2.33617e-05
                      1.0371e-05    -0.000230439        -0.602206       -0.795618     -0.000191084    -7.98102e-05       -0.0113581       0.0215917
281714                   0.16733       0.0187975     -1.02536e-05      6.6646e-05        -0.942002        0.264512     -2.50766e-05     -0.00028977
                     4.62703e-05     2.18396e-05       -0.0231274      0.00522546      0.000175098     -9.4796e-05        -0.602672       -0.794857
                       -0.942166        0.263775      0.000125774    -0.000214396        -0.132339        0.103309     -4.05341e-05     2.33637e-05
                     1.01821e-05     -0.00023043        -0.602427       -0.795451     -0.000191149    -7.96636e-05       -0.0113628       0.0215972
281716                  0.167339       0.0187757     -1.01992e-05     6.66363e-05        -0.941903        0.264859     -2.51406e-05    -0.000289771
                      4.6441e-05     2.18133e-05       -0.0231311      0.00524171      0.000175191     -9.5042e-05        -0.602893       -0.794689
                       -0.942067        0.264121      0.000125676     -0.00021448        -0.132282        0.103392     -4.05983e-05     2.33657e-05
                     9.99389e-06    -0.000230421        -0.602648       -0.795283     -0.000191214    -7.95171e-05       -0.0113675       0.0216028
281718                  0.167348       0.0187538     -1.01448e-05     6.66264e-05        -0.941803        0.265205     -2.52046e-05    -0.000289772
                      4.6611e-05     2.17872e-05       -0.0231348      0.00525797      0.000175283    -9.52882e-05        -0.603114       -0.794522
                       -0.941967        0.264468      0.000125578    -0.000214564        -0.132225        0.103475     -4.06625e-05     2.33677e-05
                     9.80639e-06    -0.000230412        -0.602868       -0.795116     -0.000191279    -7.93705e-05       -0.0113721       0.0216083
281720                  0.167357       0.0187319     -1.00904e-05     6.66165e-05        -0.941704        0.265552     -2.52686e-05    -0.000289773
                     4.67805e-05      2.1761e-05       -0.0231384      0.00527422      0.000175375    -9.55347e-05        -0.603334       -0.794354
                       -0.941868        0.264815      0.000125481    -0.000214647        -0.132168        0.103558     -4.07266e-05     2.33697e-05
                     9.61955e-06    -0.000230404        -0.603089       -0.794948     -0.000191342    -7.92238e-05       -0.0113768       0.0216138
281722                  0.167366         0.01871     -1.00361e-05     6.66065e-05        -0.941604        0.265899     -2.53326e-05    -0.000289774
                     4.69494e-05     2.17348e-05       -0.0231421      0.00529048      0.000175466    -9.57815e-05        -0.603555       -0.794187
                       -0.941768        0.265161      0.000125383    -0.000214731        -0.132111        0.103642     -4.07907e-05     2.33718e-05
                     9.43336e-06    -0.000230395        -0.603309        -0.79478     -0.000191406    -7.90772e-05       -0.0113815       0.0216194
281724                  0.167374       0.0186881     -9.98182e-06     6.65964e-05        -0.941504        0.266245     -2.53966e-05    -0.000289775
                     4.71176e-05     2.17086e-05       -0.0231458      0.00530674      0.000175556    -9.60286e-05        -0.603775       -0.794019
                       -0.941669        0.265508      0.000125285    -0.000214814        -0.132054        0.103725     -4.08546e-05     2.33739e-05
                     9.24778e-06    -0.000230387        -0.603529       -0.794613     -0.000191469    -7.89305e-05       -0.0113861       0.0216249
281726                  0.167383       0.0186662     -9.92759e-06     6.65863e-05        -0.941404        0.266592     -2.54606e-05    -0.000289776
                     4.72853e-05     2.16823e-05       -0.0231495        0.005323      0.000175646    -9.62759e-05        -0.603996       -0.793851
                       -0.941569        0.265854      0.000125187    -0.000214898        -0.131997        0.103808     -4.09185e-05     2.33761e-05
                      9.0628e-06    -0.000230379         -0.60375       -0.794445     -0.000191531    -7.87838e-05       -0.0113908       0.0216305
281728                  0.167392       0.0186443      -9.8734e-06      6.6576e-05        -0.941304        0.266939     -2.55246e-05    -0.000289777
                     4.74524e-05     2.16561e-05       -0.0231531      0.00533926      0.000175736    -9.65235e-05        -0.604216       -0.793683
                       -0.941469        0.266201       0.00012509    -0.000214981        -0.131939        0.103891     -4.09823e-05     2.33783e-05
                     8.87839e-06    -0.000230371         -0.60397       -0.794277     -0.000191592    -7.86371e-05       -0.0113955       0.0216361
281730                  0.167401       0.0186224     -9.81925e-06     6.65656e-05        -0.941204        0.267285     -2.55886e-05    -0.000289778
                     4.76188e-05     2.16298e-05       -0.0231568      0.00535552      0.000175825    -9.67713e-05        -0.604436       -0.793515
                       -0.941369        0.266547      0.000124992    -0.000215064        -0.131882        0.103974     -4.10461e-05     2.33805e-05
                     8.69452e-06    -0.000230363         -0.60419       -0.794109     -0.000191653    -7.84904e-05       -0.0114001       0.0216417
281732                   0.16741       0.0186005     -9.76514e-06     6.65552e-05        -0.941104        0.267632     -2.56525e-05    -0.000289779
                     4.77847e-05     2.16034e-05       -0.0231605      0.00537178      0.000175914    -9.70194e-05        -0.604656       -0.793347
                       -0.941269        0.266894      0.000124895    -0.000215146        -0.131825        0.104057     -4.11098e-05     2.33827e-05
                     8.51117e-06    -0.000230355        -0.604411       -0.793941     -0.000191714    -7.83436e-05       -0.0114048       0.0216473
281734                  0.167418       0.0185786     -9.71108e-06     6.65446e-05        -0.941003        0.267978     -2.57165e-05    -0.000289781
                       4.795e-05     2.15769e-05       -0.0231641      0.00538804      0.000176002    -9.72677e-05        -0.604877       -0.793179
                       -0.941169         0.26724      0.000124797    -0.000215229        -0.131767         0.10414     -4.11733e-05      2.3385e-05
                     8.32834e-06    -0.000230347        -0.604631       -0.793773     -0.000191774    -7.81969e-05       -0.0114094       0.0216529
281736                  0.167427       0.0185567     -9.65706e-06     6.65339e-05        -0.940903        0.268325     -2.57805e-05    -0.000289782
                     4.81147e-05     2.15503e-05       -0.0231678      0.00540431       0.00017609    -9.75163e-05        -0.605097       -0.793011
                       -0.941068        0.267587        0.0001247    -0.000215312         -0.13171        0.104223     -4.12369e-05     2.33873e-05
                     8.14598e-06     -0.00023034        -0.604851       -0.793605     -0.000191833    -7.80501e-05       -0.0114141       0.0216585
281738                  0.167436       0.0185347     -9.60309e-06     6.65232e-05        -0.940802        0.268671     -2.58444e-05    -0.000289783
                     4.82789e-05     2.15237e-05       -0.0231714      0.00542057      0.000176178    -9.77651e-05        -0.605317       -0.792843
                       -0.940968        0.267933      0.000124603    -0.000215394        -0.131652        0.104306     -4.13003e-05     2.33896e-05
                     7.96409e-06    -0.000230332        -0.605071       -0.793437     -0.000191892    -7.79034e-05       -0.0114187       0.0216641
281740                  0.167445       0.0185128     -9.54915e-06     6.65123e-05        -0.940701        0.269017     -2.59084e-05    -0.000289785
                     4.84424e-05     2.14969e-05       -0.0231751      0.00543684      0.000176264    -9.80142e-05        -0.605537       -0.792675
                       -0.940867        0.268279      0.000124506    -0.000215477        -0.131595        0.104389     -4.13637e-05      2.3392e-05
                     7.78264e-06    -0.000230325        -0.605291       -0.793269     -0.000191951    -7.77566e-05       -0.0114234       0.0216697
281742                  0.167454       0.0184909     -9.49526e-06     6.65014e-05          -0.9406        0.269364     -2.59723e-05    -0.000289786
                     4.86053e-05       2.147e-05       -0.0231787       0.0054531      0.000176351    -9.82635e-05        -0.605757       -0.792507
                       -0.940766        0.268626      0.000124409    -0.000215559        -0.131537        0.104472      -4.1427e-05     2.33944e-05
                     7.60162e-06    -0.000230317        -0.605511         -0.7931     -0.000192008    -7.76098e-05        -0.011428       0.0216754
281744                  0.167462       0.0184689     -9.44141e-06     6.64903e-05        -0.940499         0.26971     -2.60362e-05    -0.000289787
                     4.87677e-05      2.1443e-05       -0.0231824      0.00546937      0.000176437     -9.8513e-05        -0.605977       -0.792338
                       -0.940666        0.268972      0.000124313    -0.000215642        -0.131479        0.104554     -4.14902e-05     2.33968e-05
                     7.42101e-06     -0.00023031        -0.605731       -0.792932     -0.000192066     -7.7463e-05       -0.0114327        0.021681
281746                  0.167471        0.018447      -9.3876e-06     6.64791e-05        -0.940398        0.270056     -2.61002e-05    -0.000289789
                     4.89295e-05     2.14158e-05        -0.023186      0.00548564      0.000176522    -9.87628e-05        -0.606197        -0.79217
                       -0.940565        0.269318      0.000124216    -0.000215724        -0.131421        0.104637     -4.15533e-05     2.33993e-05
                      7.2408e-06    -0.000230303        -0.605951       -0.792764     -0.000192122    -7.73162e-05       -0.0114373       0.0216867
281748                   0.16748        0.018425     -9.33384e-06     6.64678e-05        -0.940297        0.270403     -2.61641e-05     -0.00028979
                     4.90907e-05     2.13885e-05       -0.0231896      0.00550191      0.000176607    -9.90128e-05        -0.606417       -0.792001
                       -0.940463        0.269664       0.00012412    -0.000215807        -0.131364         0.10472     -4.16164e-05     2.34018e-05
                     7.06096e-06    -0.000230296        -0.606171       -0.792595     -0.000192178    -7.71694e-05       -0.0114419       0.0216923
281750                  0.167489        0.018403     -9.28011e-06     6.64563e-05        -0.940195        0.270749      -2.6228e-05    -0.000289792
                     4.92513e-05      2.1361e-05       -0.0231933      0.00551818      0.000176692     -9.9263e-05        -0.606637       -0.791833
                       -0.940362        0.270011      0.000124024    -0.000215889        -0.131306        0.104803     -4.16794e-05     2.34043e-05
                     6.88148e-06    -0.000230289        -0.606391       -0.792427     -0.000192234    -7.70227e-05       -0.0114466        0.021698
281752                  0.167497       0.0183811     -9.22643e-06     6.64447e-05        -0.940093        0.271095     -2.62919e-05    -0.000289793
                     4.94113e-05     2.13334e-05       -0.0231969      0.00553445      0.000176776    -9.95135e-05        -0.606857       -0.791664
                       -0.940261        0.270357      0.000123927    -0.000215972        -0.131248        0.104885     -4.17423e-05     2.34069e-05
                     6.70235e-06    -0.000230282         -0.60661       -0.792258     -0.000192289    -7.68759e-05       -0.0114512       0.0217037
281754                  0.167506       0.0183591     -9.17281e-06     6.64329e-05        -0.939992        0.271441     -2.63558e-05    -0.000289795
                     4.95708e-05     2.13055e-05       -0.0232005      0.00555072       0.00017686    -9.97641e-05        -0.607077       -0.791496
                       -0.940159        0.270703      0.000123831    -0.000216054         -0.13119        0.104968     -4.18052e-05     2.34094e-05
                     6.52354e-06    -0.000230276         -0.60683       -0.792089     -0.000192344    -7.67291e-05       -0.0114558       0.0217094
281756                  0.167515       0.0183371     -9.11923e-06     6.64209e-05         -0.93989        0.271788     -2.64197e-05    -0.000289796
                     4.97297e-05     2.12775e-05       -0.0232041      0.00556699      0.000176943    -0.000100015        -0.607296       -0.791327
                       -0.940057        0.271049      0.000123735    -0.000216137        -0.131132         0.10505     -4.18679e-05     2.34121e-05
                     6.34505e-06    -0.000230269         -0.60705       -0.791921     -0.000192398    -7.65823e-05       -0.0114604       0.0217151
281758                  0.167523       0.0183151     -9.06575e-06     6.64086e-05        -0.939788        0.272134     -2.64836e-05    -0.000289798
                     4.98881e-05     2.12492e-05       -0.0232077      0.00558327      0.000177026    -0.000100266        -0.607516       -0.791158
                       -0.939956        0.271395      0.000123639     -0.00021622        -0.131073        0.105133     -4.19306e-05     2.34147e-05
                     6.16685e-06    -0.000230262         -0.60727       -0.791752     -0.000192451    -7.64355e-05       -0.0114651       0.0217208
281760                  0.167532       0.0182931      -9.0124e-06      6.6396e-05        -0.939686         0.27248     -2.65475e-05      -0.0002898
                     5.00459e-05     2.12207e-05       -0.0232114      0.00559954      0.000177108    -0.000100517        -0.607736       -0.790989
                       -0.939854        0.271741      0.000123542    -0.000216302        -0.131015        0.105216     -4.19932e-05     2.34174e-05
                     5.98894e-06    -0.000230256        -0.607489       -0.791583     -0.000192504    -7.62888e-05       -0.0114697       0.0217265
281762                  0.167541       0.0182712     -8.95933e-06     6.63828e-05        -0.939583        0.272826     -2.66114e-05    -0.000289801
                     5.02031e-05      2.1192e-05        -0.023215      0.00561582       0.00017719    -0.000100769        -0.607955        -0.79082
                       -0.939752        0.272087      0.000123446    -0.000216384        -0.130957        0.105298     -4.20557e-05     2.34201e-05
