! TOUCHSTONE file generated by CST MICROWAVE STUDIO
! Date and time: Wed Oct 15 17:28:44 2025
! Project name: Teste_Macro_Metasurface_Nanopilar.cst
! Parameters = {H=600; L_x=85; L_y=130; Lambda=1064; Max_L=200; Min_L=70; PathPara=1; Phi=0; Step_L=10; Theta=0; p=520; phaseX=180; phaseY=0}
! Header version: 2018
! Port assignment regex: !\s*Touchstone port\s*([0-9]+)\s*=\s*(CST MWS port|CST DS port)\s*([0-9]+|Zmin|Zmax)\s*\(\"(.*)\"\)(\s*mode\s*([0-9]+))?.*
! Touchstone port assignment:
! Touchstone port 1 = CST MWS port Zmax ("") mode 1
! Touchstone port 2 = CST MWS port Zmax ("") mode 2
! Touchstone port 3 = CST MWS port Zmin ("") mode 1
! Touchstone port 4 = CST MWS port Zmin ("") mode 2
! S-Parameters are not renormalized. Each port impedance will be approximated by the real part at minimum frequency. The values are described via the [Reference] keyword.
! Default impedance is overridden by [Reference]
[Version] 2.0
# GHz S RI R 376.73
[Number of Ports] 4
[Reference]
376.73 376.73 259.888 259.888 
[Number of Frequencies] 51
[Network Data]
281700                  0.168401      -0.0791423     -0.000322936    -5.00423e-05        -0.792357        0.566024     -0.000451899     0.000752493
                    -0.000236655    -5.21858e-05       -0.0139385      -0.0583102     -0.000147222     0.000812662         -0.30637       -0.948298
                       -0.792955        0.565883     -0.000159795     0.000639069         -0.12956        0.133057      0.000253053     0.000111119
                    -0.000404652     0.000684514        -0.305909       -0.948696      0.000238399     0.000181814         0.022608       0.0557566
281702                  0.168382      -0.0791684     -0.000323019    -4.98727e-05        -0.792138         0.56633     -0.000451682     0.000752631
                    -0.000236712    -5.21283e-05       -0.0139488      -0.0583019     -0.000146941     0.000812777        -0.306613       -0.948219
                       -0.792736        0.566189     -0.000159609     0.000639194        -0.129476         0.13313      0.000253135     0.000111199
                    -0.000404444     0.000684696        -0.306152       -0.948617      0.000238492     0.000181871        0.0226233       0.0557443
281704                  0.168363      -0.0791945     -0.000323101     -4.9703e-05        -0.791919        0.566637     -0.000451466     0.000752769
                    -0.000236769    -5.20708e-05        -0.013959      -0.0582936     -0.000146659     0.000812892        -0.306856        -0.94814
                       -0.792518        0.566496     -0.000159423     0.000639318        -0.129392        0.133204      0.000253217     0.000111279
                    -0.000404235     0.000684877        -0.306394       -0.948539      0.000238585     0.000181927        0.0226386       0.0557319
281706                  0.168344      -0.0792206     -0.000323184    -4.95332e-05        -0.791701        0.566943      -0.00045125     0.000752906
                    -0.000236826    -5.20134e-05       -0.0139693      -0.0582852     -0.000146378     0.000813007        -0.307099        -0.94806
                       -0.792299        0.566802     -0.000159237     0.000639443        -0.129308        0.133277      0.000253299     0.000111359
                    -0.000404026     0.000685059        -0.306637       -0.948461      0.000238677     0.000181984         0.022654       0.0557196
281708                  0.168325      -0.0792467     -0.000323267    -4.93633e-05        -0.791482         0.56725     -0.000451035     0.000753044
                    -0.000236883    -5.19561e-05       -0.0139795      -0.0582769     -0.000146096     0.000813122        -0.307342       -0.947981
                       -0.792081        0.567108     -0.000159051     0.000639567        -0.129224         0.13335      0.000253382     0.000111439
                    -0.000403818      0.00068524         -0.30688       -0.948382       0.00023877      0.00018204        0.0226693       0.0557072
281710                  0.168307      -0.0792728     -0.000323349    -4.91934e-05        -0.791263        0.567556     -0.000450819     0.000753182
                     -0.00023694    -5.18989e-05       -0.0139897      -0.0582685     -0.000145814     0.000813237        -0.307585       -0.947902
                       -0.791862        0.567415     -0.000158865     0.000639691         -0.12914        0.133423      0.000253465     0.000111518
                    -0.000403608     0.000685421        -0.307123       -0.948303      0.000238863     0.000182097        0.0226846       0.0556949
281712                  0.168288      -0.0792989     -0.000323431    -4.90234e-05        -0.791044        0.567862     -0.000450603     0.000753319
                    -0.000236997    -5.18419e-05           -0.014      -0.0582602     -0.000145532     0.000813351        -0.307828       -0.947823
                       -0.791643        0.567721     -0.000158679     0.000639816        -0.129056        0.133497      0.000253548     0.000111598
                    -0.000403399     0.000685602        -0.307366       -0.948225      0.000238956     0.000182154        0.0226999       0.0556825
281714                  0.168269       -0.079325     -0.000323514    -4.88534e-05        -0.790824        0.568168     -0.000450388     0.000753456
                    -0.000237053    -5.17851e-05       -0.0140102      -0.0582518      -0.00014525     0.000813466        -0.308071       -0.947743
                       -0.791424        0.568027     -0.000158492      0.00063994        -0.128972         0.13357      0.000253631     0.000111678
                     -0.00040319     0.000685782        -0.307609       -0.948146      0.000239049     0.000182211        0.0227152       0.0556702
281716                   0.16825      -0.0793511     -0.000323596    -4.86834e-05        -0.790605        0.568474     -0.000450172     0.000753594
                     -0.00023711    -5.17284e-05       -0.0140205      -0.0582435     -0.000144968      0.00081358        -0.308314       -0.947664
                       -0.791205        0.568333     -0.000158306     0.000640064        -0.128887        0.133643      0.000253714     0.000111758
                     -0.00040298     0.000685963        -0.307851       -0.948067      0.000239142     0.000182267        0.0227305       0.0556578
281718                  0.168231      -0.0793771     -0.000323678    -4.85133e-05        -0.790386         0.56878     -0.000449957      0.00075373
                    -0.000237166    -5.16719e-05       -0.0140307      -0.0582351     -0.000144685     0.000813695        -0.308557       -0.947584
                       -0.790985        0.568639     -0.000158119     0.000640189        -0.128803        0.133716      0.000253798     0.000111837
                     -0.00040277     0.000686143        -0.308094       -0.947988      0.000239235     0.000182324        0.0227458       0.0556454
281720                  0.168212      -0.0794032     -0.000323759    -4.83432e-05        -0.790166        0.569086     -0.000449741     0.000753867
                    -0.000237222    -5.16155e-05       -0.0140409      -0.0582267     -0.000144403     0.000813809        -0.308799       -0.947505
                       -0.790766        0.568945     -0.000157933     0.000640313        -0.128719        0.133789      0.000253882     0.000111917
                    -0.000402559     0.000686322        -0.308337       -0.947909      0.000239328     0.000182381        0.0227611       0.0556331
281722                  0.168193      -0.0794293     -0.000323841     -4.8173e-05        -0.789946        0.569392     -0.000449526     0.000754004
                    -0.000237278    -5.15592e-05       -0.0140512      -0.0582184      -0.00014412     0.000813923        -0.309042       -0.947425
                       -0.790547        0.569251     -0.000157746     0.000640437        -0.128634        0.133862      0.000253966     0.000111997
                    -0.000402347     0.000686501         -0.30858        -0.94783      0.000239422     0.000182438        0.0227763       0.0556207
281724                  0.168174      -0.0794554     -0.000323923    -4.80029e-05        -0.789726        0.569698     -0.000449311     0.000754141
                    -0.000237333    -5.15028e-05       -0.0140614        -0.05821     -0.000143837     0.000814037        -0.309285       -0.947345
                       -0.790327        0.569556     -0.000157559     0.000640561         -0.12855        0.133934       0.00025405     0.000112077
                    -0.000402134     0.000686679        -0.308822       -0.947751      0.000239515     0.000182495        0.0227916       0.0556083
281726                  0.168155      -0.0794814     -0.000324004    -4.78328e-05        -0.789506        0.570003     -0.000449096     0.000754277
                    -0.000237388    -5.14463e-05       -0.0140716      -0.0582017     -0.000143554     0.000814151        -0.309528       -0.947266
                       -0.790107        0.569862     -0.000157372     0.000640685        -0.128465        0.134007      0.000254134     0.000112156
                    -0.000401917     0.000686859        -0.309065       -0.947672      0.000239608     0.000182552        0.0228069        0.055596
281728                  0.168136      -0.0795075     -0.000324085    -4.76626e-05        -0.789286        0.570309      -0.00044888     0.000754413
                    -0.000237443    -5.13895e-05       -0.0140818      -0.0581933      -0.00014327     0.000814265         -0.30977       -0.947186
                       -0.789887        0.570168     -0.000157185      0.00064081        -0.128381         0.13408      0.000254219     0.000112236
                    -0.000401698     0.000687045        -0.309307       -0.947592      0.000239702     0.000182608        0.0228221       0.0555836
281730                  0.168117      -0.0795335     -0.000324167    -4.74925e-05        -0.789066        0.570614     -0.000448666     0.000754549
                    -0.000237497    -5.13324e-05       -0.0140921      -0.0581849     -0.000142986     0.000814378        -0.310013       -0.947106
                       -0.789667        0.570473     -0.000156998     0.000640934        -0.128296        0.134153      0.000254304     0.000112316
                    -0.000401488     0.000687238         -0.30955       -0.947513      0.000239795     0.000182665        0.0228374       0.0555712
281732                  0.168098      -0.0795596     -0.000324248    -4.73224e-05        -0.788846         0.57092     -0.000448451     0.000754685
                    -0.000237551    -5.12748e-05       -0.0141023      -0.0581766     -0.000142702     0.000814492        -0.310256       -0.947026
                       -0.789447        0.570779      -0.00015681     0.000641058        -0.128212        0.134225      0.000254389     0.000112395
                    -0.000401284     0.000687423        -0.309793       -0.947434      0.000239889     0.000182722        0.0228526       0.0555588
281734                  0.168078      -0.0795856     -0.000324329    -4.71524e-05        -0.788625        0.571225     -0.000448236     0.000754821
                    -0.000237605    -5.12167e-05       -0.0141125      -0.0581682     -0.000142418     0.000814605        -0.310499       -0.946946
                       -0.789227        0.571084     -0.000156623     0.000641182        -0.128127        0.134298      0.000254474     0.000112475
                    -0.000401078     0.000687603        -0.310035       -0.947354      0.000239982     0.000182779        0.0228679       0.0555464
281736                  0.168059      -0.0796117      -0.00032441    -4.69824e-05        -0.788405        0.571531     -0.000448021     0.000754957
                    -0.000237659    -5.11581e-05       -0.0141227      -0.0581598     -0.000142134     0.000814718        -0.310741       -0.946866
                       -0.789006        0.571389     -0.000156436     0.000641306        -0.128042         0.13437       0.00025456     0.000112555
                     -0.00040087     0.000687782        -0.310278       -0.947275      0.000240076     0.000182837        0.0228831       0.0555341
281738                   0.16804      -0.0796377     -0.000324491    -4.68125e-05        -0.788184        0.571836     -0.000447806     0.000755092
                    -0.000237713    -5.10991e-05       -0.0141329      -0.0581515     -0.000141849     0.000814831        -0.310984       -0.946785
                       -0.788786        0.571694     -0.000156248     0.000641431        -0.127958        0.134443      0.000254645     0.000112634
                     -0.00040066     0.000687961         -0.31052       -0.947195       0.00024017     0.000182894        0.0228983       0.0555217
281740                  0.168021      -0.0796638     -0.000324572    -4.66427e-05        -0.787963        0.572141     -0.000447592     0.000755227
                    -0.000237768    -5.10398e-05       -0.0141432      -0.0581431     -0.000141564     0.000814944        -0.311227       -0.946705
                       -0.788565        0.571999      -0.00015606     0.000641555        -0.127873        0.134515      0.000254731     0.000112714
                     -0.00040045     0.000688139        -0.310763       -0.947115      0.000240264     0.000182951        0.0229135       0.0555093
281742                  0.168002      -0.0796898     -0.000324652    -4.64729e-05        -0.787742        0.572446     -0.000447377     0.000755363
                    -0.000237823    -5.09801e-05       -0.0141534      -0.0581347     -0.000141279     0.000815057        -0.311469       -0.946625
                       -0.788345        0.572304     -0.000155873     0.000641679        -0.127788        0.134587      0.000254817     0.000112794
                    -0.000400239     0.000688318        -0.311005       -0.947036      0.000240358     0.000183008        0.0229287       0.0554969
281744                  0.167983      -0.0797158     -0.000324733    -4.63033e-05        -0.787521        0.572751     -0.000447163     0.000755498
                    -0.000237878    -5.09202e-05       -0.0141636      -0.0581263     -0.000140993     0.000815169        -0.311712       -0.946545
                       -0.788124        0.572609     -0.000155685     0.000641803        -0.127703        0.134659      0.000254904     0.000112874
                    -0.000400028     0.000688497        -0.311248       -0.946956      0.000240452     0.000183065        0.0229439       0.0554845
281746                  0.167964      -0.0797418     -0.000324814    -4.61337e-05          -0.7873        0.573056     -0.000446949     0.000755633
                    -0.000237934    -5.08602e-05       -0.0141738       -0.058118     -0.000140707     0.000815281        -0.311954       -0.946464
                       -0.787903        0.572914     -0.000155497     0.000641928        -0.127618        0.134732       0.00025499     0.000112953
                    -0.000399816     0.000688676         -0.31149       -0.946876      0.000240546     0.000183123        0.0229591       0.0554721
281748                  0.167945      -0.0797679     -0.000324895    -4.59643e-05        -0.787079        0.573361     -0.000446735     0.000755768
                    -0.000237989    -5.08001e-05       -0.0141841      -0.0581096     -0.000140421     0.000815393        -0.312197       -0.946384
                       -0.787682        0.573219     -0.000155309     0.000642052        -0.127533        0.134804      0.000255077     0.000113033
                    -0.000399604     0.000688855        -0.311733       -0.946797      0.000240642     0.000183181        0.0229743       0.0554597
281750                  0.167926      -0.0797939     -0.000324977     -4.5795e-05        -0.786857        0.573665     -0.000446521     0.000755904
                    -0.000238046    -5.07398e-05       -0.0141943      -0.0581012     -0.000140134     0.000815505        -0.312439       -0.946303
                        -0.78746        0.573524     -0.000155121     0.000642176        -0.127448        0.134876      0.000255163      0.00011311
                    -0.000399392     0.000689033        -0.311975       -0.946717      0.000240736     0.000183246        0.0229895       0.0554473
281752                  0.167907      -0.0798199     -0.000325058    -4.56258e-05        -0.786636         0.57397     -0.000446307     0.000756035
                    -0.000238102    -5.06795e-05       -0.0142045      -0.0580928     -0.000139848     0.000815615        -0.312682       -0.946223
                       -0.787239        0.573828     -0.000154934       0.0006423        -0.127363        0.134948      0.000255253     0.000113195
                     -0.00039918     0.000689212        -0.312218       -0.946637      0.000240818     0.000183298        0.0230047       0.0554348
281754                  0.167887      -0.0798459      -0.00032514    -4.54566e-05        -0.786414        0.574275     -0.000446093      0.00075617
                    -0.000238159    -5.06192e-05       -0.0142147      -0.0580845     -0.000139561     0.000815726        -0.312925       -0.946142
                       -0.787018        0.574133     -0.000154746     0.000642424        -0.127278         0.13502      0.000255339     0.000113274
                    -0.000398967      0.00068939         -0.31246       -0.946557      0.000240914     0.000183352        0.0230199       0.0554224
281756                  0.167868      -0.0798719     -0.000325222    -4.52873e-05        -0.786192         0.57458     -0.000445879     0.000756304
                    -0.000238216    -5.05587e-05        -0.014225      -0.0580761     -0.000139274     0.000815835        -0.313167       -0.946061
                       -0.786796        0.574437     -0.000154558     0.000642548        -0.127193        0.135092      0.000255427     0.000113353
                    -0.000398755     0.000689569        -0.312703       -0.946477       0.00024101     0.000183408         0.023035         0.05541
281758                  0.167849      -0.0798979     -0.000325305    -4.51178e-05         -0.78597        0.574884     -0.000445665     0.000756438
                    -0.000238273    -5.04982e-05       -0.0142352      -0.0580677     -0.000138989     0.000815945        -0.313409        -0.94598
                       -0.786574        0.574742     -0.000154369     0.000642671        -0.127107        0.135164      0.000255515     0.000113433
                    -0.000398542     0.000689747        -0.312945       -0.946397      0.000241104     0.000183465        0.0230502       0.0553976
281760                   0.16783      -0.0799239     -0.000325389    -4.49478e-05        -0.785748        0.575188     -0.000445451     0.000756572
                    -0.000238331    -5.04375e-05       -0.0142454      -0.0580593     -0.000138703     0.000816056        -0.313652       -0.945899
                       -0.786352        0.575046     -0.000154181     0.000642794        -0.127022        0.135235      0.000255603     0.000113513
                    -0.000398329     0.000689925        -0.313187       -0.946316      0.000241198     0.000183522        0.0230654       0.0553852
281762                  0.167811      -0.0799499     -0.000325475    -4.47768e-05        -0.785526        0.575492     -0.000445238     0.000756705
                    -0.000238388    -5.03766e-05       -0.0142555      -0.0580509     -0.000138417     0.000816167        -0.313894       -0.945819
                        -0.78613         0.57535     -0.000153993     0.000642915        -0.126937        0.135307      0.000255691     0.000113593
