! TOUCHSTONE file generated by CST MICROWAVE STUDIO
! Date and time: Wed Oct 15 17:31:49 2025
! Project name: Teste_Macro_Metasurface_Nanopilar.cst
! Parameters = {H=600; L_x=140; L_y=100; Lambda=1064; Max_L=200; Min_L=70; PathPara=1; Phi=0; Step_L=10; Theta=0; p=520; phaseX=180; phaseY=0}
! Header version: 2018
! Port assignment regex: !\s*Touchstone port\s*([0-9]+)\s*=\s*(CST MWS port|CST DS port)\s*([0-9]+|Zmin|Zmax)\s*\(\"(.*)\"\)(\s*mode\s*([0-9]+))?.*
! Touchstone port assignment:
! Touchstone port 1 = CST MWS port Zmax ("") mode 1
! Touchstone port 2 = CST MWS port Zmax ("") mode 2
! Touchstone port 3 = CST MWS port Zmin ("") mode 1
! Touchstone port 4 = CST MWS port Zmin ("") mode 2
! S-Parameters are not renormalized. Each port impedance will be approximated by the real part at minimum frequency. The values are described via the [Reference] keyword.
! Default impedance is overridden by [Reference]
[Version] 2.0
# GHz S RI R 376.73
[Number of Ports] 4
[Reference]
376.73 376.73 259.888 259.888 
[Number of Frequencies] 51
[Network Data]
281700                 0.0631946        0.110133      0.000283815     0.000246412        -0.969813        -0.18373      6.94722e-05    -0.000891797
                     0.000239412     0.000270811       -0.0101022       0.0661254      -0.00054702     0.000768586         0.790835        0.595207
                       -0.969677       -0.183656     -0.000508862     0.000662536       -0.0980447       0.0802004      0.000273826    -0.000122223
                     5.45681e-05    -0.000805146         0.791167        0.594908      0.000180246     4.65786e-05       -0.0608992       0.0304278
281702                 0.0632151        0.110142      0.000284077     0.000246265        -0.969871       -0.183407      6.91673e-05    -0.000891832
                      0.00023983     0.000270739       -0.0100868       0.0661548     -0.000546787     0.000768648         0.791053        0.594914
                       -0.969735       -0.183333     -0.000508666     0.000662762       -0.0980135       0.0802658      0.000273754      -0.0001222
                     5.46344e-05    -0.000805206         0.791386        0.594614      0.000180134      4.6503e-05       -0.0609094       0.0304658
281704                 0.0632355         0.11015      0.000284338     0.000246118        -0.969929       -0.183084      6.88625e-05    -0.000891866
                     0.000240248     0.000270667       -0.0100714       0.0661841     -0.000546554      0.00076871         0.791271        0.594621
                       -0.969793       -0.183011      -0.00050847     0.000662987       -0.0979823       0.0803313      0.000273683    -0.000122176
                     5.47004e-05    -0.000805266         0.791605        0.594321      0.000180022     4.64279e-05       -0.0609196       0.0305039
281706                 0.0632559        0.110158        0.0002846      0.00024597        -0.969987       -0.182762      6.85579e-05    -0.000891901
                     0.000240665     0.000270594        -0.010056       0.0662135      -0.00054632     0.000768773         0.791489        0.594328
                        -0.96985       -0.182688     -0.000508273     0.000663212        -0.097951       0.0803967      0.000273611    -0.000122152
                      5.4766e-05    -0.000805327         0.791823        0.594027       0.00017991      4.6353e-05       -0.0609297        0.030542
281708                 0.0632764        0.110167      0.000284861     0.000245822        -0.970045       -0.182439      6.82533e-05    -0.000891935
                     0.000241082     0.000270522       -0.0100406       0.0662428     -0.000546087     0.000768836         0.791707        0.594034
                       -0.969908       -0.182366     -0.000508077     0.000663438       -0.0979197       0.0804622      0.000273539    -0.000122128
                     5.48313e-05    -0.000805387         0.792042        0.593734      0.000179798     4.62786e-05       -0.0609398       0.0305801
281710                 0.0632968        0.110175      0.000285123     0.000245674        -0.970103       -0.182117      6.79488e-05    -0.000891969
                     0.000241498     0.000270449       -0.0100252       0.0662722     -0.000545853     0.000768899         0.791925        0.593741
                       -0.969966       -0.182043      -0.00050788     0.000663663       -0.0978883       0.0805276      0.000273467    -0.000122104
                     5.48961e-05    -0.000805448          0.79226         0.59344      0.000179686     4.62044e-05       -0.0609499       0.0306182
281712                 0.0633173        0.110184      0.000285385     0.000245526        -0.970161       -0.181794      6.76443e-05    -0.000892003
                     0.000241915     0.000270376       -0.0100098       0.0663015      -0.00054562     0.000768963         0.792143        0.593447
                       -0.970023        -0.18172     -0.000507684     0.000663887       -0.0978569        0.080593      0.000273395    -0.000122079
                     5.49606e-05    -0.000805509         0.792478        0.593146      0.000179574     4.61307e-05       -0.0609599       0.0306563
281714                 0.0633378        0.110192      0.000285646     0.000245378        -0.970219       -0.181471        6.734e-05    -0.000892037
                      0.00024233     0.000270304      -0.00999432       0.0663308     -0.000545386     0.000769027         0.792361        0.593154
                        -0.97008       -0.181398     -0.000507487     0.000664112       -0.0978255       0.0806584      0.000273323    -0.000122054
                     5.50247e-05     -0.00080557         0.792696        0.592853      0.000179462     4.60573e-05         -0.06097       0.0306945
281716                 0.0633582          0.1102      0.000285908      0.00024523        -0.970276       -0.181148      6.70358e-05     -0.00089207
                     0.000242746     0.000270231      -0.00997887       0.0663601     -0.000545152     0.000769091         0.792578         0.59286
                       -0.970138       -0.181075     -0.000507289     0.000664336        -0.097794       0.0807238      0.000273251     -0.00012203
                     5.50883e-05    -0.000805631         0.792914        0.592559       0.00017935     4.59843e-05       -0.0609799       0.0307327
281718                 0.0633787        0.110208      0.000286171     0.000245084        -0.970333       -0.180826      6.67316e-05    -0.000892104
                     0.000243161     0.000270157      -0.00996342       0.0663894     -0.000544918     0.000769155         0.792796        0.592566
                       -0.970195       -0.180752     -0.000507092     0.000664561       -0.0977625       0.0807891      0.000273179    -0.000122005
                     5.51516e-05    -0.000805692         0.793132        0.592265      0.000179238     4.59117e-05       -0.0609899       0.0307709
281720                 0.0633991        0.110217      0.000286435      0.00024494        -0.970391       -0.180503      6.64275e-05    -0.000892137
                     0.000243575     0.000270084      -0.00994797       0.0664187     -0.000544685      0.00076922         0.793013        0.592272
                       -0.970252       -0.180429     -0.000506894     0.000664785       -0.0977309       0.0808545      0.000273106     -0.00012198
                     5.52144e-05    -0.000805754          0.79335        0.591971      0.000179126     4.58395e-05       -0.0609999       0.0308092
281722                 0.0634196        0.110225      0.000286702     0.000244801        -0.970448        -0.18018      6.61235e-05     -0.00089217
                     0.000243989     0.000270011      -0.00993251        0.066448     -0.000544451     0.000769286          0.79323        0.591978
                       -0.970308       -0.180106     -0.000506697     0.000665008       -0.0976993       0.0809199      0.000273034    -0.000121955
                     5.52768e-05    -0.000805815         0.793568        0.591677      0.000179015     4.57676e-05       -0.0610098       0.0308474
281724                 0.0634401        0.110233      0.000286986     0.000244676        -0.970505       -0.179857      6.58196e-05    -0.000892203
                     0.000244403     0.000269937      -0.00991704       0.0664773     -0.000544217     0.000769351         0.793447        0.591684
                       -0.970365       -0.179784     -0.000506499     0.000665232       -0.0976676       0.0809852      0.000272962    -0.000121929
                     5.53388e-05    -0.000805877         0.793785        0.591382      0.000178903     4.56961e-05       -0.0610197       0.0308857
281726                 0.0634606        0.110242      0.000287386     0.000244532        -0.970562       -0.179534      6.55157e-05    -0.000892236
                     0.000244817     0.000269863      -0.00990156       0.0665066     -0.000543983     0.000769417         0.793664         0.59139
                       -0.970422       -0.179461     -0.000506301     0.000665455       -0.0976359       0.0810505      0.000272889    -0.000121904
                     5.54003e-05    -0.000805939         0.794003        0.591088      0.000178792      4.5625e-05       -0.0610295        0.030924
281728                  0.063481         0.11025      0.000287543     0.000244173        -0.970619       -0.179212       6.5212e-05    -0.000892269
                      0.00024523     0.000269789      -0.00988608       0.0665359     -0.000543749     0.000769484         0.793881        0.591096
                       -0.970479       -0.179138     -0.000506103     0.000665678       -0.0976042       0.0811159      0.000272817    -0.000121878
                     5.54614e-05    -0.000806001          0.79422        0.590794       0.00017868     4.55543e-05       -0.0610393       0.0309624
281730                 0.0635015        0.110258      0.000287743      0.00024407        -0.970676       -0.178889      6.49083e-05    -0.000892302
                     0.000245642     0.000269715      -0.00987059       0.0665652     -0.000543515      0.00076955         0.794098        0.590802
                       -0.970535       -0.178815     -0.000505904       0.0006659       -0.0975724       0.0811812      0.000272744    -0.000121852
                      5.5522e-05    -0.000806063         0.794437        0.590499      0.000178569     4.54839e-05       -0.0610491       0.0310007
281732                  0.063522        0.110267      0.000287993     0.000243939        -0.970732       -0.178566      6.46047e-05    -0.000892334
                     0.000246054      0.00026964       -0.0098551       0.0665944     -0.000543281     0.000769617         0.794315        0.590508
                       -0.970591       -0.178492     -0.000505706     0.000666122       -0.0975405       0.0812465      0.000272672    -0.000121826
                     5.55821e-05    -0.000806126         0.794654        0.590205      0.000178458      4.5414e-05       -0.0610589       0.0310391
281734                 0.0635425        0.110275       0.00028825     0.000243795        -0.970789       -0.178243      6.43011e-05    -0.000892367
                     0.000246466     0.000269566       -0.0098396       0.0666237     -0.000543046     0.000769685         0.794531        0.590213
                       -0.970648       -0.178169     -0.000505508     0.000666344       -0.0975087       0.0813117      0.000272599      -0.0001218
                     5.56418e-05    -0.000806188         0.794871         0.58991      0.000178347     4.53444e-05       -0.0610687       0.0310775
281736                  0.063563        0.110283      0.000288509     0.000243646        -0.970845        -0.17792      6.39976e-05    -0.000892399
                     0.000246877     0.000269491      -0.00982409       0.0666529     -0.000542812     0.000769752         0.794748        0.589919
                       -0.970704       -0.177846     -0.000505309     0.000666565       -0.0974767        0.081377      0.000272526    -0.000121774
                     5.57009e-05    -0.000806251         0.795088        0.589616      0.000178236     4.52753e-05       -0.0610784       0.0311159
281738                 0.0635835        0.110291      0.000288769     0.000243494        -0.970902       -0.177597      6.36942e-05    -0.000892431
                     0.000247288     0.000269416      -0.00980858       0.0666822     -0.000542578      0.00076982         0.794964        0.589624
                        -0.97076       -0.177523     -0.000505111     0.000666786       -0.0974448       0.0814423      0.000272453    -0.000121747
                     5.57596e-05    -0.000806314         0.795305        0.589321      0.000178125     4.52065e-05       -0.0610881       0.0311544
281740                  0.063604          0.1103      0.000289028      0.00024334        -0.970958       -0.177274      6.33908e-05    -0.000892463
                     0.000247698     0.000269341      -0.00979306       0.0667114     -0.000542344     0.000769889          0.79518         0.58933
                       -0.970816         -0.1772     -0.000504913     0.000667007       -0.0974128       0.0815075       0.00027238     -0.00012172
                     5.58178e-05    -0.000806377         0.795522        0.589026      0.000178014     4.51381e-05       -0.0610978       0.0311928
281742                 0.0636245        0.110308      0.000289288     0.000243185        -0.971014       -0.176951      6.30875e-05    -0.000892495
                     0.000248108     0.000269265      -0.00977754       0.0667407     -0.000542109     0.000769957         0.795396        0.589035
                       -0.970871       -0.176877     -0.000504716     0.000667227       -0.0973807       0.0815728      0.000272308    -0.000121694
                     5.58754e-05     -0.00080644         0.795738        0.588731      0.000177903     4.50702e-05       -0.0611074       0.0312313
281744                  0.063645        0.110316      0.000289547     0.000243029         -0.97107       -0.176628      6.27843e-05    -0.000892527
                     0.000248517      0.00026919        -0.009762       0.0667699     -0.000541875     0.000770026         0.795612         0.58874
                       -0.970927       -0.176554     -0.000504519     0.000667447       -0.0973486        0.081638      0.000272235    -0.000121667
                     5.59326e-05    -0.000806504         0.795955        0.588437      0.000177792     4.50026e-05        -0.061117       0.0312698
281746                 0.0636655        0.110324      0.000289807     0.000242872        -0.971126       -0.176304       6.2481e-05    -0.000892559
                     0.000248926     0.000269114      -0.00974647       0.0667991      -0.00054164     0.000770096         0.795828        0.588446
                       -0.970983       -0.176231     -0.000504322     0.000667668       -0.0973165       0.0817032      0.000272162    -0.000121639
                     5.59892e-05    -0.000806567         0.796171        0.588142      0.000177682     4.49355e-05       -0.0611266       0.0313084
281748                  0.063686        0.110333      0.000290066     0.000242714        -0.971182       -0.175981      6.21777e-05     -0.00089259
                     0.000249335     0.000269037      -0.00973092       0.0668283     -0.000541405     0.000770166         0.796044        0.588151
                       -0.971038       -0.175908     -0.000504126     0.000667889       -0.0972843       0.0817685      0.000272088    -0.000121612
                     5.60452e-05    -0.000806631         0.796387        0.587847      0.000177571     4.48687e-05       -0.0611362       0.0313469
281750                 0.0637066        0.110341      0.000290325     0.000242556        -0.971237       -0.175658      6.18743e-05    -0.000892622
                     0.000249743     0.000268961      -0.00971537       0.0668575     -0.000541171     0.000770236         0.796259        0.587856
                       -0.971094       -0.175585     -0.000503929      0.00066811       -0.0972521       0.0818337      0.000272015    -0.000121585
                     5.61007e-05    -0.000806695         0.796603        0.587551      0.000177461     4.48024e-05       -0.0611457       0.0313855
281752                 0.0637271        0.110349      0.000290585     0.000242397        -0.971293       -0.175335      6.15703e-05    -0.000892655
                      0.00025015     0.000268884      -0.00969982       0.0668867     -0.000540936     0.000770306         0.796475        0.587561
                       -0.971149       -0.175261     -0.000503732     0.000668333       -0.0972198       0.0818988      0.000271942    -0.000121557
                     5.61556e-05    -0.000806759         0.796819        0.587256      0.000177351     4.47365e-05       -0.0611552       0.0314241
281754                 0.0637476        0.110357      0.000290844     0.000242237        -0.971349       -0.175012      6.12715e-05    -0.000892707
                     0.000250558     0.000268807      -0.00968426       0.0669159     -0.000540701     0.000770377          0.79669        0.587266
                       -0.971204       -0.174938     -0.000503534     0.000668557       -0.0971875        0.081964       0.00027187    -0.000121528
                       5.621e-05    -0.000806824         0.797035        0.586961      0.000177241     4.46709e-05       -0.0611647       0.0314627
281756                 0.0637681        0.110366      0.000291103     0.000242076        -0.971404       -0.174688      6.09715e-05    -0.000892711
                     0.000250964     0.000268729      -0.00966869       0.0669451     -0.000540467     0.000770448         0.796905        0.586971
                       -0.971259       -0.174615     -0.000503335     0.000668782       -0.0971551       0.0820292      0.000271797    -0.000121504
                     5.62637e-05    -0.000806888         0.797251        0.586666       0.00017713     4.46058e-05       -0.0611741       0.0315014
281758                 0.0637887        0.110374      0.000291361     0.000241915        -0.971459       -0.174365      6.06665e-05    -0.000892743
                      0.00025137     0.000268652      -0.00965312       0.0669743     -0.000540232     0.000770519          0.79712        0.586675
                       -0.971314       -0.174292     -0.000503132     0.000669008       -0.0971227       0.0820943      0.000271722    -0.000121474
                     5.63168e-05    -0.000806953         0.797466         0.58637      0.000177021     4.45411e-05       -0.0611835       0.0315401
281760                 0.0638092        0.110382       0.00029162     0.000241753        -0.971514       -0.174042      6.03632e-05    -0.000892775
                     0.000251776     0.000268574      -0.00963754       0.0670035     -0.000539997     0.000770591         0.797336         0.58638
                       -0.971369       -0.173968     -0.000502927     0.000669236       -0.0970903       0.0821595      0.000271648    -0.000121446
                     5.63693e-05    -0.000807018         0.797682        0.586075      0.000176911     4.44768e-05       -0.0611929       0.0315787
281762                 0.0638298         0.11039      0.000291879      0.00024159         -0.97157       -0.173719      6.00602e-05    -0.000892806
                     0.000252181     0.000268495      -0.00962195       0.0670327     -0.000539762     0.000770663          0.79755        0.586085
                       -0.971424       -0.173645     -0.000502719     0.000669464       -0.0970578       0.0822246      0.000271575    -0.000121417
