! TOUCHSTONE file generated by CST MICROWAVE STUDIO
! Date and time: Wed Oct 15 17:28:55 2025
! Project name: Teste_Macro_Metasurface_Nanopilar.cst
! Parameters = {H=600; L_x=90; L_y=85; Lambda=1064; Max_L=200; Min_L=70; PathPara=1; Phi=0; Step_L=10; Theta=0; p=520; phaseX=180; phaseY=0}
! Header version: 2018
! Port assignment regex: !\s*Touchstone port\s*([0-9]+)\s*=\s*(CST MWS port|CST DS port)\s*([0-9]+|Zmin|Zmax)\s*\(\"(.*)\"\)(\s*mode\s*([0-9]+))?.*
! Touchstone port assignment:
! Touchstone port 1 = CST MWS port Zmax ("") mode 1
! Touchstone port 2 = CST MWS port Zmax ("") mode 2
! Touchstone port 3 = CST MWS port Zmin ("") mode 1
! Touchstone port 4 = CST MWS port Zmin ("") mode 2
! S-Parameters are not renormalized. Each port impedance will be approximated by the real part at minimum frequency. The values are described via the [Reference] keyword.
! Default impedance is overridden by [Reference]
[Version] 2.0
# GHz S RI R 376.73
[Number of Ports] 4
[Reference]
376.73 376.73 259.888 259.888 
[Number of Frequencies] 51
[Network Data]
281700                 0.0229051       -0.105091      7.36681e-05    -0.000153629       -0.0273534       -0.993359      6.20562e-05     0.000209083
                     8.65933e-05    -0.000148761        0.0157752      -0.0948986     -1.41827e-05    -0.000114497       -0.0892193       -0.990614
                      -0.0271786       -0.993424     -0.000241928    -0.000107146        0.0285225        0.103777      0.000134867     0.000143113
                    -0.000155967     0.000174167       -0.0891704       -0.990692      0.000134522     0.000148712        0.0323401       0.0906978
281702                  0.022893       -0.105089      7.37295e-05    -0.000153673       -0.0275955       -0.993353      6.22341e-05      0.00020913
                     8.66261e-05    -0.000148809        0.0157635      -0.0948955     -1.41278e-05    -0.000114415       -0.0894633       -0.990592
                      -0.0274206       -0.993418     -0.000242051    -0.000107053         0.028561        0.103762      0.000134844     0.000143086
                    -0.000155986      0.00017431       -0.0894144        -0.99067      0.000134504     0.000148718        0.0323727       0.0906809
281704                  0.022881       -0.105087      7.37909e-05    -0.000153717       -0.0278376       -0.993347      6.24122e-05     0.000209177
                     8.66589e-05    -0.000148857        0.0157518      -0.0948924     -1.40728e-05    -0.000114334       -0.0897074       -0.990571
                      -0.0276627       -0.993412     -0.000242175     -0.00010696        0.0285994        0.103747      0.000134821     0.000143059
                    -0.000156004     0.000174454       -0.0896585       -0.990648      0.000134485     0.000148724        0.0324053        0.090664
281706                 0.0228689       -0.105085      7.38523e-05    -0.000153761       -0.0280797        -0.99334      6.25906e-05     0.000209223
                     8.66918e-05    -0.000148906        0.0157402      -0.0948893     -1.40178e-05    -0.000114252       -0.0899514       -0.990549
                      -0.0279047       -0.993406     -0.000242298    -0.000106867        0.0286377        0.103732      0.000134798     0.000143033
                    -0.000156022     0.000174597       -0.0899025       -0.990627      0.000134466      0.00014873        0.0324379       0.0906471
281708                 0.0228569       -0.105083      7.39137e-05    -0.000153805       -0.0283217       -0.993334      6.27691e-05     0.000209269
                     8.67247e-05    -0.000148954        0.0157285      -0.0948862     -1.39629e-05    -0.000114171       -0.0901954       -0.990527
                      -0.0281468       -0.993399     -0.000242421    -0.000106774        0.0286761        0.103717      0.000134775     0.000143006
                     -0.00015604      0.00017474       -0.0901466       -0.990605      0.000134448     0.000148736        0.0324705       0.0906302
281710                 0.0228449       -0.105082      7.39751e-05    -0.000153849       -0.0285638       -0.993327      6.29478e-05     0.000209314
                     8.67576e-05    -0.000149002        0.0157169      -0.0948831     -1.39078e-05     -0.00011409       -0.0904395       -0.990505
                      -0.0283888       -0.993393     -0.000242544    -0.000106681        0.0287145        0.103702      0.000134752     0.000142979
                    -0.000156058     0.000174883       -0.0903906       -0.990583      0.000134429     0.000148742         0.032503       0.0906133
281712                 0.0228328        -0.10508      7.40365e-05    -0.000153894       -0.0288059       -0.993321      6.31268e-05      0.00020936
                     8.67906e-05     -0.00014905        0.0157052      -0.0948799     -1.38528e-05     -0.00011401       -0.0906835       -0.990483
                      -0.0286309       -0.993386     -0.000242667    -0.000106588        0.0287529        0.103687      0.000134729     0.000142953
                    -0.000156076     0.000175027       -0.0906347       -0.990561       0.00013441     0.000148748        0.0325356       0.0905964
281714                 0.0228208       -0.105078      7.40978e-05    -0.000153938        -0.029048       -0.993314      6.33059e-05     0.000209405
                     8.68236e-05    -0.000149098        0.0156936      -0.0948768     -1.37978e-05     -0.00011393       -0.0909275       -0.990461
                      -0.0288729        -0.99338     -0.000242791    -0.000106495        0.0287913        0.103672      0.000134706     0.000142926
                    -0.000156094      0.00017517       -0.0908787       -0.990539      0.000134392     0.000148753        0.0325681       0.0905794
281716                 0.0228087       -0.105076      7.41591e-05    -0.000153982       -0.0292901       -0.993307      6.34852e-05     0.000209449
                     8.68566e-05    -0.000149146        0.0156819      -0.0948737     -1.37427e-05     -0.00011385       -0.0911715       -0.990439
                       -0.029115       -0.993373     -0.000242914    -0.000106401        0.0288296        0.103657      0.000134682       0.0001429
                    -0.000156112     0.000175314       -0.0911227       -0.990517      0.000134373     0.000148759        0.0326007       0.0905625
281718                 0.0227967       -0.105074      7.42204e-05    -0.000154026       -0.0295322         -0.9933      6.36647e-05     0.000209493
                     8.68897e-05    -0.000149194        0.0156702      -0.0948706     -1.36876e-05     -0.00011377       -0.0914155       -0.990417
                       -0.029357       -0.993366     -0.000243037    -0.000106308         0.028868        0.103642      0.000134659     0.000142873
                     -0.00015613     0.000175457       -0.0913667       -0.990495      0.000134354     0.000148765        0.0326332       0.0905455
281720                 0.0227846       -0.105073      7.42817e-05     -0.00015407       -0.0297743       -0.993294      6.38444e-05     0.000209537
                     8.69228e-05    -0.000149242        0.0156586      -0.0948675     -1.36325e-05    -0.000113691       -0.0916595       -0.990395
                      -0.0295991        -0.99336      -0.00024316    -0.000106215        0.0289063        0.103627      0.000134636     0.000142846
                    -0.000156148     0.000175601       -0.0916107       -0.990473      0.000134335      0.00014877        0.0326657       0.0905285
281722                 0.0227726       -0.105071      7.43429e-05    -0.000154114       -0.0300164       -0.993287      6.40243e-05     0.000209581
                     8.69559e-05     -0.00014929        0.0156469      -0.0948643     -1.35774e-05    -0.000113612       -0.0919035       -0.990373
                      -0.0298411       -0.993353     -0.000243283    -0.000106121        0.0289446        0.103611      0.000134612      0.00014282
                    -0.000156166     0.000175745       -0.0918547       -0.990451      0.000134317     0.000148775        0.0326982       0.0905115
281724                 0.0227605       -0.105069      7.44041e-05    -0.000154158       -0.0302584        -0.99328      6.42044e-05     0.000209624
                     8.69891e-05    -0.000149338        0.0156353      -0.0948612     -1.35222e-05    -0.000113533       -0.0921475       -0.990351
                      -0.0300832       -0.993346     -0.000243406    -0.000106028         0.028983        0.103596      0.000134589     0.000142793
                    -0.000156184     0.000175889       -0.0920987       -0.990428      0.000134298     0.000148781        0.0327307       0.0904945
281726                 0.0227485       -0.105067      7.44652e-05    -0.000154202       -0.0305005       -0.993273      6.43847e-05     0.000209667
                     8.70223e-05    -0.000149386        0.0156236      -0.0948581      -1.3467e-05    -0.000113455       -0.0923915       -0.990328
                      -0.0303252       -0.993339     -0.000243529    -0.000105934        0.0290213        0.103581      0.000134565     0.000142767
                    -0.000156202     0.000176032       -0.0923427       -0.990406      0.000134279     0.000148786        0.0327632       0.0904775
281728                 0.0227365       -0.105065      7.45263e-05    -0.000154246       -0.0307426       -0.993266      6.45652e-05     0.000209709
                     8.70556e-05    -0.000149434         0.015612       -0.094855     -1.34118e-05    -0.000113377       -0.0926355       -0.990306
                      -0.0305673       -0.993332     -0.000243652    -0.000105841        0.0290596        0.103566      0.000134541     0.000142741
                     -0.00015622     0.000176176       -0.0925867       -0.990384       0.00013426     0.000148791        0.0327957       0.0904605
281730                 0.0227244       -0.105064      7.45873e-05     -0.00015429       -0.0309847       -0.993259      6.47458e-05     0.000209751
                     8.70889e-05    -0.000149482        0.0156003      -0.0948518     -1.33566e-05      -0.0001133       -0.0928794       -0.990284
                      -0.0308093       -0.993325     -0.000243775    -0.000105748        0.0290979        0.103551      0.000134518     0.000142714
                    -0.000156238      0.00017632       -0.0928307       -0.990361      0.000134241     0.000148796        0.0328282       0.0904434
281732                 0.0227124       -0.105062      7.46483e-05    -0.000154334       -0.0312268       -0.993251      6.49267e-05     0.000209793
                     8.71222e-05    -0.000149529        0.0155887      -0.0948487     -1.33013e-05    -0.000113222       -0.0931234       -0.990261
                      -0.0310514       -0.993318     -0.000243898    -0.000105654        0.0291362        0.103535      0.000134494     0.000142688
                    -0.000156256     0.000176465       -0.0930747       -0.990339      0.000134223     0.000148801        0.0328607       0.0904264
281734                 0.0227003        -0.10506      7.47093e-05    -0.000154378       -0.0314689       -0.993244      6.51077e-05     0.000209835
                     8.71556e-05    -0.000149577         0.015577      -0.0948456      -1.3246e-05    -0.000113145       -0.0933674       -0.990239
                      -0.0312934       -0.993311      -0.00024402    -0.000105561        0.0291745         0.10352       0.00013447     0.000142662
                    -0.000156274     0.000176609       -0.0933187       -0.990316      0.000134204     0.000148806        0.0328931       0.0904093
281736                 0.0226883       -0.105058      7.47702e-05    -0.000154422       -0.0317109       -0.993237      6.52889e-05     0.000209876
                      8.7189e-05    -0.000149625        0.0155653      -0.0948424     -1.31907e-05    -0.000113069       -0.0936113       -0.990216
                      -0.0315354       -0.993304     -0.000244143    -0.000105467        0.0292128        0.103505      0.000134446     0.000142636
                    -0.000156292     0.000176753       -0.0935627       -0.990294      0.000134185     0.000148811        0.0329256       0.0903922
281738                 0.0226762       -0.105056       7.4831e-05    -0.000154466        -0.031953        -0.99323      6.54703e-05     0.000209916
                     8.72225e-05    -0.000149672        0.0155537      -0.0948393     -1.31354e-05    -0.000112992       -0.0938553       -0.990193
                      -0.0317775       -0.993296     -0.000244265    -0.000105374         0.029251         0.10349      0.000134423      0.00014261
                     -0.00015631     0.000176897       -0.0938066       -0.990271      0.000134166     0.000148815         0.032958       0.0903752
281740                 0.0226642       -0.105054      7.48917e-05     -0.00015451       -0.0321951       -0.993222      6.56518e-05     0.000209957
                      8.7256e-05     -0.00014972         0.015542      -0.0948362       -1.308e-05    -0.000112916       -0.0940992       -0.990171
                      -0.0320195       -0.993289     -0.000244388    -0.000105281        0.0292893        0.103474      0.000134399     0.000142584
                    -0.000156328     0.000177042       -0.0940506       -0.990248      0.000134147      0.00014882        0.0329904       0.0903581
281742                 0.0226522       -0.105053      7.49524e-05    -0.000154554       -0.0324372       -0.993215      6.58336e-05     0.000209997
                     8.72895e-05    -0.000149768        0.0155304       -0.094833     -1.30246e-05    -0.000112841       -0.0943432       -0.990148
                      -0.0322615       -0.993282      -0.00024451    -0.000105187        0.0293276        0.103459      0.000134375     0.000142558
                    -0.000156346     0.000177186       -0.0942946       -0.990225      0.000134128     0.000148824        0.0330229        0.090341
281744                 0.0226401       -0.105051      7.50131e-05    -0.000154598       -0.0326792       -0.993207      6.60155e-05     0.000210037
                     8.73231e-05    -0.000149815        0.0155187      -0.0948299     -1.29691e-05    -0.000112765       -0.0945871       -0.990125
                      -0.0325036       -0.993274     -0.000244632    -0.000105094        0.0293658        0.103444      0.000134351     0.000142532
                    -0.000156365     0.000177331       -0.0945385       -0.990203      0.000134109     0.000148829        0.0330553       0.0903238
281746                 0.0226281       -0.105049      7.50736e-05    -0.000154641       -0.0329213         -0.9932      6.61976e-05     0.000210076
                     8.73568e-05    -0.000149863        0.0155071      -0.0948268     -1.29136e-05     -0.00011269       -0.0948311       -0.990102
                      -0.0327456       -0.993267     -0.000244754    -0.000105001         0.029404        0.103428      0.000134327     0.000142506
                    -0.000156383     0.000177475       -0.0947825        -0.99018       0.00013409     0.000148833        0.0330877       0.0903067
281748                  0.022616       -0.105047      7.51341e-05    -0.000154685       -0.0331634       -0.993192      6.63798e-05     0.000210115
                     8.73904e-05     -0.00014991        0.0154954      -0.0948236     -1.28581e-05    -0.000112615        -0.095075       -0.990079
                      -0.0329876       -0.993259     -0.000244876    -0.000104907        0.0294423        0.103413      0.000134303      0.00014248
                    -0.000156401      0.00017762       -0.0950264       -0.990157      0.000134071     0.000148837        0.0331201       0.0902896
281750                  0.022604       -0.105045      7.51946e-05    -0.000154729       -0.0334055       -0.993184      6.65623e-05     0.000210154
                     8.74242e-05    -0.000149958        0.0154838      -0.0948205     -1.28025e-05    -0.000112541       -0.0953189       -0.990056
                      -0.0332297       -0.993252     -0.000244998    -0.000104814        0.0294805        0.103398       0.00013428     0.000142454
                    -0.000156419     0.000177765       -0.0952703       -0.990134      0.000134052     0.000148842        0.0331525       0.0902724
281752                  0.022592       -0.105043      7.52549e-05    -0.000154773       -0.0336475       -0.993177      6.67449e-05     0.000210192
                     8.74579e-05    -0.000150005        0.0154721      -0.0948173     -1.27469e-05    -0.000112467       -0.0955628       -0.990033
                      -0.0334717       -0.993244     -0.000245119    -0.000104721        0.0295187        0.103382      0.000134256     0.000142429
                    -0.000156437      0.00017791       -0.0955143        -0.99011      0.000134033     0.000148846        0.0331849       0.0902553
281754                 0.0225799       -0.105042      7.53152e-05    -0.000154817       -0.0338896       -0.993169      6.69276e-05      0.00021023
                     8.74917e-05    -0.000150052        0.0154605      -0.0948142     -1.26913e-05    -0.000112393       -0.0958068        -0.99001
                      -0.0337137       -0.993236     -0.000245241    -0.000104627        0.0295569        0.103367      0.000134232     0.000142403
                    -0.000156455     0.000178055       -0.0957582       -0.990087      0.000134014      0.00014885        0.0332172       0.0902381
281756                 0.0225679        -0.10504      7.53755e-05     -0.00015486       -0.0341317       -0.993161      6.71106e-05     0.000210268
                     8.75256e-05      -0.0001501        0.0154488      -0.0948111     -1.26356e-05    -0.000112319       -0.0960507       -0.989986
                      -0.0339558       -0.993228     -0.000245362    -0.000104534        0.0295951        0.103351      0.000134208     0.000142377
                    -0.000156473       0.0001782       -0.0960021       -0.990064      0.000133995     0.000148853        0.0332496       0.0902209
281758                 0.0225558       -0.105038      7.54357e-05    -0.000154904       -0.0343737       -0.993153      6.72937e-05     0.000210305
                     8.75595e-05    -0.000150147        0.0154372      -0.0948079     -1.25799e-05    -0.000112246       -0.0962946       -0.989963
                      -0.0341978       -0.993221     -0.000245483    -0.000104441        0.0296333        0.103336      0.000134185     0.000142352
                    -0.000156491     0.000178345       -0.0962461       -0.990041      0.000133976     0.000148857         0.033282       0.0902037
281760                 0.0225438       -0.105036      7.54958e-05    -0.000154948       -0.0346158       -0.993145       6.7477e-05     0.000210342
                     8.75934e-05    -0.000150194        0.0154255      -0.0948048     -1.25242e-05    -0.000112173       -0.0965385        -0.98994
                      -0.0344398       -0.993213     -0.000245605    -0.000104347        0.0296715        0.103321      0.000134161     0.000142326
                    -0.000156509      0.00017849         -0.09649       -0.990017      0.000133957     0.000148861        0.0333143       0.0901865
281762                 0.0225318       -0.105034      7.55559e-05    -0.000154991       -0.0348577       -0.993137      6.76604e-05     0.000210379
                     8.76274e-05    -0.000150241        0.0154139      -0.0948016     -1.24688e-05      -0.0001121       -0.0967824       -0.989916
                      -0.0346818       -0.993205     -0.000245726    -0.000104254        0.0297097        0.103305      0.000134137     0.000142301
