! TOUCHSTONE file generated by CST MICROWAVE STUDIO
! Date and time: Wed Oct 15 17:34:18 2025
! Project name: Teste_Macro_Metasurface_Nanopilar.cst
! Parameters = {H=600; L_x=180; L_y=190; Lambda=1064; Max_L=200; Min_L=70; PathPara=1; Phi=0; Step_L=10; Theta=0; p=520; phaseX=180; phaseY=0}
! Header version: 2018
! Port assignment regex: !\s*Touchstone port\s*([0-9]+)\s*=\s*(CST MWS port|CST DS port)\s*([0-9]+|Zmin|Zmax)\s*\(\"(.*)\"\)(\s*mode\s*([0-9]+))?.*
! Touchstone port assignment:
! Touchstone port 1 = CST MWS port Zmax ("") mode 1
! Touchstone port 2 = CST MWS port Zmax ("") mode 2
! Touchstone port 3 = CST MWS port Zmin ("") mode 1
! Touchstone port 4 = CST MWS port Zmin ("") mode 2
! S-Parameters are not renormalized. Each port impedance will be approximated by the real part at minimum frequency. The values are described via the [Reference] keyword.
! Default impedance is overridden by [Reference]
[Version] 2.0
# GHz S RI R 376.73
[Number of Ports] 4
[Reference]
376.73 376.73 259.888 259.888 
[Number of Frequencies] 51
[Network Data]
281700                  0.384266        0.732011     -8.67274e-05     8.05909e-05         0.282273       -0.327569     -0.000236849    -0.000408188
                    -5.66794e-05    -2.82391e-05         0.316597        0.161393      5.61978e-05    -3.85234e-05         0.245755       -0.898181
                        0.282106       -0.327394     -4.35397e-05    -1.55078e-05         0.629892        0.524743     -0.000284648    -0.000244642
                     3.14351e-05     5.46777e-05         0.246247       -0.898228     -0.000157049      0.00015122         0.353142       0.0220232
281702                   0.38519        0.730997     -8.65941e-05     7.93673e-05         0.282862       -0.328806     -0.000431824    -0.000145584
                    -5.69345e-05    -2.84869e-05         0.316608        0.161373      5.54954e-05    -4.03358e-05         0.245478       -0.898249
                        0.282706       -0.328621     -4.39224e-05    -1.58631e-05         0.630637        0.523129     -0.000292644    -0.000251497
                     3.21497e-05     5.39266e-05         0.245985         -0.8983     -0.000155248     0.000150659         0.353154       0.0218389
281704                  0.386109        0.729983      -8.6443e-05     7.81687e-05         0.283444       -0.330043     -0.000309899     4.35783e-05
                     -5.7192e-05    -2.87442e-05          0.31662        0.161353      5.47803e-05    -4.21553e-05         0.245203       -0.898316
                        0.283299       -0.329849     -4.43152e-05    -1.62326e-05         0.631375        0.521516     -0.000299751    -0.000258512
                     3.28218e-05     5.31619e-05         0.245722       -0.898372     -0.000153482      0.00015011         0.353167       0.0216547
281706                  0.387021        0.728969     -8.62743e-05     7.69956e-05         0.284021       -0.331279     -0.000203094     7.53484e-05
                    -5.74511e-05    -2.90119e-05         0.316631        0.161334      5.40526e-05    -4.39791e-05         0.244929       -0.898382
                        0.283885       -0.331076     -4.47193e-05    -1.66172e-05         0.632106        0.519905      -0.00030598    -0.000265571
                     3.34506e-05      5.2386e-05          0.24546       -0.898444     -0.000151748     0.000149575         0.353179       0.0214704
281708                  0.387928        0.727955     -8.60875e-05     7.58487e-05         0.284591       -0.332513       -0.0001435     7.14917e-05
                    -5.77111e-05    -2.92908e-05         0.316643        0.161314      5.33122e-05    -4.58045e-05         0.244655       -0.898449
                        0.284464       -0.332302     -4.51363e-05    -1.70178e-05          0.63283        0.518296     -0.000311359    -0.000272567
                     3.40354e-05     5.16014e-05         0.245198       -0.898515     -0.000150045     0.000149055         0.353191       0.0212863
281710                  0.388828        0.726942      -8.5882e-05     7.47291e-05         0.285154       -0.333747     -0.000108516     6.20697e-05
                    -5.79709e-05    -2.95819e-05         0.316654        0.161295      5.25591e-05    -4.76286e-05         0.244383       -0.898515
                        0.285037       -0.333529     -4.55679e-05    -1.74351e-05         0.633547        0.516688     -0.000315933    -0.000279408
                     3.45756e-05     5.08104e-05         0.244936       -0.898587     -0.000148369     0.000148552         0.353203       0.0211022
281712                  0.389724        0.725928     -8.56561e-05     7.36376e-05         0.285712        -0.33498     -8.61655e-05     5.29078e-05
                    -5.82291e-05    -2.98857e-05         0.316665        0.161275       5.1793e-05    -4.94488e-05         0.244112       -0.898581
                        0.285603       -0.334755     -4.60164e-05      -1.787e-05         0.634257        0.515083     -0.000319755    -0.000286016
                     3.50707e-05     5.00155e-05         0.244673       -0.898658     -0.000146716     0.000148069         0.353215       0.0209181
281714                  0.390613        0.724915     -8.54072e-05     7.25755e-05         0.286263       -0.336211     -7.08393e-05     4.49921e-05
                    -5.84842e-05     -3.0203e-05         0.316677        0.161255      5.10138e-05    -5.12619e-05         0.243842       -0.898648
                        0.286163        -0.33598     -4.64847e-05    -1.83228e-05         0.634961        0.513479     -0.000322889    -0.000292329
                     3.55202e-05     4.92188e-05         0.244411       -0.898729     -0.000145083     0.000147606         0.353227       0.0207341
281716                  0.391497        0.723903     -8.51313e-05     7.15438e-05         0.286808       -0.337442     -5.97299e-05     3.82981e-05
                    -5.87343e-05    -3.05341e-05         0.316688        0.161236      5.02213e-05    -5.30653e-05         0.243573       -0.898714
                        0.286716       -0.337206     -4.69761e-05    -1.87936e-05         0.635658        0.511878     -0.000325398      -0.0002983
                     3.59235e-05     4.84225e-05         0.244148       -0.898799     -0.000143465     0.000147166         0.353239       0.0205501
281718                  0.392375         0.72289     -8.48218e-05     7.05426e-05         0.287347       -0.338671     -5.13173e-05     3.26131e-05
                    -5.89771e-05     -3.0879e-05           0.3167        0.161216       4.9415e-05    -5.48558e-05         0.243305        -0.89878
                        0.287262        -0.33843     -4.74946e-05    -1.92816e-05         0.636349        0.510278     -0.000327347    -0.000303896
                       3.628e-05     4.76285e-05         0.243885        -0.89887     -0.000141854      0.00014675         0.353251       0.0203661
281720                  0.393247        0.721878      -8.4469e-05     6.95699e-05          0.28788       -0.339899     -4.47187e-05     2.77237e-05
                    -5.92104e-05    -3.12373e-05         0.316711        0.161196      4.85946e-05    -5.66305e-05         0.243037       -0.898847
                        0.287802       -0.339654     -4.80446e-05    -1.97851e-05         0.637033         0.50868       -0.0003288      -0.0003091
                     3.65892e-05     4.68386e-05         0.243622        -0.89894     -0.000140245     0.000146357         0.353262       0.0201822
281722                  0.394114        0.720866     -8.40597e-05     6.86186e-05         0.288407       -0.341126     -3.93905e-05     2.34518e-05
                    -5.94317e-05    -3.16082e-05         0.316722        0.161177      4.77595e-05    -5.83864e-05          0.24277       -0.898913
                        0.288336       -0.340877     -4.86308e-05    -2.03006e-05          0.63771        0.507085     -0.000329814    -0.000313905
                     3.68502e-05     4.60545e-05         0.243359        -0.89901     -0.000138629     0.000145988         0.353274       0.0199983
281724                  0.394975        0.719855     -8.35782e-05     6.76718e-05         0.288928       -0.342352     -3.49819e-05     1.96542e-05
                    -5.96385e-05      -3.199e-05         0.316733        0.161157      4.69092e-05    -6.01205e-05         0.242503        -0.89898
                        0.288863       -0.342099     -4.92577e-05    -2.08225e-05         0.638381        0.505491     -0.000330441    -0.000318317
                     3.70621e-05     4.52776e-05         0.243095        -0.89908     -0.000136995     0.000145638         0.353285       0.0198144
281726                   0.39583        0.718844     -8.30137e-05     6.66953e-05         0.289443       -0.343576     -3.12568e-05     1.62157e-05
                    -5.98285e-05    -3.23804e-05         0.316745        0.161138      4.60429e-05    -6.18298e-05         0.242237       -0.899046
                        0.289383       -0.343321     -4.99284e-05    -2.13425e-05         0.639045        0.503899     -0.000330724    -0.000322351
                     3.72237e-05     4.45091e-05         0.242832        -0.89915     -0.000135334     0.000145302         0.353297       0.0196306
281728                   0.39668        0.717834     -8.23782e-05      6.5638e-05         0.289952       -0.344799     -2.80512e-05     1.30394e-05
                    -5.99998e-05    -3.27765e-05         0.316756        0.161118      4.51598e-05    -6.35112e-05         0.241971       -0.899113
                        0.289898       -0.344542     -5.06428e-05      -2.185e-05         0.639703         0.50231     -0.000330699    -0.000326031
                     3.73334e-05     4.37497e-05         0.242567       -0.899219     -0.000133635     0.000144972         0.353308       0.0194468
281730                  0.397525        0.716824     -8.17288e-05     6.44523e-05         0.290455       -0.346021     -2.52479e-05     1.00394e-05
                    -6.01511e-05     -3.3175e-05         0.316767        0.161098      4.42588e-05    -6.51615e-05         0.241706        -0.89918
                        0.290406       -0.345762     -5.13961e-05    -2.23326e-05         0.640355        0.500722     -0.000330388    -0.000329393
                     3.73891e-05         4.3e-05         0.242303       -0.899289     -0.000131887     0.000144633          0.35332        0.019263
281732                  0.398364        0.715814     -8.11588e-05     6.31433e-05         0.290952       -0.347242     -2.27615e-05     7.13195e-06
                    -6.02821e-05    -3.35717e-05         0.316778        0.161079      4.33388e-05    -6.67774e-05         0.241441       -0.899247
                        0.290908       -0.346981     -5.21764e-05     -2.2779e-05            0.641        0.499137     -0.000329796    -0.000332485
                     3.73882e-05     4.22597e-05         0.242038       -0.899358     -0.000130081     0.000144265         0.353331       0.0190792
281734                  0.399198        0.714805     -8.07354e-05     6.17899e-05         0.291443       -0.348461     -2.05295e-05     4.22576e-06
                    -6.03931e-05    -3.39628e-05          0.31679        0.161059      4.23981e-05    -6.83554e-05         0.241176       -0.899313
                        0.291403       -0.348199      -5.2965e-05    -2.31828e-05         0.641639        0.497553     -0.000328911    -0.000335371
                     3.73272e-05     4.15281e-05         0.241773       -0.899428     -0.000128216     0.000143846         0.353342       0.0188954
281736                  0.400026        0.713797     -8.04469e-05     6.04893e-05         0.291929       -0.349679     -1.85063e-05     1.20703e-06
                    -6.04854e-05    -3.43441e-05         0.316801         0.16104      4.14348e-05    -6.98919e-05         0.240911        -0.89938
                        0.291893       -0.349416     -5.37383e-05    -2.35466e-05         0.642271        0.495972     -0.000327685    -0.000338141
                     3.72013e-05      4.0803e-05         0.241507       -0.899498     -0.000126293     0.000143345         0.353353       0.0187116
281738                  0.400849        0.712789     -8.02307e-05     5.92923e-05         0.292409       -0.350895     -1.66616e-05    -2.08674e-06
                    -6.05611e-05    -3.47119e-05         0.316812         0.16102      4.04462e-05    -7.13828e-05         0.240647       -0.899446
                        0.292376       -0.350632     -5.44731e-05    -2.38851e-05         0.642897        0.494393     -0.000326011    -0.000340928
                     3.70038e-05      4.0081e-05         0.241241       -0.899569     -0.000124329     0.000142733         0.353365       0.0185278
281740                  0.401666        0.711781     -8.00274e-05      5.8199e-05         0.292882        -0.35211     -1.49819e-05     -5.9208e-06
                    -6.06232e-05     -3.5063e-05         0.316824        0.161001      3.94291e-05    -7.28235e-05         0.240382       -0.899512
                        0.292853       -0.351847     -5.51526e-05    -2.42229e-05         0.643518        0.492816      -0.00032367    -0.000343945
                     3.67254e-05     3.93553e-05         0.240975       -0.899641     -0.000122347     0.000141979         0.353376        0.018344
281742                  0.402479        0.710775     -7.98023e-05     5.71882e-05         0.293351       -0.353324      -1.3481e-05    -1.07921e-05
                    -6.06746e-05    -3.53946e-05         0.316835        0.160981      3.83787e-05    -7.42084e-05         0.240117       -0.899577
                        0.293324       -0.353061     -5.57696e-05    -2.45901e-05         0.644132        0.491241     -0.000320178    -0.000347569
                     3.63524e-05     3.86136e-05          0.24071       -0.899713     -0.000120385     0.000141063         0.353387       0.0181601
281744                  0.403286        0.709769     -7.95404e-05     5.62374e-05         0.293813       -0.354536     -1.22391e-05    -1.77974e-05
                    -6.07186e-05    -3.57038e-05         0.316846        0.160962      3.72884e-05    -7.55308e-05         0.239852        -0.89964
                        0.293789       -0.354273     -5.63264e-05    -2.50162e-05          0.64474        0.489668     -0.000314323    -0.000352549
                     3.58649e-05     3.78317e-05         0.240446       -0.899785     -0.000118486     0.000139972         0.353398       0.0179762
281746                  0.404088        0.708764     -7.92369e-05     5.53304e-05          0.29427       -0.355747     -1.15844e-05    -2.99977e-05
                    -6.07584e-05    -3.59873e-05         0.316858        0.160942      3.61488e-05    -7.67818e-05         0.239584       -0.899695
                        0.294248       -0.355484     -5.68304e-05    -2.55258e-05         0.645341        0.488098     -0.000302229    -0.000360509
                     3.52362e-05     3.69575e-05         0.240182       -0.899857     -0.000116697     0.000138706          0.35341       0.0177922
281748                  0.404884         0.70776     -7.88908e-05     5.44571e-05         0.294721       -0.356956     -1.35616e-05    -6.05214e-05
                    -6.07976e-05    -3.62393e-05         0.316869        0.160923      3.49456e-05    -7.79491e-05         0.239314        -0.89971
                        0.294701       -0.356694     -5.72882e-05    -2.61373e-05         0.645937         0.48653     -0.000264409    -0.000372645
                     3.44497e-05     3.58712e-05         0.239919       -0.899929     -0.000115062     0.000137275         0.353424       0.0176097
281750                  0.405675        0.706757     -7.85017e-05     5.36122e-05         0.295167       -0.358164     -0.000135199    -0.000344231
                    -6.08424e-05    -3.64485e-05         0.316881        0.160903      3.36559e-05     -7.9015e-05         0.239184       -0.899932
                        0.295148       -0.357902     -5.77008e-05    -2.68634e-05         0.646527        0.484964     -0.000177038     -0.00021217
                     3.36133e-05     3.43148e-05         0.239657            -0.9     -0.000113618     0.000135689          0.35343       0.0174338
281752                  0.406459        0.705755     -7.80684e-05     5.27949e-05         0.295607        -0.35937     -9.99875e-06      0.00010177
                    -6.09135e-05    -3.65902e-05         0.316892        0.160884      3.22418e-05    -7.99517e-05         0.238837       -0.899963
                        0.295589       -0.359109     -5.80594e-05    -2.77114e-05         0.647111          0.4834     -0.000348755    -0.000255001
                     3.33719e-05     3.20877e-05         0.239395       -0.900071     -0.000112401     0.000133952         0.353438       0.0172462
281754                  0.407238        0.704752     -7.75884e-05     5.20077e-05         0.296042       -0.360574     -3.59869e-06     4.65599e-05
                    -6.10946e-05    -3.66326e-05         0.316904        0.160864      3.06342e-05    -8.07127e-05         0.238562       -0.900019
                        0.296024       -0.360314     -5.83425e-05    -2.86815e-05         0.647689        0.481839     -0.000348492    -0.000292059
                     3.44827e-05     3.03341e-05         0.239133       -0.900141     -0.000111451     0.000132041         0.353448        0.017061
281756                  0.408012         0.70375     -7.70586e-05     5.12575e-05         0.296471       -0.361777     -1.67809e-06     3.03557e-05
                    -6.16033e-05    -3.67365e-05         0.316915        0.160845      2.86947e-05    -8.12125e-05         0.238296       -0.900082
                        0.296454       -0.361516     -5.85155e-05    -2.97608e-05         0.648262         0.48028      -0.00034459    -0.000304437
                     3.54183e-05     3.00792e-05         0.238871        -0.90021     -0.000110838     0.000129881         0.353459       0.0168766
281758                  0.408782        0.702748     -7.64756e-05     5.05562e-05         0.296894       -0.362977     -1.64838e-07     2.25072e-05
                    -6.20814e-05    -3.73854e-05         0.316927        0.160825      2.61009e-05    -8.12752e-05         0.238031       -0.900148
                        0.296879       -0.362718     -5.85356e-05    -3.09143e-05         0.648828        0.478723     -0.000341723    -0.000309946
                     3.53636e-05     3.00697e-05         0.238609       -0.900279     -0.000110711     0.000127282         0.353469       0.0166926
281760                  0.409546        0.701747     -7.58382e-05     4.99222e-05         0.297313       -0.364175      1.25867e-06     1.78661e-05
                    -6.20801e-05    -3.79918e-05         0.316938        0.160805      2.19002e-05    -8.04841e-05         0.237767       -0.900214
                        0.297299       -0.363917     -5.83668e-05    -3.20756e-05         0.649389        0.477168     -0.000339634    -0.000312635
                     3.48629e-05     2.97426e-05         0.238347       -0.900347     -0.000111462     0.000123738         0.353479       0.0165087
281762                  0.410306        0.700747     -7.51511e-05     4.93824e-05         0.297728       -0.365371      2.64656e-06     1.48355e-05
                    -6.20381e-05    -3.83581e-05          0.31695        0.160786       1.1704e-05    -7.78376e-05         0.237504       -0.900281
                        0.297713       -0.365115      -5.8006e-05     -3.3148e-05         0.649945        0.475615     -0.000338042    -0.000313869
