! TOUCHSTONE file generated by CST MICROWAVE STUDIO
! Date and time: Wed Oct 15 17:29:35 2025
! Project name: Teste_Macro_Metasurface_Nanopilar.cst
! Parameters = {H=600; L_x=100; L_y=130; Lambda=1064; Max_L=200; Min_L=70; PathPara=1; Phi=0; Step_L=10; Theta=0; p=520; phaseX=180; phaseY=0}
! Header version: 2018
! Port assignment regex: !\s*Touchstone port\s*([0-9]+)\s*=\s*(CST MWS port|CST DS port)\s*([0-9]+|Zmin|Zmax)\s*\(\"(.*)\"\)(\s*mode\s*([0-9]+))?.*
! Touchstone port assignment:
! Touchstone port 1 = CST MWS port Zmax ("") mode 1
! Touchstone port 2 = CST MWS port Zmax ("") mode 2
! Touchstone port 3 = CST MWS port Zmin ("") mode 1
! Touchstone port 4 = CST MWS port Zmin ("") mode 2
! S-Parameters are not renormalized. Each port impedance will be approximated by the real part at minimum frequency. The values are described via the [Reference] keyword.
! Default impedance is overridden by [Reference]
[Version] 2.0
# GHz S RI R 376.73
[Number of Ports] 4
[Reference]
376.73 376.73 259.888 259.888 
[Number of Frequencies] 51
[Network Data]
281700                 0.0218018       -0.081662      0.000817448      -8.863e-05        0.0718139        0.984166     -7.73948e-05      0.00033868
                     0.000733616    -9.42054e-05        0.0307388       0.0915918      0.000430789     0.000160886        -0.908524       -0.396334
                       0.0719235        0.984072      0.000493967    -1.41313e-05        0.0306544        0.078891      -0.00037002     0.000760795
                     5.33402e-05     0.000254035        -0.908579       -0.396066     -0.000461317     0.000588342       -0.0873841       0.0409095
281702                 0.0217715      -0.0816353      0.000817212     -8.8905e-05        0.0722156         0.98414     -7.73368e-05     0.000338721
                     0.000733537    -9.43278e-05        0.0307535       0.0916052      0.000430774     0.000160759        -0.908647       -0.396047
                       0.0723257        0.984046      0.000493987    -1.42304e-05        0.0306845       0.0788435     -0.000369639     0.000760782
                     5.32826e-05     0.000254064        -0.908702       -0.395778        -0.000461     0.000588228       -0.0873782       0.0409631
281704                 0.0217413      -0.0816085      0.000816975    -8.91801e-05        0.0726174        0.984113     -7.72788e-05     0.000338762
                     0.000733458    -9.44502e-05        0.0307682       0.0916186      0.000430759     0.000160632        -0.908771       -0.395759
                       0.0727278        0.984019      0.000494006    -1.43296e-05        0.0307146       0.0787959     -0.000369259     0.000760769
                      5.3225e-05     0.000254093        -0.908825       -0.395491     -0.000460683     0.000588115       -0.0873722       0.0410167
281706                  0.021711      -0.0815817      0.000816739    -8.94552e-05        0.0730191        0.984087     -7.72209e-05     0.000338803
                     0.000733378    -9.45726e-05        0.0307829        0.091632      0.000430743     0.000160503        -0.908894       -0.395472
                       0.0731299        0.983992      0.000494026    -1.44289e-05        0.0307446       0.0787484     -0.000368878     0.000760755
                     5.31673e-05     0.000254122        -0.908948       -0.395203     -0.000460364     0.000588003       -0.0873662       0.0410703
281708                 0.0216808       -0.081555      0.000816502    -8.97302e-05        0.0734208         0.98406     -7.71629e-05     0.000338844
                     0.000733299    -9.46949e-05        0.0307976       0.0916454      0.000430727     0.000160374        -0.909016       -0.395184
                        0.073532        0.983965      0.000494045    -1.45283e-05        0.0307746       0.0787009     -0.000368497     0.000760741
                     5.31097e-05     0.000254151        -0.909071       -0.394915     -0.000460046     0.000587893       -0.0873602        0.041124
281710                 0.0216506      -0.0815282      0.000816266    -9.00052e-05        0.0738225        0.984033     -7.71049e-05     0.000338884
                     0.000733219    -9.48173e-05        0.0308124       0.0916588      0.000430711     0.000160244        -0.909139       -0.394897
                       0.0739341        0.983938      0.000494064    -1.46278e-05        0.0308046       0.0786533     -0.000368117     0.000760727
                     5.30519e-05      0.00025418        -0.909194       -0.394627     -0.000459726     0.000587783       -0.0873542       0.0411776
281712                 0.0216204      -0.0815014      0.000816029    -9.02801e-05        0.0742242        0.984006     -7.70469e-05     0.000338925
                      0.00073314    -9.49396e-05        0.0308271       0.0916722      0.000430695     0.000160112        -0.909262       -0.394609
                       0.0743362         0.98391      0.000494082    -1.47274e-05        0.0308345       0.0786058     -0.000367736     0.000760713
                     5.29942e-05     0.000254209        -0.909317       -0.394339     -0.000459406     0.000587674       -0.0873481       0.0412312
281714                 0.0215901      -0.0814746      0.000815793    -9.05551e-05        0.0746259        0.983979      -7.6989e-05     0.000338966
                      0.00073306    -9.50619e-05        0.0308418       0.0916856      0.000430678      0.00015998        -0.909385       -0.394321
                       0.0747382        0.983883        0.0004941    -1.48271e-05        0.0308643       0.0785582     -0.000367356     0.000760699
                     5.29364e-05     0.000254238         -0.90944       -0.394051     -0.000459085     0.000587566        -0.087342       0.0412849
281716                 0.0215599      -0.0814478      0.000815556    -9.08299e-05        0.0750276        0.983951      -7.6931e-05     0.000339007
                     0.000732981    -9.51842e-05        0.0308566        0.091699      0.000430662     0.000159847        -0.909507       -0.394034
                       0.0751403        0.983855      0.000494118    -1.49268e-05        0.0308942       0.0785106     -0.000366975     0.000760684
                     5.28785e-05     0.000254268        -0.909563       -0.393763     -0.000458763     0.000587459       -0.0873359       0.0413385
281718                 0.0215298      -0.0814209       0.00081532    -9.11047e-05        0.0754292        0.983924      -7.6873e-05     0.000339047
                     0.000732901    -9.53065e-05        0.0308713       0.0917123      0.000430644     0.000159712         -0.90963       -0.393746
                       0.0755423        0.983827      0.000494136    -1.50266e-05        0.0309239        0.078463     -0.000366595      0.00076067
                     5.28206e-05     0.000254297        -0.909685       -0.393475     -0.000458441     0.000587353       -0.0873297       0.0413922
281720                 0.0214996      -0.0813941      0.000815083    -9.13794e-05        0.0758309        0.983896      -7.6815e-05     0.000339088
                     0.000732821    -9.54287e-05         0.030886       0.0917257      0.000430627     0.000159577        -0.909752       -0.393458
                       0.0759444        0.983799      0.000494153    -1.51265e-05        0.0309536       0.0784155     -0.000366215     0.000760655
                     5.27627e-05     0.000254327        -0.909808       -0.393187     -0.000458118     0.000587248       -0.0873235       0.0414458
281722                 0.0214694      -0.0813672      0.000814847    -9.16541e-05        0.0762325        0.983868     -7.67571e-05     0.000339129
                     0.000732742     -9.5551e-05        0.0309008       0.0917391      0.000430609     0.000159441        -0.909874        -0.39317
                       0.0763464        0.983771       0.00049417    -1.52264e-05        0.0309833       0.0783679     -0.000365835     0.000760639
                     5.27048e-05     0.000254357         -0.90993       -0.392899     -0.000457794     0.000587144       -0.0873173       0.0414995
281724                 0.0214393      -0.0813404       0.00081461    -9.19286e-05        0.0766342         0.98384     -7.66991e-05      0.00033917
                     0.000732662    -9.56732e-05        0.0309155       0.0917525      0.000430592     0.000159304        -0.909997       -0.392882
                       0.0767484        0.983742      0.000494187    -1.53263e-05        0.0310129       0.0783203     -0.000365455     0.000760624
                     5.26468e-05     0.000254387        -0.910053        -0.39261      -0.00045747     0.000587041        -0.087311       0.0415531
281726                 0.0214091      -0.0813135      0.000814374    -9.22031e-05        0.0770358        0.983812     -7.66411e-05      0.00033921
                     0.000732582    -9.57954e-05        0.0309303       0.0917658      0.000430573     0.000159166        -0.910119       -0.392594
                       0.0771504        0.983714      0.000494203    -1.54263e-05        0.0310424       0.0782726     -0.000365075     0.000760609
                     5.25888e-05     0.000254417        -0.910175       -0.392322     -0.000457145     0.000586939       -0.0873047       0.0416068
281728                  0.021379      -0.0812866      0.000814137    -9.24775e-05        0.0774374        0.983783     -7.65831e-05     0.000339251
                     0.000732502    -9.59176e-05        0.0309451       0.0917792      0.000430555     0.000159027        -0.910241       -0.392306
                       0.0775523        0.983685      0.000494219    -1.55263e-05        0.0310719        0.078225     -0.000364695     0.000760593
                     5.25308e-05     0.000254447        -0.910297       -0.392034     -0.000456819     0.000586838       -0.0872984       0.0416605
281730                 0.0213489      -0.0812597      0.000813901    -9.27518e-05         0.077839        0.983755     -7.65251e-05     0.000339292
                     0.000732422    -9.60398e-05        0.0309598       0.0917926      0.000430536     0.000158887        -0.910363       -0.392018
                       0.0779543        0.983656      0.000494235    -1.56264e-05        0.0311014       0.0781774     -0.000364316     0.000760577
                     5.24727e-05     0.000254478        -0.910419       -0.391745     -0.000456492     0.000586737        -0.087292       0.0417141
281732                 0.0213187      -0.0812328      0.000813664    -9.30259e-05        0.0782405        0.983726     -7.64671e-05     0.000339333
                     0.000732342     -9.6162e-05        0.0309746       0.0918059      0.000430517     0.000158746        -0.910485        -0.39173
                       0.0783562        0.983627      0.000494251    -1.57264e-05        0.0311308       0.0781297     -0.000363936     0.000760561
                     5.24146e-05     0.000254508        -0.910541       -0.391457     -0.000456165     0.000586638       -0.0872856       0.0417678
281734                 0.0212886      -0.0812059      0.000813428       -9.33e-05        0.0786421        0.983697     -7.64091e-05     0.000339374
                     0.000732262    -9.62841e-05        0.0309894       0.0918193      0.000430498     0.000158604        -0.910606       -0.391442
                       0.0787582        0.983598      0.000494266    -1.58265e-05        0.0311602       0.0780821     -0.000363556     0.000760545
                     5.23565e-05     0.000254539        -0.910663       -0.391169     -0.000455837      0.00058654       -0.0872792       0.0418215
281736                 0.0212586       -0.081179      0.000813191     -9.3574e-05        0.0790437        0.983668     -7.63511e-05     0.000339414
                     0.000732182    -9.64063e-05        0.0310042       0.0918326      0.000430479     0.000158461        -0.910728       -0.391154
                       0.0791601        0.983569      0.000494281    -1.59266e-05        0.0311895       0.0780344     -0.000363177     0.000760528
                     5.22983e-05      0.00025457        -0.910785        -0.39088     -0.000455509     0.000586443       -0.0872727       0.0418752
281738                 0.0212285       -0.081152      0.000812955    -9.38478e-05        0.0794452        0.983639     -7.62931e-05     0.000339455
                     0.000732101    -9.65284e-05        0.0310189        0.091846      0.000430459     0.000158318         -0.91085       -0.390866
                        0.079562        0.983539      0.000494295    -1.60267e-05        0.0312188       0.0779868     -0.000362798     0.000760511
                     5.22402e-05     0.000254601        -0.910906       -0.390592     -0.000455179     0.000586347       -0.0872662       0.0419289
281740                 0.0211984      -0.0811251      0.000812719    -9.41215e-05        0.0798467        0.983609     -7.62351e-05     0.000339496
                     0.000732021    -9.66505e-05        0.0310337       0.0918593      0.000430439     0.000158173        -0.910971       -0.390578
                       0.0799639        0.983509       0.00049431    -1.61267e-05         0.031248       0.0779391     -0.000362418     0.000760494
                      5.2182e-05     0.000254632        -0.911028       -0.390303     -0.000454849     0.000586251       -0.0872597       0.0419826
281742                 0.0211683      -0.0810981      0.000812482    -9.43951e-05        0.0802483         0.98358      -7.6177e-05     0.000339536
                     0.000731941    -9.67726e-05        0.0310485       0.0918727      0.000430419     0.000158028        -0.911093       -0.390289
                       0.0803657        0.983479      0.000494324    -1.62268e-05        0.0312771       0.0778914     -0.000362039     0.000760477
                     5.21238e-05     0.000254663        -0.911149       -0.390014     -0.000454519     0.000586157       -0.0872531       0.0420363
281744                 0.0211383      -0.0810711      0.000812246    -9.46686e-05        0.0806498         0.98355      -7.6119e-05     0.000339577
                      0.00073186    -9.68947e-05        0.0310633        0.091886      0.000430398     0.000157881        -0.911214       -0.390001
                       0.0807676        0.983449      0.000494338    -1.63269e-05        0.0313063       0.0778437      -0.00036166      0.00076046
                     5.20656e-05     0.000254694        -0.911271       -0.389726     -0.000454187     0.000586064       -0.0872465         0.04209
281746                 0.0211082      -0.0810442      0.000812009    -9.49419e-05        0.0810513         0.98352     -7.60609e-05     0.000339618
                     0.000731779    -9.70168e-05        0.0310781       0.0918994      0.000430378     0.000157734        -0.911335       -0.389713
                       0.0811695        0.983419      0.000494351     -1.6427e-05        0.0313353       0.0777961     -0.000361281     0.000760442
                     5.20075e-05     0.000254726        -0.911392       -0.389437     -0.000453855     0.000585971       -0.0872399       0.0421437
281748                 0.0210782      -0.0810172      0.000811773    -9.52152e-05        0.0814527         0.98349     -7.60029e-05     0.000339659
                     0.000731698    -9.71388e-05        0.0310929       0.0919127      0.000430356     0.000157586        -0.911456       -0.389424
                       0.0815713        0.983389      0.000494364    -1.65271e-05        0.0313644       0.0777484     -0.000360902     0.000760424
                     5.19495e-05     0.000254757        -0.911513       -0.389148     -0.000453522      0.00058588       -0.0872332       0.0421975
281750                 0.0210482      -0.0809902      0.000811537    -9.54883e-05        0.0818542         0.98346     -7.59448e-05     0.000339699
                     0.000731617    -9.72609e-05        0.0311077        0.091926      0.000430335     0.000157436        -0.911577       -0.389136
                       0.0819731        0.983358      0.000494377    -1.66272e-05        0.0313933       0.0777006     -0.000360523     0.000760406
                      5.1892e-05     0.000254789        -0.911635       -0.388859     -0.000453189     0.000585789       -0.0872265       0.0422512
281752                 0.0210182      -0.0809631        0.0008113    -9.57613e-05        0.0822557         0.98343     -7.58867e-05      0.00033974
                      0.00073153    -9.73825e-05        0.0311225       0.0919394      0.000430313     0.000157286        -0.911698       -0.388847
                       0.0823749        0.983328       0.00049439    -1.67274e-05        0.0314222       0.0776529     -0.000360144     0.000760388
                     5.18386e-05      0.00025482        -0.911756       -0.388571     -0.000452854       0.0005857       -0.0872198       0.0423049
281754                 0.0209882      -0.0809361      0.000811064    -9.60343e-05        0.0826571        0.983399     -7.58286e-05     0.000339781
                     0.000731465    -9.75046e-05        0.0311373       0.0919527      0.000430292     0.000157135        -0.911819       -0.388559
                       0.0827767        0.983297      0.000494403    -1.68276e-05        0.0314511       0.0776052     -0.000359766      0.00076037
                     5.17674e-05     0.000254854        -0.911877       -0.388282     -0.000452519     0.000585611        -0.087213       0.0423586
281756                 0.0209582      -0.0809091      0.000810827    -9.63072e-05        0.0830585        0.983368     -7.57703e-05     0.000339822
                      0.00073138    -9.76269e-05        0.0311522        0.091966      0.000430269     0.000156983         -0.91194        -0.38827
                       0.0831785        0.983266      0.000494415     -1.6928e-05        0.0314799       0.0775575     -0.000359387     0.000760351
                     5.17125e-05     0.000254885        -0.911998       -0.387993     -0.000452183     0.000585523       -0.0872062       0.0424124
281758                 0.0209282       -0.080882      0.000810591    -9.65802e-05        0.0834599        0.983337     -7.57138e-05     0.000339862
                     0.000731298     -9.7749e-05         0.031167       0.0919793      0.000430246     0.000156829        -0.912061       -0.387981
                       0.0835802        0.983234      0.000494427    -1.70286e-05        0.0315087       0.0775097     -0.000359011     0.000760335
                     5.16547e-05     0.000254917        -0.912118       -0.387704     -0.000451846     0.000585436       -0.0871994       0.0424661
281760                 0.0208982       -0.080855      0.000810354    -9.68535e-05        0.0838613        0.983306     -7.56546e-05     0.000339903
                     0.000731217     -9.7871e-05        0.0311818       0.0919927      0.000430221     0.000156672        -0.912181       -0.387693
                        0.083982        0.983203      0.000494439    -1.71298e-05        0.0315375        0.077462     -0.000358631     0.000760313
                     5.15966e-05      0.00025495        -0.912239       -0.387415     -0.000451506     0.000585347       -0.0871925       0.0425199
281762                 0.0208683      -0.0808279      0.000810118    -9.71274e-05        0.0842625        0.983275     -7.55964e-05     0.000339944
                     0.000731136     -9.7993e-05        0.0311966        0.092006      0.000430226     0.000156617        -0.912302       -0.387404
                       0.0843837        0.983172      0.000494451     -1.7232e-05        0.0315661       0.0774142     -0.000358252     0.000760294
