! TOUCHSTONE file generated by CST MICROWAVE STUDIO
! Date and time: Wed Oct 15 17:32:10 2025
! Project name: Teste_Macro_Metasurface_Nanopilar.cst
! Parameters = {H=600; L_x=145; L_y=125; Lambda=1064; Max_L=200; Min_L=70; PathPara=1; Phi=0; Step_L=10; Theta=0; p=520; phaseX=180; phaseY=0}
! Header version: 2018
! Port assignment regex: !\s*Touchstone port\s*([0-9]+)\s*=\s*(CST MWS port|CST DS port)\s*([0-9]+|Zmin|Zmax)\s*\(\"(.*)\"\)(\s*mode\s*([0-9]+))?.*
! Touchstone port assignment:
! Touchstone port 1 = CST MWS port Zmax ("") mode 1
! Touchstone port 2 = CST MWS port Zmax ("") mode 2
! Touchstone port 3 = CST MWS port Zmin ("") mode 1
! Touchstone port 4 = CST MWS port Zmin ("") mode 2
! S-Parameters are not renormalized. Each port impedance will be approximated by the real part at minimum frequency. The values are described via the [Reference] keyword.
! Default impedance is overridden by [Reference]
[Version] 2.0
# GHz S RI R 376.73
[Number of Ports] 4
[Reference]
376.73 376.73 259.888 259.888 
[Number of Frequencies] 51
[Network Data]
281700                 0.0573639       0.0838964      6.29935e-06    -0.000232545         0.942261        0.299187     -0.000142185    -2.32884e-05
                     7.10381e-05    -0.000192927         0.111016        0.176205      0.000166058      1.6708e-05         0.918101       -0.323308
                        0.942213        0.298906      9.40586e-05    -2.27671e-05       -0.0940124       0.0368056     -0.000203694    -0.000196026
                    -0.000203227     3.68202e-05         0.918643       -0.323397     -0.000124958    -0.000151318        0.0251156        0.205543
281702                  0.057376       0.0839115      6.23214e-06    -0.000232443         0.942362        0.298864     -0.000142193    -2.31532e-05
                     7.11195e-05    -0.000192916         0.111035        0.176226      0.000166065       1.673e-05         0.917991       -0.323605
                        0.942314        0.298582      9.41448e-05    -2.26384e-05       -0.0940059       0.0368753     -0.000203918    -0.000195863
                    -0.000203292      3.7035e-05         0.918532       -0.323694     -0.000125137    -0.000151183        0.0252479        0.205553
281704                 0.0573881       0.0839265      6.16503e-06    -0.000232342         0.942463         0.29854     -0.000142201    -2.30179e-05
                     7.12011e-05    -0.000192905         0.111053        0.176246      0.000166072      1.6752e-05          0.91788       -0.323902
                        0.942415        0.298258       9.4231e-05    -2.25099e-05       -0.0939993        0.036945     -0.000204143      -0.0001957
                    -0.000203358     3.72502e-05         0.918421       -0.323991     -0.000125315    -0.000151049        0.0253803        0.205564
281706                 0.0574002       0.0839415      6.09801e-06    -0.000232241         0.942563        0.298216     -0.000142209    -2.28825e-05
                     7.12828e-05    -0.000192895         0.111072        0.176267      0.000166079      1.6774e-05         0.917769       -0.324199
                        0.942515        0.297935      9.43173e-05    -2.23816e-05       -0.0939927       0.0370147     -0.000204367    -0.000195537
                    -0.000203422     3.74659e-05         0.918309       -0.324288     -0.000125493    -0.000150914        0.0255127        0.205575
281708                 0.0574123       0.0839566      6.03107e-06     -0.00023214         0.942664        0.297893     -0.000142216     -2.2747e-05
                     7.13644e-05    -0.000192886         0.111091        0.176287      0.000166086     1.67959e-05         0.917658       -0.324496
                        0.942616        0.297611      9.44036e-05    -2.22536e-05       -0.0939861       0.0370844     -0.000204592    -0.000195373
                    -0.000203486     3.76821e-05         0.918198       -0.324585     -0.000125671     -0.00015078        0.0256451        0.205585
281710                 0.0574244       0.0839716      5.96422e-06    -0.000232039         0.942764        0.297569     -0.000142224    -2.26114e-05
                     7.14452e-05    -0.000192879          0.11111        0.176307      0.000166094     1.68178e-05         0.917547       -0.324792
                        0.942716        0.297287        9.449e-05    -2.21257e-05       -0.0939794       0.0371541     -0.000204816    -0.000195209
                    -0.000203549     3.78987e-05         0.918087       -0.324882     -0.000125848    -0.000150645        0.0257776        0.205596
281712                 0.0574365       0.0839866      5.89745e-06    -0.000231938         0.942865        0.297245     -0.000142231    -2.24757e-05
                     7.15225e-05    -0.000192875         0.111128        0.176328      0.000166101     1.68397e-05         0.917435       -0.325089
                        0.942817        0.296964      9.45765e-05    -2.19981e-05       -0.0939726       0.0372238      -0.00020504    -0.000195046
                    -0.000203612      3.8116e-05         0.917975       -0.325179     -0.000126026     -0.00015051        0.0259101        0.205606
281714                 0.0574487       0.0840017      5.83075e-06    -0.000231837         0.942965        0.296922     -0.000142238    -2.23399e-05
                     7.15879e-05    -0.000192872         0.111147        0.176348      0.000166108     1.68616e-05         0.917324       -0.325386
                        0.942917         0.29664      9.46632e-05    -2.18706e-05       -0.0939658       0.0372935     -0.000205264    -0.000194882
                    -0.000203674     3.83337e-05         0.917863       -0.325476     -0.000126203    -0.000150374        0.0260426        0.205616
281716                 0.0574608       0.0840167      5.76412e-06    -0.000231736         0.943065        0.296598     -0.000142245     -2.2204e-05
                     7.16478e-05    -0.000192846         0.111166        0.176369      0.000166115     1.68834e-05         0.917213       -0.325683
                        0.943017        0.296316      9.47499e-05    -2.17433e-05        -0.093959       0.0373632     -0.000205488    -0.000194718
                    -0.000203736     3.85519e-05         0.917752       -0.325773      -0.00012638    -0.000150239        0.0261751        0.205627
281718                 0.0574729       0.0840317      5.69755e-06    -0.000231636         0.943165        0.296274     -0.000142252     -2.2068e-05
                     7.17308e-05    -0.000192814         0.111185        0.176389      0.000166122     1.69052e-05         0.917101       -0.325979
                        0.943117        0.295992      9.48369e-05    -2.16162e-05       -0.0939521        0.037433     -0.000205712    -0.000194554
                    -0.000203797     3.87707e-05          0.91764        -0.32607     -0.000126556    -0.000150103        0.0263077        0.205637
281720                  0.057485       0.0840467      5.63104e-06    -0.000231535         0.943265         0.29595     -0.000142258    -2.19319e-05
                     7.18199e-05    -0.000192794         0.111204         0.17641       0.00016613     1.69269e-05         0.916989       -0.326276
                        0.943216        0.295668      9.49239e-05    -2.14893e-05       -0.0939451       0.0375027     -0.000205936     -0.00019439
                    -0.000203857     3.89901e-05         0.917528       -0.326367     -0.000126733    -0.000149968        0.0264403        0.205647
281722                 0.0574971       0.0840617      5.56459e-06    -0.000231435         0.943365        0.295626     -0.000142265    -2.17957e-05
                     7.19067e-05    -0.000192779         0.111222         0.17643      0.000166137     1.69486e-05         0.916878       -0.326573
                        0.943316        0.295345      9.50111e-05    -2.13625e-05       -0.0939381       0.0375724      -0.00020616    -0.000194226
                    -0.000203917       3.921e-05         0.917416       -0.326664     -0.000126909    -0.000149832        0.0265729        0.205657
281724                 0.0575093       0.0840767       5.4982e-06    -0.000231335         0.943465        0.295302     -0.000142271    -2.16594e-05
                     7.19914e-05    -0.000192766         0.111241         0.17645      0.000166144     1.69703e-05         0.916766       -0.326869
                        0.943416        0.295021      9.50984e-05    -2.12358e-05       -0.0939311       0.0376421     -0.000206384    -0.000194061
                    -0.000203976     3.94304e-05         0.917304       -0.326961     -0.000127086    -0.000149697        0.0267056        0.205667
281726                 0.0575214       0.0840917      5.43185e-06    -0.000231235         0.943564        0.294979     -0.000142277     -2.1523e-05
                     7.20749e-05    -0.000192753          0.11126        0.176471      0.000166151     1.69919e-05         0.916654       -0.327166
                        0.943515        0.294697      9.51859e-05    -2.11093e-05        -0.093924       0.0377118     -0.000206607    -0.000193897
                    -0.000204034     3.96514e-05         0.917192       -0.327257     -0.000127262    -0.000149562        0.0268383        0.205677
281728                 0.0575335       0.0841067      5.36555e-06    -0.000231135         0.943664        0.294655     -0.000142283    -2.13865e-05
                     7.21576e-05     -0.00019274         0.111279        0.176491      0.000166159     1.70135e-05         0.916542       -0.327462
                        0.943614        0.294373      9.52736e-05     -2.0983e-05       -0.0939168       0.0377816     -0.000206831    -0.000193732
                    -0.000204093     3.98729e-05         0.917079       -0.327554     -0.000127439    -0.000149427         0.026971        0.205686
281730                 0.0575456       0.0841217       5.2993e-06    -0.000231034         0.943763        0.294331     -0.000142289    -2.12499e-05
                       7.224e-05    -0.000192727         0.111298        0.176512      0.000166166      1.7035e-05          0.91643       -0.327759
                        0.943714        0.294049      9.53614e-05    -2.08568e-05       -0.0939096       0.0378513     -0.000207054    -0.000193568
                     -0.00020415      4.0095e-05         0.916967       -0.327851     -0.000127615    -0.000149292        0.0271037        0.205696
281732                 0.0575578       0.0841367       5.2331e-06    -0.000230935         0.943862        0.294007     -0.000142295    -2.11133e-05
                     7.23221e-05    -0.000192714         0.111316        0.176532      0.000166174     1.70564e-05         0.916317       -0.328055
                        0.943813        0.293725      9.54493e-05    -2.07307e-05       -0.0939024       0.0379211     -0.000207278    -0.000193403
                    -0.000204208     4.03175e-05         0.916854       -0.328147     -0.000127792    -0.000149157        0.0272365        0.205706
281734                 0.0575699       0.0841517      5.16695e-06    -0.000230835         0.943961        0.293683       -0.0001423    -2.09766e-05
                      7.2404e-05    -0.000192701         0.111335        0.176553      0.000166181     1.70777e-05         0.916205       -0.328352
                        0.943912        0.293401      9.55374e-05    -2.06048e-05       -0.0938951       0.0379908     -0.000207501    -0.000193238
                    -0.000204265     4.05404e-05         0.916742       -0.328444     -0.000127969    -0.000149023        0.0273693        0.205715
281736                 0.0575821       0.0841667      5.10085e-06    -0.000230735          0.94406        0.293359     -0.000142305    -2.08398e-05
                     7.24857e-05    -0.000192688         0.111354        0.176573      0.000166188      1.7099e-05         0.916093       -0.328648
                        0.944011        0.293077      9.56257e-05     -2.0479e-05       -0.0938877       0.0380605     -0.000207724    -0.000193073
                    -0.000204322     4.07638e-05         0.916629       -0.328741     -0.000128146    -0.000148889        0.0275021        0.205725
281738                 0.0575942       0.0841817      5.03481e-06    -0.000230635         0.944159        0.293035     -0.000142311    -2.07029e-05
                     7.25674e-05    -0.000192675         0.111373        0.176594      0.000166196     1.71202e-05          0.91598       -0.328945
                        0.944109        0.292753      9.57141e-05    -2.03533e-05       -0.0938803       0.0381303     -0.000207947    -0.000192908
                    -0.000204378     4.09875e-05         0.916516       -0.329037     -0.000128323    -0.000148755         0.027635        0.205734
281740                 0.0576063       0.0841967      4.96882e-06    -0.000230535         0.944258        0.292711     -0.000142316     -2.0566e-05
                      7.2649e-05    -0.000192662         0.111392        0.176614      0.000166204     1.71413e-05         0.915867       -0.329241
                        0.944208        0.292429      9.58027e-05    -2.02278e-05       -0.0938728          0.0382      -0.00020817    -0.000192742
                    -0.000204435     4.12114e-05         0.916403       -0.329334       -0.0001285    -0.000148622        0.0277678        0.205743
281742                 0.0576185       0.0842116      4.90289e-06    -0.000230436         0.944357        0.292386     -0.000142321    -2.04291e-05
                     7.27306e-05    -0.000192649         0.111411        0.176635      0.000166211     1.71623e-05         0.915755       -0.329537
                        0.944307        0.292105      9.58915e-05    -2.01024e-05       -0.0938653       0.0382698     -0.000208393    -0.000192576
                    -0.000204492     4.14355e-05          0.91629        -0.32963     -0.000128677     -0.00014849        0.0279007        0.205753
281744                 0.0576306       0.0842266      4.83703e-06    -0.000230336         0.944455        0.292062     -0.000142325    -2.02922e-05
                     7.28121e-05    -0.000192635         0.111429        0.176655      0.000166219     1.71832e-05         0.915642       -0.329834
                        0.944405        0.291781      9.59804e-05    -1.99772e-05       -0.0938577       0.0383395     -0.000208615    -0.000192411
                    -0.000204549     4.16596e-05         0.916177       -0.329927     -0.000128854    -0.000148357        0.0280337        0.205762
281746                 0.0576428       0.0842416      4.77123e-06    -0.000230237         0.944554        0.291738      -0.00014233    -2.01552e-05
                     7.28937e-05    -0.000192622         0.111448        0.176676      0.000166227      1.7204e-05         0.915529        -0.33013
                        0.944503        0.291456      9.60694e-05    -1.98521e-05       -0.0938501       0.0384093     -0.000208838    -0.000192244
                    -0.000204607     4.18836e-05         0.916064       -0.330223     -0.000129031    -0.000148226        0.0281666        0.205771
281748                 0.0576549       0.0842566       4.7055e-06    -0.000230138         0.944652        0.291414     -0.000142334    -2.00184e-05
                     7.29752e-05    -0.000192609         0.111467        0.176696      0.000166234     1.72246e-05         0.915416       -0.330426
                        0.944602        0.291132      9.61587e-05    -1.97272e-05       -0.0938425        0.038479      -0.00020906    -0.000192078
                    -0.000204665     4.21075e-05          0.91595       -0.330519     -0.000129208    -0.000148095        0.0282996         0.20578
281750                 0.0576671       0.0842715      4.63984e-06    -0.000230038          0.94475         0.29109     -0.000142339    -1.98818e-05
                     7.30567e-05    -0.000192595         0.111486        0.176717      0.000166242     1.72451e-05         0.915303       -0.330722
                          0.9447        0.290808       9.6248e-05    -1.96024e-05       -0.0938348       0.0385488     -0.000209282     -0.00019191
                    -0.000204724     4.23311e-05         0.915837       -0.330816     -0.000129385    -0.000147964        0.0284326        0.205789
281752                 0.0576793       0.0842865      4.57425e-06    -0.000229939         0.944848        0.290765     -0.000142344    -1.97458e-05
                     7.31383e-05    -0.000192581         0.111505        0.176738       0.00016625     1.72654e-05         0.915189       -0.331018
                        0.944798        0.290484      9.63375e-05    -1.94778e-05        -0.093827       0.0386185     -0.000209503    -0.000191742
                    -0.000204783     4.25543e-05         0.915723       -0.331112     -0.000129562    -0.000147833        0.0285657        0.205798
281754                 0.0576914       0.0843014      4.50874e-06     -0.00022984         0.944946        0.290441     -0.000142349    -1.96114e-05
                     7.32199e-05    -0.000192568         0.111524        0.176758      0.000166258     1.72856e-05         0.915076       -0.331314
                        0.944895         0.29016      9.64272e-05    -1.93533e-05       -0.0938192       0.0386883     -0.000209723     -0.00019157
                    -0.000204843      4.2777e-05          0.91561       -0.331408     -0.000129739    -0.000147703        0.0286988        0.205806
281756                 0.0577036       0.0843164      4.44331e-06    -0.000229741         0.945044        0.290117     -0.000142358     -1.9484e-05
                     7.33015e-05    -0.000192554         0.111543        0.176779      0.000166265     1.73056e-05         0.914963       -0.331611
                        0.944993        0.289835       9.6517e-05    -1.92289e-05       -0.0938113       0.0387581     -0.000209937    -0.000191377
                    -0.000204903     4.29993e-05         0.915496       -0.331705     -0.000129916    -0.000147573        0.0288319        0.205815
281758                 0.0577158       0.0843314      4.37795e-06    -0.000229642         0.945142        0.289793     -0.000142389    -1.92537e-05
                     7.33831e-05     -0.00019254         0.111561        0.176799      0.000166273     1.73254e-05         0.914849       -0.331906
                        0.945091        0.289511      9.66069e-05    -1.91047e-05       -0.0938034       0.0388278     -0.000210227    -0.000191308
                    -0.000204965      4.3221e-05         0.915382       -0.332001     -0.000130092    -0.000147443        0.0289649        0.205824
281760                 0.0577279       0.0843463      4.31268e-06    -0.000229543         0.945239        0.289468     -0.000142354    -1.91728e-05
                     7.34648e-05    -0.000192526          0.11158         0.17682      0.000166281     1.73452e-05         0.914735       -0.332202
                        0.945188        0.289187       9.6697e-05    -1.89807e-05       -0.0937954       0.0388976     -0.000210409    -0.000191104
                    -0.000205027     4.34422e-05         0.915268       -0.332297     -0.000130268    -0.000147313        0.0290981        0.205832
281762                 0.0577401       0.0843613      4.24748e-06    -0.000229444         0.945337        0.289144     -0.000142358     -1.9042e-05
                     7.35465e-05    -0.000192513         0.111599         0.17684      0.000166288     1.73649e-05         0.914622       -0.332498
                        0.945286        0.288862      9.67872e-05    -1.88569e-05       -0.0937874       0.0389674     -0.000210626     -0.00019093
