! TOUCHSTONE file generated by CST MICROWAVE STUDIO
! Date and time: Wed Oct 15 17:34:27 2025
! Project name: Teste_Macro_Metasurface_Nanopilar.cst
! Parameters = {H=600; L_x=185; L_y=125; Lambda=1064; Max_L=200; Min_L=70; PathPara=1; Phi=0; Step_L=10; Theta=0; p=520; phaseX=180; phaseY=0}
! Header version: 2018
! Port assignment regex: !\s*Touchstone port\s*([0-9]+)\s*=\s*(CST MWS port|CST DS port)\s*([0-9]+|Zmin|Zmax)\s*\(\"(.*)\"\)(\s*mode\s*([0-9]+))?.*
! Touchstone port assignment:
! Touchstone port 1 = CST MWS port Zmax ("") mode 1
! Touchstone port 2 = CST MWS port Zmax ("") mode 2
! Touchstone port 3 = CST MWS port Zmin ("") mode 1
! Touchstone port 4 = CST MWS port Zmin ("") mode 2
! S-Parameters are not renormalized. Each port impedance will be approximated by the real part at minimum frequency. The values are described via the [Reference] keyword.
! Default impedance is overridden by [Reference]
[Version] 2.0
# GHz S RI R 376.73
[Number of Ports] 4
[Reference]
376.73 376.73 259.888 259.888 
[Number of Frequencies] 51
[Network Data]
281700                  0.101754        0.141677     -0.000639089    -0.000281472         0.952734       -0.230062      0.000123552    -0.000113608
                    -0.000653744    -0.000308427         0.161175      -0.0540565      2.91582e-05    -1.97316e-05         0.665991       -0.719799
                        0.953078       -0.230486      3.30521e-05    -0.000102463       -0.0245403        0.171657      5.65854e-05    -0.000727829
                     0.000204893    -6.09305e-05         0.666177       -0.719752     -1.90319e-05    -0.000760152       -0.0413356        0.158816
281702                  0.101767        0.141693     -0.000639224    -0.000281509         0.952657       -0.230361      0.000123589    -0.000113794
                    -0.000653667    -0.000308402         0.161173      -0.0540222      2.91173e-05     -2.0181e-05         0.665764        -0.72001
                        0.953007       -0.230788      3.31767e-05    -0.000102255       -0.0244344        0.171691      5.60744e-05    -0.000728296
                     0.000204577    -6.12337e-05         0.665954       -0.719968      -2.0019e-05     -0.00075986       -0.0412002        0.158838
281704                  0.101781         0.14171     -0.000639366    -0.000281553          0.95258       -0.230661      0.000123615     -0.00011398
                    -0.000653571    -0.000308373         0.161171      -0.0539878      2.90306e-05     -2.0676e-05         0.665538        -0.72022
                        0.952935       -0.231089      3.32918e-05    -0.000102045       -0.0243286        0.171726      5.55547e-05    -0.000728768
                     0.000204229    -6.15522e-05         0.665732       -0.720184     -2.10661e-05     -0.00075948       -0.0410649         0.15886
281706                  0.101794        0.141727     -0.000639515    -0.000281607         0.952503       -0.230961      0.000123629    -0.000114163
                     -0.00065345    -0.000308339         0.161168      -0.0539535       2.8885e-05    -2.12219e-05         0.665311       -0.720431
                        0.952864       -0.231391      3.33959e-05     -0.00010183       -0.0242228        0.171761      5.50248e-05    -0.000729245
                     0.000203843    -6.18884e-05          0.66551       -0.720401      -2.2188e-05    -0.000758992       -0.0409296        0.158882
281708                  0.101808        0.141743     -0.000639672    -0.000281672         0.952425       -0.231261      0.000123632    -0.000114342
                    -0.000653302    -0.000308301         0.161166      -0.0539191       2.8663e-05    -2.18241e-05         0.665085       -0.720642
                        0.952793       -0.231692      3.34872e-05    -0.000101612       -0.0241171        0.171796      5.44831e-05    -0.000729731
                      0.00020341    -6.22457e-05         0.665288       -0.720617     -2.34046e-05    -0.000758369       -0.0407943        0.158904
281710                  0.101821         0.14176     -0.000639839    -0.000281751         0.952348       -0.231561      0.000123622    -0.000114515
                    -0.000653118    -0.000308256         0.161164      -0.0538848      2.83412e-05    -2.24873e-05         0.664858       -0.720853
                        0.952723       -0.231993      3.35632e-05     -0.00010139       -0.0240113        0.171831      5.39276e-05    -0.000730227
                      0.00020292    -6.26283e-05         0.665065       -0.720834     -2.47442e-05    -0.000757575        -0.040659        0.158926
281712                  0.101835        0.141777     -0.000640017    -0.000281846          0.95227       -0.231861      0.000123602    -0.000114681
                    -0.000652891    -0.000308205         0.161162      -0.0538504      2.78878e-05    -2.32134e-05         0.664632       -0.721064
                        0.952652       -0.232293      3.36208e-05    -0.000101162       -0.0239056        0.171866       5.3356e-05     -0.00073074
                     0.000202359    -6.30414e-05         0.664843       -0.721051     -2.62472e-05    -0.000756557       -0.0405237        0.158947
281714                  0.101848        0.141793     -0.000640208    -0.000281961         0.952191       -0.232162      0.000123573    -0.000114836
                    -0.000652608    -0.000308146          0.16116      -0.0538161      2.72601e-05    -2.39992e-05         0.664405       -0.721275
                        0.952583       -0.232593      3.36558e-05     -0.00010093       -0.0237998        0.171901       5.2766e-05    -0.000731276
                     0.000201708    -6.34916e-05          0.66462       -0.721268     -2.79741e-05    -0.000755243       -0.0403884        0.158969
281716                  0.101862         0.14181     -0.000640415    -0.000282102         0.952113       -0.232463      0.000123535    -0.000114981
                    -0.000652254    -0.000308077         0.161158      -0.0537818      2.64011e-05    -2.48303e-05         0.664179       -0.721486
                        0.952514       -0.232893      3.36626e-05     -0.00010069       -0.0236941        0.171936      5.21563e-05    -0.000731847
                     0.000200941    -6.39876e-05         0.664397       -0.721486     -3.00189e-05    -0.000753524       -0.0402532         0.15899
281718                  0.101875        0.141827     -0.000640641    -0.000282276         0.952035       -0.232764      0.000123492    -0.000115114
                    -0.000651806    -0.000307997         0.161155      -0.0537475      2.52365e-05     -2.5671e-05         0.663952       -0.721697
                        0.952446       -0.233192      3.36336e-05    -0.000100444       -0.0235884        0.171972      5.15278e-05    -0.000732468
                     0.000200023    -6.45407e-05         0.664174       -0.721704      -3.2537e-05    -0.000751227       -0.0401179        0.159011
281720                  0.101889        0.141844     -0.000640891    -0.000282494         0.951956       -0.233065      0.000123444    -0.000115233
                    -0.000651229    -0.000307904         0.161153      -0.0537132      2.36759e-05    -2.64472e-05         0.663726       -0.721908
                         0.95238       -0.233491      3.35578e-05    -0.000100189       -0.0234827        0.172007      5.08885e-05    -0.000733164
                     0.000198896    -6.51657e-05         0.663951       -0.721923     -3.58021e-05    -0.000748072       -0.0399827        0.159033
281722                  0.101902        0.141861     -0.000641169     -0.00028277         0.951877       -0.233366      0.000123394     -0.00011534
                    -0.000650472    -0.000307796         0.161151      -0.0536789      2.16243e-05    -2.70198e-05           0.6635       -0.722119
                        0.952316       -0.233788       3.3419e-05    -9.99248e-05        -0.023377        0.172043      5.02625e-05    -0.000733969
                      0.00019748    -6.58821e-05         0.663727       -0.722144     -4.03445e-05    -0.000743566       -0.0398475        0.159054
281724                  0.101916        0.141877     -0.000641483    -0.000283128         0.951798       -0.233668      0.000123344    -0.000115434
                    -0.000649451    -0.000307675         0.161149      -0.0536446      1.90202e-05    -2.71511e-05         0.663273        -0.72233
                        0.952256       -0.234085      3.31928e-05    -9.96517e-05       -0.0232713        0.172078      4.97071e-05    -0.000734916
                     0.000195639    -6.67142e-05         0.663502       -0.722366     -4.73302e-05    -0.000736763       -0.0397123        0.159075
281726                  0.101929        0.141894     -0.000641839    -0.000283604          0.95172        -0.23397      0.000123295    -0.000115516
                     -0.00064802    -0.000307548         0.161147      -0.0536103       1.5922e-05    -2.64897e-05         0.663047       -0.722541
                        0.952201        -0.23438      3.28399e-05    -9.93716e-05       -0.0231656        0.172113      4.93327e-05    -0.000736009
                     0.000193144    -6.76892e-05         0.663275        -0.72259     -5.98538e-05    -0.000725669       -0.0395771        0.159095
281728                  0.101943        0.141911     -0.000642243    -0.000284259         0.951641       -0.234271      0.000123249    -0.000115586
                     -0.00064591    -0.000307449         0.161145       -0.053576      1.26421e-05    -2.46374e-05          0.66282       -0.722752
                        0.952157       -0.234675      3.22935e-05    -9.90933e-05       -0.0230599        0.172149      4.92817e-05    -0.000737145
                     0.000189573    -6.88209e-05         0.663044       -0.722815     -8.90362e-05    -0.000705923        -0.039442        0.159116
281730                  0.101956        0.141928     -0.000642696    -0.000285199         0.951562       -0.234573      0.000123208    -0.000115645
                    -0.000642557    -0.000307496         0.161142      -0.0535418      9.83182e-06    -2.13799e-05         0.662593       -0.722963
                         0.95213       -0.234971      3.14321e-05    -9.88459e-05       -0.0229542        0.172185       4.9592e-05    -0.000738071
                     0.000184064    -7.00321e-05         0.662807       -0.723042     -0.000200535    -0.000687108       -0.0393068        0.159137
281732                  0.101969        0.141945     -0.000643159    -0.000286626         0.951482       -0.234875      0.000123173    -0.000115694
                    -0.000636589    -0.000308202          0.16114      -0.0535075       8.2972e-06    -1.70106e-05         0.662367       -0.723174
                        0.952137       -0.235277       3.0014e-05    -9.87269e-05       -0.0228485         0.17222      5.00447e-05     -0.00073856
                      0.00017463    -7.07544e-05         0.662562       -0.723267     -0.000166331     -0.00102392       -0.0391716        0.159157
281734                  0.101983        0.141962     -0.000643451    -0.000288948         0.951403       -0.235178      0.000123144    -0.000115736
                    -0.000624003    -0.000312529         0.161138      -0.0534733       8.4997e-06    -1.23744e-05          0.66214       -0.723384
                        0.952213       -0.235641      2.75175e-05    -9.91055e-05       -0.0227427        0.172256      5.03236e-05     -0.00073866
                     0.000156174    -6.73893e-05         0.662308       -0.723483     -8.68283e-06    -0.000894293       -0.0390365        0.159178
281736                  0.101996        0.141979     -0.000642743     -0.00029295         0.951324        -0.23548      0.000123123     -0.00011577
                    -0.000599739    -0.000348285         0.161136      -0.0534391      1.02152e-05     -8.3977e-06         0.661913       -0.723595
                        0.952291       -0.236267      2.29219e-05    -0.000101698        -0.022637        0.172291      5.03033e-05    -0.000738601
                     0.000122989     -3.4175e-05         0.662053       -0.723682     -5.02247e-06    -0.000844143       -0.0389014        0.159198
281738                  0.102008        0.141997     -0.000637538    -0.000298852         0.951245       -0.235782      0.000123108    -0.000115798
                    -0.000683592    -0.000376205         0.161135      -0.0534048      1.27669e-05     -5.5699e-06         0.661687       -0.723806
                        0.951809        -0.23691      1.92615e-05     -0.00011418       -0.0225312        0.172326      5.00404e-05    -0.000738558
                     0.000178404     4.04314e-05         0.661809       -0.723869     -8.33975e-06    -0.000823522       -0.0387663        0.159218
281740                   0.10202        0.142013     -0.000624086    -0.000296675         0.951166       -0.236084      0.000123102    -0.000115821
                    -0.000685389    -0.000332843         0.161134      -0.0533705      1.54952e-05    -3.88441e-06          0.66146       -0.724016
                        0.951447       -0.237017      3.84806e-05    -0.000122119       -0.0224254        0.172362      4.96316e-05    -0.000738595
                      0.00022888    -6.05877e-07          0.66158       -0.724052     -1.15012e-05    -0.000812742       -0.0386313        0.159239
281742                  0.102033        0.142028     -0.000622239    -0.000283565         0.951087       -0.236387      0.000123103    -0.000115841
                    -0.000677801    -0.000322052         0.161134       -0.053336       1.7988e-05    -3.09468e-06         0.661231       -0.724226
                         0.95133       -0.237168      4.51136e-05     -0.00011117       -0.0223196        0.172397      4.91473e-05    -0.000738717
                     0.000229664    -2.54097e-05         0.661361       -0.724242     -1.40684e-05    -0.000806342       -0.0384963        0.159259
281744                  0.102047        0.142043     -0.000627731    -0.000278424         0.951007       -0.236689      0.000123113    -0.000115857
                    -0.000673461    -0.000318241         0.161138      -0.0532987      2.00531e-05     -2.9469e-06         0.661007        -0.72444
                        0.951259       -0.237395      4.43619e-05    -0.000105779       -0.0222138        0.172433      4.86279e-05    -0.000738908
                     0.000226143    -3.61293e-05         0.661148       -0.724439      -1.6142e-05    -0.000802327       -0.0383615        0.159278
281746                  0.102062        0.142059     -0.000631689    -0.000277482         0.950928       -0.236991       0.00012313    -0.000115871
                    -0.000670848    -0.000316692         0.161115      -0.0532337      2.16082e-05    -3.30581e-06          0.66078       -0.724649
                        0.951195        -0.23766      4.32411e-05    -0.000103214       -0.0221079        0.172468      4.80942e-05     -0.00073915
                     0.000223033    -4.12391e-05         0.660936       -0.724643     -1.78291e-05    -0.000799901       -0.0382264        0.159298
281748                  0.102077        0.142076     -0.000634262    -0.000277688         0.950849       -0.237294      0.000123156    -0.000115882
                    -0.000669027    -0.000316306         0.161109      -0.0532282      2.26101e-05    -4.29186e-06         0.660553       -0.724859
                        0.951137       -0.237949      4.23251e-05    -0.000101728       -0.0220021        0.172503      4.75565e-05    -0.000739431
                     0.000220343    -4.32382e-05         0.660724       -0.724852     -1.91944e-05    -0.000798979       -0.0380912        0.159317
281750                  0.102091        0.142093     -0.000636145    -0.000278395         0.950771       -0.237597      0.000123196    -0.000115892
                    -0.000667185    -0.000316743         0.161111      -0.0531971      2.33845e-05    -6.72417e-06         0.660326       -0.725069
                        0.951103       -0.238244      4.14976e-05    -0.000100723       -0.0218961        0.172539      4.70194e-05    -0.000739739
                     0.000216614    -4.19462e-05         0.660512       -0.725071     -2.04811e-05    -0.000801091       -0.0379561        0.159337
281752                  0.102106         0.14211      -0.00063766    -0.000279848         0.950692         -0.2379      0.000123254     -0.00011591
                    -0.000664341    -0.000317075          0.16111      -0.0531637      2.76573e-05    -1.07523e-05         0.660099       -0.725279
                        0.951067       -0.238496      4.04458e-05    -0.000100014       -0.0217902        0.172574      4.64844e-05    -0.000740066
                     0.000199033    -4.09938e-05         0.660287       -0.725299     -4.93977e-05    -0.000814981        -0.037821        0.159356
281754                   0.10212        0.142127     -0.000637636     -0.00028322         0.950613       -0.238206      0.000123315    -0.000115961
                    -0.000661506    -0.000315458         0.161109      -0.0531299      3.29902e-05    -8.21118e-06         0.659872       -0.725489
                        0.950982       -0.238755      3.81177e-05    -0.000100433        -0.021684         0.17261      4.59519e-05    -0.000740407
                     0.000206067    -6.45567e-05         0.660046       -0.725514     -2.97514e-05    -0.000783062       -0.0376859        0.159376
281756                  0.102134        0.142143     -0.000631955    -0.000283058         0.950529        -0.23851      0.000123337    -0.000116012
                    -0.000660687    -0.000313282         0.161107       -0.053096      3.34899e-05     -6.0371e-06         0.659644       -0.725699
                        0.950893        -0.23904      4.22919e-05    -0.000105176       -0.0215774        0.172645      4.54211e-05    -0.000740756
                     0.000212067    -6.23168e-05         0.659813       -0.725716     -2.74948e-05    -0.000785863       -0.0375508        0.159395
281758                  0.102148         0.14216     -0.000632616    -0.000278726         0.950448        -0.23881      0.000123362    -0.000116035
                    -0.000660799    -0.000312015         0.161105      -0.0530619      3.35584e-05    -5.47997e-06         0.659417       -0.725909
                         0.95081       -0.239334      4.34783e-05    -0.000100938       -0.0214701         0.17268      4.48911e-05    -0.000741111
                     0.000212933    -6.12521e-05         0.659587       -0.725919     -2.76739e-05    -0.000786556       -0.0374157        0.159414
281760                  0.102162        0.142177     -0.000634396    -0.000277721         0.950368       -0.239111      0.000123402    -0.000116052
                    -0.000660997    -0.000311365         0.161103      -0.0530279      3.37732e-05    -5.43578e-06          0.65919       -0.726119
                        0.950729       -0.239631      4.29666e-05    -9.96755e-05       -0.0213631        0.172714      4.43603e-05     -0.00074147
                     0.000212909    -6.09523e-05         0.659363       -0.726125     -2.82846e-05    -0.000786727       -0.0372807        0.159433
281762                  0.102175        0.142193     -0.000635519    -0.000277541         0.950288       -0.239413      0.000123452     -0.00011607
                    -0.000661131    -0.000311003         0.161101      -0.0529939      3.40852e-05    -5.56101e-06         0.658962       -0.726328
                         0.95065       -0.239928      4.26801e-05    -9.90229e-05       -0.0212572        0.172747      4.38271e-05    -0.000741831
