! TOUCHSTONE file generated by CST MICROWAVE STUDIO
! Date and time: Wed Oct 15 17:31:22 2025
! Project name: Teste_Macro_Metasurface_Nanopilar.cst
! Parameters = {H=600; L_x=130; L_y=155; Lambda=1064; Max_L=200; Min_L=70; PathPara=1; Phi=0; Step_L=10; Theta=0; p=520; phaseX=180; phaseY=0}
! Header version: 2018
! Port assignment regex: !\s*Touchstone port\s*([0-9]+)\s*=\s*(CST MWS port|CST DS port)\s*([0-9]+|Zmin|Zmax)\s*\(\"(.*)\"\)(\s*mode\s*([0-9]+))?.*
! Touchstone port assignment:
! Touchstone port 1 = CST MWS port Zmax ("") mode 1
! Touchstone port 2 = CST MWS port Zmax ("") mode 2
! Touchstone port 3 = CST MWS port Zmin ("") mode 1
! Touchstone port 4 = CST MWS port Zmin ("") mode 2
! S-Parameters are not renormalized. Each port impedance will be approximated by the real part at minimum frequency. The values are described via the [Reference] keyword.
! Default impedance is overridden by [Reference]
[Version] 2.0
# GHz S RI R 376.73
[Number of Ports] 4
[Reference]
376.73 376.73 259.888 259.888 
[Number of Frequencies] 51
[Network Data]
281700                  0.445956        0.480904      0.000665359    -8.47107e-06         0.278557       -0.671505     -4.74305e-06      6.7327e-05
                     0.000557917    -3.23271e-05        0.0973722        0.122979      0.000170832     0.000364821         0.974211       -0.130867
                        0.278752       -0.671367      0.000150613     0.000552298         0.638534      -0.0810166     -0.000291699     0.000626221
                    -1.12462e-05    -9.11397e-05         0.974559       -0.130815     -3.39623e-05     0.000538817       -0.0602796        0.143988
281702                  0.446446        0.480989      0.000664965    -8.92238e-06         0.277866       -0.671364     -4.33517e-06     6.73022e-05
                     0.000557562    -3.23711e-05        0.0973846         0.12299      0.000171045     0.000364556         0.974167       -0.131178
                         0.27806       -0.671226      0.000151161     0.000552089         0.638809      -0.0818846     -0.000291758     0.000626706
                    -1.16528e-05    -9.11198e-05         0.974514       -0.131125     -3.36721e-05     0.000538632       -0.0601965         0.14404
281704                  0.446937        0.481074      0.000664573    -9.37389e-06         0.277175       -0.671221     -3.93434e-06     6.72746e-05
                     0.000557207    -3.24159e-05        0.0973969        0.123001      0.000171257      0.00036429         0.974123       -0.131488
                        0.277368       -0.671084      0.000151705     0.000551883         0.639083      -0.0827543     -0.000291807     0.000627189
                    -1.20594e-05    -9.10995e-05          0.97447       -0.131436     -3.33775e-05     0.000538448       -0.0601134        0.144093
281706                  0.447429        0.481159      0.000664181    -9.82572e-06         0.276483       -0.671078     -3.54037e-06     6.72445e-05
                     0.000556851    -3.24614e-05        0.0974092        0.123013      0.000171469     0.000364021         0.974079       -0.131798
                        0.276675       -0.670941      0.000152246      0.00055168         0.639357      -0.0836255     -0.000291847     0.000627669
                    -1.24661e-05    -9.10786e-05         0.974425       -0.131747     -3.30784e-05     0.000538266       -0.0600302        0.144145
281708                  0.447921        0.481243       0.00066379     -1.0278e-05         0.275791       -0.670933     -3.15305e-06      6.7212e-05
                     0.000556496    -3.25076e-05        0.0974215        0.123024       0.00017168      0.00036375         0.974035       -0.132108
                        0.275982       -0.670796      0.000152784     0.000551481          0.63963      -0.0844983     -0.000291879     0.000628147
                    -1.28728e-05    -9.10573e-05         0.974381       -0.132058     -3.27745e-05     0.000538086        -0.059947        0.144198
281710                  0.448415        0.481326        0.0006634    -1.07309e-05         0.275099       -0.670788      -2.7722e-06     6.71772e-05
                     0.000556141    -3.25546e-05        0.0974339        0.123035      0.000171891     0.000363476          0.97399       -0.132419
                        0.275289        -0.67065      0.000153319     0.000551287         0.639903      -0.0853727     -0.000291902     0.000628622
                    -1.32795e-05    -9.10355e-05         0.974336       -0.132368     -3.24656e-05     0.000537907       -0.0598637         0.14425
281712                  0.448909         0.48141       0.00066301    -1.11847e-05         0.274406       -0.670641     -2.39763e-06     6.71402e-05
                     0.000555787    -3.26024e-05        0.0974462        0.123047        0.0001721     0.000363199         0.973946       -0.132729
                        0.274596       -0.670504      0.000153852     0.000551097         0.640175      -0.0862486     -0.000291917     0.000629094
                    -1.36862e-05    -9.10132e-05         0.974291       -0.132679     -3.21513e-05      0.00053773       -0.0597804        0.144302
281714                  0.449404        0.481492      0.000662621    -1.16393e-05         0.273713       -0.670493     -2.02919e-06     6.71012e-05
                     0.000555432    -3.26509e-05        0.0974585        0.123058      0.000172309      0.00036292         0.973901       -0.133039
                        0.273902       -0.670355      0.000154384     0.000550913         0.640446      -0.0871261     -0.000291923     0.000629564
                    -1.40928e-05    -9.09906e-05         0.974246        -0.13299     -3.18313e-05     0.000537554       -0.0596971        0.144355
281716                  0.449899        0.481575      0.000662232    -1.20951e-05          0.27302       -0.670343      -1.6667e-06     6.70603e-05
                     0.000555077    -3.27002e-05        0.0974708        0.123069      0.000172517     0.000362638         0.973857        -0.13335
                        0.273208       -0.670206      0.000154916     0.000550734         0.640716      -0.0880051     -0.000291922     0.000630032
                    -1.44994e-05    -9.09675e-05         0.974201         -0.1333     -3.15054e-05     0.000537381       -0.0596137        0.144407
281718                  0.450396        0.481656      0.000661844    -1.25523e-05         0.272326       -0.670193        -1.31e-06     6.70175e-05
                     0.000554722    -3.27502e-05        0.0974832        0.123081      0.000172724     0.000362353         0.973812        -0.13366
                        0.272513       -0.670055      0.000155449      0.00055056         0.640986      -0.0888856     -0.000291913     0.000630497
                    -1.49058e-05     -9.0944e-05         0.974156       -0.133611     -3.11732e-05     0.000537209       -0.0595303        0.144459
281720                  0.450893        0.481738      0.000661455    -1.30108e-05         0.271631       -0.670041     -9.58943e-07     6.69729e-05
                     0.000554368     -3.2801e-05        0.0974955        0.123092      0.000172931     0.000362064         0.973767        -0.13397
                        0.271819       -0.669903      0.000155983     0.000550392         0.641255      -0.0897676     -0.000291896      0.00063096
                    -1.53122e-05    -9.09201e-05         0.974111       -0.133922     -3.08343e-05      0.00053704       -0.0594468        0.144511
281722                  0.451391        0.481819      0.000661067     -1.3471e-05         0.270937       -0.669888     -6.13383e-07     6.69267e-05
                     0.000554013    -3.28526e-05        0.0975078        0.123103      0.000173136     0.000361773         0.973723        -0.13428
                        0.271124        -0.66975      0.000156519     0.000550229         0.641523      -0.0906511     -0.000291873     0.000631421
                    -1.57185e-05    -9.08958e-05         0.974066       -0.134232     -3.04885e-05     0.000536873       -0.0593633        0.144564
281724                   0.45189        0.481899      0.000660678     -1.3933e-05         0.270242       -0.669734     -2.73182e-07     6.68789e-05
                     0.000553658    -3.29049e-05        0.0975201        0.123115      0.000173341     0.000361478         0.973677       -0.134591
                        0.270428       -0.669596      0.000157058      0.00055007          0.64179       -0.091536     -0.000291842     0.000631879
                    -1.61245e-05    -9.08712e-05          0.97402       -0.134543     -3.01353e-05     0.000536708       -0.0592797        0.144616
281726                  0.452389        0.481979      0.000660288    -1.43968e-05         0.269546       -0.669579      6.17905e-08     6.68296e-05
                     0.000553303     -3.2958e-05        0.0975325        0.123126      0.000173545     0.000361179         0.973632       -0.134901
                        0.269732        -0.66944      0.000157601     0.000549916         0.642057      -0.0924225     -0.000291804     0.000632335
                    -1.65304e-05    -9.08461e-05         0.973975       -0.134853     -2.97744e-05     0.000536545       -0.0591961        0.144668
281728                   0.45289        0.482058      0.000659897    -1.48626e-05          0.26885       -0.669422      3.91657e-07      6.6779e-05
                     0.000552948    -3.30119e-05        0.0975448        0.123138      0.000173748     0.000360876         0.973587       -0.135211
                        0.269037       -0.669283      0.000158148     0.000549765         0.642322      -0.0933104      -0.00029176     0.000632789
                    -1.69361e-05    -9.08208e-05         0.973929       -0.135164     -2.94054e-05     0.000536385       -0.0591125         0.14472
281730                  0.453391        0.482137      0.000659505    -1.53305e-05         0.268154       -0.669264       7.1653e-07      6.6727e-05
                     0.000552593    -3.30666e-05        0.0975571        0.123149      0.000173951     0.000360569         0.973542       -0.135521
                         0.26834       -0.669125      0.000158701     0.000549618         0.642587      -0.0941997     -0.000291709     0.000633241
                    -1.73414e-05     -9.0795e-05         0.973883       -0.135474      -2.9028e-05     0.000536227       -0.0590288        0.144772
281732                  0.453893        0.482216      0.000659111    -1.58004e-05         0.267457       -0.669105      1.03651e-06     6.66738e-05
                     0.000552238    -3.31222e-05        0.0975694         0.12316      0.000174152     0.000360259         0.973496       -0.135831
                        0.267644       -0.668966      0.000159259     0.000549472          0.64285      -0.0950905     -0.000291651      0.00063369
                    -1.77465e-05    -9.07689e-05         0.973838       -0.135785     -2.86419e-05     0.000536072        -0.058945        0.144824
281734                  0.454395        0.482294      0.000658714    -1.62723e-05          0.26676       -0.668945       1.3517e-06     6.66194e-05
                     0.000551882    -3.31787e-05        0.0975818        0.123172      0.000174353     0.000359944         0.973451       -0.136141
                        0.266947       -0.668805      0.000159823     0.000549328         0.643113      -0.0959827     -0.000291588     0.000634137
                    -1.81512e-05    -9.07424e-05         0.973792       -0.136095      -2.8247e-05      0.00053592       -0.0588613        0.144875
281736                  0.454899        0.482371      0.000658315    -1.67461e-05         0.266063       -0.668783      1.66216e-06     6.65639e-05
                     0.000551527    -3.32361e-05        0.0975941        0.123183      0.000174554     0.000359625         0.973405       -0.136451
                         0.26625       -0.668643      0.000160392     0.000549184         0.643374      -0.0968763     -0.000291518     0.000634582
                    -1.85554e-05    -9.07155e-05         0.973746       -0.136406     -2.78429e-05      0.00053577       -0.0587774        0.144927
281738                  0.455403        0.482448      0.000657913    -1.72216e-05         0.265365        -0.66862      1.96794e-06     6.65075e-05
                     0.000551171    -3.32946e-05        0.0976064        0.123194      0.000174753     0.000359301         0.973359       -0.136762
                        0.265552        -0.66848      0.000160968      0.00054904         0.643635      -0.0977713     -0.000291443     0.000635025
                    -1.89591e-05    -9.06881e-05           0.9737       -0.136716     -2.74299e-05     0.000535623       -0.0586936        0.144979
281740                  0.455908        0.482525      0.000657506    -1.76985e-05         0.264667       -0.668456      2.26908e-06     6.64503e-05
                     0.000550815    -3.33543e-05        0.0976188        0.123206      0.000174953     0.000358974         0.973314       -0.137072
                        0.264854       -0.668315       0.00016155     0.000548894         0.643894      -0.0986677     -0.000291362     0.000635465
                    -1.93622e-05    -9.06603e-05         0.973653       -0.137027     -2.70082e-05     0.000535478       -0.0586097        0.145031
281742                  0.456414        0.482601      0.000657096    -1.81765e-05         0.263969        -0.66829      2.56553e-06     6.63925e-05
                     0.000550458    -3.34153e-05        0.0976311        0.123217      0.000175152     0.000358643         0.973268       -0.137382
                        0.264156       -0.668149      0.000162137     0.000548747         0.644153      -0.0995655     -0.000291276     0.000635903
                    -1.97645e-05    -9.06319e-05         0.973607       -0.137337     -2.65784e-05     0.000535336       -0.0585257        0.145082
281744                   0.45692        0.482676      0.000656681    -1.86552e-05          0.26327       -0.668123      2.85721e-06     6.63342e-05
                     0.000550101    -3.34779e-05        0.0976434        0.123228      0.000175351     0.000358308         0.973222       -0.137692
                        0.263458       -0.667982       0.00016273     0.000548598          0.64441       -0.100465     -0.000291185     0.000636338
                    -2.01659e-05    -9.06028e-05         0.973561       -0.137648     -2.61417e-05     0.000535195       -0.0584417        0.145134
281746                  0.457428        0.482751      0.000656261     -1.9134e-05         0.262571       -0.667955      3.14388e-06     6.62761e-05
                     0.000549745    -3.35425e-05        0.0976557         0.12324      0.000175551      0.00035797         0.973175       -0.138002
                         0.26276       -0.667814      0.000163328     0.000548445         0.644666       -0.101365      -0.00029109      0.00063677
                    -2.05661e-05    -9.05729e-05         0.973514       -0.137958     -2.56999e-05     0.000535056       -0.0583578        0.145186
281748                  0.457936        0.482825      0.000655836    -1.96124e-05         0.261871       -0.667785      3.42517e-06     6.62192e-05
                     0.000549387    -3.36096e-05        0.0976681        0.123251      0.000175752      0.00035763         0.973129       -0.138312
                        0.262061       -0.667644       0.00016393     0.000548288         0.644921       -0.102267     -0.000290991     0.000637198
                    -2.09647e-05    -9.05418e-05         0.973468       -0.138268     -2.52562e-05     0.000534917       -0.0582737        0.145237
281750                  0.458445        0.482899      0.000655404    -2.00896e-05         0.261172       -0.667615      3.70054e-06     6.61659e-05
                      0.00054903    -3.36802e-05        0.0976804        0.123263      0.000175955     0.000357291         0.973083       -0.138622
                        0.261362       -0.667473      0.000164538     0.000548127         0.645175       -0.103171     -0.000290891     0.000637622
                    -2.13613e-05    -9.05091e-05         0.973421       -0.138579     -2.48155e-05     0.000534776       -0.0581896        0.145289
281752                  0.458954        0.482973      0.000654967     -2.0565e-05         0.260472       -0.667442      3.97073e-06     6.61227e-05
                     0.000548673    -3.37556e-05        0.0976927        0.123274      0.000176161     0.000356954         0.973036       -0.138932
                        0.260663       -0.667301       0.00016515     0.000547961         0.645428       -0.104075     -0.000290795     0.000638043
                    -2.17551e-05     -9.0474e-05         0.973374       -0.138889     -2.43853e-05     0.000534632       -0.0581054         0.14534
281754                  0.459465        0.483045      0.000654523    -2.10377e-05         0.259772       -0.667269      4.25159e-06     6.61059e-05
                     0.000548316    -3.38385e-05        0.0977051        0.123285      0.000176372     0.000356625          0.97299       -0.139242
                        0.259963       -0.667127      0.000165766      0.00054779         0.645679       -0.104981      -0.00029071     0.000638468
                    -2.21447e-05     -9.0435e-05         0.973328       -0.139199     -2.39774e-05     0.000534481       -0.0580212        0.145391
281756                  0.459976        0.483117      0.000654073     -2.1507e-05         0.259073       -0.667094      4.61018e-06     6.60733e-05
                     0.000547961    -3.39341e-05        0.0977174        0.123297      0.000176592      0.00035631         0.972943       -0.139552
                        0.259264       -0.666952      0.000166386     0.000547614         0.645929       -0.105889     -0.000290634     0.000638923
                     -2.2528e-05    -9.03891e-05         0.973281       -0.139509     -2.36103e-05     0.000534316       -0.0579369        0.145443
281758                  0.460487        0.483189      0.000653616     -2.1972e-05         0.258373       -0.666918        4.921e-06     6.59328e-05
                     0.000547614    -3.40535e-05        0.0977297        0.123308      0.000176824     0.000356021         0.972896       -0.139862
                        0.258564       -0.666775      0.000167009     0.000547431         0.646178       -0.106797     -0.000290516     0.000639415
                    -2.29009e-05    -9.03293e-05         0.973234       -0.139819     -2.33137e-05     0.000534129       -0.0578527        0.145494
281760                     0.461        0.483259      0.000653152     -2.2432e-05         0.257674       -0.666741      5.16759e-06     6.58291e-05
                     0.000547293    -3.42249e-05         0.097742        0.123319      0.000177076     0.000355776         0.972849       -0.140172
                        0.257866       -0.666596      0.000167637     0.000547241         0.646426       -0.107707     -0.000290348     0.000639878
                    -2.32562e-05    -9.02355e-05         0.973186        -0.14013     -2.31364e-05     0.000533906       -0.0577683        0.145545
281762                  0.461514        0.483326      0.000652681    -2.28861e-05         0.256977       -0.666563      5.41375e-06     6.57497e-05
                     0.000547127    -3.45162e-05        0.0977544        0.123331      0.000177359     0.000355607         0.972802       -0.140482
                        0.257167       -0.666412      0.000168269     0.000547044         0.646672       -0.108618     -0.000290179     0.000640309
