! TOUCHSTONE file generated by CST MICROWAVE STUDIO
! Date and time: Wed Oct 15 17:32:50 2025
! Project name: Teste_Macro_Metasurface_Nanopilar.cst
! Parameters = {H=600; L_x=155; L_y=165; Lambda=1064; Max_L=200; Min_L=70; PathPara=1; Phi=0; Step_L=10; Theta=0; p=520; phaseX=180; phaseY=0}
! Header version: 2018
! Port assignment regex: !\s*Touchstone port\s*([0-9]+)\s*=\s*(CST MWS port|CST DS port)\s*([0-9]+|Zmin|Zmax)\s*\(\"(.*)\"\)(\s*mode\s*([0-9]+))?.*
! Touchstone port assignment:
! Touchstone port 1 = CST MWS port Zmax ("") mode 1
! Touchstone port 2 = CST MWS port Zmax ("") mode 2
! Touchstone port 3 = CST MWS port Zmin ("") mode 1
! Touchstone port 4 = CST MWS port Zmin ("") mode 2
! S-Parameters are not renormalized. Each port impedance will be approximated by the real part at minimum frequency. The values are described via the [Reference] keyword.
! Default impedance is overridden by [Reference]
[Version] 2.0
# GHz S RI R 376.73
[Number of Ports] 4
[Reference]
376.73 376.73 259.888 259.888 
[Number of Frequencies] 51
[Network Data]
281700                  0.169092      0.00377759     -6.48679e-05    -0.000184311         0.650745       -0.734966      0.000259926     0.000423729
                    -6.45782e-05    -0.000169241         0.171715      -0.0174593      0.000315105     0.000351915         0.738599        -0.64487
                        0.650159       -0.734196      0.000330175      0.00033074        0.0239841        0.163337     -0.000196012     -0.00024263
                     0.000346888     0.000354075         0.738743        -0.64487     -0.000287672    -0.000110437       -0.0399208        0.162743
281702                  0.169094       0.0037964     -6.49606e-05    -0.000184149         0.650525        -0.73516      0.000260154     0.000423562
                    -6.46952e-05    -0.000169094          0.17171      -0.0174336      0.000315085     0.000351795           0.7384         -0.6451
                        0.649939       -0.734391      0.000330243     0.000330512        0.0241009        0.163323     -0.000196143    -0.000242279
                     0.000347026     0.000353877         0.738544         -0.6451     -0.000287508    -0.000110366       -0.0397937        0.162769
281704                  0.169096      0.00381521     -6.50534e-05    -0.000183987         0.650306       -0.735354      0.000260382     0.000423396
                     -6.4812e-05    -0.000168946         0.171706       -0.017408      0.000315066     0.000351675         0.738202        -0.64533
                        0.649719       -0.734585       0.00033031     0.000330284        0.0242177        0.163309     -0.000196274    -0.000241929
                     0.000347163     0.000353679         0.738345        -0.64533     -0.000287344    -0.000110294       -0.0396666        0.162794
281706                  0.169098      0.00383402     -6.51464e-05    -0.000183826         0.650086       -0.735548       0.00026061      0.00042323
                    -6.49288e-05    -0.000168798         0.171701      -0.0173824      0.000315046     0.000351555         0.738003       -0.645561
                        0.649499       -0.734779      0.000330378     0.000330056        0.0243345        0.163295     -0.000196405     -0.00024158
                       0.0003473     0.000353481         0.738147        -0.64556      -0.00028718    -0.000110223       -0.0395396        0.162819
281708                  0.169101      0.00385281     -6.52394e-05    -0.000183664         0.649867       -0.735742      0.000260838     0.000423064
                    -6.50454e-05    -0.000168649         0.171697      -0.0173568      0.000315027     0.000351435         0.737804       -0.645791
                        0.649279       -0.734974      0.000330446     0.000329828        0.0244513        0.163281     -0.000196536    -0.000241231
                     0.000347437     0.000353282         0.737948        -0.64579     -0.000287016    -0.000110152       -0.0394125        0.162844
281710                  0.169103       0.0038716     -6.53325e-05    -0.000183502         0.649647       -0.735936      0.000261066     0.000422898
                    -6.51619e-05    -0.000168501         0.171693      -0.0173312      0.000315007     0.000351315         0.737606       -0.646021
                        0.649059       -0.735168      0.000330514       0.0003296         0.024568        0.163267     -0.000196668    -0.000240882
                     0.000347574     0.000353082         0.737749        -0.64602     -0.000286852     -0.00011008       -0.0392855        0.162869
281712                  0.169105      0.00389039     -6.54258e-05    -0.000183341         0.649427        -0.73613      0.000261294     0.000422733
                    -6.52783e-05    -0.000168352         0.171688      -0.0173057      0.000314988     0.000351194         0.737407        -0.64625
                        0.648839       -0.735362      0.000330582     0.000329372        0.0246848        0.163253     -0.000196799    -0.000240534
                      0.00034771     0.000352883          0.73755       -0.646249     -0.000286689    -0.000110009       -0.0391585        0.162894
281714                  0.169107      0.00390916      -6.5519e-05    -0.000183179         0.649208       -0.736324      0.000261521     0.000422567
                    -6.53945e-05    -0.000168204         0.171684      -0.0172801      0.000314969     0.000351074         0.737208        -0.64648
                        0.648618       -0.735556      0.000330651     0.000329145        0.0248015        0.163239     -0.000196931    -0.000240187
                     0.000347847     0.000352683         0.737352       -0.646479     -0.000286525    -0.000109938       -0.0390314        0.162919
281716                  0.169109      0.00392793     -6.56124e-05    -0.000183018         0.648988       -0.736518      0.000261749     0.000422402
                    -6.55107e-05    -0.000168055         0.171679      -0.0172546       0.00031495     0.000350954         0.737009        -0.64671
                        0.648398        -0.73575      0.000330719     0.000328918        0.0249182        0.163225     -0.000197063    -0.000239841
                     0.000347983     0.000352482         0.737153       -0.646709     -0.000286362    -0.000109867       -0.0389044        0.162944
281718                  0.169111      0.00394669     -6.57058e-05    -0.000182857         0.648768       -0.736711      0.000261977     0.000422237
                    -6.56267e-05    -0.000167906         0.171675       -0.017229      0.000314932     0.000350834          0.73681        -0.64694
                        0.648178       -0.735943      0.000330787      0.00032869        0.0250349        0.163211     -0.000197194    -0.000239495
                     0.000348119     0.000352282         0.736954       -0.646938     -0.000286199    -0.000109796       -0.0387773        0.162969
281720                  0.169113      0.00396545     -6.57992e-05    -0.000182695         0.648548       -0.736905      0.000262204     0.000422073
                    -6.57426e-05    -0.000167757          0.17167      -0.0172035      0.000314913     0.000350714         0.736611       -0.647169
                        0.647957       -0.736137      0.000330856     0.000328463        0.0251516        0.163196     -0.000197326     -0.00023915
                     0.000348254     0.000352081         0.736754       -0.647167     -0.000286036    -0.000109726       -0.0386503        0.162993
281722                  0.169115      0.00398419     -6.58926e-05    -0.000182534         0.648328       -0.737098      0.000262431     0.000421908
                    -6.58585e-05    -0.000167607         0.171666       -0.017178      0.000314894     0.000350593         0.736412       -0.647399
                        0.647737       -0.736331      0.000330924     0.000328236        0.0252682        0.163182     -0.000197458    -0.000238805
                      0.00034839     0.000351879         0.736555       -0.647397     -0.000285873    -0.000109655       -0.0385233        0.163018
281724                  0.169117      0.00400293     -6.59861e-05    -0.000182372         0.648108       -0.737292      0.000262659     0.000421744
                    -6.59741e-05    -0.000167458         0.171662      -0.0171525      0.000314876     0.000350473         0.736213       -0.647628
                        0.647517       -0.736525      0.000330993     0.000328009        0.0253849        0.163167      -0.00019759    -0.000238461
                     0.000348525     0.000351677         0.736356       -0.647626     -0.000285711    -0.000109584       -0.0383962        0.163042
281726                   0.16912      0.00402167     -6.60795e-05    -0.000182211         0.647888       -0.737485      0.000262886      0.00042158
                    -6.60897e-05    -0.000167308         0.171657       -0.017127      0.000314858     0.000350353         0.736013       -0.647858
                        0.647296       -0.736718      0.000331061     0.000327782        0.0255015        0.163153     -0.000197722    -0.000238117
                      0.00034866     0.000351475         0.736157       -0.647855     -0.000285548    -0.000109514       -0.0382692        0.163066
281728                  0.169122      0.00404039      -6.6173e-05     -0.00018205         0.647668       -0.737678      0.000263113     0.000421416
                    -6.62052e-05    -0.000167159         0.171653      -0.0171016       0.00031484     0.000350233         0.735814       -0.648087
                        0.647075       -0.736912       0.00033113     0.000327556        0.0256181        0.163138     -0.000197854    -0.000237774
                     0.000348795     0.000351273         0.735957       -0.648084     -0.000285386    -0.000109443       -0.0381422        0.163091
281730                  0.169124      0.00405911     -6.62664e-05    -0.000181888         0.647447       -0.737872      0.000263339     0.000421252
                    -6.63205e-05    -0.000167009         0.171648      -0.0170761      0.000314822     0.000350112         0.735615       -0.648316
                        0.646855       -0.737105      0.000331198     0.000327329        0.0257347        0.163123     -0.000197986    -0.000237432
                      0.00034893      0.00035107         0.735758       -0.648313     -0.000285224    -0.000109373       -0.0380152        0.163115
281732                  0.169126      0.00407782     -6.63599e-05    -0.000181727         0.647227       -0.738065      0.000263566     0.000421089
                    -6.64357e-05    -0.000166859         0.171644      -0.0170506      0.000314804     0.000349992         0.735415       -0.648545
                        0.646634       -0.737298      0.000331267     0.000327103        0.0258512        0.163109     -0.000198118    -0.000237091
                     0.000349064     0.000350867         0.735559       -0.648542     -0.000285062    -0.000109303       -0.0378881        0.163139
281734                  0.169128      0.00409653     -6.64533e-05    -0.000181566         0.647007       -0.738258      0.000263793     0.000420925
                    -6.65508e-05    -0.000166709          0.17164      -0.0170252      0.000314786     0.000349872         0.735216       -0.648774
                        0.646413       -0.737492      0.000331335     0.000326876        0.0259678        0.163094      -0.00019825     -0.00023675
                     0.000349198     0.000350663         0.735359       -0.648771       -0.0002849    -0.000109233       -0.0377611        0.163163
281736                   0.16913      0.00411523     -6.65466e-05    -0.000181404         0.646786       -0.738451      0.000264019     0.000420762
                    -6.66657e-05    -0.000166559         0.171635      -0.0169998      0.000314768     0.000349752         0.735016       -0.649003
                        0.646193       -0.737685      0.000331404      0.00032665        0.0260843        0.163079     -0.000198382    -0.000236409
                     0.000349332     0.000350459         0.735159          -0.649     -0.000284738    -0.000109163       -0.0376341        0.163187
281738                  0.169132      0.00413392     -6.66399e-05    -0.000181243         0.646566       -0.738644      0.000264245     0.000420599
                    -6.67806e-05    -0.000166409         0.171631      -0.0169744      0.000314751     0.000349631         0.734816       -0.649232
                        0.645972       -0.737878      0.000331472     0.000326424        0.0262008        0.163064     -0.000198514    -0.000236069
                     0.000349466     0.000350255          0.73496       -0.649229     -0.000284577    -0.000109093       -0.0375071         0.16321
281740                  0.169134       0.0041526     -6.67332e-05    -0.000181081         0.646346       -0.738836      0.000264472     0.000420437
                    -6.68953e-05    -0.000166258         0.171627       -0.016949      0.000314733     0.000349511         0.734617       -0.649461
                        0.645751       -0.738071       0.00033154     0.000326198        0.0263173        0.163048     -0.000198647     -0.00023573
                     0.000349599     0.000350051          0.73476       -0.649457     -0.000284415    -0.000109023       -0.0373801        0.163234
281742                  0.169137      0.00417128     -6.68264e-05     -0.00018092         0.646125       -0.739029      0.000264698     0.000420274
                    -6.70099e-05    -0.000166107         0.171622      -0.0169236      0.000314716     0.000349391         0.734417        -0.64969
                         0.64553       -0.738264      0.000331609     0.000325972        0.0264338        0.163033     -0.000198779    -0.000235392
                     0.000349733     0.000349846          0.73456       -0.649686     -0.000284254    -0.000108953       -0.0372531        0.163258
281744                  0.169139      0.00418995     -6.69196e-05    -0.000180758         0.645905       -0.739222      0.000264924     0.000420112
                    -6.71244e-05    -0.000165957         0.171618      -0.0168982      0.000314699      0.00034927         0.734217       -0.649919
                        0.645309       -0.738457      0.000331677     0.000325746        0.0265502        0.163018     -0.000198912    -0.000235054
                     0.000349866     0.000349641          0.73436       -0.649914     -0.000284093    -0.000108884       -0.0371261        0.163281
281746                  0.169141      0.00420861     -6.70126e-05    -0.000180597         0.645684       -0.739415      0.000265151      0.00041995
                    -6.72387e-05    -0.000165806         0.171614      -0.0168728      0.000314682      0.00034915         0.734017       -0.650147
                        0.645088        -0.73865      0.000331745      0.00032552        0.0266667        0.163003     -0.000199046    -0.000234716
                     0.000349998     0.000349435          0.73416       -0.650143     -0.000283932    -0.000108814       -0.0369991        0.163305
281748                  0.169143      0.00422727     -6.71056e-05    -0.000180435         0.645463       -0.739607       0.00026538      0.00041979
                    -6.73529e-05    -0.000165655         0.171609      -0.0168475      0.000314665      0.00034903         0.733817       -0.650376
                        0.644867       -0.738843      0.000331813     0.000325295        0.0267831        0.162987     -0.000199182    -0.000234379
                     0.000350131     0.000349229          0.73396       -0.650371     -0.000283772    -0.000108745       -0.0368721        0.163328
281750                  0.169145      0.00424592     -6.71986e-05    -0.000180274         0.645243         -0.7398      0.000265615     0.000419632
                     -6.7467e-05    -0.000165504         0.171605      -0.0168221      0.000314648     0.000348909         0.733617       -0.650604
                        0.644646       -0.739035      0.000331881     0.000325069        0.0268995        0.162972     -0.000199328    -0.000234043
                     0.000350263     0.000349023          0.73376       -0.650599     -0.000283611    -0.000108675       -0.0367451        0.163351
281752                  0.169148      0.00426456     -6.72914e-05    -0.000180112         0.645022       -0.739992      0.000265731     0.000419644
                    -6.75809e-05    -0.000165352         0.171601      -0.0167968      0.000314632     0.000348789         0.733418       -0.650832
                        0.644425       -0.739228      0.000331949     0.000324844        0.0270159        0.162956     -0.000199354    -0.000234066
                     0.000350395     0.000348817          0.73356       -0.650827     -0.000283451    -0.000108606       -0.0366181        0.163374
281754                   0.16915       0.0042832     -6.73842e-05    -0.000179951         0.644801       -0.740184      0.000266019     0.000419298
                    -6.76946e-05    -0.000165201         0.171597      -0.0167715      0.000314616     0.000348669         0.733217       -0.651061
                        0.644203        -0.73942      0.000332017     0.000324618        0.0271322         0.16294     -0.000199533     -0.00023338
                     0.000350527      0.00034861          0.73336       -0.651056     -0.000283294    -0.000108539       -0.0364911        0.163397
281756                  0.169152      0.00430182     -6.74769e-05    -0.000179789          0.64458       -0.740377      0.000266254     0.000419137
                    -6.78082e-05     -0.00016505         0.171592      -0.0167462      0.000314598     0.000348549         0.733017       -0.651289
                        0.643982       -0.739613      0.000332085     0.000324393        0.0272486        0.162925     -0.000199677    -0.000233043
                     0.000350659     0.000348403          0.73316       -0.651284     -0.000283127    -0.000108466       -0.0363642         0.16342
281758                  0.169154      0.00432045     -6.75695e-05    -0.000179627         0.644359       -0.740569      0.000266481     0.000418976
                    -6.79213e-05    -0.000164898         0.171588      -0.0167209      0.000314582     0.000348428         0.732817       -0.651517
                        0.643761       -0.739805      0.000332153     0.000324168        0.0273649        0.162909     -0.000199813    -0.000232709
                      0.00035079     0.000348195          0.73296       -0.651512     -0.000282968    -0.000108398       -0.0362372        0.163443
281760                  0.169156      0.00433906      -6.7662e-05    -0.000179466         0.644138       -0.740761      0.000266707     0.000418815
                    -6.80337e-05    -0.000164746         0.171584      -0.0166956      0.000314566     0.000348308         0.732616       -0.651745
                        0.643539       -0.739998       0.00033222     0.000323943        0.0274812        0.162893     -0.000199945    -0.000232376
                     0.000350921     0.000347987         0.732759       -0.651739     -0.000282809    -0.000108329       -0.0361102        0.163466
281762                  0.169158      0.00435766     -6.77544e-05    -0.000179304         0.643917       -0.740953      0.000266931     0.000418654
                    -6.81352e-05    -0.000164593          0.17158      -0.0166703       0.00031455     0.000348187         0.732416       -0.651973
                        0.643318        -0.74019      0.000332288     0.000323718        0.0275975        0.162877     -0.000200077    -0.000232043
