! TOUCHSTONE file generated by CST MICROWAVE STUDIO
! Date and time: Wed Oct 15 17:31:03 2025
! Project name: Teste_Macro_Metasurface_Nanopilar.cst
! Parameters = {H=600; L_x=125; L_y=135; Lambda=1064; Max_L=200; Min_L=70; PathPara=1; Phi=0; Step_L=10; Theta=0; p=520; phaseX=180; phaseY=0}
! Header version: 2018
! Port assignment regex: !\s*Touchstone port\s*([0-9]+)\s*=\s*(CST MWS port|CST DS port)\s*([0-9]+|Zmin|Zmax)\s*\(\"(.*)\"\)(\s*mode\s*([0-9]+))?.*
! Touchstone port assignment:
! Touchstone port 1 = CST MWS port Zmax ("") mode 1
! Touchstone port 2 = CST MWS port Zmax ("") mode 2
! Touchstone port 3 = CST MWS port Zmin ("") mode 1
! Touchstone port 4 = CST MWS port Zmin ("") mode 2
! S-Parameters are not renormalized. Each port impedance will be approximated by the real part at minimum frequency. The values are described via the [Reference] keyword.
! Default impedance is overridden by [Reference]
[Version] 2.0
# GHz S RI R 376.73
[Number of Ports] 4
[Reference]
376.73 376.73 259.888 259.888 
[Number of Frequencies] 51
[Network Data]
281700                 0.0642841        0.113445     -0.000284806    -0.000608662         0.978074        0.122154     -0.000125505     6.52594e-05
                    -0.000275631    -0.000469833        0.0382702       0.0595134      0.000135047     8.68593e-05          0.85386        0.501576
                        0.978311         0.12242      0.000161736     0.000117754        -0.089035       0.0948499      0.000551882    -0.000371512
                    -5.25242e-05     0.000181814         0.854416        0.501799       0.00046383    -0.000283333       -0.0698871     -0.00241061
281702                 0.0642996        0.113458     -0.000284994     -0.00060861         0.978113        0.121827     -0.000125604     6.53599e-05
                    -0.000275748    -0.000469601        0.0382787       0.0595332      0.000135143     8.68913e-05          0.85404        0.501268
                         0.97835        0.122093      0.000161691     0.000117651       -0.0889899       0.0949173       0.00055149    -0.000371507
                    -5.24335e-05     0.000181952         0.854595        0.501492      0.000463709    -0.000283561       -0.0699105     -0.00235848
281704                 0.0643152         0.11347     -0.000285182    -0.000608559         0.978152          0.1215     -0.000125698     6.54592e-05
                    -0.000275866     -0.00046937        0.0382873       0.0595531      0.000135239     8.69231e-05         0.854219        0.500961
                        0.978388        0.121765      0.000161644     0.000117546       -0.0889447       0.0949848      0.000551105    -0.000371504
                    -5.23428e-05     0.000182088         0.854775        0.501185      0.000463586    -0.000283789       -0.0699338     -0.00230633
281706                 0.0643307        0.113483      -0.00028537    -0.000608509         0.978191        0.121172     -0.000125788     6.55574e-05
                    -0.000275983    -0.000469139        0.0382958       0.0595729      0.000135336     8.69549e-05         0.854398        0.500653
                        0.978426        0.121438      0.000161597     0.000117441       -0.0888995       0.0950522      0.000550726    -0.000371505
                    -5.22521e-05     0.000182222         0.854955        0.500878      0.000463464    -0.000284016       -0.0699571     -0.00225416
281708                 0.0643462        0.113495     -0.000285558    -0.000608461         0.978229        0.120845     -0.000125875     6.56544e-05
                    -0.000276099     -0.00046891        0.0383043       0.0595927      0.000135432     8.69864e-05         0.854577        0.500346
                        0.978465        0.121111      0.000161548     0.000117334       -0.0888543       0.0951196      0.000550353    -0.000371508
                    -5.21615e-05     0.000182356         0.855134        0.500572       0.00046334    -0.000284242       -0.0699803     -0.00220196
281710                 0.0643618        0.113507     -0.000285747    -0.000608414         0.978268        0.120518     -0.000125957     6.57505e-05
                    -0.000276216    -0.000468681        0.0383129       0.0596125      0.000135528     8.70178e-05         0.854756        0.500038
                        0.978503        0.120783      0.000161499     0.000117226        -0.088809        0.095187      0.000549987    -0.000371515
                    -5.20709e-05     0.000182488         0.855314        0.500265      0.000463216    -0.000284466       -0.0700035     -0.00214975
281712                 0.0643773         0.11352     -0.000285935    -0.000608368         0.978306        0.120191     -0.000126036     6.58455e-05
                    -0.000276332    -0.000468453        0.0383214       0.0596323      0.000135624      8.7049e-05         0.854935         0.49973
                        0.978541        0.120456      0.000161448     0.000117118       -0.0887636       0.0952544      0.000549626    -0.000371523
                    -5.19803e-05     0.000182618         0.855493        0.499958      0.000463092    -0.000284689       -0.0700267      -0.0020975
281714                 0.0643928        0.113532     -0.000286123    -0.000608324         0.978344        0.119863     -0.000126111     6.59396e-05
                    -0.000276448    -0.000468226        0.0383299       0.0596521      0.000135721     8.70799e-05         0.855113        0.499423
                        0.978579        0.120128      0.000161396     0.000117009       -0.0887182       0.0953218      0.000549272    -0.000371535
                    -5.18899e-05     0.000182747         0.855672        0.499651      0.000462968    -0.000284911       -0.0700498     -0.00204524
281716                 0.0644084        0.113545     -0.000286311     -0.00060828         0.978382        0.119536     -0.000126182     6.60329e-05
                    -0.000276564       -0.000468        0.0383385       0.0596719      0.000135817     8.71104e-05         0.855292        0.499115
                        0.978616        0.119801      0.000161343     0.000116898       -0.0886728       0.0953891      0.000548923    -0.000371549
                    -5.17995e-05     0.000182875         0.855851        0.499344      0.000462844    -0.000285132       -0.0700729     -0.00199295
281718                 0.0644239        0.113557     -0.000286499    -0.000608238          0.97842        0.119208      -0.00012625     6.61253e-05
                     -0.00027668    -0.000467775         0.038347       0.0596917      0.000135913     8.71407e-05          0.85547        0.498807
                        0.978654        0.119473      0.000161289     0.000116787       -0.0886273       0.0954564       0.00054858    -0.000371565
                    -5.17092e-05     0.000183001          0.85603        0.499036       0.00046272    -0.000285351       -0.0700959     -0.00194064
281720                 0.0644394         0.11357     -0.000286687    -0.000608197         0.978458        0.118881     -0.000126314      6.6217e-05
                    -0.000276795     -0.00046755        0.0383556       0.0597115      0.000136009     8.71705e-05         0.855649        0.498499
                        0.978692        0.119146      0.000161234     0.000116675       -0.0885817       0.0955237      0.000548243    -0.000371583
                    -5.16189e-05     0.000183126         0.856209        0.498729      0.000462596    -0.000285569       -0.0701189     -0.00188831
281722                 0.0644549        0.113582     -0.000286875    -0.000608157         0.978496        0.118554     -0.000126374     6.63079e-05
                    -0.000276911    -0.000467327        0.0383641       0.0597313      0.000136105     8.71998e-05         0.855827        0.498191
                        0.978729        0.118818      0.000161178     0.000116563       -0.0885361        0.095591      0.000547911    -0.000371604
                    -5.15288e-05     0.000183249         0.856388        0.498422      0.000462472    -0.000285784       -0.0701419     -0.00183596
281724                 0.0644705        0.113595     -0.000287062    -0.000608119         0.978533        0.118226      -0.00012643     6.63981e-05
                    -0.000277026    -0.000467104        0.0383727        0.059751      0.000136201     8.72286e-05         0.856005        0.497883
                        0.978766        0.118491      0.000161122     0.000116449       -0.0884905       0.0956582      0.000547585    -0.000371627
                    -5.14387e-05     0.000183371         0.856566        0.498115      0.000462347    -0.000285998       -0.0701648     -0.00178358
281726                  0.064486        0.113607     -0.000287249    -0.000608081         0.978571        0.117899     -0.000126483     6.64877e-05
                    -0.000277141    -0.000466883        0.0383812       0.0597708      0.000136297     8.72568e-05         0.856183        0.497575
                        0.978804        0.118163      0.000161064     0.000116335       -0.0884448       0.0957254      0.000547265    -0.000371652
                    -5.13487e-05     0.000183491         0.856745        0.497807      0.000462222    -0.000286209       -0.0701877     -0.00173118
281728                 0.0645015        0.113619     -0.000287436    -0.000608044         0.978608        0.117572     -0.000126533     6.65767e-05
                    -0.000277255    -0.000466662        0.0383898       0.0597906      0.000136393     8.72845e-05         0.856361        0.497267
                        0.978841        0.117836      0.000161006     0.000116219        -0.088399       0.0957926       0.00054695    -0.000371679
                    -5.12588e-05      0.00018361         0.856923          0.4975      0.000462094    -0.000286417       -0.0702105     -0.00167875
281730                 0.0645171        0.113632     -0.000287623    -0.000608008         0.978645        0.117244     -0.000126579     6.66652e-05
                     -0.00027737    -0.000466442        0.0383983       0.0598104      0.000136488     8.73117e-05         0.856538        0.496959
                        0.978878        0.117508      0.000160947     0.000116103       -0.0883533       0.0958598       0.00054664    -0.000371708
                     -5.1169e-05     0.000183728         0.857101        0.497192      0.000461961    -0.000286623       -0.0702333     -0.00162631
281732                 0.0645326        0.113644     -0.000287809    -0.000607973         0.978683        0.116917     -0.000126621     6.67531e-05
                    -0.000277484    -0.000466223        0.0384069       0.0598302      0.000136583     8.73385e-05         0.856716         0.49665
                        0.978915        0.117181      0.000160887     0.000115987       -0.0883074       0.0959269      0.000546335    -0.000371739
                    -5.10794e-05     0.000183844          0.85728        0.496885      0.000461819     -0.00028683       -0.0702561     -0.00157384
281734                 0.0645481        0.113657     -0.000287995    -0.000607939          0.97872        0.116589      -0.00012666     6.68405e-05
                    -0.000277598    -0.000466005        0.0384154       0.0598499      0.000136677     8.73653e-05         0.856893        0.496342
                        0.978952        0.116853      0.000160826     0.000115869       -0.0882615       0.0959941      0.000546036    -0.000371772
                    -5.09898e-05     0.000183959         0.857458        0.496577      0.000461666    -0.000287049       -0.0702788     -0.00152135
281736                 0.0645637        0.113669     -0.000288181    -0.000607906         0.978757        0.116262     -0.000126696     6.69274e-05
                    -0.000277712    -0.000465787         0.038424       0.0598697      0.000136771     8.73927e-05         0.857071        0.496034
                        0.978988        0.116526      0.000160764     0.000115751       -0.0882156       0.0960612      0.000545741    -0.000371807
                    -5.09003e-05     0.000184072         0.857635         0.49627      0.000461516    -0.000287288       -0.0703015     -0.00146883
281738                 0.0645792        0.113681     -0.000288367    -0.000607873         0.978794        0.115935     -0.000126728      6.7014e-05
                    -0.000277825    -0.000465571        0.0384326       0.0598895      0.000136865     8.74211e-05         0.857248        0.495725
                        0.979025        0.116198      0.000160702     0.000115632       -0.0881697       0.0961283      0.000545452    -0.000371843
                     -5.0811e-05     0.000184184         0.857813        0.495962      0.000461386    -0.000287538       -0.0703241     -0.00141629
281740                 0.0645947        0.113694     -0.000288552    -0.000607842          0.97883        0.115608     -0.000126757     6.71001e-05
                    -0.000277939    -0.000465355        0.0384412       0.0599092      0.000136959     8.74514e-05         0.857425        0.495417
                        0.979061        0.115871      0.000160639     0.000115513       -0.0881236       0.0961954      0.000545167    -0.000371881
                    -5.07217e-05     0.000184295         0.857991        0.495654      0.000461271    -0.000287781       -0.0703467     -0.00136373
281742                 0.0646103        0.113706     -0.000288738    -0.000607811         0.978867         0.11528     -0.000126783     6.71858e-05
                    -0.000278052    -0.000465141        0.0384497        0.059929      0.000137055     8.74839e-05         0.857602        0.495109
                        0.979098        0.115543      0.000160576     0.000115392       -0.0880775       0.0962624      0.000544888     -0.00037192
                    -5.06326e-05     0.000184404         0.858168        0.495347      0.000461162    -0.000288013       -0.0703693     -0.00131115
281744                 0.0646258        0.113719     -0.000288922    -0.000607781         0.978903        0.114953     -0.000126806     6.72711e-05
                    -0.000278165    -0.000464927        0.0384583       0.0599487      0.000137153     8.75186e-05         0.857779          0.4948
                        0.979134        0.115216      0.000160512     0.000115272       -0.0880313       0.0963295      0.000544613    -0.000371961
                    -5.05435e-05     0.000184511         0.858346        0.495039      0.000461052    -0.000288239       -0.0703918     -0.00125855
281746                 0.0646413        0.113731     -0.000289107    -0.000607752          0.97894        0.114625     -0.000126825     6.73561e-05
                    -0.000278278    -0.000464714        0.0384669       0.0599685      0.000137253     8.75551e-05         0.857956        0.494492
                         0.97917        0.114888      0.000160447      0.00011515       -0.0879852       0.0963965      0.000544343    -0.000372004
                    -5.04544e-05     0.000184617         0.858523        0.494731       0.00046094    -0.000288462       -0.0704143     -0.00120592
281748                 0.0646569        0.113743     -0.000289291    -0.000607723         0.978976        0.114298     -0.000126841     6.74406e-05
                     -0.00027839    -0.000464502        0.0384755       0.0599882      0.000137355      8.7593e-05         0.858132        0.494183
                        0.979206        0.114561      0.000160381     0.000115028       -0.0879389       0.0964634      0.000544078    -0.000372048
                    -5.03653e-05     0.000184722           0.8587        0.494423      0.000460826    -0.000288682       -0.0704367     -0.00115327
281750                 0.0646724        0.113756     -0.000289475    -0.000607695         0.979012         0.11397     -0.000126853     6.75247e-05
                    -0.000278502    -0.000464291        0.0384841        0.060008      0.000137458     8.76314e-05         0.858309        0.493874
                        0.979242        0.114233      0.000160315     0.000114906       -0.0878927       0.0965304      0.000543818    -0.000372094
                    -5.02759e-05     0.000184825         0.858877        0.494115       0.00046071    -0.000288902       -0.0704591     -0.00110059
281752                 0.0646879        0.113768     -0.000289659    -0.000607668         0.979048        0.113643     -0.000126862     6.76081e-05
                    -0.000278613     -0.00046408        0.0384927       0.0600277      0.000137563     8.76701e-05         0.858485        0.493566
                        0.979278        0.113905      0.000160248     0.000114782       -0.0878463       0.0965973      0.000543563    -0.000372142
                     -5.0185e-05     0.000184925         0.859054        0.493807      0.000460594    -0.000289121       -0.0704815      -0.0010479
281754                 0.0647035        0.113781     -0.000289843    -0.000607642         0.979084        0.113315     -0.000126867       6.769e-05
                    -0.000278718    -0.000463865        0.0385012       0.0600474      0.000137668     8.77087e-05         0.858661        0.493257
                        0.979314        0.113578      0.000160181     0.000114658          -0.0878       0.0966642      0.000543315    -0.000372193
                    -5.00798e-05     0.000185017         0.859231        0.493499      0.000460476     -0.00028934       -0.0705038    -0.000995178
281756                  0.064719        0.113793     -0.000290027    -0.000607616          0.97912        0.112988     -0.000126865     6.77671e-05
                    -0.000278849    -0.000463666        0.0385098       0.0600672      0.000137773      8.7747e-05         0.858837        0.492948
                        0.979349         0.11325      0.000160112     0.000114533       -0.0877535       0.0967311      0.000543082     -0.00037225
                    -5.00292e-05     0.000185134         0.859408        0.493191      0.000460358    -0.000289559       -0.0705261    -0.000942441
281758                 0.0647345        0.113805     -0.000290211    -0.000607592         0.979156         0.11266     -0.000126845     6.77477e-05
                    -0.000278956    -0.000463457        0.0385184       0.0600869      0.000137878     8.77849e-05         0.859013        0.492639
                        0.979385        0.112923      0.000160044     0.000114408       -0.0877071        0.096798      0.000542812    -0.000372205
                    -4.99331e-05     0.000185228         0.859584        0.492883      0.000460239    -0.000289778       -0.0705483    -0.000889674
281760                 0.0647501        0.113818     -0.000290395    -0.000607568         0.979192        0.112333     -0.000126907     6.79648e-05
                    -0.000279066    -0.000463251         0.038527       0.0601066      0.000137983     8.78225e-05         0.859189         0.49233
                         0.97942        0.112595      0.000159975     0.000114282       -0.0876605       0.0968648      0.000542564    -0.000372317
                    -4.98436e-05     0.000185323         0.859761        0.492574       0.00046012    -0.000289997       -0.0705705    -0.000836872
281762                 0.0647656         0.11383      -0.00029058    -0.000607548         0.979227        0.112006     -0.000126888     6.80416e-05
                    -0.000279177    -0.000463045        0.0385356       0.0601264      0.000138087     8.78597e-05         0.859365        0.492021
                        0.979456        0.112267      0.000159906     0.000114155        -0.087614       0.0969317      0.000542333    -0.000372377
