! TOUCHSTONE file generated by CST MICROWAVE STUDIO
! Date and time: Wed Oct 15 17:28:07 2025
! Project name: Teste_Macro_Metasurface_Nanopilar.cst
! Parameters = {H=600; L_x=75; L_y=115; Lambda=1064; Max_L=200; Min_L=70; PathPara=1; Phi=0; Step_L=10; Theta=0; p=520; phaseX=180; phaseY=0}
! Header version: 2018
! Port assignment regex: !\s*Touchstone port\s*([0-9]+)\s*=\s*(CST MWS port|CST DS port)\s*([0-9]+|Zmin|Zmax)\s*\(\"(.*)\"\)(\s*mode\s*([0-9]+))?.*
! Touchstone port assignment:
! Touchstone port 1 = CST MWS port Zmax ("") mode 1
! Touchstone port 2 = CST MWS port Zmax ("") mode 2
! Touchstone port 3 = CST MWS port Zmin ("") mode 1
! Touchstone port 4 = CST MWS port Zmin ("") mode 2
! S-Parameters are not renormalized. Each port impedance will be approximated by the real part at minimum frequency. The values are described via the [Reference] keyword.
! Default impedance is overridden by [Reference]
[Version] 2.0
# GHz S RI R 376.73
[Number of Ports] 4
[Reference]
376.73 376.73 259.888 259.888 
[Number of Frequencies] 51
[Network Data]
281700                 0.0255599       0.0138762      -8.7248e-05     0.000244133        -0.638364       -0.766567     -8.85399e-05     2.50119e-05
                    -0.000176583     0.000244202        0.0286726       -0.112551     -0.000126967     -2.3068e-05        0.0246861       -0.992286
                       -0.638314       -0.766152     -0.000108279    -3.47257e-05      -0.00935719      -0.0269082     -0.000179998    -0.000126393
                    -5.13941e-05     -2.4767e-05        0.0247288       -0.992408     -0.000153668    -0.000106595         0.022941        0.113961
281702                 0.0255602       0.0138865     -8.71713e-05     0.000244231        -0.638579       -0.766388     -8.85618e-05     2.50514e-05
                    -0.000176598      0.00024428        0.0286605       -0.112551     -0.000127001    -2.29939e-05        0.0244469       -0.992292
                       -0.638528       -0.765973     -0.000108242    -3.46331e-05      -0.00938238      -0.0269051      -0.00018012    -0.000126375
                    -5.13856e-05    -2.47584e-05        0.0244894       -0.992414     -0.000153815    -0.000106546        0.0229839        0.113949
281704                 0.0255605       0.0138968     -8.70946e-05     0.000244328        -0.638794       -0.766209     -8.85835e-05      2.5091e-05
                    -0.000176614      0.00024436        0.0286485        -0.11255     -0.000127035    -2.29198e-05        0.0242077       -0.992298
                       -0.638743       -0.765794     -0.000108206    -3.45403e-05      -0.00940757      -0.0269019     -0.000180243    -0.000126357
                     -5.1377e-05    -2.47496e-05          0.02425        -0.99242     -0.000153962    -0.000106496        0.0230268        0.113936
281706                 0.0255609        0.013907     -8.70177e-05     0.000244425        -0.639008       -0.766029     -8.86052e-05     2.51306e-05
                     -0.00017663     0.000244441        0.0286364       -0.112549     -0.000127069    -2.28456e-05        0.0239685       -0.992305
                       -0.638958       -0.765615     -0.000108169    -3.44476e-05      -0.00943276      -0.0268988     -0.000180365    -0.000126338
                    -5.13682e-05    -2.47406e-05        0.0240105       -0.992426     -0.000154108    -0.000106447        0.0230697        0.113924
281708                 0.0255612       0.0139173     -8.69407e-05     0.000244523        -0.639223        -0.76585     -8.86267e-05     2.51704e-05
                    -0.000176646     0.000244524        0.0286243       -0.112549     -0.000127102    -2.27714e-05        0.0237292        -0.99231
                       -0.639172       -0.765435     -0.000108133    -3.43548e-05      -0.00945795      -0.0268957     -0.000180487     -0.00012632
                    -5.13592e-05    -2.47315e-05        0.0237711       -0.992432     -0.000154255    -0.000106397        0.0231126        0.113911
281710                 0.0255616       0.0139275     -8.68636e-05      0.00024462        -0.639438        -0.76567     -8.86482e-05     2.52102e-05
                    -0.000176663     0.000244609        0.0286122       -0.112548     -0.000127136    -2.26971e-05          0.02349       -0.992316
                       -0.639387       -0.765256     -0.000108096     -3.4262e-05      -0.00948314      -0.0268925     -0.000180609    -0.000126301
                      -5.135e-05    -2.47221e-05        0.0235317       -0.992438     -0.000154402    -0.000106348        0.0231555        0.113899
281712                 0.0255619       0.0139378     -8.67864e-05     0.000244718        -0.639652        -0.76549     -8.86695e-05     2.52502e-05
                     -0.00017668     0.000244696        0.0286001       -0.112547      -0.00012717    -2.26227e-05        0.0232508       -0.992322
                       -0.639601       -0.765076     -0.000108058    -3.41691e-05      -0.00950833      -0.0268893     -0.000180731    -0.000126282
                    -5.13406e-05    -2.47126e-05        0.0232922       -0.992444     -0.000154548    -0.000106298        0.0231984        0.113887
281714                 0.0255622       0.0139481     -8.67092e-05     0.000244815        -0.639867       -0.765311     -8.86908e-05     2.52902e-05
                    -0.000176697     0.000244785        0.0285881       -0.112546     -0.000127203    -2.25483e-05        0.0230116       -0.992328
                       -0.639815       -0.764897     -0.000108021    -3.40762e-05      -0.00953352      -0.0268861     -0.000180853    -0.000126262
                    -5.13311e-05    -2.47029e-05        0.0230528        -0.99245     -0.000154695    -0.000106248        0.0232413        0.113874
281716                 0.0255626       0.0139583     -8.66318e-05     0.000244913        -0.640081       -0.765131      -8.8712e-05     2.53304e-05
                    -0.000176714     0.000244875         0.028576       -0.112546     -0.000127237    -2.24739e-05        0.0227724       -0.992334
                        -0.64003       -0.764717     -0.000107984    -3.39832e-05      -0.00955871      -0.0268829     -0.000180975    -0.000126243
                    -5.13213e-05    -2.46931e-05        0.0228134       -0.992456     -0.000154842    -0.000106199        0.0232841        0.113862
281718                  0.025563       0.0139686     -8.65542e-05      0.00024501        -0.640295       -0.764951      -8.8733e-05     2.53706e-05
                    -0.000176732     0.000244967        0.0285639       -0.112545     -0.000127271    -2.23993e-05        0.0225332       -0.992339
                       -0.640244       -0.764537     -0.000107946    -3.38902e-05      -0.00958389      -0.0268797     -0.000181097    -0.000126223
                    -5.13113e-05    -2.46831e-05        0.0225739       -0.992462     -0.000154989    -0.000106149         0.023327        0.113849
281720                 0.0255633       0.0139788     -8.64766e-05     0.000245107         -0.64051       -0.764771      -8.8754e-05     2.54109e-05
                     -0.00017675     0.000245061        0.0285518       -0.112544     -0.000127304    -2.23248e-05         0.022294       -0.992345
                       -0.640458       -0.764357     -0.000107908    -3.37971e-05      -0.00960908      -0.0268764     -0.000181219    -0.000126203
                    -5.13011e-05    -2.46729e-05        0.0223345       -0.992467     -0.000155136    -0.000106099        0.0233699        0.113836
281722                 0.0255637       0.0139891     -8.63989e-05     0.000245205        -0.640724       -0.764591     -8.87749e-05     2.54514e-05
                    -0.000176768     0.000245156        0.0285397       -0.112543     -0.000127338    -2.22502e-05        0.0220547       -0.992351
                       -0.640672       -0.764178      -0.00010787    -3.37041e-05      -0.00963427      -0.0268732      -0.00018134    -0.000126183
                    -5.12907e-05    -2.46626e-05         0.022095       -0.992473     -0.000155282    -0.000106049        0.0234127        0.113824
281724                  0.025564       0.0139993     -8.63211e-05     0.000245302        -0.640938       -0.764411     -8.87956e-05     2.54919e-05
                    -0.000176787     0.000245253        0.0285277       -0.112543     -0.000127372    -2.21755e-05        0.0218155       -0.992356
                       -0.640886       -0.763998     -0.000107832    -3.36109e-05      -0.00965945      -0.0268699     -0.000181462    -0.000126162
                    -5.12802e-05    -2.46522e-05        0.0218556       -0.992479     -0.000155429    -0.000105999        0.0234556        0.113811
281726                 0.0255644       0.0140096     -8.62432e-05     0.000245399        -0.641152       -0.764231     -8.88163e-05     2.55326e-05
                    -0.000176805      0.00024535        0.0285156       -0.112542     -0.000127405    -2.21008e-05        0.0215763       -0.992362
                         -0.6411       -0.763818     -0.000107794    -3.35177e-05      -0.00968464      -0.0268666     -0.000181584    -0.000126141
                    -5.12695e-05    -2.46417e-05        0.0216161       -0.992484     -0.000155576    -0.000105949        0.0234984        0.113799
281728                 0.0255648       0.0140198     -8.61651e-05     0.000245497        -0.641367        -0.76405     -8.88369e-05     2.55733e-05
                    -0.000176824     0.000245449        0.0285035       -0.112541     -0.000127439     -2.2026e-05        0.0213371       -0.992367
                       -0.641313       -0.763637     -0.000107756    -3.34245e-05      -0.00970982      -0.0268632     -0.000181705     -0.00012612
                    -5.12587e-05    -2.46311e-05        0.0213767        -0.99249     -0.000155723    -0.000105899        0.0235413        0.113786
281730                 0.0255651       0.0140301      -8.6087e-05     0.000245594        -0.641581        -0.76387     -8.88573e-05     2.56143e-05
                    -0.000176843     0.000245549        0.0284914       -0.112541     -0.000127472    -2.19512e-05        0.0210978       -0.992372
                       -0.641527       -0.763457     -0.000107717    -3.33313e-05      -0.00973501      -0.0268599     -0.000181827    -0.000126099
                    -5.12477e-05    -2.46204e-05        0.0211372       -0.992495      -0.00015587    -0.000105849        0.0235841        0.113774
281732                 0.0255655       0.0140403     -8.60087e-05     0.000245691        -0.641795        -0.76369     -8.88777e-05     2.56554e-05
                    -0.000176861     0.000245649        0.0284794        -0.11254     -0.000127506    -2.18763e-05        0.0208586       -0.992378
                       -0.641741       -0.763277     -0.000107679     -3.3238e-05      -0.00976019      -0.0268565     -0.000181948    -0.000126077
                    -5.12366e-05    -2.46098e-05        0.0208978         -0.9925     -0.000156016    -0.000105799        0.0236269        0.113761
281734                 0.0255659       0.0140505     -8.59304e-05     0.000245789        -0.642009        -0.76351     -8.88981e-05     2.56968e-05
                     -0.00017688      0.00024575        0.0284673       -0.112539      -0.00012754    -2.18014e-05        0.0206194       -0.992383
                       -0.641955       -0.763097      -0.00010764    -3.31446e-05      -0.00978537      -0.0268532     -0.000182069    -0.000126055
                    -5.12255e-05    -2.45991e-05        0.0206583       -0.992506     -0.000156163    -0.000105748        0.0236697        0.113748
281736                 0.0255662       0.0140608      -8.5852e-05     0.000245886        -0.642223       -0.763329     -8.89189e-05     2.57387e-05
                    -0.000176899      0.00024585        0.0284552       -0.112538     -0.000127573    -2.17264e-05        0.0203801       -0.992388
                       -0.642168       -0.762916     -0.000107601    -3.30512e-05      -0.00981056      -0.0268498     -0.000182189    -0.000126033
                    -5.12143e-05    -2.45886e-05        0.0204189       -0.992511      -0.00015631    -0.000105698        0.0237125        0.113736
281738                 0.0255666        0.014071     -8.57734e-05     0.000245983        -0.642437       -0.763149     -8.89418e-05       2.578e-05
                    -0.000176917     0.000245949        0.0284431       -0.112538     -0.000127607    -2.16514e-05        0.0201409       -0.992393
                       -0.642382       -0.762736     -0.000107562    -3.29578e-05      -0.00983574      -0.0268464     -0.000182309    -0.000126011
                    -5.12032e-05    -2.45781e-05        0.0201794       -0.992516     -0.000156457    -0.000105648        0.0237553        0.113723
281740                  0.025567       0.0140813     -8.56948e-05     0.000246081         -0.64265       -0.762968     -8.89617e-05     2.58173e-05
                    -0.000176936     0.000246047        0.0284311       -0.112537      -0.00012764    -2.15764e-05        0.0199017       -0.992398
                       -0.642595       -0.762556     -0.000107522    -3.28643e-05      -0.00986092      -0.0268429      -0.00018243     -0.00012599
                    -5.11921e-05    -2.45679e-05        0.0199399       -0.992521     -0.000156604    -0.000105597        0.0237981         0.11371
281742                 0.0255674       0.0140916     -8.56161e-05     0.000246178        -0.642864       -0.762787     -8.89797e-05     2.58583e-05
                    -0.000176954     0.000246143         0.028419       -0.112536     -0.000127674    -2.15013e-05        0.0196625       -0.992403
                       -0.642809       -0.762375     -0.000107483    -3.27707e-05       -0.0098861      -0.0268395     -0.000182551    -0.000125968
                    -5.11811e-05     -2.4558e-05        0.0197005       -0.992526     -0.000156751    -0.000105547        0.0238409        0.113698
281744                 0.0255678       0.0141018     -8.55372e-05     0.000246275        -0.643078       -0.762607     -8.89988e-05        2.59e-05
                    -0.000176971     0.000246236        0.0284069       -0.112535     -0.000127707    -2.14261e-05        0.0194232       -0.992408
                       -0.643022       -0.762195     -0.000107443    -3.26771e-05      -0.00991128       -0.026836     -0.000182671    -0.000125946
                    -5.11702e-05    -2.45483e-05         0.019461       -0.992531     -0.000156898    -0.000105496        0.0238837        0.113685
281746                 0.0255681       0.0141121     -8.54583e-05     0.000246373        -0.643292       -0.762426     -8.90181e-05     2.59417e-05
                    -0.000176988     0.000246327        0.0283948       -0.112535     -0.000127741    -2.13509e-05        0.0191838       -0.992413
                       -0.643236       -0.762014     -0.000107403    -3.25833e-05      -0.00993646      -0.0268325     -0.000182792    -0.000125923
                    -5.11596e-05    -2.45391e-05        0.0192215       -0.992536     -0.000157045    -0.000105446        0.0239265        0.113672
281748                 0.0255685       0.0141223     -8.53791e-05      0.00024647        -0.643505       -0.762245     -8.90375e-05     2.59834e-05
                    -0.000177004     0.000246413        0.0283828       -0.112534     -0.000127774    -2.12757e-05        0.0189446       -0.992418
                       -0.643449       -0.761833     -0.000107363    -3.24894e-05      -0.00996164       -0.026829     -0.000182913      -0.0001259
                    -5.11492e-05    -2.45303e-05        0.0189821       -0.992541     -0.000157191    -0.000105395        0.0239693        0.113659
281750                 0.0255689       0.0141326     -8.52998e-05     0.000246567        -0.643719       -0.762064     -8.90569e-05     2.60251e-05
                     -0.00017702     0.000246496        0.0283707       -0.112533     -0.000127807    -2.12004e-05        0.0187054       -0.992422
                       -0.643663       -0.761653     -0.000107322    -3.23956e-05      -0.00998681      -0.0268255     -0.000183033    -0.000125877
                    -5.11392e-05     -2.4522e-05        0.0187426       -0.992546     -0.000157338    -0.000105344         0.024012        0.113647
281752                 0.0255693       0.0141429     -8.52202e-05     0.000246664        -0.643933       -0.761883     -8.90761e-05     2.60669e-05
                    -0.000177035     0.000246575        0.0283586       -0.112532     -0.000127841    -2.11251e-05        0.0184662       -0.992427
                       -0.643876       -0.761472     -0.000107282    -3.23021e-05        -0.010012       -0.026822     -0.000183154    -0.000125854
                    -5.11293e-05     -2.4514e-05        0.0185031        -0.99255     -0.000157485    -0.000105293        0.0240548        0.113634
281754                 0.0255697       0.0141531     -8.51406e-05     0.000246762        -0.644146       -0.761702     -8.90953e-05     2.61088e-05
                    -0.000177049     0.000246654        0.0283465       -0.112532     -0.000127874    -2.10498e-05        0.0182269       -0.992432
                        -0.64409       -0.761291     -0.000107241    -3.22087e-05       -0.0100372      -0.0268184     -0.000183274     -0.00012583
                    -5.11195e-05    -2.45062e-05        0.0182636       -0.992555     -0.000157632    -0.000105243        0.0240975        0.113621
281756                 0.0255701       0.0141634      -8.5061e-05     0.000246859        -0.644359       -0.761521     -8.91143e-05     2.61508e-05
                    -0.000177065     0.000246735        0.0283345       -0.112531     -0.000127908    -2.09746e-05        0.0179877       -0.992436
                       -0.644303        -0.76111     -0.000107201    -3.21151e-05       -0.0100623      -0.0268149     -0.000183394    -0.000125807
                    -5.11094e-05     -2.4498e-05        0.0180242        -0.99256     -0.000157778    -0.000105192        0.0241403        0.113608
281758                 0.0255705       0.0141737     -8.49813e-05     0.000246956        -0.644573        -0.76134     -8.91333e-05     2.61928e-05
                    -0.000177082      0.00024683        0.0283224        -0.11253     -0.000127941    -2.08996e-05        0.0177484       -0.992441
                       -0.644516       -0.760929      -0.00010716    -3.20214e-05       -0.0100875      -0.0268113     -0.000183514    -0.000125783
                     -5.1098e-05    -2.44883e-05        0.0177847       -0.992564     -0.000157925     -0.00010514         0.024183        0.113595
281760                 0.0255709       0.0141839     -8.49016e-05     0.000247053        -0.644786       -0.761159     -8.91522e-05      2.6235e-05
                    -0.000177106     0.000246959        0.0283103       -0.112529     -0.000127973    -2.08305e-05        0.0175092       -0.992445
                       -0.644729       -0.760748     -0.000107119    -3.19277e-05       -0.0101127      -0.0268077     -0.000183634    -0.000125759
                    -5.10837e-05    -2.44747e-05        0.0175452       -0.992569     -0.000158064    -0.000105089        0.0242257        0.113582
281762                 0.0255713       0.0141941     -8.48218e-05      0.00024715           -0.645       -0.760978     -8.91709e-05     2.62772e-05
                    -0.000177141     0.000247163        0.0282982       -0.112529     -0.000128008    -2.07463e-05        0.0172699        -0.99245
                       -0.644941       -0.760566     -0.000107078    -3.18338e-05       -0.0101379      -0.0268041     -0.000183754    -0.000125735
