! TOUCHSTONE file generated by CST MICROWAVE STUDIO
! Date and time: Wed Oct 15 17:28:53 2025
! Project name: Teste_Macro_Metasurface_Nanopilar.cst
! Parameters = {H=600; L_x=90; L_y=70; Lambda=1064; Max_L=200; Min_L=70; PathPara=1; Phi=0; Step_L=10; Theta=0; p=520; phaseX=180; phaseY=0}
! Header version: 2018
! Port assignment regex: !\s*Touchstone port\s*([0-9]+)\s*=\s*(CST MWS port|CST DS port)\s*([0-9]+|Zmin|Zmax)\s*\(\"(.*)\"\)(\s*mode\s*([0-9]+))?.*
! Touchstone port assignment:
! Touchstone port 1 = CST MWS port Zmax ("") mode 1
! Touchstone port 2 = CST MWS port Zmax ("") mode 2
! Touchstone port 3 = CST MWS port Zmin ("") mode 1
! Touchstone port 4 = CST MWS port Zmin ("") mode 2
! S-Parameters are not renormalized. Each port impedance will be approximated by the real part at minimum frequency. The values are described via the [Reference] keyword.
! Default impedance is overridden by [Reference]
[Version] 2.0
# GHz S RI R 376.73
[Number of Ports] 4
[Reference]
376.73 376.73 259.888 259.888 
[Number of Frequencies] 51
[Network Data]
281700                 0.0580648       -0.131139     -5.88041e-06    -0.000232086         0.195055       -0.969899      1.82401e-05     6.32438e-05
                     2.79421e-05    -0.000193952        0.0322947       -0.111331       6.8691e-05    -1.24137e-06        0.0307693       -0.992299
                        0.194911       -0.969863      4.77768e-05     5.54903e-05       0.00279229        0.143404      8.25477e-05     0.000165538
                    -2.97799e-05     0.000105155        0.0309115       -0.992601     -5.22943e-05     6.21298e-05         0.025239        0.113168
281702                 0.0580529       -0.131142      -5.9255e-06    -0.000232083         0.194826       -0.969945      1.82371e-05     6.32763e-05
                     2.79148e-05    -0.000193988        0.0322828        -0.11133       6.8731e-05    -1.22134e-06        0.0305298       -0.992307
                        0.194682       -0.969909       4.7784e-05     5.54958e-05       0.00284786        0.143401      8.25377e-05     0.000165464
                    -2.97787e-05     0.000105208         0.030672       -0.992609     -5.22985e-05     6.23969e-05        0.0252817        0.113155
281704                 0.0580409       -0.131145     -5.97051e-06    -0.000232081         0.194597       -0.969992      1.82341e-05     6.33089e-05
                     2.78874e-05    -0.000194024        0.0322709        -0.11133      6.87711e-05    -1.20133e-06        0.0302902       -0.992314
                        0.194453       -0.969956      4.77912e-05     5.55013e-05       0.00290343        0.143397      8.25278e-05      0.00016539
                    -2.97775e-05      0.00010526        0.0304325       -0.992617     -5.23027e-05     6.26638e-05        0.0253245        0.113141
281706                 0.0580289       -0.131148     -6.01545e-06    -0.000232079         0.194368       -0.970038      1.82311e-05     6.33415e-05
                       2.786e-05    -0.000194061        0.0322589       -0.111329      6.88111e-05    -1.18136e-06        0.0300506       -0.992322
                        0.194224       -0.970002      4.77984e-05     5.55067e-05       0.00295899        0.143394      8.25178e-05     0.000165317
                    -2.97762e-05     0.000105313         0.030193       -0.992624     -5.23068e-05     6.29306e-05        0.0253672        0.113128
281708                 0.0580169       -0.131151      -6.0603e-06    -0.000232077         0.194139       -0.970084      1.82281e-05     6.33741e-05
                     2.78326e-05    -0.000194098         0.032247       -0.111329      6.88512e-05    -1.16142e-06         0.029811        -0.99233
                        0.193995       -0.970048      4.78057e-05     5.55121e-05       0.00301456        0.143391      8.25079e-05     0.000165243
                    -2.97748e-05     0.000105366        0.0299535       -0.992632     -5.23108e-05     6.31973e-05          0.02541        0.113114
281710                 0.0580049       -0.131153     -6.10508e-06    -0.000232075          0.19391        -0.97013      1.82251e-05     6.34068e-05
                     2.78051e-05    -0.000194134        0.0322351       -0.111328      6.88913e-05    -1.14152e-06        0.0295714       -0.992337
                        0.193766       -0.970094      4.78129e-05     5.55175e-05       0.00307012        0.143387       8.2498e-05     0.000165169
                    -2.97734e-05     0.000105419         0.029714        -0.99264     -5.23147e-05     6.34639e-05        0.0254527        0.113101
281712                 0.0579929       -0.131156     -6.14978e-06    -0.000232073         0.193681       -0.970176      1.82221e-05     6.34395e-05
                     2.77776e-05    -0.000194171        0.0322231       -0.111328      6.89314e-05    -1.12164e-06        0.0293319       -0.992345
                        0.193537        -0.97014      4.78201e-05     5.55228e-05       0.00312568        0.143384      8.24881e-05     0.000165095
                     -2.9772e-05     0.000105471        0.0294744       -0.992647     -5.23186e-05     6.37303e-05        0.0254954        0.113087
281714                 0.0579809       -0.131159     -6.19441e-06    -0.000232071         0.193452       -0.970222      1.82192e-05     6.34722e-05
                       2.775e-05    -0.000194207        0.0322112       -0.111327      6.89715e-05    -1.10181e-06        0.0290923       -0.992352
                        0.193308       -0.970186      4.78273e-05     5.55281e-05       0.00318124         0.14338      8.24781e-05     0.000165021
                    -2.97705e-05     0.000105524        0.0292349       -0.992655     -5.23224e-05     6.39967e-05        0.0255382        0.113073
281716                 0.0579689       -0.131162     -6.23895e-06    -0.000232069         0.193223       -0.970268      1.82162e-05      6.3505e-05
                     2.77224e-05    -0.000194244        0.0321993       -0.111326      6.90116e-05    -1.08201e-06        0.0288527        -0.99236
                        0.193079       -0.970232      4.78345e-05     5.55334e-05       0.00323679        0.143377      8.24682e-05     0.000164947
                    -2.97689e-05     0.000105577        0.0289954       -0.992662     -5.23261e-05     6.42629e-05        0.0255809         0.11306
281718                  0.057957       -0.131165     -6.28342e-06    -0.000232067         0.192994       -0.970314      1.82132e-05     6.35378e-05
                     2.76947e-05     -0.00019428        0.0321874       -0.111326      6.90517e-05    -1.06226e-06        0.0286131       -0.992367
                         0.19285       -0.970277      4.78418e-05     5.55387e-05       0.00329235        0.143373      8.24583e-05     0.000164873
                    -2.97673e-05      0.00010563        0.0287559        -0.99267     -5.23297e-05      6.4529e-05        0.0256236        0.113046
281720                  0.057945       -0.131167     -6.32782e-06    -0.000232065         0.192765        -0.97036      1.82102e-05     6.35706e-05
                      2.7667e-05    -0.000194317        0.0321754       -0.111325      6.90919e-05    -1.04255e-06        0.0283735       -0.992374
                        0.192621       -0.970323       4.7849e-05     5.55439e-05        0.0033479         0.14337      8.24484e-05       0.0001648
                    -2.97657e-05     0.000105682        0.0285163       -0.992677     -5.23333e-05      6.4795e-05        0.0256663        0.113033
281722                  0.057933        -0.13117     -6.37214e-06    -0.000232063         0.192536       -0.970406      1.82072e-05     6.36034e-05
                     2.76392e-05    -0.000194353        0.0321635       -0.111325       6.9132e-05    -1.02289e-06        0.0281339       -0.992382
                        0.192392       -0.970369      4.78562e-05      5.5549e-05       0.00340345        0.143366      8.24385e-05     0.000164726
                     -2.9764e-05     0.000105735        0.0282768       -0.992685     -5.23368e-05     6.50609e-05         0.025709        0.113019
281724                  0.057921       -0.131173     -6.41638e-06    -0.000232061         0.192307       -0.970451      1.82042e-05     6.36363e-05
                     2.76114e-05     -0.00019439        0.0321516       -0.111324      6.91722e-05     -1.0033e-06        0.0278943       -0.992389
                        0.192163       -0.970414      4.78635e-05     5.55542e-05       0.00345899        0.143362      8.24286e-05     0.000164652
                    -2.97623e-05     0.000105787        0.0280373       -0.992692     -5.23403e-05     6.53268e-05        0.0257516        0.113005
281726                  0.057909       -0.131176     -6.46056e-06    -0.000232059         0.192078       -0.970497      1.82012e-05     6.36692e-05
                     2.75836e-05    -0.000194427        0.0321396       -0.111324      6.92124e-05    -9.83789e-07        0.0276547       -0.992396
                        0.191934        -0.97046      4.78707e-05     5.55593e-05       0.00351453        0.143359      8.24187e-05     0.000164578
                    -2.97605e-05      0.00010584        0.0277977       -0.992699     -5.23437e-05     6.55926e-05        0.0257943        0.112992
281728                  0.057897       -0.131178     -6.50466e-06    -0.000232057         0.191849       -0.970543      1.81983e-05     6.37022e-05
                     2.75557e-05    -0.000194463        0.0321277       -0.111323      6.92526e-05    -9.64382e-07        0.0274151       -0.992403
                        0.191705       -0.970506       4.7878e-05     5.55643e-05       0.00357007        0.143355      8.24088e-05     0.000164504
                    -2.97587e-05     0.000105893        0.0275582       -0.992706     -5.23472e-05     6.58585e-05         0.025837        0.112978
281730                  0.057885       -0.131181     -6.54868e-06    -0.000232055          0.19162       -0.970588      1.81953e-05     6.37351e-05
                     2.75277e-05      -0.0001945        0.0321158       -0.111323      6.92929e-05    -9.45126e-07        0.0271755        -0.99241
                        0.191476       -0.970551      4.78852e-05     5.55694e-05       0.00362561        0.143351      8.23989e-05     0.000164431
                    -2.97568e-05     0.000105945        0.0273187       -0.992713     -5.23508e-05     6.61246e-05        0.0258796        0.112964
281732                  0.057873       -0.131184     -6.59264e-06    -0.000232053          0.19139       -0.970634      1.81923e-05     6.37682e-05
                     2.74997e-05    -0.000194537        0.0321038       -0.111322      6.93332e-05    -9.26107e-07        0.0269359       -0.992417
                        0.191247       -0.970596      4.78925e-05     5.55744e-05       0.00368115        0.143348      8.23891e-05     0.000164357
                    -2.97549e-05     0.000105998        0.0270791        -0.99272     -5.23545e-05      6.6391e-05        0.0259223        0.112951
281734                  0.057861       -0.131187     -6.63652e-06    -0.000232052         0.191161       -0.970679      1.81894e-05     6.38012e-05
                     2.74717e-05    -0.000194573        0.0320919       -0.111321      6.93736e-05    -9.07514e-07        0.0266963       -0.992424
                        0.191017       -0.970642      4.78998e-05     5.55793e-05       0.00373668        0.143344      8.23792e-05     0.000164283
                    -2.97529e-05      0.00010605        0.0268396       -0.992727     -5.23587e-05     6.66583e-05        0.0259649        0.112937
281736                 0.0578491        -0.13119     -6.68033e-06     -0.00023205         0.190932       -0.970725      1.81864e-05     6.38343e-05
                     2.74436e-05     -0.00019461          0.03208       -0.111321      6.94143e-05    -8.89847e-07        0.0264567       -0.992431
                        0.190788       -0.970687       4.7907e-05     5.55843e-05       0.00379222         0.14334      8.23693e-05     0.000164209
                    -2.97509e-05     0.000106103           0.0266       -0.992734      -5.2364e-05     6.69276e-05        0.0260076        0.112923
281738                 0.0578371       -0.131192     -6.72408e-06    -0.000232048         0.190703        -0.97077      1.81835e-05     6.38674e-05
                     2.74154e-05    -0.000194646        0.0320681        -0.11132      6.94555e-05     -8.7501e-07         0.026217       -0.992438
                        0.190559       -0.970732      4.79143e-05     5.55892e-05       0.00384775        0.143337      8.23595e-05     0.000164135
                    -2.97489e-05     0.000106155        0.0263605       -0.992741     -5.23733e-05     6.72038e-05        0.0260502        0.112909
281740                 0.0578251       -0.131195     -6.76775e-06    -0.000232047         0.190474       -0.970815      1.81806e-05     6.39006e-05
                     2.73872e-05    -0.000194683        0.0320561        -0.11132      6.95016e-05    -8.82945e-07        0.0259774       -0.992444
                         0.19033       -0.970778      4.79216e-05      5.5594e-05       0.00390328        0.143333      8.23496e-05     0.000164061
                    -2.97468e-05     0.000106207        0.0261209       -0.992748     -5.24212e-05      6.7537e-05        0.0260928        0.112896
281742                 0.0578131       -0.131198     -6.81135e-06    -0.000232045         0.190245       -0.970861      1.81777e-05     6.39338e-05
                      2.7359e-05     -0.00019472        0.0320442       -0.111319      6.95263e-05    -7.95453e-07        0.0257378       -0.992451
                        0.190101       -0.970823      4.79289e-05     5.55989e-05       0.00395878        0.143329      8.23398e-05     0.000163988
                    -2.97446e-05      0.00010626        0.0258814       -0.992755      -5.2331e-05      6.7634e-05        0.0261355        0.112882
281744                 0.0578011       -0.131201     -6.85488e-06    -0.000232043         0.190016       -0.970906      1.81748e-05     6.39671e-05
                     2.73307e-05    -0.000194756        0.0320323       -0.111319       6.9571e-05    -7.94051e-07        0.0254982       -0.992458
                        0.189872       -0.970868      4.79361e-05     5.56037e-05       0.00401431        0.143325      8.23299e-05     0.000163914
                    -2.97424e-05     0.000106312        0.0256418       -0.992762     -5.23519e-05     6.79411e-05        0.0261781        0.112868
281746                 0.0577891       -0.131204     -6.89835e-06    -0.000232042         0.189786       -0.970951      1.81719e-05     6.40004e-05
                     2.73023e-05    -0.000194793        0.0320203       -0.111318      6.96122e-05    -7.78562e-07        0.0252586       -0.992464
                        0.189642       -0.970913      4.79434e-05     5.56084e-05       0.00406983        0.143321      8.23201e-05      0.00016384
                    -2.97402e-05     0.000106365        0.0254023       -0.992768     -5.23588e-05     6.82146e-05        0.0262207        0.112854
281748                 0.0577771       -0.131206     -6.94174e-06     -0.00023204         0.189557       -0.970996       1.8169e-05     6.40338e-05
                     2.72739e-05     -0.00019483        0.0320084       -0.111318      6.96529e-05    -7.60815e-07        0.0250189       -0.992471
                        0.189413       -0.970958      4.79507e-05     5.56132e-05       0.00412534        0.143317      8.23103e-05     0.000163766
                    -2.97379e-05     0.000106417        0.0251627       -0.992775     -5.23629e-05     6.84824e-05        0.0262633         0.11284
281750                 0.0577651       -0.131209     -6.98507e-06    -0.000232039         0.189328       -0.971041      1.81662e-05     6.40673e-05
                     2.72454e-05    -0.000194866        0.0319965       -0.111317      6.96933e-05    -7.42303e-07        0.0247793       -0.992477
                        0.189184       -0.971003       4.7958e-05     5.56178e-05       0.00418086        0.143314      8.23004e-05     0.000163692
                    -2.97356e-05     0.000106469        0.0249231       -0.992781     -5.23661e-05     6.87481e-05        0.0263059        0.112826
281752                 0.0577531       -0.131212     -7.02832e-06    -0.000232037         0.189099       -0.971086      1.81634e-05     6.41008e-05
                     2.72169e-05    -0.000194903        0.0319845       -0.111316      6.97337e-05    -7.23447e-07        0.0245397       -0.992484
                        0.188955       -0.971048      4.79653e-05     5.56225e-05       0.00423637         0.14331      8.22907e-05     0.000163617
                    -2.97332e-05     0.000106522        0.0246836       -0.992788     -5.23687e-05     6.90127e-05        0.0263485        0.112813
281754                 0.0577411       -0.131215      -7.0715e-06    -0.000232036          0.18887       -0.971131      1.81609e-05     6.41345e-05
                     2.71884e-05     -0.00019494        0.0319726       -0.111316      6.97741e-05    -7.04412e-07           0.0243        -0.99249
                        0.188725       -0.971093      4.79726e-05     5.56271e-05       0.00429188        0.143306       8.2281e-05     0.000163543
                    -2.97308e-05     0.000106574         0.024444       -0.992794      -5.2371e-05     6.92768e-05         0.026391        0.112799
281756                 0.0577291       -0.131217     -7.11457e-06    -0.000232034          0.18864       -0.971176      1.81593e-05     6.41682e-05
                     2.71597e-05    -0.000194976        0.0319607       -0.111315      6.98144e-05    -6.85277e-07        0.0240604       -0.992496
                        0.188496       -0.971137      4.79799e-05     5.56317e-05       0.00434738        0.143302      8.22717e-05     0.000163468
                    -2.97283e-05     0.000106626        0.0242044       -0.992801      -5.2373e-05     6.95403e-05        0.0264336        0.112785
281758                 0.0577172        -0.13122     -7.15705e-06    -0.000232033         0.188411       -0.971221      1.81554e-05     6.41977e-05
                     2.71311e-05    -0.000195013        0.0319488       -0.111315      6.98547e-05    -6.66082e-07        0.0238208       -0.992502
                        0.188267       -0.971182       4.7987e-05      5.5636e-05       0.00440289        0.143298      8.22666e-05     0.000163407
                    -2.97258e-05     0.000106679        0.0239649       -0.992807     -5.23749e-05     6.98035e-05        0.0264762        0.112771
281760                 0.0577052       -0.131223     -7.20101e-06    -0.000232031         0.188182       -0.971266       1.8151e-05     6.42332e-05
                     2.71023e-05     -0.00019505        0.0319368       -0.111314      6.98951e-05    -6.46852e-07        0.0235812       -0.992509
                        0.188038       -0.971227       4.7995e-05      5.5641e-05       0.00445839        0.143294      8.22505e-05     0.000163323
                    -2.97232e-05     0.000106731        0.0237253       -0.992813     -5.23765e-05     7.00664e-05        0.0265187        0.112757
281762                 0.0576932       -0.131226     -7.24382e-06     -0.00023203         0.187953        -0.97131      1.81482e-05     6.42675e-05
                     2.70736e-05    -0.000195086        0.0319249       -0.111314      6.99354e-05    -6.27601e-07        0.0233415       -0.992515
                        0.187808       -0.971271      4.80021e-05     5.56454e-05       0.00451389         0.14329      8.22408e-05     0.000163248
