! TOUCHSTONE file generated by CST MICROWAVE STUDIO
! Date and time: Wed Oct 15 17:33:11 2025
! Project name: Teste_Macro_Metasurface_Nanopilar.cst
! Parameters = {H=600; L_x=160; L_y=200; Lambda=1064; Max_L=200; Min_L=70; PathPara=1; Phi=0; Step_L=10; Theta=0; p=520; phaseX=180; phaseY=0}
! Header version: 2018
! Port assignment regex: !\s*Touchstone port\s*([0-9]+)\s*=\s*(CST MWS port|CST DS port)\s*([0-9]+|Zmin|Zmax)\s*\(\"(.*)\"\)(\s*mode\s*([0-9]+))?.*
! Touchstone port assignment:
! Touchstone port 1 = CST MWS port Zmax ("") mode 1
! Touchstone port 2 = CST MWS port Zmax ("") mode 2
! Touchstone port 3 = CST MWS port Zmin ("") mode 1
! Touchstone port 4 = CST MWS port Zmin ("") mode 2
! S-Parameters are not renormalized. Each port impedance will be approximated by the real part at minimum frequency. The values are described via the [Reference] keyword.
! Default impedance is overridden by [Reference]
[Version] 2.0
# GHz S RI R 376.73
[Number of Ports] 4
[Reference]
376.73 376.73 259.888 259.888 
[Number of Frequencies] 51
[Network Data]
281700                  0.280882        0.102119     -0.000177424    -0.000195644        0.0396048        -0.94976      0.000569131     0.000186269
                    -0.000155403    -0.000183251         0.228926        0.115646      0.000655661     0.000131527         0.481463       -0.834365
                       0.0391432       -0.950985      0.000622154    -5.43136e-05         0.286126      -0.0795407     -0.000183637     0.000327164
                     0.000680606     0.000249391         0.481371       -0.834696     -0.000571713       0.0005347         0.213697        0.139099
281702                    0.2809        0.102113      -0.00017733      -0.0001957        0.0393281       -0.949767       0.00056923     0.000186112
                    -0.000155085    -0.000183289         0.228936        0.115639      0.000655919     0.000131516         0.481226       -0.834501
                       0.0388667       -0.950991      0.000622338    -5.43762e-05         0.286097      -0.0796989     -0.000183369     0.000327414
                     0.000680531     0.000249022         0.481134       -0.834831     -0.000572187     0.000534803         0.213775        0.138989
281704                  0.280919        0.102106     -0.000177236    -0.000195755        0.0390513       -0.949773      0.000569329     0.000185955
                    -0.000154767    -0.000183326         0.228945        0.115632      0.000656178     0.000131505         0.480988       -0.834636
                       0.0385901       -0.950996      0.000622523    -5.44389e-05         0.286069       -0.079857     -0.000183101     0.000327664
                     0.000680458     0.000248652         0.480897       -0.834967     -0.000572658     0.000534902         0.213853         0.13888
281706                  0.280937        0.102099     -0.000177142    -0.000195808        0.0387746        -0.94978      0.000569427     0.000185798
                    -0.000154449    -0.000183363         0.228955        0.115626      0.000656437     0.000131492         0.480751       -0.834771
                       0.0383136       -0.951002      0.000622707    -5.45018e-05          0.28604      -0.0800151     -0.000182833     0.000327913
                     0.000680385     0.000248281         0.480659       -0.835102     -0.000573128     0.000534995         0.213931         0.13877
281708                  0.280956        0.102092     -0.000177047    -0.000195861        0.0384979       -0.949787      0.000569526     0.000185641
                    -0.000154131    -0.000183398         0.228965        0.115619      0.000656696     0.000131479         0.480513       -0.834906
                        0.038037       -0.951007      0.000622891    -5.45647e-05         0.286012      -0.0801732     -0.000182564     0.000328162
                     0.000680313      0.00024791         0.480422       -0.835237     -0.000573595     0.000535084         0.214008        0.138661
281710                  0.280974        0.102086     -0.000176952    -0.000195912        0.0382212       -0.949793      0.000569624     0.000185483
                    -0.000153814    -0.000183433         0.228975        0.115612      0.000656954     0.000131465         0.480276       -0.835042
                       0.0377605       -0.951013      0.000623076    -5.46277e-05         0.285983      -0.0803313     -0.000182295     0.000328411
                     0.000680242     0.000247537         0.480184       -0.835373      -0.00057406     0.000535169         0.214086        0.138551
281712                  0.280992        0.102079     -0.000176857    -0.000195962        0.0379444         -0.9498      0.000569722     0.000185325
                    -0.000153497    -0.000183467         0.228985        0.115605      0.000657213     0.000131449         0.480038       -0.835177
                        0.037484       -0.951018       0.00062326    -5.46909e-05         0.285954      -0.0804894     -0.000182025      0.00032866
                     0.000680172     0.000247163         0.479947       -0.835508     -0.000574523     0.000535249         0.214164        0.138442
281714                  0.281011        0.102072     -0.000176762    -0.000196011        0.0376677       -0.949806       0.00056982     0.000185167
                     -0.00015318      -0.0001835         0.228994        0.115598      0.000657471     0.000131433         0.479801       -0.835311
                       0.0372074       -0.951023      0.000623445    -5.47541e-05         0.285925      -0.0806475     -0.000181755     0.000328909
                     0.000680102     0.000246789         0.479709       -0.835643     -0.000574985     0.000535326         0.214241        0.138332
281716                  0.281029        0.102065     -0.000176667    -0.000196059         0.037391       -0.949812      0.000569918     0.000185008
                    -0.000152864    -0.000183533         0.229004        0.115591       0.00065773     0.000131417         0.479563       -0.835446
                       0.0369309       -0.951028      0.000623629    -5.48175e-05         0.285897      -0.0808055     -0.000181485     0.000329157
                     0.000680033     0.000246413         0.479471       -0.835778     -0.000575444     0.000535399         0.214319        0.138222
281718                  0.281048        0.102059     -0.000176572    -0.000196106        0.0371143       -0.949819      0.000570016     0.000184849
                    -0.000152547    -0.000183564         0.229014        0.115584      0.000657988     0.000131399         0.479326       -0.835581
                       0.0366543       -0.951033      0.000623814     -5.4881e-05         0.285867      -0.0809636     -0.000181215     0.000329405
                     0.000679965     0.000246037         0.479234       -0.835913     -0.000575902     0.000535468         0.214397        0.138112
281720                  0.281066        0.102052     -0.000176476    -0.000196152        0.0368376       -0.949825      0.000570114      0.00018469
                    -0.000152231    -0.000183595         0.229024        0.115577      0.000658246     0.000131381         0.479088       -0.835716
                       0.0363778       -0.951038      0.000623999    -5.49446e-05         0.285838      -0.0811216     -0.000180944     0.000329653
                     0.000679897     0.000245659         0.478996       -0.836048     -0.000576358     0.000535535         0.214474        0.138003
281722                  0.281085        0.102045      -0.00017638    -0.000196196        0.0365609       -0.949831      0.000570211     0.000184531
                    -0.000151915    -0.000183625         0.229034         0.11557      0.000658504     0.000131361          0.47885        -0.83585
                       0.0361012       -0.951043      0.000624183    -5.50083e-05         0.285809      -0.0812797     -0.000180673     0.000329901
                     0.000679831     0.000245281         0.478758       -0.836183     -0.000576812     0.000535598         0.214551        0.137893
281724                  0.281103        0.102038     -0.000176284     -0.00019624        0.0362842       -0.949837      0.000570309     0.000184371
                      -0.0001516    -0.000183654         0.229044        0.115563      0.000658762     0.000131341         0.478613       -0.835985
                       0.0358246       -0.951048      0.000624368    -5.50721e-05          0.28578      -0.0814377     -0.000180402     0.000330149
                     0.000679765     0.000244902         0.478521       -0.836318     -0.000577264     0.000535658         0.214629        0.137783
281726                  0.281122        0.102032     -0.000176188    -0.000196282        0.0360075       -0.949843      0.000570406     0.000184211
                    -0.000151284    -0.000183682         0.229053        0.115556       0.00065902     0.000131321         0.478375        -0.83612
                       0.0355481       -0.951053      0.000624553    -5.51361e-05          0.28575      -0.0815957      -0.00018013     0.000330396
                       0.0006797     0.000244522         0.478283       -0.836452     -0.000577715     0.000535716         0.214706        0.137673
281728                   0.28114        0.102025     -0.000176091    -0.000196323        0.0357308       -0.949848      0.000570503     0.000184051
                    -0.000150969     -0.00018371         0.229063        0.115549      0.000659278       0.0001313         0.478137       -0.836254
                       0.0352715       -0.951057      0.000624737    -5.52001e-05         0.285721      -0.0817537     -0.000179858     0.000330644
                     0.000679636     0.000244141         0.478045       -0.836587     -0.000578164      0.00053577         0.214783        0.137563
281730                  0.281159        0.102018     -0.000175995    -0.000196363        0.0354541       -0.949854        0.0005706      0.00018389
                    -0.000150654    -0.000183736         0.229073        0.115542      0.000659536     0.000131277         0.477899       -0.836388
                       0.0349949       -0.951062      0.000624922    -5.52643e-05         0.285691      -0.0819117     -0.000179585     0.000330891
                     0.000679572     0.000243759         0.477807       -0.836721     -0.000578612     0.000535823         0.214861        0.137453
281732                  0.281177        0.102011     -0.000175898    -0.000196401        0.0351774        -0.94986      0.000570697     0.000183729
                     -0.00015034    -0.000183762         0.229083        0.115535      0.000659793     0.000131255         0.477662       -0.836523
                       0.0347183       -0.951066      0.000625107    -5.53286e-05         0.285662      -0.0820697     -0.000179313     0.000331138
                      0.00067951     0.000243376         0.477569       -0.836856     -0.000579058     0.000535872         0.214938        0.137343
281734                  0.281195        0.102005     -0.000175801    -0.000196439        0.0349007       -0.949865      0.000570794     0.000183568
                    -0.000150025    -0.000183787         0.229093        0.115528      0.000660051     0.000131231         0.477424       -0.836657
                       0.0344418       -0.951071      0.000625291     -5.5393e-05         0.285632      -0.0822277     -0.000179039     0.000331385
                     0.000679448     0.000242993         0.477331        -0.83699     -0.000579503      0.00053592         0.215015        0.137233
281736                  0.281214        0.101998     -0.000175704    -0.000196476         0.034624       -0.949871      0.000570891     0.000183406
                    -0.000149711    -0.000183811         0.229102        0.115521      0.000660308     0.000131207         0.477186       -0.836791
                       0.0341652       -0.951075      0.000625476    -5.54575e-05         0.285602      -0.0823856     -0.000178766     0.000331631
                     0.000679387     0.000242608         0.477093       -0.837125     -0.000579946     0.000535965         0.215092        0.137122
281738                  0.281232        0.101991     -0.000175607    -0.000196511        0.0343473       -0.949876      0.000570988     0.000183244
                    -0.000149397    -0.000183834         0.229112        0.115514      0.000660565     0.000131183         0.476948       -0.836925
                       0.0338886       -0.951079      0.000625661    -5.55221e-05         0.285572      -0.0825436     -0.000178492     0.000331878
                     0.000679327     0.000242223         0.476855       -0.837259     -0.000580388     0.000536008         0.215169        0.137012
281740                  0.281251        0.101984     -0.000175509    -0.000196545        0.0340706       -0.949882      0.000571084     0.000183082
                    -0.000149083    -0.000183856         0.229122        0.115507      0.000660823     0.000131157          0.47671       -0.837059
                        0.033612       -0.951083      0.000625845    -5.55869e-05         0.285542      -0.0827015     -0.000178217     0.000332124
                     0.000679268     0.000241836         0.476617       -0.837393     -0.000580828      0.00053605         0.215246        0.136902
281742                  0.281269        0.101978     -0.000175412    -0.000196578        0.0337939       -0.949887       0.00057118      0.00018292
                    -0.000148769    -0.000183877         0.229132          0.1155       0.00066108     0.000131131         0.476472       -0.837193
                       0.0333354       -0.951087       0.00062603    -5.56518e-05         0.285512      -0.0828595     -0.000177943      0.00033237
                      0.00067921     0.000241449         0.476379       -0.837527     -0.000581267     0.000536089         0.215323        0.136792
281744                  0.281288        0.101971     -0.000175314     -0.00019661        0.0335172       -0.949892      0.000571277     0.000182757
                    -0.000148456    -0.000183898         0.229142        0.115493      0.000661336     0.000131105         0.476234       -0.837327
                       0.0330588       -0.951091      0.000626215    -5.57167e-05         0.285482      -0.0830174     -0.000177667     0.000332616
                     0.000679152     0.000241061         0.476141       -0.837661     -0.000581705     0.000536127         0.215399        0.136681
281746                  0.281306        0.101964     -0.000175216    -0.000196641        0.0332405       -0.949897      0.000571373     0.000182594
                    -0.000148143    -0.000183918         0.229152        0.115486      0.000661593     0.000131078         0.475996       -0.837461
                       0.0327822       -0.951095      0.000626399    -5.57818e-05         0.285451      -0.0831753     -0.000177392     0.000332861
                     0.000679096     0.000240672         0.475903       -0.837795     -0.000582142     0.000536162         0.215476        0.136571
281748                  0.281324        0.101957     -0.000175118    -0.000196671        0.0329638       -0.949902      0.000571468     0.000182431
                     -0.00014783    -0.000183936         0.229161        0.115479       0.00066185      0.00013105         0.475758       -0.837594
                       0.0325056       -0.951099      0.000626584     -5.5847e-05         0.285421      -0.0833332     -0.000177116     0.000333107
                      0.00067904     0.000240282         0.475665       -0.837929     -0.000582578     0.000536196         0.215553        0.136461
281750                  0.281343         0.10195      -0.00017502    -0.000196699        0.0326871       -0.949907      0.000571564     0.000182267
                    -0.000147517    -0.000183954         0.229171        0.115472      0.000662106     0.000131022          0.47552       -0.837728
                        0.032229       -0.951103      0.000626769    -5.59123e-05         0.285391      -0.0834911     -0.000176839     0.000333352
                     0.000678985     0.000239891         0.475427       -0.838063     -0.000583012     0.000536229         0.215629         0.13635
281752                  0.281361        0.101944     -0.000174921    -0.000196727        0.0324104       -0.949912       0.00057166     0.000182103
                    -0.000147205    -0.000183971         0.229181        0.115466      0.000662363     0.000130993         0.475281       -0.837862
                       0.0319524       -0.951107      0.000626953    -5.59777e-05          0.28536       -0.083649     -0.000176562     0.000333598
                     0.000678931     0.000239499         0.475189       -0.838197     -0.000583445      0.00053626         0.215706         0.13624
281754                   0.28138        0.101937     -0.000174823    -0.000196753        0.0321337       -0.949917      0.000571755     0.000181939
                    -0.000146892    -0.000183987         0.229191        0.115459      0.000662619     0.000130964         0.475043       -0.837995
                       0.0316758        -0.95111      0.000627138    -5.60432e-05         0.285329      -0.0838068     -0.000176285     0.000333843
                     0.000678878     0.000239106         0.474951       -0.838331     -0.000583878      0.00053629         0.215783        0.136129
281756                  0.281398         0.10193     -0.000174724    -0.000196778         0.031857       -0.949921      0.000571851     0.000181774
                     -0.00014658    -0.000184003         0.229201        0.115452      0.000662875     0.000130934         0.474805       -0.838129
                       0.0313991       -0.951114      0.000627322    -5.61088e-05         0.285299      -0.0839647     -0.000176007     0.000334088
                     0.000678826     0.000238713         0.474712       -0.838464     -0.000584309     0.000536318         0.215859        0.136019
281758                  0.281417        0.101923     -0.000174625    -0.000196802        0.0315803       -0.949926      0.000571946     0.000181609
                    -0.000146268    -0.000184017         0.229211        0.115445      0.000663131     0.000130904         0.474567       -0.838262
                       0.0311225       -0.951117      0.000627507    -5.61744e-05         0.285268      -0.0841225     -0.000175728     0.000334332
                     0.000678775     0.000238318         0.474474       -0.838598     -0.000584739     0.000536344         0.215935        0.135908
281760                  0.281435        0.101916     -0.000174525    -0.000196824        0.0313036        -0.94993      0.000572041     0.000181444
                    -0.000145957     -0.00018403          0.22922        0.115438      0.000663387     0.000130873         0.474328       -0.838395
                       0.0308459       -0.951121      0.000627692    -5.62399e-05         0.285237      -0.0842804     -0.000175449     0.000334577
                     0.000678724     0.000237923         0.474236       -0.838731     -0.000585169      0.00053637         0.216012        0.135798
281762                  0.281453        0.101909     -0.000174424    -0.000196844        0.0310269       -0.949935      0.000572136     0.000181278
                    -0.000145645    -0.000184043          0.22923        0.115431      0.000663643     0.000130842          0.47409       -0.838529
                       0.0305693       -0.951124      0.000627877    -5.63055e-05         0.285206      -0.0844382      -0.00017517     0.000334821
