! TOUCHSTONE file generated by CST MICROWAVE STUDIO
! Date and time: Wed Oct 15 17:29:51 2025
! Project name: Teste_Macro_Metasurface_Nanopilar.cst
! Parameters = {H=600; L_x=105; L_y=115; Lambda=1064; Max_L=200; Min_L=70; PathPara=1; Phi=0; Step_L=10; Theta=0; p=520; phaseX=180; phaseY=0}
! Header version: 2018
! Port assignment regex: !\s*Touchstone port\s*([0-9]+)\s*=\s*(CST MWS port|CST DS port)\s*([0-9]+|Zmin|Zmax)\s*\(\"(.*)\"\)(\s*mode\s*([0-9]+))?.*
! Touchstone port assignment:
! Touchstone port 1 = CST MWS port Zmax ("") mode 1
! Touchstone port 2 = CST MWS port Zmax ("") mode 2
! Touchstone port 3 = CST MWS port Zmin ("") mode 1
! Touchstone port 4 = CST MWS port Zmin ("") mode 2
! S-Parameters are not renormalized. Each port impedance will be approximated by the real part at minimum frequency. The values are described via the [Reference] keyword.
! Default impedance is overridden by [Reference]
[Version] 2.0
# GHz S RI R 376.73
[Number of Ports] 4
[Reference]
376.73 376.73 259.888 259.888 
[Number of Frequencies] 51
[Network Data]
281700                  0.153106       0.0434613      1.94619e-06    -0.000142102          -0.9506        0.238683     -4.25133e-05     0.000370033
                    -3.13537e-05    -6.20454e-05        0.0500472       0.0821237     -3.35396e-06     0.000330399        -0.930084       -0.341867
                       -0.951019        0.238923       2.0745e-05     0.000190635        -0.113438        0.110796      7.94312e-05    -5.75379e-06
                    -1.84094e-05     0.000279436        -0.929572        -0.34157      3.18581e-05     3.10846e-05       -0.0906098       0.0312941
281702                   0.15312       0.0434455       1.8056e-06    -0.000142078         -0.95051        0.239033     -4.24404e-05     0.000370069
                    -3.14186e-05    -6.18723e-05         0.050061       0.0821348     -3.21753e-06     0.000330476        -0.930192       -0.341567
                       -0.950929        0.239273      2.08237e-05     0.000190744        -0.113376        0.110872      7.95005e-05    -5.58435e-06
                    -1.84075e-05     0.000279469        -0.929679        -0.34127      3.19038e-05     3.12109e-05       -0.0906074       0.0313522
281704                  0.153133       0.0434296      1.66511e-06    -0.000142054         -0.95042        0.239382     -4.23676e-05     0.000370104
                    -3.14833e-05    -6.16991e-05        0.0500748        0.082146     -3.08097e-06     0.000330552          -0.9303       -0.341266
                       -0.950839        0.239623      2.09024e-05     0.000190853        -0.113314        0.110948      7.95677e-05    -5.41586e-06
                    -1.84055e-05     0.000279501        -0.929787        -0.34097      3.19501e-05     3.13384e-05        -0.090605       0.0314103
281706                  0.153147       0.0434138      1.52473e-06     -0.00014203         -0.95033        0.239731     -4.22948e-05      0.00037014
                    -3.15479e-05    -6.15258e-05        0.0500886       0.0821571     -2.94426e-06     0.000330628        -0.930408       -0.340965
                       -0.950749        0.239973      2.09809e-05     0.000190962        -0.113252        0.111024      7.96331e-05    -5.24837e-06
                    -1.84035e-05     0.000279533        -0.929894        -0.34067       3.1997e-05      3.1467e-05       -0.0906026       0.0314684
281708                   0.15316       0.0433979      1.38446e-06    -0.000142005         -0.95024         0.24008     -4.22221e-05     0.000370175
                    -3.16122e-05    -6.13523e-05        0.0501024       0.0821683     -2.80741e-06     0.000330704        -0.930516       -0.340664
                       -0.950658        0.240323      2.10594e-05     0.000191072         -0.11319        0.111099      7.96967e-05    -5.08196e-06
                    -1.84015e-05     0.000279565        -0.930001        -0.34037      3.20447e-05     3.15968e-05       -0.0906001       0.0315264
281710                  0.153174       0.0433821       1.2443e-06    -0.000141981        -0.950149        0.240429     -4.21495e-05      0.00037021
                    -3.16763e-05    -6.11787e-05        0.0501163       0.0821794     -2.67042e-06      0.00033078        -0.930624       -0.340363
                       -0.950568        0.240673      2.11376e-05     0.000191182        -0.113128        0.111175      7.97587e-05    -4.91668e-06
                    -1.83995e-05     0.000279597        -0.930108       -0.340069       3.2093e-05     3.17277e-05       -0.0905976       0.0315846
281712                  0.153188       0.0433662      1.10426e-06    -0.000141956        -0.950059        0.240778      -4.2077e-05     0.000370245
                    -3.17402e-05    -6.10051e-05        0.0501301       0.0821906     -2.53328e-06     0.000330856        -0.930732       -0.340063
                       -0.950477        0.241023      2.12158e-05     0.000191292        -0.113066        0.111251      7.98193e-05    -4.75254e-06
                    -1.83974e-05     0.000279629        -0.930215       -0.339769       3.2142e-05     3.18598e-05       -0.0905951       0.0316427
281714                  0.153201       0.0433504      9.64324e-07    -0.000141931        -0.949968        0.241127     -4.20045e-05      0.00037028
                     -3.1804e-05    -6.08313e-05        0.0501439       0.0822017       -2.396e-06     0.000330932        -0.930839       -0.339762
                       -0.950386        0.241373      2.12937e-05     0.000191402        -0.113004        0.111326      7.98786e-05    -4.58958e-06
                    -1.83953e-05      0.00027966        -0.930322       -0.339469      3.21917e-05      3.1993e-05       -0.0905925       0.0317008
281716                  0.153215       0.0433345      8.24502e-07    -0.000141906        -0.949877        0.241476      -4.1932e-05     0.000370315
                    -3.18675e-05    -6.06575e-05        0.0501577       0.0822129     -2.25858e-06     0.000331008        -0.930947       -0.339461
                       -0.950295        0.241723      2.13714e-05     0.000191513        -0.112942        0.111402      7.99367e-05    -4.42779e-06
                    -1.83932e-05     0.000279692        -0.930428       -0.339169      3.22421e-05     3.21274e-05       -0.0905899       0.0317589
281718                  0.153228       0.0433186      6.84792e-07    -0.000141881        -0.949786        0.241825     -4.18596e-05      0.00037035
                    -3.19309e-05    -6.04837e-05        0.0501716        0.082224     -2.12101e-06     0.000331084        -0.931054        -0.33916
                       -0.950204        0.242073      2.14489e-05     0.000191624        -0.112879        0.111478      7.99938e-05    -4.26718e-06
                     -1.8391e-05     0.000279723        -0.930535       -0.338868       3.2293e-05     3.22629e-05       -0.0905873        0.031817
281720                  0.153242       0.0433027      5.45196e-07    -0.000141856        -0.949695        0.242174     -4.17873e-05     0.000370384
                    -3.19941e-05      -6.031e-05        0.0501854       0.0822352      -1.9833e-06      0.00033116        -0.931161       -0.338859
                       -0.950113        0.242423      2.15261e-05     0.000191736        -0.112817        0.111553        8.005e-05    -4.10771e-06
                    -1.83887e-05     0.000279755        -0.930641       -0.338568      3.23443e-05     3.23994e-05       -0.0905846       0.0318752
281722                  0.153255       0.0432868      4.05713e-07    -0.000141831        -0.949604        0.242522     -4.17149e-05     0.000370419
                    -3.20571e-05    -6.01367e-05        0.0501992       0.0822463     -1.84545e-06     0.000331235        -0.931269       -0.338558
                       -0.950022        0.242773      2.16031e-05     0.000191848        -0.112755        0.111629      8.01054e-05    -3.94937e-06
                    -1.83863e-05     0.000279786        -0.930748       -0.338268       3.2396e-05     3.25369e-05       -0.0905819       0.0319333
281724                  0.153269       0.0432709      2.66344e-07    -0.000141806        -0.949513        0.242871     -4.16426e-05     0.000370453
                    -3.21199e-05    -5.99654e-05        0.0502131       0.0822574     -1.70744e-06     0.000331311        -0.931376       -0.338256
                        -0.94993        0.243123      2.16797e-05      0.00019196        -0.112692        0.111704      8.01601e-05    -3.79212e-06
                    -1.83838e-05     0.000279817        -0.930854       -0.337967      3.24478e-05     3.26753e-05       -0.0905791       0.0319915
281726                  0.153282        0.043255      1.27089e-07     -0.00014178        -0.949421         0.24322     -4.15702e-05     0.000370486
                    -3.21457e-05    -5.97864e-05        0.0502269       0.0822686     -1.56928e-06     0.000331386        -0.931483       -0.337955
                       -0.949839        0.243472       2.1756e-05     0.000192073         -0.11263        0.111779      8.02142e-05    -3.63593e-06
                    -1.83813e-05     0.000279848         -0.93096       -0.337666      3.24996e-05     3.28141e-05       -0.0905763       0.0320496
281728                  0.153296       0.0432391     -1.20507e-08    -0.000141755         -0.94933        0.243569     -4.14978e-05      0.00037052
                    -3.22418e-05    -5.96049e-05        0.0502408       0.0822797     -1.43097e-06     0.000331461         -0.93159       -0.337654
                       -0.949747        0.243822       2.1832e-05     0.000192187        -0.112567        0.111855      8.02678e-05    -3.48075e-06
                    -1.83786e-05      0.00027988        -0.931066       -0.337366      3.25512e-05     3.29532e-05       -0.0905735       0.0321078
281730                  0.153309       0.0432232     -1.51076e-07    -0.000141729        -0.949238        0.243918     -4.14254e-05     0.000370553
                    -3.23053e-05    -5.94327e-05        0.0502547       0.0822909     -1.29249e-06     0.000331536        -0.931697       -0.337353
                       -0.949655        0.244172      2.19075e-05       0.0001923        -0.112505         0.11193       8.0321e-05    -3.32654e-06
                     -1.8376e-05     0.000279911        -0.931172       -0.337065      3.26027e-05     3.30921e-05       -0.0905707        0.032166
281732                  0.153323       0.0432073     -2.89986e-07    -0.000141704        -0.949146        0.244266     -4.13528e-05     0.000370586
                    -3.23676e-05    -5.92588e-05        0.0502685        0.082302     -1.15382e-06     0.000331611        -0.931803       -0.337051
                       -0.949563        0.244522      2.19825e-05     0.000192415        -0.112442        0.112005      8.03738e-05    -3.17325e-06
                    -1.83733e-05     0.000279943        -0.931278       -0.336765      3.26541e-05     3.32302e-05       -0.0905678       0.0322241
281734                  0.153336       0.0431914     -4.28782e-07    -0.000141678        -0.949054        0.244615     -4.12802e-05     0.000370619
                    -3.24295e-05    -5.90844e-05        0.0502824       0.0823131     -1.01495e-06     0.000331685         -0.93191        -0.33675
                       -0.949471        0.244871      2.20571e-05      0.00019253        -0.112379        0.112081      8.04264e-05    -3.02082e-06
                    -1.83707e-05     0.000279974        -0.931384       -0.336464       3.2706e-05     3.33672e-05       -0.0905648       0.0322823
281736                   0.15335       0.0431754     -5.67463e-07    -0.000141653        -0.948962        0.244964     -4.12074e-05     0.000370651
                    -3.24912e-05    -5.89097e-05        0.0502963       0.0823242     -8.75825e-07     0.000331759        -0.932017       -0.336449
                       -0.949379        0.245221      2.21312e-05     0.000192646        -0.112317        0.112156      8.04787e-05    -2.86921e-06
                    -1.83682e-05     0.000280006        -0.931489       -0.336163      3.27587e-05      3.3503e-05       -0.0905619       0.0323405
281738                  0.153364       0.0431595     -7.06029e-07    -0.000141627         -0.94887        0.245312     -4.11344e-05     0.000370684
                    -3.25527e-05    -5.87349e-05        0.0503101       0.0823354     -7.36407e-07     0.000331833        -0.932123       -0.336147
                       -0.949287        0.245571      2.22047e-05     0.000192762        -0.112254        0.112231      8.05309e-05    -2.71836e-06
                    -1.83658e-05     0.000280038        -0.931595       -0.335863      3.28129e-05     3.36377e-05       -0.0905589       0.0323987
281740                  0.153377       0.0431436     -8.44483e-07    -0.000141602        -0.948778        0.245661     -4.10612e-05     0.000370716
                     -3.2614e-05    -5.85599e-05         0.050324       0.0823465     -5.96632e-07     0.000331906        -0.932229       -0.335846
                       -0.949194         0.24592      2.22776e-05     0.000192879        -0.112191        0.112306      8.05829e-05    -2.56824e-06
                    -1.83637e-05      0.00028007        -0.931701       -0.335562      3.28686e-05     3.37716e-05       -0.0905558       0.0324569
281742                  0.153391       0.0431276     -9.82823e-07    -0.000141576        -0.948685         0.24601     -4.09879e-05     0.000370747
                     -3.2675e-05    -5.83848e-05        0.0503379       0.0823576     -4.56428e-07     0.000331979        -0.932336       -0.335544
                       -0.949102         0.24627      2.23498e-05     0.000192996        -0.112128        0.112381      8.06347e-05    -2.41879e-06
                    -1.83617e-05     0.000280102        -0.931806       -0.335261      3.29261e-05     3.39051e-05       -0.0905528       0.0325151
281744                  0.153404       0.0431116     -1.12105e-06    -0.000141551        -0.948592        0.246358     -4.09143e-05     0.000370779
                    -3.27359e-05    -5.82097e-05        0.0503518       0.0823687     -3.15721e-07     0.000332051        -0.932442       -0.335243
                       -0.949009        0.246619      2.24214e-05     0.000193115        -0.112065        0.112456      8.06865e-05    -2.26998e-06
                      -1.836e-05     0.000280135        -0.931911        -0.33496      3.29853e-05     3.40385e-05       -0.0905497       0.0325733
281746                  0.153418       0.0430957     -1.25917e-06    -0.000141526          -0.9485        0.246707     -4.08405e-05      0.00037081
                    -3.27966e-05    -5.80345e-05        0.0503657       0.0823798     -1.74451e-07     0.000332123        -0.932548       -0.334941
                       -0.948916        0.246969      2.24924e-05     0.000193234        -0.112002        0.112531      8.07382e-05    -2.12177e-06
                    -1.83584e-05     0.000280167        -0.932017       -0.334659      3.30459e-05     3.41721e-05       -0.0905465       0.0326316
281748                  0.153431       0.0430797     -1.39718e-06      -0.0001415        -0.948407        0.247055     -4.07666e-05     0.000370841
                    -3.28571e-05    -5.78592e-05        0.0503796       0.0823909     -3.25844e-08     0.000332195        -0.932654        -0.33464
                       -0.948823        0.247318      2.25626e-05     0.000193353        -0.111939        0.112606      8.07897e-05    -1.97415e-06
                    -1.83569e-05     0.000280199        -0.932122       -0.334359      3.31076e-05     3.43059e-05       -0.0905433       0.0326898
281750                  0.153445       0.0430637     -1.53509e-06    -0.000141475        -0.948314        0.247404     -4.06925e-05     0.000370872
                    -3.29175e-05    -5.76838e-05        0.0503935        0.082402      1.09872e-07     0.000332267         -0.93276       -0.334338
                        -0.94873        0.247668      2.26323e-05     0.000193474        -0.111876        0.112681      8.08412e-05    -1.82711e-06
                    -1.83557e-05     0.000280232        -0.932227       -0.334058      3.31703e-05     3.44401e-05       -0.0905401        0.032748
281752                  0.153458       0.0430477      -1.6729e-06     -0.00014145        -0.948221        0.247752     -4.06184e-05     0.000370903
                    -3.29777e-05    -5.75084e-05        0.0504074       0.0824131      2.52868e-07     0.000332338        -0.932866       -0.334036
                       -0.948637        0.248017      2.27014e-05     0.000193595        -0.111813        0.112756      8.08923e-05    -1.68065e-06
                    -1.83545e-05     0.000280264        -0.932332       -0.333757      3.32336e-05     3.45746e-05       -0.0905369       0.0328063
281754                  0.153472       0.0430318     -1.81062e-06    -0.000141425        -0.948127        0.248101     -4.05443e-05     0.000370934
                    -3.30377e-05     -5.7333e-05        0.0504213       0.0824241      3.96314e-07      0.00033241        -0.932972       -0.333735
                       -0.948543        0.248367      2.27703e-05     0.000193716         -0.11175        0.112831      8.09431e-05    -1.53482e-06
                    -1.83534e-05     0.000280297        -0.932437       -0.333456      3.32975e-05     3.47094e-05       -0.0905336       0.0328645
281756                  0.153485       0.0430158     -1.94825e-06    -0.000141399        -0.948034        0.248449     -4.04704e-05     0.000370965
                    -3.30975e-05    -5.71575e-05        0.0504352       0.0824352      5.40101e-07     0.000332481        -0.933077       -0.333433
                        -0.94845        0.248716      2.28392e-05     0.000193838        -0.111686        0.112906       8.0993e-05    -1.38963e-06
                    -1.83524e-05      0.00028033        -0.932542       -0.333155      3.33617e-05     3.48445e-05       -0.0905302       0.0329228
281758                  0.153498       0.0429998     -2.08581e-06    -0.000141373         -0.94794        0.248798     -4.03967e-05     0.000370996
                    -3.31571e-05    -5.69819e-05        0.0504491       0.0824463      6.84113e-07     0.000332553        -0.933183       -0.333131
                       -0.948356        0.249066      2.29088e-05      0.00019396        -0.111623        0.112981      8.10414e-05    -1.24502e-06
                    -1.83514e-05     0.000280362        -0.932647       -0.332854      3.34261e-05     3.49798e-05       -0.0905269        0.032981
281760                  0.153512       0.0429837     -2.22333e-06    -0.000141346        -0.947847        0.249146     -4.03233e-05     0.000371028
                    -3.32166e-05    -5.68064e-05         0.050463       0.0824574      8.28242e-07     0.000332624        -0.933288       -0.332829
                       -0.948262        0.249415      2.29804e-05      0.00019408         -0.11156        0.113056      8.10868e-05    -1.10027e-06
                    -1.83505e-05     0.000280395        -0.932751       -0.332553      3.34906e-05     3.51152e-05       -0.0905235       0.0330393
281762                  0.153525       0.0429677     -2.36082e-06    -0.000141317        -0.947753        0.249494     -4.02496e-05     0.000371061
                    -3.32759e-05    -5.66308e-05         0.050477       0.0824686      9.72394e-07     0.000332695        -0.933394       -0.332527
                       -0.948168        0.249764       2.3056e-05     0.000194198        -0.111496         0.11313       8.1127e-05    -9.51841e-07
