! TOUCHSTONE file generated by CST MICROWAVE STUDIO
! Date and time: Wed Oct 15 17:31:40 2025
! Project name: Teste_Macro_Metasurface_Nanopilar.cst
! Parameters = {H=600; L_x=135; L_y=160; Lambda=1064; Max_L=200; Min_L=70; PathPara=1; Phi=0; Step_L=10; Theta=0; p=520; phaseX=180; phaseY=0}
! Header version: 2018
! Port assignment regex: !\s*Touchstone port\s*([0-9]+)\s*=\s*(CST MWS port|CST DS port)\s*([0-9]+|Zmin|Zmax)\s*\(\"(.*)\"\)(\s*mode\s*([0-9]+))?.*
! Touchstone port assignment:
! Touchstone port 1 = CST MWS port Zmax ("") mode 1
! Touchstone port 2 = CST MWS port Zmax ("") mode 2
! Touchstone port 3 = CST MWS port Zmin ("") mode 1
! Touchstone port 4 = CST MWS port Zmin ("") mode 2
! S-Parameters are not renormalized. Each port impedance will be approximated by the real part at minimum frequency. The values are described via the [Reference] keyword.
! Default impedance is overridden by [Reference]
[Version] 2.0
# GHz S RI R 376.73
[Number of Ports] 4
[Reference]
376.73 376.73 259.888 259.888 
[Number of Frequencies] 51
[Network Data]
281700                  0.308118       -0.252562      0.000751912    -0.000384747         0.875629       -0.218569      0.000906103     0.000452054
                      0.00075645    -0.000438063         0.122229        0.188527     -0.000920091     0.000775837         0.875463       -0.417035
                        0.875906       -0.218537     -0.000933698     0.000857641        -0.373145       -0.101046      -0.00139962    -0.000385111
                     0.000889577     0.000463285         0.874375       -0.417123      -0.00144808    -0.000362393        0.0708347        0.210968
281702                  0.307927       -0.252441      0.000751739    -0.000385577         0.875618       -0.219063      0.000906206     0.000451638
                     0.000755797    -0.000438844         0.122249        0.188562     -0.000919128     0.000776364         0.875314       -0.417325
                        0.875896        -0.21903     -0.000932423     0.000857947        -0.373037       -0.100602       -0.0013997    -0.000384462
                     0.000889644     0.000462715         0.874226       -0.417412      -0.00144809    -0.000361776        0.0709925        0.210957
281704                  0.307736       -0.252321      0.000751564    -0.000386413         0.875608       -0.219557       0.00090631     0.000451222
                     0.000755145    -0.000439624         0.122269        0.188597     -0.000918166     0.000776889         0.875164       -0.417615
                        0.875885       -0.219524     -0.000931149     0.000858251        -0.372929       -0.100158      -0.00139978    -0.000383814
                     0.000889711     0.000462146         0.874078       -0.417701      -0.00144809    -0.000361159        0.0711504        0.210945
281706                  0.307545       -0.252201      0.000751386    -0.000387253         0.875597        -0.22005      0.000906413     0.000450807
                     0.000754494    -0.000440402         0.122289        0.188632     -0.000917204     0.000777413         0.875015       -0.417904
                        0.875874       -0.220017     -0.000929876     0.000858554        -0.372821       -0.099715      -0.00139986    -0.000383166
                     0.000889778      0.00046158         0.873929        -0.41799      -0.00144809    -0.000360543        0.0713082        0.210933
281708                  0.307355        -0.25208      0.000751207    -0.000388098         0.875586       -0.220544      0.000906517     0.000450391
                     0.000753842    -0.000441178         0.122309        0.188668     -0.000916243     0.000777937         0.874866       -0.418194
                        0.875862        -0.22051     -0.000928603     0.000858855        -0.372712      -0.0992722      -0.00139994    -0.000382519
                     0.000889845     0.000461015          0.87378       -0.418279       -0.0014481    -0.000359927        0.0714661        0.210921
281710                  0.307165        -0.25196      0.000751026    -0.000388946         0.875574       -0.221037       0.00090662     0.000449976
                     0.000753192    -0.000441953         0.122328        0.188703     -0.000915283     0.000778459         0.874716       -0.418483
                         0.87585       -0.221003     -0.000927331     0.000859154        -0.372603      -0.0988298      -0.00140002    -0.000381872
                     0.000889913     0.000460452         0.873631       -0.418568       -0.0014481    -0.000359312        0.0716241        0.210909
281712                  0.306975        -0.25184      0.000750843    -0.000389798         0.875562        -0.22153      0.000906725      0.00044956
                     0.000752542    -0.000442727         0.122348        0.188738     -0.000914323      0.00077898         0.874566       -0.418772
                        0.875838       -0.221495      -0.00092606     0.000859452        -0.372494       -0.098388       -0.0014001    -0.000381226
                     0.000889981      0.00045989         0.873482       -0.418857       -0.0014481    -0.000358698         0.071782        0.210897
281714                  0.306785       -0.251719      0.000750659    -0.000390653         0.875549       -0.222023      0.000906829     0.000449145
                     0.000751892      -0.0004435         0.122368        0.188774     -0.000913363       0.0007795         0.874417       -0.419062
                        0.875825       -0.221988     -0.000924789     0.000859748        -0.372384      -0.0979466      -0.00140018     -0.00038058
                     0.000890049      0.00045933         0.873333       -0.419145      -0.00144811    -0.000358083          0.07194        0.210885
281716                  0.306596       -0.251599      0.000750473    -0.000391512         0.875536       -0.222515      0.000906933     0.000448729
                     0.000751242    -0.000444271         0.122388        0.188809     -0.000912404     0.000780019         0.874267       -0.419351
                        0.875812        -0.22248     -0.000923519     0.000860043        -0.372274      -0.0975057      -0.00140026    -0.000379935
                     0.000890117     0.000458771         0.873184       -0.419434      -0.00144811     -0.00035747        0.0720981        0.210873
281718                  0.306407       -0.251479      0.000750285    -0.000392373         0.875523       -0.223008      0.000907038     0.000448314
                     0.000750594     -0.00044504         0.122408        0.188844     -0.000911446     0.000780536         0.874117        -0.41964
                        0.875799       -0.222972      -0.00092225     0.000860336        -0.372163      -0.0970653      -0.00140034     -0.00037929
                     0.000890186     0.000458213         0.873034       -0.419723      -0.00144811    -0.000356856        0.0722562         0.21086
281720                  0.306218       -0.251359      0.000750095    -0.000393237         0.875509         -0.2235      0.000907143     0.000447899
                     0.000749945    -0.000445809         0.122428         0.18888     -0.000910488     0.000781053         0.873967        -0.41993
                        0.875785       -0.223463     -0.000920982     0.000860628        -0.372053      -0.0966253      -0.00140042    -0.000378646
                     0.000890256     0.000457657         0.872885       -0.420011      -0.00144812    -0.000356243        0.0724143        0.210848
281722                  0.306029       -0.251238      0.000749904    -0.000394104         0.875495       -0.223992      0.000907248     0.000447483
                     0.000749297    -0.000446576         0.122447        0.188915      -0.00090953     0.000781569         0.873816       -0.420219
                        0.875771       -0.223955     -0.000919715     0.000860918        -0.371942      -0.0961858       -0.0014005    -0.000378002
                     0.000890326     0.000457101         0.872736         -0.4203      -0.00144812    -0.000355631        0.0725724        0.210835
281724                  0.305841       -0.251118      0.000749711    -0.000394973          0.87548       -0.224484      0.000907353     0.000447068
                     0.000748649    -0.000447341         0.122467        0.188951     -0.000908573     0.000782084         0.873666       -0.420508
                        0.875756       -0.224446     -0.000918449     0.000861206         -0.37183      -0.0957468      -0.00140058    -0.000377359
                     0.000890396     0.000456547         0.872586       -0.420588      -0.00144813    -0.000355019        0.0727306        0.210823
281726                  0.305653       -0.250998      0.000749517    -0.000395844         0.875465       -0.224975      0.000907459     0.000446653
                     0.000748002    -0.000448105         0.122487        0.188986     -0.000907617     0.000782598         0.873516       -0.420797
                        0.875741       -0.224937     -0.000917184     0.000861493        -0.371719      -0.0953083      -0.00140067    -0.000376716
                     0.000890467     0.000455993         0.872436       -0.420877      -0.00144813    -0.000354407        0.0728888         0.21081
281728                  0.305465       -0.250878      0.000749321    -0.000396717          0.87545       -0.225466      0.000907564     0.000446238
                     0.000747355    -0.000448868         0.122507        0.189022     -0.000906661     0.000783111         0.873365       -0.421086
                        0.875726       -0.225428      -0.00091592     0.000861779        -0.371607      -0.0948702      -0.00140075    -0.000376074
                     0.000890538     0.000455439         0.872286       -0.421165      -0.00144813    -0.000353796        0.0730471        0.210797
281730                  0.305278       -0.250758      0.000749123    -0.000397593         0.875434       -0.225957       0.00090767     0.000445823
                     0.000746708    -0.000449629         0.122527        0.189057     -0.000905705     0.000783622         0.873214       -0.421375
                         0.87571       -0.225919     -0.000914657     0.000862063        -0.371494      -0.0944327      -0.00140083    -0.000375433
                     0.000890609     0.000454887         0.872137       -0.421454      -0.00144814    -0.000353186        0.0732054        0.210784
281732                   0.30509       -0.250638      0.000748923    -0.000398469         0.875418       -0.226448      0.000907777     0.000445407
                     0.000746062    -0.000450389         0.122547        0.189093      -0.00090475     0.000784133         0.873063       -0.421664
                        0.875694       -0.226409     -0.000913395     0.000862345        -0.371382      -0.0939956      -0.00140091    -0.000374792
                     0.000890682     0.000454335         0.871987       -0.421742      -0.00144814    -0.000352575        0.0733637        0.210771
281734                  0.304903       -0.250517      0.000748722    -0.000399348         0.875402       -0.226939      0.000907883     0.000444992
                     0.000745416    -0.000451147         0.122567        0.189128     -0.000903796     0.000784643         0.872913       -0.421953
                        0.875677         -0.2269     -0.000912135     0.000862626        -0.371269      -0.0935589      -0.00140099    -0.000374151
                     0.000890754     0.000453783         0.871836        -0.42203      -0.00144815    -0.000351965        0.0735221        0.210758
281736                  0.304717       -0.250397      0.000748519    -0.000400228         0.875385       -0.227429       0.00090799     0.000444577
                     0.000744772    -0.000451905         0.122587        0.189164     -0.000902841     0.000785152         0.872762       -0.422242
                         0.87566        -0.22739     -0.000910876     0.000862905        -0.371155      -0.0931228      -0.00140108    -0.000373511
                     0.000890827     0.000453231         0.871686       -0.422318      -0.00144815    -0.000351356        0.0736805        0.210745
281738                   0.30453       -0.250277      0.000748314     -0.00040111         0.875368       -0.227919      0.000908097     0.000444162
                     0.000744127     -0.00045266         0.122607          0.1892     -0.000901888      0.00078566          0.87261       -0.422531
                        0.875643       -0.227879     -0.000909618     0.000863183        -0.371042      -0.0926871      -0.00140116    -0.000372872
                     0.000890901      0.00045268         0.871536       -0.422606      -0.00144815    -0.000350747        0.0738389        0.210731
281740                  0.304344       -0.250157      0.000748107    -0.000401993          0.87535       -0.228409      0.000908204     0.000443747
                     0.000743484    -0.000453414         0.122627        0.189235     -0.000900934     0.000786166         0.872459        -0.42282
                        0.875625       -0.228369     -0.000908361     0.000863459        -0.370928      -0.0922519      -0.00140124    -0.000372233
                     0.000890975     0.000452128         0.871386       -0.422894      -0.00144816    -0.000350138        0.0739974        0.210718
281742                  0.304158       -0.250037      0.000747898    -0.000402878         0.875332       -0.228899      0.000908312     0.000443332
                     0.000742842    -0.000454167         0.122647        0.189271     -0.000899982     0.000786672         0.872308       -0.423109
                        0.875607       -0.228858     -0.000907106     0.000863733        -0.370814      -0.0918171      -0.00140133    -0.000371595
                     0.000891049     0.000451576         0.871235       -0.423182      -0.00144816     -0.00034953        0.0741559        0.210704
281744                  0.303972       -0.249917      0.000747688    -0.000403764         0.875314       -0.229388       0.00090842     0.000442917
                     0.000742201    -0.000454918         0.122667        0.189306     -0.000899029     0.000787176         0.872156       -0.423398
                        0.875589       -0.229348     -0.000905852     0.000864006        -0.370699      -0.0913828      -0.00140141    -0.000370957
                     0.000891124     0.000451023         0.871085        -0.42347      -0.00144817    -0.000348923        0.0743145        0.210691
281746                  0.303787       -0.249797      0.000747475    -0.000404651         0.875295       -0.229878      0.000908528     0.000442501
                     0.000741563    -0.000455666         0.122687        0.189342     -0.000898077     0.000787679         0.872005       -0.423686
                         0.87557       -0.229837     -0.000904599     0.000864277        -0.370584       -0.090949      -0.00140149    -0.000370321
                     0.000891199      0.00045047         0.870934       -0.423758      -0.00144817    -0.000348315         0.074473        0.210677
281748                  0.303602       -0.249677       0.00074726    -0.000405539         0.875276       -0.230367      0.000908637     0.000442086
                     0.000740927    -0.000456412         0.122707        0.189378     -0.000897125     0.000788181         0.871853       -0.423975
                        0.875551       -0.230325     -0.000903348     0.000864546        -0.370469      -0.0905157      -0.00140158    -0.000369685
                     0.000891274     0.000449914         0.870783       -0.424046      -0.00144817    -0.000347709        0.0746317        0.210663
281750                  0.303417       -0.249557      0.000747042    -0.000406427         0.875257       -0.230856      0.000908748     0.000441669
                     0.000740296    -0.000457154         0.122727        0.189414     -0.000896174     0.000788681         0.871701       -0.424264
                        0.875531       -0.230814     -0.000902098     0.000864814        -0.370353      -0.0900829      -0.00140167     -0.00036905
                     0.000891349     0.000449356         0.870632       -0.424334      -0.00144817    -0.000347102        0.0747903        0.210649
281752                  0.303232       -0.249437      0.000746821    -0.000407315         0.875237       -0.231344      0.000908856     0.000441242
                      0.00073967    -0.000457888         0.122747        0.189449     -0.000895222     0.000789179         0.871549       -0.424553
                        0.875511       -0.231303     -0.000900848      0.00086508        -0.370238      -0.0896505      -0.00140176    -0.000368408
                     0.000891424     0.000448794         0.870481       -0.424621      -0.00144817    -0.000346494         0.074949        0.210635
281754                  0.303048       -0.249317        0.0007466    -0.000408199         0.875216       -0.231833      0.000908954     0.000440839
                     0.000739051    -0.000458608         0.122767        0.189485     -0.000894269     0.000789675         0.871397       -0.424841
                        0.875491       -0.231791       -0.0008996     0.000865344        -0.370121      -0.0892186      -0.00140183    -0.000367768
                     0.000891498     0.000448224          0.87033       -0.424909      -0.00144817    -0.000345877        0.0751077        0.210621
281756                  0.302864       -0.249197      0.000746384    -0.000409083         0.875196       -0.232321      0.000909067     0.000440426
                     0.000738432    -0.000459298         0.122787        0.189521     -0.000893314     0.000790168         0.871245        -0.42513
                        0.875471        -0.23228     -0.000898353     0.000865606        -0.370005      -0.0887871      -0.00140191    -0.000367137
                     0.000891568     0.000447641         0.870179       -0.425197      -0.00144818    -0.000345252        0.0752665        0.210606
281758                   0.30268       -0.249077      0.000746169    -0.000409974         0.875175       -0.232809      0.000909178     0.000440011
                     0.000737778    -0.000459946         0.122807        0.189557     -0.000892353     0.000790661         0.871093       -0.425418
                        0.875453       -0.232769     -0.000897107     0.000865865        -0.369888      -0.0883561        -0.001402    -0.000366504
                     0.000891623     0.000447028         0.870028       -0.425484      -0.00144821    -0.000344649        0.0754253        0.210592
281760                  0.302496       -0.248958      0.000745949     -0.00041087         0.875153       -0.233296      0.000909288     0.000439596
                     0.000737037    -0.000460608         0.122827        0.189592     -0.000891388     0.000791162          0.87094       -0.425707
                        0.875435       -0.233251     -0.000895861     0.000866122        -0.369771      -0.0879256      -0.00140209    -0.000365872
                       0.0008916     0.000446351         0.869876       -0.425772      -0.00144822     -0.00034405        0.0755841        0.210577
281762                  0.302313       -0.248838      0.000745724    -0.000411766         0.875132       -0.233784      0.000909399     0.000439181
                     0.000736279    -0.000461365         0.122847        0.189628     -0.000890428     0.000791669         0.870788       -0.425995
                        0.875409       -0.233735     -0.000894616     0.000866376        -0.369654      -0.0874955      -0.00140217     -0.00036524
