! TOUCHSTONE file generated by CST MICROWAVE STUDIO
! Date and time: Wed Oct 15 17:31:52 2025
! Project name: Teste_Macro_Metasurface_Nanopilar.cst
! Parameters = {H=600; L_x=140; L_y=115; Lambda=1064; Max_L=200; Min_L=70; PathPara=1; Phi=0; Step_L=10; Theta=0; p=520; phaseX=180; phaseY=0}
! Header version: 2018
! Port assignment regex: !\s*Touchstone port\s*([0-9]+)\s*=\s*(CST MWS port|CST DS port)\s*([0-9]+|Zmin|Zmax)\s*\(\"(.*)\"\)(\s*mode\s*([0-9]+))?.*
! Touchstone port assignment:
! Touchstone port 1 = CST MWS port Zmax ("") mode 1
! Touchstone port 2 = CST MWS port Zmax ("") mode 2
! Touchstone port 3 = CST MWS port Zmin ("") mode 1
! Touchstone port 4 = CST MWS port Zmin ("") mode 2
! S-Parameters are not renormalized. Each port impedance will be approximated by the real part at minimum frequency. The values are described via the [Reference] keyword.
! Default impedance is overridden by [Reference]
[Version] 2.0
# GHz S RI R 376.73
[Number of Ports] 4
[Reference]
376.73 376.73 259.888 259.888 
[Number of Frequencies] 51
[Network Data]
281700                 0.0826671      -0.0387356     -0.000436834     0.000294013         0.160457        0.973357     -3.46161e-06     0.000214061
                    -0.000423014     0.000305117        0.0587802        0.123828     -0.000105819     9.97114e-06         0.978618        0.112994
                        0.159867         0.97362     -8.87045e-05     2.29036e-05        0.0885633       0.0122133     -6.69954e-05     0.000352972
                    -1.59028e-05     7.28981e-05         0.978438        0.112865     -0.000200134     0.000404625       -0.0843174         0.10787
281702                 0.0826447      -0.0387257     -0.000436807     0.000294259         0.160849        0.973294     -3.23177e-06     0.000213979
                    -0.000423005     0.000305358        0.0587975        0.123841     -0.000105781     9.92597e-06         0.978653        0.112666
                        0.160259        0.973558     -8.85904e-05     2.29088e-05        0.0885483       0.0121398     -6.68016e-05     0.000353022
                    -1.58289e-05     7.29095e-05         0.978473        0.112537     -0.000200214     0.000404695       -0.0842651        0.107935
281704                 0.0826222      -0.0387159      -0.00043678     0.000294505          0.16124        0.973231     -3.00181e-06     0.000213896
                    -0.000422997     0.000305599        0.0588149        0.123854     -0.000105743     9.88095e-06         0.978688        0.112338
                        0.160652        0.973496     -8.84766e-05     2.29139e-05        0.0885332       0.0120663     -6.66075e-05     0.000353071
                    -1.57549e-05     7.29207e-05         0.978509        0.112209     -0.000200293     0.000404765       -0.0842128           0.108
281706                 0.0825997       -0.038706     -0.000436753     0.000294751         0.161632        0.973168     -2.77171e-06     0.000213812
                    -0.000422988      0.00030584        0.0588323        0.123867     -0.000105705     9.83608e-06         0.978723         0.11201
                        0.161044        0.973434      -8.8363e-05     2.29188e-05        0.0885181       0.0119928     -6.64133e-05     0.000353119
                    -1.56809e-05     7.29316e-05         0.978544        0.111881     -0.000200373     0.000404836       -0.0841604        0.108066
281708                 0.0825773      -0.0386962     -0.000436725     0.000294997         0.162024        0.973105     -2.54148e-06     0.000213728
                    -0.000422979     0.000306081        0.0588497        0.123881     -0.000105667     9.79137e-06         0.978758        0.111682
                        0.161436        0.973371     -8.82497e-05     2.29236e-05         0.088503       0.0119193     -6.62188e-05     0.000353168
                    -1.56069e-05     7.29423e-05          0.97858        0.111553     -0.000200452     0.000404908       -0.0841079        0.108131
281710                 0.0825548      -0.0386863     -0.000436697     0.000295243         0.162416        0.973041     -2.31111e-06     0.000213644
                     -0.00042297     0.000306322         0.058867        0.123894      -0.00010563     9.74679e-06         0.978793        0.111354
                        0.161828        0.973308     -8.81366e-05     2.29283e-05        0.0884878       0.0118459     -6.60242e-05     0.000353217
                    -1.55328e-05     7.29528e-05         0.978615        0.111224     -0.000200531     0.000404981       -0.0840554        0.108196
281712                 0.0825324      -0.0386765     -0.000436669     0.000295489         0.162808        0.972978     -2.08061e-06     0.000213559
                    -0.000422961     0.000306563        0.0588844        0.123907     -0.000105593     9.70237e-06         0.978828        0.111025
                         0.16222        0.973246     -8.80238e-05      2.2933e-05        0.0884725       0.0117725     -6.58293e-05     0.000353265
                    -1.54586e-05     7.29631e-05          0.97865        0.110896      -0.00020061     0.000405054       -0.0840028        0.108261
281714                   0.08251      -0.0386666      -0.00043664     0.000295736         0.163199        0.972914     -1.84997e-06     0.000213473
                    -0.000422951     0.000306804        0.0589018         0.12392     -0.000105556     9.65809e-06         0.978862        0.110697
                        0.162612        0.973183     -8.79113e-05     2.29375e-05        0.0884571       0.0116991     -6.56342e-05     0.000353313
                    -1.53844e-05     7.29731e-05         0.978685        0.110568     -0.000200689     0.000405129       -0.0839502        0.108326
281716                 0.0824875      -0.0386567     -0.000436611     0.000295982         0.163591         0.97285      -1.6192e-06     0.000213387
                    -0.000422942     0.000307045        0.0589191        0.123933     -0.000105519     9.61397e-06         0.978897        0.110369
                        0.163004        0.973119     -8.77989e-05      2.2942e-05        0.0884417       0.0116257     -6.54389e-05     0.000353361
                    -1.53101e-05     7.29829e-05          0.97872         0.11024     -0.000200768     0.000405204       -0.0838976        0.108391
281718                 0.0824651      -0.0386468     -0.000436582     0.000296228         0.163983        0.972786     -1.38828e-06       0.0002133
                    -0.000422932     0.000307286        0.0589365        0.123947     -0.000105482     9.56998e-06         0.978931        0.110041
                        0.163396        0.973056     -8.76869e-05     2.29465e-05        0.0884263       0.0115524     -6.52433e-05     0.000353409
                    -1.52357e-05     7.29924e-05         0.978755        0.109912     -0.000200846      0.00040528       -0.0838449        0.108456
281720                 0.0824427      -0.0386369     -0.000436553     0.000296474         0.164374        0.972721     -1.15722e-06     0.000213213
                    -0.000422922     0.000307527        0.0589539         0.12396     -0.000105445     9.52615e-06         0.978966        0.109713
                        0.163788        0.972992      -8.7575e-05     2.29509e-05        0.0884108        0.011479     -6.50476e-05     0.000353457
                    -1.51613e-05     7.30018e-05          0.97879        0.109584     -0.000200925     0.000405357       -0.0837921        0.108521
281722                 0.0824202       -0.038627     -0.000436523     0.000296721         0.164766        0.972657     -9.26016e-07     0.000213125
                    -0.000422912     0.000307768        0.0589713        0.123973     -0.000105409     9.48246e-06            0.979        0.109384
                         0.16418        0.972929     -8.74633e-05     2.29554e-05        0.0883952       0.0114057     -6.48516e-05     0.000353504
                    -1.50869e-05     7.30109e-05         0.978824        0.109256     -0.000201003     0.000405435       -0.0837394        0.108586
281724                 0.0823978      -0.0386171     -0.000436493     0.000296967         0.165157        0.972592     -6.94669e-07     0.000213037
                    -0.000422902     0.000308009        0.0589886        0.123986     -0.000105372     9.43892e-06         0.979034        0.109056
                        0.164572        0.972865     -8.73519e-05     2.29599e-05        0.0883795       0.0113325     -6.46554e-05     0.000353552
                    -1.50123e-05     7.30198e-05         0.978859        0.108927     -0.000201082     0.000405514       -0.0836865        0.108651
281726                 0.0823754      -0.0386072     -0.000436463     0.000297213         0.165549        0.972528     -4.63176e-07     0.000212947
                    -0.000422891      0.00030825         0.059006        0.123999     -0.000105336     9.39553e-06         0.979068        0.108728
                        0.164964        0.972801     -8.72407e-05     2.29644e-05        0.0883638       0.0112592      -6.4459e-05     0.000353599
                    -1.49378e-05     7.30284e-05         0.978893        0.108599      -0.00020116     0.000405593       -0.0836336        0.108716
281728                  0.082353      -0.0385972     -0.000436432      0.00029746          0.16594        0.972463     -2.31537e-07     0.000212858
                    -0.000422881     0.000308491        0.0590234        0.124013       -0.0001053     9.35228e-06         0.979102          0.1084
                        0.165355        0.972737     -8.71296e-05     2.29689e-05        0.0883481        0.011186     -6.42623e-05     0.000353646
                    -1.48631e-05     7.30369e-05         0.978927        0.108271     -0.000201238     0.000405673       -0.0835807        0.108781
281730                 0.0823306      -0.0385873     -0.000436401     0.000297707         0.166332        0.972398       2.4984e-10     0.000212768
                     -0.00042287     0.000308732        0.0590408        0.124026     -0.000105264     9.30918e-06         0.979136        0.108072
                        0.165747        0.972673     -8.70187e-05     2.29735e-05        0.0883323       0.0111128     -6.40654e-05     0.000353693
                    -1.47885e-05     7.30451e-05         0.978962        0.107943     -0.000201316     0.000405754       -0.0835277        0.108846
281732                 0.0823082      -0.0385773      -0.00043637     0.000297953         0.166723        0.972332      2.32186e-07     0.000212677
                    -0.000422859     0.000308973        0.0590581        0.124039     -0.000105228     9.26622e-06         0.979169        0.107743
                        0.166139        0.972608      -8.6908e-05     2.29782e-05        0.0883164       0.0110396     -6.38683e-05     0.000353739
                    -1.47137e-05     7.30531e-05         0.978996        0.107615     -0.000201394     0.000405836       -0.0834746         0.10891
281734                 0.0822858      -0.0385674     -0.000436338     0.000298201         0.167115        0.972267      4.64271e-07     0.000212586
                    -0.000422848     0.000309214        0.0590755        0.124052     -0.000105193     9.22341e-06         0.979203        0.107415
                        0.166531        0.972543     -8.67975e-05     2.29831e-05        0.0883005       0.0109665      -6.3671e-05     0.000353786
                    -1.46389e-05      7.3061e-05          0.97903        0.107286     -0.000201472     0.000405919       -0.0834216        0.108975
281736                 0.0822634      -0.0385574     -0.000436306     0.000298448         0.167506        0.972201      6.96507e-07     0.000212494
                    -0.000422836     0.000309455        0.0590929        0.124065     -0.000105157     9.18075e-06         0.979236        0.107087
                        0.166922        0.972479     -8.66871e-05      2.2988e-05        0.0882845       0.0108933     -6.34734e-05     0.000353832
                    -1.45641e-05     7.30685e-05         0.979063        0.106958      -0.00020155     0.000406003       -0.0833684         0.10904
281738                  0.082241      -0.0385474     -0.000436272     0.000298695         0.167898        0.972136      9.28894e-07     0.000212402
                    -0.000422825     0.000309696        0.0591103        0.124078     -0.000105122     9.13823e-06         0.979269        0.106759
                        0.167314        0.972414     -8.65769e-05      2.2993e-05        0.0882684       0.0108202     -6.32756e-05     0.000353878
                    -1.44892e-05     7.30759e-05         0.979097         0.10663     -0.000201627     0.000406087       -0.0833152        0.109105
281740                 0.0822187      -0.0385374     -0.000436238     0.000298943         0.168289         0.97207      1.16143e-06     0.000212309
                    -0.000422813     0.000309937        0.0591277        0.124092     -0.000105087     9.09585e-06         0.979303        0.106431
                        0.167706        0.972349     -8.64668e-05     2.29982e-05        0.0882523       0.0107471     -6.30775e-05     0.000353924
                    -1.44143e-05     7.30831e-05         0.979131        0.106302     -0.000201705     0.000406172        -0.083262        0.109169
281742                 0.0821963      -0.0385275     -0.000436202      0.00029919          0.16868        0.972004      1.39412e-06     0.000212215
                    -0.000422801     0.000310178         0.059145        0.124105     -0.000105051     9.05362e-06         0.979336        0.106102
                        0.168097        0.972283     -8.63568e-05     2.30035e-05        0.0882362       0.0106741     -6.28792e-05      0.00035397
                    -1.43393e-05     7.30901e-05         0.979164        0.105974     -0.000201782     0.000406258       -0.0832087        0.109234
281744                 0.0821739      -0.0385175     -0.000436165     0.000299436         0.169071        0.971938      1.62697e-06     0.000212121
                    -0.000422789     0.000310419        0.0591624        0.124118     -0.000105016     9.01154e-06         0.979369        0.105774
                        0.168489        0.972218     -8.62469e-05      2.3009e-05        0.0882199        0.010601     -6.26807e-05     0.000354015
                    -1.42642e-05     7.30968e-05         0.979198        0.105645      -0.00020186     0.000406345       -0.0831554        0.109299
281746                 0.0821516      -0.0385074     -0.000436128     0.000299679         0.169463        0.971871      1.85996e-06     0.000212026
                    -0.000422777     0.000310661        0.0591798        0.124131     -0.000104982      8.9696e-06         0.979402        0.105446
                        0.168881        0.972152     -8.61372e-05     2.30146e-05        0.0882036        0.010528     -6.24819e-05      0.00035406
                    -1.41891e-05     7.31034e-05         0.979231        0.105317     -0.000201937     0.000406433        -0.083102        0.109363
281748                 0.0821292      -0.0384974     -0.000436093     0.000299922         0.169854        0.971805       2.0931e-06     0.000211931
                    -0.000422765     0.000310902        0.0591972        0.124144     -0.000104947      8.9278e-06         0.979434        0.105118
                        0.169272        0.972087     -8.60276e-05     2.30203e-05        0.0881873        0.010455      -6.2283e-05     0.000354105
                     -1.4114e-05     7.31097e-05         0.979264        0.104989     -0.000202014     0.000406522       -0.0830486        0.109428
281750                 0.0821068      -0.0384874     -0.000436058     0.000300165         0.170245        0.971738       2.3264e-06     0.000211835
                    -0.000422752     0.000311143        0.0592146        0.124157     -0.000104912     8.88615e-06         0.979467        0.104789
                        0.169664        0.972021     -8.59182e-05     2.30261e-05        0.0881709       0.0103821     -6.20837e-05      0.00035415
                    -1.40388e-05     7.31158e-05         0.979297        0.104661     -0.000202091     0.000406611       -0.0829951        0.109493
281752                 0.0820845      -0.0384774     -0.000436024     0.000300409         0.170636        0.971671      2.55984e-06     0.000211739
                    -0.000422739     0.000311384         0.059232        0.124171     -0.000104878     8.84465e-06           0.9795        0.104461
                        0.170055        0.971955     -8.58089e-05      2.3032e-05        0.0881544       0.0103091     -6.18843e-05     0.000354195
                    -1.39636e-05     7.31218e-05          0.97933        0.104333     -0.000202168     0.000406701       -0.0829416        0.109557
281754                 0.0820621      -0.0384673      -0.00043599     0.000300654         0.171027        0.971604      2.79342e-06     0.000211642
                    -0.000422726     0.000311625        0.0592493        0.124184     -0.000104844     8.80329e-06         0.979532        0.104133
                        0.170447        0.971889     -8.56997e-05     2.30381e-05        0.0881379       0.0102362     -6.16846e-05     0.000354239
                    -1.38883e-05     7.31275e-05         0.979363        0.104004     -0.000202245     0.000406792        -0.082888        0.109622
281756                 0.0820398      -0.0384573     -0.000435955     0.000300899         0.171418        0.971537      3.02715e-06     0.000211544
                    -0.000422713     0.000311866        0.0592667        0.124197      -0.00010481     8.76207e-06         0.979564        0.103805
                        0.170838        0.971822     -8.55907e-05     2.30442e-05        0.0881213       0.0101633     -6.14847e-05     0.000354283
                     -1.3813e-05      7.3133e-05         0.979396        0.103676     -0.000202321     0.000406884       -0.0828344        0.109686
281758                 0.0820175      -0.0384472     -0.000435919     0.000301144         0.171809         0.97147      3.26102e-06     0.000211446
                      -0.0004227     0.000312107        0.0592841         0.12421     -0.000104776       8.721e-06         0.979596        0.103476
                        0.171229        0.971756     -8.54819e-05     2.30504e-05        0.0881047       0.0100905     -6.12847e-05     0.000354327
                    -1.37376e-05     7.31384e-05         0.979428        0.103348     -0.000202398     0.000406977       -0.0827807        0.109751
281760                 0.0819951      -0.0384372     -0.000435883      0.00030139           0.1722        0.971403      3.49502e-06     0.000211348
                    -0.000422687     0.000312348        0.0593015        0.124223     -0.000104742     8.68008e-06         0.979629        0.103148
                        0.171621        0.971689     -8.53732e-05     2.30567e-05         0.088088       0.0100176     -6.10844e-05     0.000354371
                    -1.36622e-05     7.31435e-05         0.979461         0.10302     -0.000202474     0.000407071        -0.082727        0.109815
281762                 0.0819728      -0.0384271     -0.000435847     0.000301635         0.172591        0.971335      3.72915e-06     0.000211249
                    -0.000422673     0.000312589        0.0593189        0.124236     -0.000104708      8.6393e-06         0.979661         0.10282
                        0.172012        0.971622     -8.52647e-05      2.3063e-05        0.0880712      0.00994483     -6.08839e-05     0.000354414
