! TOUCHSTONE file generated by CST MICROWAVE STUDIO
! Date and time: Wed Oct 15 17:32:55 2025
! Project name: Teste_Macro_Metasurface_Nanopilar.cst
! Parameters = {H=600; L_x=160; L_y=70; Lambda=1064; Max_L=200; Min_L=70; PathPara=1; Phi=0; Step_L=10; Theta=0; p=520; phaseX=180; phaseY=0}
! Header version: 2018
! Port assignment regex: !\s*Touchstone port\s*([0-9]+)\s*=\s*(CST MWS port|CST DS port)\s*([0-9]+|Zmin|Zmax)\s*\(\"(.*)\"\)(\s*mode\s*([0-9]+))?.*
! Touchstone port assignment:
! Touchstone port 1 = CST MWS port Zmax ("") mode 1
! Touchstone port 2 = CST MWS port Zmax ("") mode 2
! Touchstone port 3 = CST MWS port Zmin ("") mode 1
! Touchstone port 4 = CST MWS port Zmin ("") mode 2
! S-Parameters are not renormalized. Each port impedance will be approximated by the real part at minimum frequency. The values are described via the [Reference] keyword.
! Default impedance is overridden by [Reference]
[Version] 2.0
# GHz S RI R 376.73
[Number of Ports] 4
[Reference]
376.73 376.73 259.888 259.888 
[Number of Frequencies] 51
[Network Data]
281700                 0.0179671       -0.105005     -0.000284805     5.49087e-05       -0.0529052       -0.992612      8.68192e-05    -7.31075e-06
                    -0.000180337     4.89602e-05       -0.0645606       -0.100757     -7.82794e-05    -2.10186e-05         0.179044         0.96736
                      -0.0527357       -0.992452      6.83679e-05     6.61101e-05        0.0289081        0.102632      0.000158765     -3.6826e-05
                     3.09501e-05     5.37819e-05         0.179297        0.967144      0.000234209    -7.48831e-05       -0.0268643        0.118494
281702                 0.0179548       -0.105003     -0.000284813     5.49747e-05       -0.0531463       -0.992599      8.68002e-05    -7.31948e-06
                    -0.000180161     4.89311e-05       -0.0645878       -0.100712     -7.82495e-05    -2.09814e-05         0.179427        0.967292
                      -0.0529755       -0.992441       6.8309e-05     6.60713e-05        0.0289455        0.102618      0.000158762    -3.69403e-05
                     3.10596e-05     5.38644e-05          0.17968        0.967075      0.000234215    -7.49887e-05       -0.0268122        0.118483
281704                 0.0179425       -0.105001     -0.000284822     5.50405e-05       -0.0533878       -0.992587      8.67811e-05    -7.32821e-06
                    -0.000179986     4.89021e-05        -0.064615       -0.100668     -7.82218e-05    -2.09449e-05          0.17981        0.967223
                      -0.0532153        -0.99243      6.82501e-05     6.60326e-05         0.028983        0.102603      0.000158759    -3.70547e-05
                     3.11686e-05     5.39469e-05         0.180063        0.967007      0.000234222    -7.51074e-05       -0.0267602        0.118472
281706                 0.0179303       -0.104999      -0.00028483     5.51062e-05       -0.0536278       -0.992574       8.6762e-05    -7.33694e-06
                    -0.000179812     4.88732e-05       -0.0646421       -0.100623      -7.8196e-05    -2.09119e-05         0.180193        0.967154
                      -0.0534552       -0.992419      6.81913e-05      6.5994e-05        0.0290204        0.102589      0.000158755    -3.71691e-05
                     3.12771e-05     5.40292e-05         0.180447        0.966938      0.000234234    -7.52288e-05       -0.0267082        0.118461
281708                  0.017918       -0.104998     -0.000284839     5.51718e-05       -0.0538692       -0.992561      8.67429e-05    -7.34568e-06
                    -0.000179638     4.88444e-05       -0.0646693       -0.100578     -7.81676e-05    -2.08836e-05         0.180576        0.967085
                       -0.053695       -0.992408      6.81326e-05     6.59556e-05        0.0290579        0.102574      0.000158752    -3.72835e-05
                     3.13851e-05     5.41114e-05          0.18083        0.966869      0.000234249    -7.53492e-05       -0.0266562        0.118449
281710                 0.0179057       -0.104996     -0.000284847     5.52372e-05       -0.0541103       -0.992549      8.67238e-05    -7.35441e-06
                    -0.000179465     4.88157e-05       -0.0646965       -0.100533     -7.81342e-05    -2.08549e-05         0.180959        0.967016
                      -0.0539348       -0.992397      6.80739e-05     6.59173e-05        0.0290954         0.10256      0.000158749     -3.7398e-05
                     3.14927e-05     5.41936e-05         0.181213          0.9668      0.000234265    -7.54685e-05       -0.0266042        0.118438
281712                 0.0178935       -0.104994     -0.000284856     5.53024e-05       -0.0543514       -0.992536      8.67046e-05    -7.36315e-06
                    -0.000179293     4.87871e-05       -0.0647236       -0.100488     -7.80994e-05    -2.08231e-05         0.181342        0.966947
                      -0.0541747       -0.992385      6.80154e-05     6.58792e-05        0.0291328        0.102545      0.000158746    -3.75124e-05
                     3.15998e-05     5.42757e-05         0.181597         0.96673       0.00023428     -7.5587e-05       -0.0265523        0.118427
281714                 0.0178812       -0.104993     -0.000284865     5.53676e-05       -0.0545925       -0.992523      8.66854e-05    -7.37189e-06
                    -0.000179121     4.87586e-05       -0.0647507       -0.100444     -7.80653e-05    -2.07895e-05         0.181725        0.966878
                      -0.0544145       -0.992374      6.79568e-05     6.58412e-05        0.0291702        0.102531      0.000158743    -3.76269e-05
                     3.17064e-05     5.43577e-05          0.18198        0.966661      0.000234296    -7.57048e-05       -0.0265004        0.118416
281716                 0.0178689       -0.104991     -0.000284874     5.54325e-05       -0.0548335        -0.99251      8.66661e-05    -7.38063e-06
                     -0.00017895     4.87301e-05       -0.0647778       -0.100399     -7.80322e-05    -2.07553e-05         0.182107        0.966808
                      -0.0546544       -0.992363      6.78984e-05     6.58034e-05        0.0292077        0.102516      0.000158739    -3.77414e-05
                     3.18125e-05     5.44396e-05         0.182363        0.966591      0.000234311    -7.58221e-05       -0.0264485        0.118405
281718                 0.0178567       -0.104989     -0.000284883     5.54974e-05       -0.0550746       -0.992497      8.66468e-05    -7.38938e-06
                    -0.000178779     4.87018e-05       -0.0648049       -0.100354     -7.79999e-05    -2.07209e-05          0.18249        0.966738
                      -0.0548943       -0.992351        6.784e-05     6.57657e-05        0.0292451        0.102502      0.000158736    -3.78559e-05
                     3.19183e-05     5.45215e-05         0.182746        0.966521      0.000234326    -7.59389e-05       -0.0263966        0.118393
281720                 0.0178444       -0.104987     -0.000284893     5.55621e-05       -0.0553156       -0.992484      8.66275e-05    -7.39813e-06
                    -0.000178609     4.86736e-05        -0.064832       -0.100309     -7.79681e-05    -2.06865e-05         0.182873        0.966668
                      -0.0551342       -0.992339      6.77816e-05     6.57281e-05        0.0292825        0.102487      0.000158733    -3.79704e-05
                     3.20236e-05     5.46032e-05         0.183129        0.966451      0.000234341    -7.60554e-05       -0.0263448        0.118382
281722                 0.0178322       -0.104986     -0.000284902     5.56266e-05       -0.0555566       -0.992471      8.66081e-05    -7.40688e-06
                     -0.00017844     4.86454e-05       -0.0648591       -0.100264     -7.79367e-05    -2.06523e-05         0.183256        0.966598
                      -0.0553741       -0.992328      6.77233e-05     6.56907e-05        0.0293199        0.102473       0.00015873     -3.8085e-05
                     3.21284e-05      5.4685e-05         0.183513        0.966381      0.000234355    -7.61716e-05        -0.026293        0.118371
281724                 0.0178199       -0.104984     -0.000284911      5.5691e-05       -0.0557977       -0.992458      8.65887e-05    -7.41563e-06
                    -0.000178271     4.86174e-05       -0.0648862       -0.100219     -7.79056e-05    -2.06182e-05         0.183638        0.966528
                       -0.055614       -0.992316      6.76651e-05     6.56535e-05        0.0293573        0.102458      0.000158727    -3.81996e-05
                     3.22329e-05     5.47666e-05         0.183896        0.966311      0.000234369    -7.62874e-05       -0.0262412        0.118359
281726                 0.0178076       -0.104982     -0.000284921     5.57553e-05       -0.0560387       -0.992444      8.65692e-05    -7.42438e-06
                    -0.000178103     4.85894e-05       -0.0649132       -0.100175     -7.78748e-05    -2.05842e-05         0.184021        0.966458
                      -0.0558539       -0.992304      6.76069e-05     6.56163e-05        0.0293947        0.102444      0.000158724    -3.83142e-05
                      3.2337e-05     5.48482e-05         0.184279        0.966241      0.000234383    -7.64029e-05       -0.0261895        0.118348
281728                 0.0177954       -0.104981     -0.000284931     5.58194e-05       -0.0562797       -0.992431      8.65498e-05    -7.43314e-06
                    -0.000177935     4.85615e-05       -0.0649403        -0.10013     -7.78442e-05    -2.05504e-05         0.184403        0.966387
                      -0.0560938       -0.992292      6.75488e-05     6.55794e-05        0.0294321        0.102429      0.000158721    -3.84288e-05
                     3.24407e-05     5.49298e-05         0.184662         0.96617      0.000234396    -7.65182e-05       -0.0261377        0.118337
281730                 0.0177831       -0.104979      -0.00028494     5.58834e-05       -0.0565207       -0.992418      8.65302e-05    -7.44191e-06
                    -0.000177768     4.85338e-05       -0.0649673       -0.100085     -7.78139e-05    -2.05167e-05         0.184786        0.966317
                      -0.0563338        -0.99228      6.74907e-05     6.55426e-05        0.0294695        0.102414      0.000158718    -3.85435e-05
                      3.2544e-05     5.50112e-05         0.185045        0.966099      0.000234409    -7.66332e-05        -0.026086        0.118325
281732                 0.0177708       -0.104977      -0.00028495     5.59473e-05       -0.0567618       -0.992404      8.65107e-05    -7.45067e-06
                    -0.000177602      4.8506e-05       -0.0649943        -0.10004     -7.77837e-05    -2.04831e-05         0.185169        0.966246
                      -0.0565737       -0.992268      6.74326e-05     6.55059e-05        0.0295068          0.1024      0.000158715    -3.86581e-05
                     3.26469e-05     5.50926e-05         0.185428        0.966029      0.000234421    -7.67479e-05       -0.0260344        0.118314
281734                 0.0177586       -0.104975      -0.00028496      5.6011e-05       -0.0570028       -0.992391      8.64911e-05    -7.45944e-06
                    -0.000177436     4.84784e-05       -0.0650213      -0.0999951     -7.77538e-05    -2.04497e-05         0.185551        0.966175
                      -0.0568136       -0.992256      6.73746e-05     6.54694e-05        0.0295442        0.102385      0.000158712    -3.87728e-05
                     3.27494e-05     5.51738e-05         0.185811        0.965958      0.000234433    -7.68623e-05       -0.0259827        0.118302
281736                 0.0177463       -0.104974      -0.00028497     5.60746e-05       -0.0572438       -0.992377      8.64715e-05    -7.46821e-06
                    -0.000177271     4.84508e-05       -0.0650483      -0.0999502     -7.77241e-05    -2.04163e-05         0.185934        0.966104
                      -0.0570536       -0.992244      6.73166e-05      6.5433e-05        0.0295816         0.10237      0.000158709    -3.88876e-05
                     3.28515e-05      5.5255e-05         0.186194        0.965887      0.000234445    -7.69765e-05       -0.0259311        0.118291
281738                 0.0177341       -0.104972      -0.00028498     5.61381e-05       -0.0574848       -0.992364      8.64518e-05    -7.47699e-06
                    -0.000177106     4.84233e-05       -0.0650753      -0.0999053     -7.76945e-05     -2.0383e-05         0.186316        0.966033
                      -0.0572936       -0.992232      6.72586e-05     6.53968e-05        0.0296189        0.102356      0.000158706    -3.90023e-05
                     3.29532e-05     5.53361e-05         0.186577        0.965815      0.000234456    -7.70905e-05       -0.0258795         0.11828
281740                 0.0177218        -0.10497      -0.00028499     5.62014e-05       -0.0577258        -0.99235      8.64321e-05    -7.48577e-06
                    -0.000176942     4.83959e-05       -0.0651022      -0.0998604     -7.76651e-05    -2.03499e-05         0.186698        0.965961
                      -0.0575335        -0.99222      6.72007e-05     6.53607e-05        0.0296563        0.102341      0.000158703    -3.91171e-05
                     3.30546e-05     5.54172e-05         0.186959        0.965744      0.000234467    -7.72042e-05       -0.0258279        0.118268
281742                 0.0177095       -0.104968        -0.000285     5.62646e-05       -0.0579668       -0.992336      8.64124e-05    -7.49455e-06
                    -0.000176779     4.83686e-05       -0.0651292      -0.0998155     -7.76359e-05    -2.03168e-05         0.187081         0.96589
                      -0.0577735       -0.992207      6.71427e-05     6.53248e-05        0.0296936        0.102326        0.0001587    -3.92318e-05
                     3.31555e-05     5.54982e-05         0.187342        0.965672      0.000234478    -7.73176e-05       -0.0257764        0.118257
281744                 0.0176973       -0.104967      -0.00028501     5.63277e-05       -0.0582077       -0.992323      8.63926e-05    -7.50334e-06
                    -0.000176616     4.83414e-05       -0.0651561      -0.0997706     -7.76069e-05    -2.02838e-05         0.187463        0.965818
                      -0.0580135       -0.992195      6.70848e-05      6.5289e-05        0.0297309        0.102312      0.000158697    -3.93467e-05
                     3.32561e-05     5.55791e-05         0.187725          0.9656      0.000234489    -7.74308e-05       -0.0257248        0.118245
281746                  0.017685       -0.104965     -0.000285021     5.63906e-05       -0.0584487       -0.992309      8.63728e-05    -7.51213e-06
                    -0.000176454     4.83142e-05        -0.065183      -0.0997257     -7.75781e-05    -2.02509e-05         0.187846        0.965746
                      -0.0582535       -0.992183      6.70269e-05     6.52534e-05        0.0297682        0.102297      0.000158694    -3.94615e-05
                     3.33563e-05     5.56601e-05         0.188108        0.965529      0.000234499    -7.75437e-05       -0.0256733        0.118234
281748                 0.0176728       -0.104963     -0.000285031     5.64535e-05       -0.0586897       -0.992295       8.6353e-05    -7.52092e-06
                    -0.000176292     4.82872e-05       -0.0652099      -0.0996807     -7.75494e-05     -2.0218e-05         0.188228        0.965674
                      -0.0584935        -0.99217       6.6969e-05      6.5218e-05        0.0298056        0.102282      0.000158691    -3.95764e-05
                     3.34561e-05     5.57409e-05         0.188491        0.965456      0.000234509    -7.76564e-05       -0.0256219        0.118222
281750                 0.0176605       -0.104961     -0.000285041     5.65162e-05       -0.0589307       -0.992281      8.63331e-05     -7.5297e-06
                    -0.000176131     4.82602e-05       -0.0652368      -0.0996358     -7.75209e-05    -2.01852e-05          0.18861        0.965602
                      -0.0587335       -0.992158       6.6911e-05     6.51827e-05        0.0298429        0.102267      0.000158688    -3.96913e-05
                     3.35556e-05     5.58218e-05         0.188873        0.965384      0.000234518    -7.77688e-05       -0.0255704         0.11821
281752                 0.0176483        -0.10496     -0.000285051     5.65789e-05       -0.0591717       -0.992267      8.63132e-05    -7.53847e-06
                     -0.00017597     4.82333e-05       -0.0652637      -0.0995908     -7.74926e-05    -2.01525e-05         0.188992         0.96553
                      -0.0589736       -0.992145      6.68529e-05     6.51477e-05        0.0298802        0.102252      0.000158685    -3.98062e-05
                     3.36548e-05     5.59025e-05         0.189256        0.965312      0.000234527     -7.7881e-05        -0.025519        0.118199
281754                  0.017636       -0.104958     -0.000285061     5.66417e-05       -0.0594126       -0.992253      8.62931e-05    -7.54712e-06
                     -0.00017581     4.82065e-05       -0.0652906      -0.0995459     -7.74645e-05    -2.01198e-05         0.189375        0.965457
                      -0.0592136       -0.992132      6.67942e-05      6.5113e-05        0.0299174        0.102238      0.000158682    -3.99211e-05
                     3.37536e-05     5.59833e-05         0.189639        0.965239      0.000234536    -7.79929e-05       -0.0254676        0.118187
281756                 0.0176237       -0.104956     -0.000285067     5.67065e-05       -0.0596536       -0.992239      8.62745e-05    -7.55761e-06
                    -0.000175651     4.81798e-05       -0.0653174      -0.0995009     -7.74365e-05    -2.00872e-05         0.189757        0.965385
                      -0.0594536       -0.992119      6.67296e-05     6.50773e-05        0.0299547        0.102223      0.000158679    -4.00359e-05
                      3.3852e-05      5.6064e-05         0.190021        0.965167      0.000234545    -7.81046e-05       -0.0254162        0.118176
281758                 0.0176115       -0.104954      -0.00028509     5.67634e-05       -0.0598945       -0.992225      8.62536e-05    -7.56528e-06
                    -0.000175492     4.81532e-05       -0.0653443      -0.0994559     -7.74087e-05    -2.00547e-05         0.190139        0.965312
                      -0.0596937       -0.992106      6.66828e-05     6.50396e-05         0.029992        0.102208      0.000158677     -4.0151e-05
                     3.39502e-05     5.61447e-05         0.190404        0.965094      0.000234554     -7.8216e-05       -0.0253649        0.118164
281760                 0.0175992       -0.104953     -0.000285097     5.68265e-05       -0.0601355        -0.99221      8.62334e-05    -7.57402e-06
                    -0.000175333     4.81267e-05       -0.0653711      -0.0994109     -7.73811e-05    -2.00222e-05         0.190521        0.965239
                      -0.0599337       -0.992094      6.66239e-05     6.50066e-05        0.0300293        0.102193      0.000158674     -4.0266e-05
                      3.4048e-05     5.62254e-05         0.190786        0.965021      0.000234562    -7.83272e-05       -0.0253135        0.118152
281762                  0.017587       -0.104951     -0.000285107     5.68887e-05       -0.0603765       -0.992196      8.62133e-05    -7.58283e-06
                    -0.000175176     4.81002e-05       -0.0653979      -0.0993659     -7.73536e-05    -1.99897e-05         0.190903        0.965166
                      -0.0601738       -0.992081      6.65657e-05     6.49725e-05        0.0300665        0.102178      0.000158671    -4.03811e-05
