! TOUCHSTONE file generated by CST MICROWAVE STUDIO
! Date and time: Wed Oct 15 17:33:40 2025
! Project name: Teste_Macro_Metasurface_Nanopilar.cst
! Parameters = {H=600; L_x=170; L_y=160; Lambda=1064; Max_L=200; Min_L=70; PathPara=1; Phi=0; Step_L=10; Theta=0; p=520; phaseX=180; phaseY=0}
! Header version: 2018
! Port assignment regex: !\s*Touchstone port\s*([0-9]+)\s*=\s*(CST MWS port|CST DS port)\s*([0-9]+|Zmin|Zmax)\s*\(\"(.*)\"\)(\s*mode\s*([0-9]+))?.*
! Touchstone port assignment:
! Touchstone port 1 = CST MWS port Zmax ("") mode 1
! Touchstone port 2 = CST MWS port Zmax ("") mode 2
! Touchstone port 3 = CST MWS port Zmin ("") mode 1
! Touchstone port 4 = CST MWS port Zmin ("") mode 2
! S-Parameters are not renormalized. Each port impedance will be approximated by the real part at minimum frequency. The values are described via the [Reference] keyword.
! Default impedance is overridden by [Reference]
[Version] 2.0
# GHz S RI R 376.73
[Number of Ports] 4
[Reference]
376.73 376.73 259.888 259.888 
[Number of Frequencies] 51
[Network Data]
281700                  0.173156       0.0271688     -7.89005e-05     0.000312625         0.619801       -0.760111     -0.000209726     1.55118e-05
                    -4.60238e-05     0.000382824         0.178881       0.0403899      2.26354e-06    -0.000254611         0.532142       -0.822411
                        0.618914        -0.76008     -3.61156e-05    -0.000228564         0.061044        0.160959      0.000484642    -0.000150299
                    -0.000337958     7.65978e-05           0.5322       -0.822109       0.00059249    -0.000235642         0.109347        0.143655
281702                   0.17316       0.0271803     -7.87929e-05     0.000312682         0.619578       -0.760292     -0.000209879     1.56122e-05
                    -4.58309e-05     0.000383041         0.178888       0.0404002      2.10954e-06    -0.000254687         0.531903       -0.822564
                        0.618691        -0.76026     -3.62021e-05    -0.000228432        0.0611502        0.160925      0.000484388    -0.000150586
                    -0.000337932     7.64916e-05         0.531961       -0.822262      0.000592272    -0.000236007         0.109443        0.143595
281704                  0.173164       0.0271917     -7.86853e-05     0.000312739         0.619356       -0.760473     -0.000210031     1.57127e-05
                    -4.56376e-05     0.000383258         0.178896       0.0404104      1.95544e-06    -0.000254762         0.531664       -0.822717
                        0.618469        -0.76044     -3.62883e-05    -0.000228301        0.0612565        0.160892      0.000484134    -0.000150872
                    -0.000337905     7.63844e-05         0.531722       -0.822414      0.000592054    -0.000236371         0.109538        0.143535
281706                  0.173168       0.0272031     -7.85775e-05     0.000312795         0.619133       -0.760653     -0.000210184     1.58132e-05
                    -4.54441e-05     0.000383474         0.178903       0.0404207      1.80124e-06    -0.000254837         0.531425       -0.822869
                        0.618247        -0.76062     -3.63741e-05    -0.000228169        0.0613627        0.160858       0.00048388    -0.000151159
                    -0.000337878     7.62764e-05         0.531483       -0.822567      0.000591834    -0.000236735         0.109634        0.143474
281708                  0.173172       0.0272145     -7.84697e-05     0.000312852          0.61891       -0.760834     -0.000210335     1.59139e-05
                    -4.52504e-05      0.00038369         0.178911       0.0404309      1.64695e-06    -0.000254911         0.531185       -0.823022
                        0.618024         -0.7608     -3.64597e-05    -0.000228038        0.0614689        0.160824      0.000483626    -0.000151445
                    -0.000337851     7.61676e-05         0.531244       -0.822719      0.000591613    -0.000237098          0.10973        0.143414
281710                  0.173176       0.0272259     -7.83619e-05     0.000312909         0.618688       -0.761014     -0.000210487     1.60147e-05
                    -4.50564e-05     0.000383906         0.178918       0.0404412      1.49257e-06    -0.000254986         0.530946       -0.823174
                        0.617802        -0.76098     -3.65449e-05    -0.000227907        0.0615751        0.160791      0.000483372    -0.000151732
                    -0.000337824     7.60578e-05         0.531005       -0.822872       0.00059139     -0.00023746         0.109826        0.143353
281712                   0.17318       0.0272373      -7.8254e-05     0.000312965         0.618465       -0.761195     -0.000210639     1.61157e-05
                    -4.48622e-05     0.000384121         0.178926       0.0404514      1.33809e-06     -0.00025506         0.530707       -0.823327
                        0.617579        -0.76116     -3.66297e-05    -0.000227776        0.0616812        0.160757      0.000483119    -0.000152018
                    -0.000337796     7.59473e-05         0.530766       -0.823024      0.000591167    -0.000237821         0.109921        0.143293
281714                  0.173184       0.0272487      -7.8146e-05     0.000313021         0.618242       -0.761375      -0.00021079     1.62167e-05
                    -4.46678e-05     0.000384336         0.178933       0.0404617      1.18352e-06    -0.000255133         0.530467       -0.823479
                        0.617357        -0.76134     -3.67143e-05    -0.000227645        0.0617873        0.160723      0.000482865    -0.000152304
                    -0.000337768      7.5836e-05         0.530527       -0.823177      0.000590942    -0.000238182         0.110017        0.143232
281716                  0.173188       0.0272601     -7.80379e-05     0.000313078         0.618019       -0.761555     -0.000210941     1.63179e-05
                    -4.44732e-05     0.000384551         0.178941       0.0404719      1.02886e-06    -0.000255207         0.530228       -0.823631
                        0.617134       -0.761519     -3.67985e-05    -0.000227515        0.0618934        0.160689      0.000482611    -0.000152591
                    -0.000337739      7.5724e-05         0.530288       -0.823329      0.000590716    -0.000238542         0.110112        0.143171
281718                  0.173193       0.0272715     -7.79298e-05     0.000313134         0.617796       -0.761736     -0.000211091     1.64192e-05
                    -4.42785e-05     0.000384765         0.178948       0.0404822      8.74105e-07     -0.00025528         0.529988       -0.823784
                        0.616911       -0.761699     -3.68825e-05    -0.000227384        0.0619995        0.160655      0.000482357    -0.000152877
                    -0.000337711     7.56112e-05         0.530049       -0.823481      0.000590489    -0.000238902         0.110208        0.143111
281720                  0.173197       0.0272829     -7.78216e-05      0.00031319         0.617574       -0.761916     -0.000211242     1.65206e-05
                    -4.40837e-05     0.000384979         0.178956       0.0404924      7.19256e-07    -0.000255353         0.529749       -0.823936
                        0.616688       -0.761879     -3.69661e-05    -0.000227254        0.0621055        0.160621      0.000482104    -0.000153163
                    -0.000337681     7.54977e-05          0.52981       -0.823633      0.000590262    -0.000239261         0.110303         0.14305
281722                  0.173201       0.0272943     -7.77134e-05     0.000313246         0.617351       -0.762096     -0.000211392     1.66222e-05
                    -4.38887e-05     0.000385193         0.178963       0.0405026      5.64313e-07    -0.000255426         0.529509       -0.824088
                        0.616466       -0.762058     -3.70495e-05    -0.000227123        0.0622116        0.160586       0.00048185    -0.000153448
                    -0.000337652     7.53836e-05         0.529571       -0.823785      0.000590033    -0.000239619         0.110399        0.142989
281724                  0.173205       0.0273056     -7.76051e-05     0.000313302         0.617127       -0.762276     -0.000211542     1.67239e-05
                    -4.36936e-05     0.000385406         0.178971       0.0405128      4.09276e-07    -0.000255498         0.529269        -0.82424
                        0.616243       -0.762238     -3.71326e-05    -0.000226993        0.0623175        0.160552      0.000481596    -0.000153734
                    -0.000337622     7.52687e-05         0.529331       -0.823937      0.000589804    -0.000239976         0.110494        0.142928
281726                  0.173209        0.027317     -7.74967e-05     0.000313358         0.616904       -0.762456     -0.000211692     1.68257e-05
                    -4.34984e-05     0.000385619         0.178978       0.0405231      2.54144e-07     -0.00025557          0.52903       -0.824392
                         0.61602       -0.762417     -3.72154e-05    -0.000226863        0.0624235        0.160518      0.000481343    -0.000154019
                    -0.000337592     7.51533e-05         0.529092       -0.824089      0.000589573    -0.000240333          0.11059        0.142867
281728                  0.173213       0.0273284     -7.73883e-05     0.000313414         0.616681       -0.762635     -0.000211842     1.69276e-05
                    -4.33031e-05     0.000385832         0.178986       0.0405333      9.89183e-08    -0.000255642          0.52879       -0.824543
                        0.615797       -0.762596      -3.7298e-05    -0.000226733        0.0625294        0.160484      0.000481089    -0.000154304
                    -0.000337561     7.50372e-05         0.528853        -0.82424      0.000589342    -0.000240689         0.110685        0.142806
281730                  0.173217       0.0273397     -7.72797e-05      0.00031347         0.616458       -0.762815     -0.000211991     1.70297e-05
                    -4.31078e-05     0.000386044         0.178993       0.0405435     -5.64031e-08    -0.000255714          0.52855       -0.824695
                        0.615574       -0.762776     -3.73805e-05    -0.000226604        0.0626354        0.160449      0.000480835    -0.000154589
                     -0.00033753     7.49205e-05         0.528613       -0.824392       0.00058911    -0.000241045          0.11078        0.142745
281732                  0.173221       0.0273511     -7.71711e-05     0.000313526         0.616235       -0.762995      -0.00021214     1.71319e-05
                    -4.29125e-05     0.000386256         0.179001       0.0405537      -2.1182e-07    -0.000255785         0.528311       -0.824847
                        0.615351       -0.762955     -3.74628e-05    -0.000226474        0.0627412        0.160415      0.000480582    -0.000154874
                    -0.000337499     7.48033e-05         0.528374       -0.824544      0.000588878    -0.000241399         0.110875        0.142684
281734                  0.173225       0.0273624     -7.70625e-05     0.000313582         0.616012       -0.763175     -0.000212289     1.72342e-05
                    -4.27172e-05     0.000386468         0.179008       0.0405639     -3.67334e-07    -0.000255857         0.528071       -0.824998
                        0.615128       -0.763134     -3.75452e-05    -0.000226344        0.0628471         0.16038      0.000480329    -0.000155158
                    -0.000337467     7.46855e-05         0.528134       -0.824695      0.000588644    -0.000241754         0.110971        0.142622
281736                  0.173229       0.0273738     -7.69537e-05     0.000313638         0.615788       -0.763354     -0.000212438     1.73367e-05
                    -4.25219e-05     0.000386679         0.179016       0.0405741     -5.22946e-07    -0.000255927         0.527831        -0.82515
                        0.614905       -0.763313     -3.76276e-05    -0.000226214        0.0629529        0.160345      0.000480075    -0.000155442
                    -0.000337435     7.45671e-05         0.527895       -0.824847       0.00058841    -0.000242107         0.111066        0.142561
281738                  0.173233       0.0273851     -7.68448e-05     0.000313695         0.615565       -0.763534     -0.000212586     1.74393e-05
                    -4.23266e-05      0.00038689         0.179023       0.0405843     -6.78656e-07    -0.000255998         0.527591       -0.825301
                        0.614682       -0.763492     -3.77105e-05    -0.000226084        0.0630587        0.160311      0.000479822    -0.000155725
                    -0.000337403     7.44483e-05         0.527655       -0.824998      0.000588176     -0.00024246         0.111161          0.1425
281740                  0.173237       0.0273964     -7.67358e-05     0.000313751         0.615341       -0.763713     -0.000212735     1.75421e-05
                    -4.21315e-05     0.000387101         0.179031       0.0405945     -8.34466e-07    -0.000256069         0.527351       -0.825453
                        0.614458       -0.763671     -3.77945e-05    -0.000225953        0.0631645        0.160276      0.000479568    -0.000156009
                     -0.00033737     7.43289e-05         0.527416        -0.82515       0.00058794    -0.000242813         0.111256        0.142438
281742                  0.173241       0.0274077     -7.66266e-05     0.000313809         0.615118       -0.763892     -0.000212883      1.7645e-05
                    -4.19364e-05     0.000387312         0.179038       0.0406047     -9.90377e-07    -0.000256139         0.527111       -0.825604
                        0.614235        -0.76385      -3.7881e-05    -0.000225821        0.0632703        0.160241      0.000479315    -0.000156291
                    -0.000337337     7.42091e-05         0.527176       -0.825301      0.000587705    -0.000243164         0.111351        0.142377
281744                  0.173245       0.0274191     -7.65172e-05     0.000313867         0.614894       -0.764072      -0.00021303     1.77481e-05
                    -4.17416e-05     0.000387523         0.179046       0.0406148     -1.14639e-06    -0.000256209         0.526871       -0.825755
                        0.614012       -0.764028     -3.79746e-05    -0.000225688         0.063376        0.160206      0.000479061    -0.000156574
                    -0.000337304     7.40888e-05         0.526936       -0.825452      0.000587468    -0.000243515         0.111446        0.142315
281746                  0.173249       0.0274304     -7.64081e-05     0.000313931         0.614671       -0.764251     -0.000213178     1.78513e-05
                    -4.15472e-05     0.000387733         0.179053        0.040625     -1.30251e-06    -0.000256279         0.526631       -0.825907
                        0.613789       -0.764207     -3.80948e-05    -0.000225561        0.0634817        0.160171      0.000478808    -0.000156856
                     -0.00033727     7.39681e-05         0.526697       -0.825603      0.000587232    -0.000243866         0.111541        0.142254
281748                  0.173253       0.0274417     -7.63112e-05     0.000314016         0.614447        -0.76443     -0.000213325     1.79547e-05
                    -4.13536e-05     0.000387944         0.179061       0.0406351     -1.45875e-06    -0.000256349         0.526391       -0.826058
                        0.613565       -0.764386     -3.81962e-05    -0.000225562        0.0635874        0.160136      0.000478554    -0.000157137
                    -0.000337235     7.38471e-05         0.526457       -0.825754      0.000586995    -0.000244216         0.111636        0.142192
281750                  0.173257        0.027453     -7.62543e-05     0.000313986         0.614224       -0.764609     -0.000213472     1.80583e-05
                    -4.11623e-05     0.000388155         0.179068       0.0406453     -1.61513e-06    -0.000256419         0.526151       -0.826209
                        0.613342       -0.764564     -3.81655e-05    -0.000225404         0.063693        0.160101      0.000478301    -0.000157418
                      -0.0003372     7.37258e-05         0.526217       -0.825905      0.000586759    -0.000244566         0.111731        0.142131
281752                  0.173261       0.0274643     -7.60998e-05     0.000314052            0.614       -0.764788     -0.000213619     1.81621e-05
                    -4.09823e-05      0.00038836         0.179076       0.0406555     -1.77177e-06     -0.00025649         0.525911        -0.82636
                        0.613118       -0.764743     -3.82391e-05    -0.000225245        0.0637987        0.160066      0.000478047    -0.000157698
                    -0.000337164     7.36043e-05         0.525977       -0.826056      0.000586541    -0.000244907         0.111826        0.142069
281754                  0.173265       0.0274756     -7.59836e-05     0.000314114         0.613776       -0.764967     -0.000213766     1.82661e-05
                     -4.0758e-05     0.000388547         0.179083       0.0406657     -1.92678e-06    -0.000256553          0.52567       -0.826511
                        0.612895       -0.764921     -3.83196e-05    -0.000225105        0.0639043        0.160031      0.000477793    -0.000157977
                    -0.000337127     7.34749e-05         0.525737       -0.826207      0.000586263    -0.000245256         0.111921        0.142007
281756                  0.173269       0.0274868      -7.5872e-05     0.000314172         0.613552       -0.765146     -0.000213912     1.83703e-05
                    -4.05629e-05     0.000388771         0.179091       0.0406758     -2.08417e-06    -0.000256624          0.52543       -0.826661
                        0.612671         -0.7651     -3.83998e-05    -0.000224973        0.0640098        0.159995      0.000477539    -0.000158254
                    -0.000337097     7.33544e-05         0.525498       -0.826358      0.000586029    -0.000245607         0.112016        0.141945
281758                  0.173273       0.0274981     -7.57617e-05     0.000314228         0.613328       -0.765325     -0.000214058     1.84749e-05
                    -4.03702e-05     0.000388984         0.179099        0.040686     -2.24101e-06    -0.000256693          0.52519       -0.826812
                        0.612447       -0.765278     -3.84793e-05    -0.000224843        0.0641154         0.15996      0.000477284     -0.00015853
                    -0.000337061     7.32323e-05         0.525258       -0.826508       0.00058579    -0.000245955          0.11211        0.141883
281760                  0.173277       0.0275094     -7.56518e-05     0.000314284         0.613105       -0.765504     -0.000214203     1.85797e-05
                    -4.01768e-05     0.000389195         0.179106       0.0406961     -2.39788e-06    -0.000256761         0.524949       -0.826963
                        0.612224       -0.765456     -3.85583e-05    -0.000224715        0.0642209        0.159925      0.000477026    -0.000158802
                    -0.000337025     7.31091e-05         0.525018       -0.826659       0.00058555    -0.000246302         0.112205        0.141821
281762                  0.173281       0.0275207     -7.55423e-05     0.000314339         0.612881       -0.765682     -0.000214347     1.86843e-05
                    -3.99832e-05     0.000389405         0.179114       0.0407062     -2.55484e-06     -0.00025683         0.524709       -0.827113
                           0.612       -0.765634     -3.86367e-05    -0.000224588        0.0643264        0.159889      0.000476764    -0.000159066
