! TOUCHSTONE file generated by CST MICROWAVE STUDIO
! Date and time: Wed Oct 15 17:32:59 2025
! Project name: Teste_Macro_Metasurface_Nanopilar.cst
! Parameters = {H=600; L_x=160; L_y=105; Lambda=1064; Max_L=200; Min_L=70; PathPara=1; Phi=0; Step_L=10; Theta=0; p=520; phaseX=180; phaseY=0}
! Header version: 2018
! Port assignment regex: !\s*Touchstone port\s*([0-9]+)\s*=\s*(CST MWS port|CST DS port)\s*([0-9]+|Zmin|Zmax)\s*\(\"(.*)\"\)(\s*mode\s*([0-9]+))?.*
! Touchstone port assignment:
! Touchstone port 1 = CST MWS port Zmax ("") mode 1
! Touchstone port 2 = CST MWS port Zmax ("") mode 2
! Touchstone port 3 = CST MWS port Zmin ("") mode 1
! Touchstone port 4 = CST MWS port Zmin ("") mode 2
! S-Parameters are not renormalized. Each port impedance will be approximated by the real part at minimum frequency. The values are described via the [Reference] keyword.
! Default impedance is overridden by [Reference]
[Version] 2.0
# GHz S RI R 376.73
[Number of Ports] 4
[Reference]
376.73 376.73 259.888 259.888 
[Number of Frequencies] 51
[Network Data]
281700                  0.183337       0.0277617      1.67707e-05    -0.000853231        -0.546417        0.805731       8.3875e-05    -0.000182103
                     7.15193e-06    -0.000858424         0.123205        0.229456     -3.96115e-05     0.000128848         0.863498       -0.420633
                       -0.546744        0.806182     -1.84825e-05     7.39976e-05         0.092462        0.159348      0.000845214     5.56515e-05
                     1.63286e-05    -0.000161744         0.863824       -0.420301      0.000703966     9.34811e-05         0.106115        0.236004
281702                  0.183334       0.0277358      1.66603e-05    -0.000853131        -0.546099        0.805948       8.3874e-05     -0.00018209
                     7.05698e-06    -0.000858241         0.123235        0.229488     -3.95414e-05     0.000128869         0.863345       -0.420922
                       -0.546425        0.806399      -1.8438e-05     7.40275e-05        0.0925622        0.159282      0.000845336      5.5148e-05
                     1.63243e-05     -0.00016172         0.863671       -0.420589      0.000703907     9.30577e-05         0.106284        0.235973
281704                   0.18333       0.0277099      1.65501e-05    -0.000853032         -0.54578        0.806165       8.3873e-05    -0.000182077
                     6.96226e-06    -0.000858059         0.123264         0.22952     -3.94697e-05     0.000128889         0.863192        -0.42121
                       -0.546107        0.806615     -1.83934e-05     7.40573e-05        0.0926625        0.159215      0.000845457      5.4645e-05
                     1.63198e-05    -0.000161697         0.863518       -0.420877      0.000703847     9.26299e-05         0.106452        0.235943
281706                  0.183327       0.0276841        1.644e-05    -0.000852932        -0.545462        0.806382      8.38719e-05    -0.000182064
                     6.86779e-06    -0.000857876         0.123293        0.229552     -3.93973e-05     0.000128909         0.863038       -0.421498
                       -0.545788        0.806832     -1.83488e-05      7.4087e-05        0.0927626        0.159148      0.000845576     5.41428e-05
                     1.63154e-05    -0.000161673         0.863364       -0.421165      0.000703787        9.22e-05          0.10662        0.235912
281708                  0.183323       0.0276582      1.63301e-05    -0.000852833        -0.545144        0.806599       8.3871e-05    -0.000182051
                     6.77354e-06    -0.000857694         0.123322        0.229584     -3.93244e-05     0.000128929         0.862885       -0.421786
                       -0.545469        0.807049     -1.83042e-05     7.41166e-05        0.0928628        0.159081      0.000845695     5.36411e-05
                     1.63109e-05    -0.000161649         0.863211       -0.421453      0.000703728     9.17692e-05         0.106788        0.235881
281710                   0.18332       0.0276323      1.62203e-05    -0.000852733        -0.544825        0.806816        8.387e-05    -0.000182039
                     6.67953e-06    -0.000857511         0.123351        0.229616     -3.92513e-05     0.000128949         0.862731       -0.422074
                        -0.54515        0.807265     -1.82596e-05     7.41461e-05        0.0929629        0.159013      0.000845813     5.31401e-05
                     1.63064e-05    -0.000161626         0.863057        -0.42174      0.000703669     9.13378e-05         0.106957         0.23585
281712                  0.183316       0.0276064      1.61106e-05    -0.000852633        -0.544507        0.807032       8.3869e-05    -0.000182026
                     6.58575e-06    -0.000857329          0.12338        0.229648     -3.91779e-05     0.000128969         0.862577       -0.422362
                       -0.544831        0.807481     -1.82149e-05     7.41755e-05        0.0930629        0.158946      0.000845929     5.26397e-05
                     1.63018e-05    -0.000161602         0.862903       -0.422028      0.000703609      9.0906e-05         0.107125        0.235819
281714                  0.183313       0.0275806       1.6001e-05    -0.000852534        -0.544188        0.807248      8.38681e-05    -0.000182014
                     6.49219e-06    -0.000857147         0.123409         0.22968     -3.91043e-05     0.000128989         0.862424        -0.42265
                       -0.544512        0.807698     -1.81703e-05     7.42048e-05        0.0931629        0.158879      0.000846045     5.21399e-05
                     1.62973e-05    -0.000161578         0.862749       -0.422316       0.00070355     9.04742e-05         0.107293        0.235788
281716                  0.183309       0.0275547      1.58916e-05    -0.000852434         -0.54387        0.807465      8.38672e-05    -0.000182001
                     6.39885e-06    -0.000856964         0.123438        0.229712     -3.90305e-05     0.000129009          0.86227       -0.422938
                       -0.544193        0.807914     -1.81255e-05      7.4234e-05        0.0932628        0.158812       0.00084616     5.16406e-05
                     1.62928e-05    -0.000161554         0.862595       -0.422603       0.00070349     9.00423e-05         0.107462        0.235757
281718                  0.183306       0.0275288      1.57824e-05    -0.000852334        -0.543551        0.807681      8.38663e-05    -0.000181989
                     6.30573e-06    -0.000856782         0.123467        0.229744     -3.89565e-05     0.000129029         0.862116       -0.423226
                       -0.543874         0.80813     -1.80808e-05     7.42631e-05        0.0933627        0.158744      0.000846273     5.11419e-05
                     1.62883e-05     -0.00016153         0.862441       -0.422891      0.000703431     8.96104e-05          0.10763        0.235726
281720                  0.183302       0.0275029      1.56733e-05    -0.000852234        -0.543232        0.807897      8.38654e-05    -0.000181977
                     6.21283e-06    -0.000856599         0.123497        0.229776     -3.88823e-05     0.000129049         0.861962       -0.423514
                       -0.543555        0.808346      -1.8036e-05     7.42921e-05        0.0934626        0.158677      0.000846386     5.06438e-05
                     1.62839e-05    -0.000161506         0.862286       -0.423178      0.000703371     8.91785e-05         0.107798        0.235694
281722                  0.183299       0.0274771      1.55643e-05    -0.000852134        -0.542913        0.808113      8.38645e-05    -0.000181965
                     6.12014e-06    -0.000856417         0.123526        0.229808      -3.8808e-05      0.00012907         0.861807       -0.423802
                       -0.543235        0.808561     -1.79913e-05      7.4321e-05        0.0935624        0.158609      0.000846497     5.01463e-05
                     1.62795e-05    -0.000161482         0.862132       -0.423466      0.000703311     8.87467e-05         0.107967        0.235662
281724                  0.183295       0.0274512      1.54554e-05    -0.000852034        -0.542594        0.808328      8.38636e-05    -0.000181953
                     6.02766e-06    -0.000856235         0.123555         0.22984     -3.87335e-05      0.00012909         0.861653        -0.42409
                       -0.542916        0.808777     -1.79464e-05     7.43498e-05        0.0936621        0.158541      0.000846607     4.96492e-05
                     1.62752e-05    -0.000161458         0.861978       -0.423753      0.000703251     8.83149e-05         0.108135        0.235631
281726                  0.183291       0.0274253      1.53467e-05    -0.000851934        -0.542275        0.808544      8.38628e-05    -0.000181941
                     5.93538e-06    -0.000856052         0.123584        0.229872     -3.86588e-05      0.00012911         0.861499       -0.424377
                       -0.542596        0.808992     -1.79016e-05     7.43785e-05        0.0937618        0.158474      0.000846717     4.91527e-05
                     1.62709e-05    -0.000161434         0.861823        -0.42404      0.000703191     8.78833e-05         0.108303        0.235599
281728                  0.183288       0.0273995      1.52382e-05    -0.000851834        -0.541955         0.80876      8.38619e-05    -0.000181929
                     5.84331e-06     -0.00085587         0.123613        0.229904      -3.8584e-05     0.000129131         0.861344       -0.424665
                       -0.542276        0.809208     -1.78567e-05     7.44071e-05        0.0938615        0.158406      0.000846825     4.86567e-05
                     1.62666e-05     -0.00016141         0.861668       -0.424328       0.00070313     8.74517e-05         0.108472        0.235567
281730                  0.183284       0.0273736      1.51298e-05    -0.000851734        -0.541636        0.808975      8.38611e-05    -0.000181917
                     5.75144e-06    -0.000855688         0.123643        0.229936      -3.8509e-05     0.000129151         0.861189       -0.424953
                       -0.541957        0.809423     -1.78118e-05     7.44355e-05        0.0939611        0.158338      0.000846932     4.81612e-05
                     1.62624e-05    -0.000161386         0.861514       -0.424615       0.00070307     8.70202e-05          0.10864        0.235535
281732                  0.183281       0.0273478      1.50215e-05    -0.000851634        -0.541317         0.80919      8.38602e-05    -0.000181906
                     5.65976e-06    -0.000855506         0.123672        0.229968     -3.84338e-05     0.000129172         0.861035        -0.42524
                       -0.541637        0.809638     -1.77669e-05     7.44639e-05        0.0940606         0.15827      0.000847038     4.76662e-05
                     1.62582e-05    -0.000161362         0.861359       -0.424902      0.000703009     8.65888e-05         0.108809        0.235503
281734                  0.183277       0.0273219      1.49134e-05    -0.000851533        -0.540997        0.809405      8.38594e-05    -0.000181894
                     5.56828e-06    -0.000855324         0.123701            0.23     -3.83584e-05     0.000129192          0.86088       -0.425528
                       -0.541317        0.809853      -1.7722e-05     7.44922e-05        0.0941601        0.158202      0.000847143     4.71717e-05
                      1.6254e-05    -0.000161338         0.861204       -0.425189      0.000702948     8.61575e-05         0.108977        0.235471
281736                  0.183273       0.0272961      1.48054e-05    -0.000851433        -0.540678        0.809621      8.38586e-05    -0.000181883
                     5.47699e-06    -0.000855142          0.12373        0.230032     -3.82829e-05     0.000129213         0.860725       -0.425815
                       -0.540997        0.810068      -1.7677e-05     7.45204e-05        0.0942596        0.158134      0.000847247     4.66776e-05
                     1.62498e-05    -0.000161314         0.861049       -0.425476      0.000702887     8.57263e-05         0.109146        0.235438
281738                   0.18327       0.0272702      1.46976e-05    -0.000851333        -0.540358        0.809835      8.38577e-05    -0.000181871
                     5.38589e-06     -0.00085496          0.12376        0.230064     -3.82072e-05     0.000129233          0.86057       -0.426103
                       -0.540677        0.810283     -1.76321e-05     7.45485e-05         0.094359        0.158066      0.000847349      4.6184e-05
                     1.62457e-05     -0.00016129         0.860893       -0.425763      0.000702825     8.52953e-05         0.109314        0.235406
281740                  0.183266       0.0272444      1.45899e-05    -0.000851232        -0.540038         0.81005      8.38569e-05     -0.00018186
                     5.29497e-06    -0.000854778         0.123789        0.230096     -3.81314e-05     0.000129254         0.860414        -0.42639
                       -0.540356        0.810497     -1.75871e-05     7.45764e-05        0.0944583        0.157998      0.000847451     4.56908e-05
                     1.62416e-05    -0.000161266         0.860738        -0.42605      0.000702764     8.48643e-05         0.109483        0.235373
281742                  0.183262       0.0272185      1.44824e-05    -0.000851132        -0.539718        0.810265      8.38561e-05    -0.000181849
                     5.20424e-06    -0.000854596         0.123818        0.230128     -3.80554e-05     0.000129275         0.860259       -0.426677
                       -0.540036        0.810712      -1.7542e-05     7.46043e-05        0.0945577         0.15793      0.000847552     4.51981e-05
                     1.62375e-05    -0.000161242         0.860583       -0.426337      0.000702702     8.44334e-05         0.109651        0.235341
281744                  0.183259       0.0271927       1.4375e-05    -0.000851031        -0.539398        0.810479      8.38553e-05    -0.000181838
                     5.11368e-06    -0.000854414         0.123847         0.23016     -3.79792e-05     0.000129296         0.860104       -0.426965
                       -0.539716        0.810926      -1.7497e-05     7.46321e-05        0.0946569        0.157861      0.000847651     4.47057e-05
                     1.62334e-05    -0.000161218         0.860427       -0.426624       0.00070264     8.40026e-05          0.10982        0.235308
281746                  0.183255       0.0271668      1.42678e-05    -0.000850931        -0.539078        0.810694      8.38545e-05    -0.000181827
                     5.02331e-06    -0.000854232         0.123877        0.230192     -3.79028e-05     0.000129317         0.859948       -0.427252
                       -0.539395         0.81114     -1.74519e-05     7.46597e-05        0.0947561        0.157793      0.000847749     4.42138e-05
                     1.62293e-05    -0.000161195         0.860271       -0.426911      0.000702578     8.35718e-05         0.109988        0.235275
281748                  0.183252        0.027141      1.41607e-05     -0.00085083        -0.538758        0.810908      8.38537e-05    -0.000181817
                      4.9331e-06     -0.00085405         0.123906        0.230225     -3.78263e-05     0.000129337         0.859793       -0.427539
                       -0.539074        0.811354     -1.74068e-05     7.46873e-05        0.0948553        0.157724      0.000847847     4.37223e-05
                     1.62252e-05    -0.000161171         0.860116       -0.427198      0.000702515     8.31412e-05         0.110157        0.235242
281750                  0.183248       0.0271151      1.40537e-05     -0.00085073        -0.538438        0.811122      8.38529e-05    -0.000181806
                     4.84306e-06    -0.000853868         0.123935        0.230257     -3.77495e-05     0.000129358         0.859637       -0.427826
                       -0.538754        0.811568     -1.73617e-05     7.47147e-05        0.0949544        0.157656      0.000847943     4.32311e-05
                     1.62211e-05    -0.000161147          0.85996       -0.427485      0.000702453     8.27107e-05         0.110326        0.235209
281752                  0.183244       0.0270893      1.39469e-05    -0.000850629        -0.538118        0.811336      8.38521e-05    -0.000181795
                      4.7532e-06    -0.000853687         0.123965        0.230289     -3.76727e-05     0.000129379         0.859481       -0.428113
                       -0.538433        0.811782     -1.73165e-05     7.47421e-05        0.0950535        0.157587      0.000848038     4.27403e-05
                      1.6217e-05    -0.000161123         0.859804       -0.427771       0.00070239     8.22802e-05         0.110494        0.235176
281754                   0.18324       0.0270635      1.38403e-05    -0.000850528        -0.537797         0.81155      8.38513e-05    -0.000181785
                     4.66349e-06    -0.000853505         0.123994        0.230321     -3.75956e-05     0.000129401         0.859325         -0.4284
                       -0.538112        0.811996     -1.72713e-05     7.47694e-05        0.0951525        0.157519      0.000848132     4.22498e-05
                     1.62129e-05    -0.000161099         0.859648       -0.428058      0.000702327     8.18499e-05         0.110663        0.235142
281756                  0.183237       0.0270376      1.37338e-05    -0.000850428        -0.537477        0.811764      8.38506e-05    -0.000181775
                     4.57394e-06    -0.000853323         0.124023        0.230353     -3.75184e-05     0.000129422         0.859169       -0.428687
                       -0.537791         0.81221     -1.72262e-05     7.47965e-05        0.0952514         0.15745      0.000848224     4.17597e-05
                     1.62088e-05    -0.000161076         0.859492       -0.428345      0.000702264     8.14196e-05         0.110831        0.235109
281758                  0.183233       0.0270118      1.36274e-05    -0.000850327        -0.537156        0.811978      8.38499e-05    -0.000181765
                     4.48455e-06    -0.000853142         0.124053        0.230385      -3.7441e-05     0.000129443         0.859013       -0.428974
                        -0.53747        0.812423     -1.71809e-05     7.48236e-05        0.0953504        0.157381      0.000848316     4.12699e-05
                     1.62047e-05    -0.000161052         0.859335       -0.428631      0.000702201     8.09894e-05            0.111        0.235075
281760                  0.183229        0.026986      1.35212e-05    -0.000850226        -0.536835        0.812191      8.38492e-05    -0.000181755
                      4.3953e-06    -0.000852961         0.124082        0.230418     -3.73634e-05     0.000129464         0.858857       -0.429261
                       -0.537149        0.812637     -1.71357e-05     7.48505e-05        0.0954492        0.157312      0.000848406     4.07804e-05
                     1.62006e-05    -0.000161028         0.859179       -0.428918      0.000702137     8.05593e-05         0.111169        0.235042
281762                  0.183226       0.0269601      1.34152e-05    -0.000850125        -0.536515        0.812405      8.38486e-05    -0.000181745
                      4.3062e-06    -0.000852779         0.124111         0.23045     -3.72856e-05     0.000129485           0.8587       -0.429548
                       -0.536828         0.81285     -1.70904e-05     7.48773e-05         0.095548        0.157243      0.000848496     4.02912e-05
