! TOUCHSTONE file generated by CST MICROWAVE STUDIO
! Date and time: Wed Oct 15 17:32:28 2025
! Project name: Teste_Macro_Metasurface_Nanopilar.cst
! Parameters = {H=600; L_x=150; L_y=130; Lambda=1064; Max_L=200; Min_L=70; PathPara=1; Phi=0; Step_L=10; Theta=0; p=520; phaseX=180; phaseY=0}
! Header version: 2018
! Port assignment regex: !\s*Touchstone port\s*([0-9]+)\s*=\s*(CST MWS port|CST DS port)\s*([0-9]+|Zmin|Zmax)\s*\(\"(.*)\"\)(\s*mode\s*([0-9]+))?.*
! Touchstone port assignment:
! Touchstone port 1 = CST MWS port Zmax ("") mode 1
! Touchstone port 2 = CST MWS port Zmax ("") mode 2
! Touchstone port 3 = CST MWS port Zmin ("") mode 1
! Touchstone port 4 = CST MWS port Zmin ("") mode 2
! S-Parameters are not renormalized. Each port impedance will be approximated by the real part at minimum frequency. The values are described via the [Reference] keyword.
! Default impedance is overridden by [Reference]
[Version] 2.0
# GHz S RI R 376.73
[Number of Ports] 4
[Reference]
376.73 376.73 259.888 259.888 
[Number of Frequencies] 51
[Network Data]
281700                 0.0877115        0.120052      0.000597337     0.000899677         0.981717      -0.0666171     -0.000650245    -0.000385477
                     0.000602205     0.000847606         0.165428        0.282639     -0.000301513    -0.000688128         0.731817       -0.587233
                        0.981799      -0.0663179     -0.000213736    -0.000682449       -0.0693987        0.130784      0.000491562     0.000942105
                    -0.000647658    -0.000422662         0.732292       -0.587023      0.000497352     0.000953383         0.241606        0.215385
281702                 0.0877246        0.120063      0.000597558     0.000899435         0.981693      -0.0669332     -0.000650449    -0.000385199
                     0.000602302     0.000847529         0.165486        0.282714     -0.000301824    -0.000688138          0.73156       -0.587496
                        0.981776      -0.0666341     -0.000213993    -0.000682438       -0.0693258        0.130842      0.000492086      0.00094179
                    -0.000647966    -0.000422334         0.732034       -0.587286      0.000497916      0.00095304         0.241837        0.215263
281704                 0.0877376        0.120075      0.000597778     0.000899193         0.981669      -0.0672493     -0.000650652    -0.000384922
                     0.000602398     0.000847452         0.165545        0.282789     -0.000302135    -0.000688148         0.731304       -0.587759
                        0.981752      -0.0669502     -0.000214251    -0.000682427       -0.0692529          0.1309      0.000492611     0.000941473
                    -0.000648274    -0.000422006         0.731776       -0.587549      0.000498481     0.000952697         0.242068        0.215142
281706                 0.0877507        0.120087      0.000597998     0.000898952         0.981645      -0.0675653     -0.000650856    -0.000384643
                     0.000602494     0.000847375         0.165603        0.282863     -0.000302447    -0.000688157         0.731047       -0.588022
                        0.981729      -0.0672663     -0.000214508    -0.000682416         -0.06918        0.130958      0.000493135     0.000941157
                    -0.000648582    -0.000421677         0.731519       -0.587813      0.000499045     0.000952354         0.242298         0.21502
281708                 0.0877638        0.120099      0.000598218      0.00089871         0.981621      -0.0678814     -0.000651059    -0.000384365
                     0.000602591     0.000847298         0.165662        0.282938     -0.000302759    -0.000688166          0.73079       -0.588285
                        0.981705      -0.0675825     -0.000214767    -0.000682405        -0.069107        0.131016       0.00049366      0.00094084
                     -0.00064889    -0.000421348         0.731261       -0.588076       0.00049961      0.00095201         0.242529        0.214898
281710                 0.0877768         0.12011      0.000598438     0.000898468         0.981597      -0.0681974     -0.000651263    -0.000384087
                     0.000602687     0.000847222         0.165721        0.283013     -0.000303071    -0.000688175         0.730533       -0.588548
                        0.981681      -0.0678986     -0.000215025    -0.000682394       -0.0690339        0.131074      0.000494184     0.000940522
                    -0.000649197    -0.000421018         0.731003       -0.588339      0.000500174     0.000951665          0.24276        0.214776
281712                 0.0877899        0.120122      0.000598658     0.000898227         0.981572      -0.0685135     -0.000651466    -0.000383808
                     0.000602784     0.000847145         0.165779        0.283088     -0.000303383    -0.000688184         0.730275       -0.588811
                        0.981657      -0.0682146     -0.000215284    -0.000682382       -0.0689608        0.131132      0.000494709     0.000940204
                    -0.000649504    -0.000420688         0.730744       -0.588602      0.000500738      0.00095132         0.242991        0.214653
281714                 0.0878029        0.120134      0.000598877     0.000897986         0.981548      -0.0688295     -0.000651669    -0.000383529
                     0.000602881     0.000847069         0.165838        0.283163     -0.000303695    -0.000688193         0.730018       -0.589074
                        0.981633      -0.0685307     -0.000215543    -0.000682371       -0.0688877        0.131189      0.000495234     0.000939886
                    -0.000649811    -0.000420357         0.730486       -0.588865      0.000501303     0.000950975         0.243222        0.214531
281716                  0.087816        0.120146      0.000599097     0.000897744         0.981523      -0.0691455     -0.000651872     -0.00038325
                     0.000602978     0.000846993         0.165897        0.283238     -0.000304007    -0.000688202          0.72976       -0.589336
                        0.981609      -0.0688468     -0.000215803    -0.000682359       -0.0688145        0.131247      0.000495758     0.000939567
                    -0.000650118    -0.000420027         0.730227       -0.589127      0.000501867     0.000950629         0.243453        0.214408
281718                  0.087829        0.120157      0.000599316     0.000897503         0.981499      -0.0694615     -0.000652075    -0.000382971
                     0.000603076     0.000846917         0.165956        0.283313     -0.000304319     -0.00068821         0.729502       -0.589599
                        0.981585      -0.0691628     -0.000216063    -0.000682347       -0.0687413        0.131305      0.000496283     0.000939248
                    -0.000650425    -0.000419696         0.729968        -0.58939      0.000502431     0.000950283         0.243685        0.214285
281720                 0.0878421        0.120169      0.000599536     0.000897262         0.981474      -0.0697775     -0.000652278    -0.000382692
                     0.000603173     0.000846841         0.166015        0.283388     -0.000304632    -0.000688218         0.729244       -0.589861
                         0.98156      -0.0694789     -0.000216323    -0.000682336        -0.068668        0.131362      0.000496808     0.000938928
                    -0.000650732    -0.000419364         0.729709       -0.589653      0.000502995     0.000949936         0.243916        0.214162
281722                 0.0878551        0.120181      0.000599755     0.000897021         0.981449      -0.0700935     -0.000652481    -0.000382412
                     0.000603271     0.000846766         0.166074        0.283463     -0.000304944    -0.000688226         0.728986       -0.590124
                        0.981536      -0.0697949     -0.000216584    -0.000682324       -0.0685947         0.13142      0.000497333     0.000938608
                    -0.000651039    -0.000419033          0.72945       -0.589915      0.000503559     0.000949589         0.244147        0.214038
281724                 0.0878682        0.120193      0.000599974     0.000896781         0.981424      -0.0704094     -0.000652683    -0.000382132
                      0.00060337     0.000846691         0.166133        0.283538     -0.000305257    -0.000688234         0.728727       -0.590386
                        0.981511      -0.0701109     -0.000216845    -0.000682312       -0.0685213        0.131477      0.000497858     0.000938287
                    -0.000651345    -0.000418701         0.729191       -0.590178      0.000504122     0.000949241         0.244378        0.213915
281726                 0.0878813        0.120204      0.000600194      0.00089654         0.981399      -0.0707254     -0.000652886    -0.000381852
                     0.000603468     0.000846616         0.166192        0.283613      -0.00030557    -0.000688241         0.728469       -0.590648
                        0.981486      -0.0704269     -0.000217106    -0.000682301       -0.0684479        0.131535      0.000498383     0.000937966
                    -0.000651651     -0.00041837         0.728931        -0.59044      0.000504686     0.000948893         0.244609        0.213791
281728                 0.0878943        0.120216      0.000600413     0.000896299         0.981373      -0.0710413     -0.000653089    -0.000381572
                     0.000603567     0.000846542         0.166252        0.283688     -0.000305882    -0.000688249          0.72821       -0.590911
                        0.981462      -0.0707429     -0.000217368    -0.000682289       -0.0683745        0.131592      0.000498908     0.000937645
                    -0.000651956    -0.000418038         0.728672       -0.590703       0.00050525     0.000948545          0.24484        0.213667
281730                 0.0879074        0.120228      0.000600632     0.000896058         0.981348      -0.0713572     -0.000653291    -0.000381292
                     0.000603666     0.000846467         0.166311        0.283764     -0.000306196    -0.000688256         0.727951       -0.591173
                        0.981437      -0.0710588      -0.00021763    -0.000682277        -0.068301         0.13165      0.000499433     0.000937323
                    -0.000652262    -0.000417706         0.728412       -0.590965      0.000505813     0.000948196         0.245072        0.213542
281732                 0.0879204         0.12024      0.000600851     0.000895818         0.981323      -0.0716732     -0.000653494    -0.000381011
                     0.000603765     0.000846393          0.16637        0.283839     -0.000306509    -0.000688263         0.727692       -0.591435
                        0.981412      -0.0713748     -0.000217892    -0.000682265       -0.0682275        0.131707      0.000499958     0.000937001
                    -0.000652567    -0.000417374         0.728152       -0.591227      0.000506377     0.000947846         0.245303        0.213418
281734                 0.0879335        0.120251       0.00060107     0.000895577         0.981297      -0.0719891     -0.000653696    -0.000380731
                     0.000603865      0.00084632         0.166429        0.283914     -0.000306822     -0.00068827         0.727433       -0.591697
                        0.981387      -0.0716907     -0.000218154    -0.000682254       -0.0681539        0.131764      0.000500483     0.000936678
                    -0.000652871    -0.000417041         0.727892       -0.591489       0.00050694     0.000947497         0.245534        0.213293
281736                 0.0879466        0.120263      0.000601289     0.000895337         0.981272       -0.072305     -0.000653898     -0.00038045
                     0.000603965     0.000846247         0.166489         0.28399     -0.000307135    -0.000688277         0.727173       -0.591959
                        0.981361      -0.0720067     -0.000218417    -0.000682242       -0.0680803        0.131822      0.000501008     0.000936355
                    -0.000653175    -0.000416709         0.727631       -0.591751      0.000507504     0.000947146         0.245766        0.213168
281738                 0.0879596        0.120275      0.000601508     0.000895096         0.981246      -0.0726208       -0.0006541    -0.000380169
                     0.000604066     0.000846174         0.166548        0.284065     -0.000307449    -0.000688284         0.726914        -0.59222
                        0.981336      -0.0723226      -0.00021868     -0.00068223       -0.0680066        0.131879      0.000501533     0.000936031
                    -0.000653479    -0.000416376         0.727371       -0.592013      0.000508067     0.000946796         0.245997        0.213043
281740                 0.0879727        0.120286      0.000601728     0.000894856          0.98122      -0.0729367     -0.000654303    -0.000379888
                     0.000604167     0.000846101         0.166608        0.284141     -0.000307762     -0.00068829         0.726654       -0.592482
                        0.981311      -0.0726385     -0.000218944    -0.000682219       -0.0679329        0.131936      0.000502058     0.000935708
                    -0.000653782    -0.000416043          0.72711       -0.592275       0.00050863     0.000946445         0.246228        0.212918
281742                 0.0879858        0.120298      0.000601947     0.000894615         0.981194      -0.0732526     -0.000654505    -0.000379607
                     0.000604268     0.000846029         0.166668        0.284216     -0.000308076    -0.000688296         0.726394       -0.592744
                        0.981285      -0.0729544     -0.000219208    -0.000682207       -0.0678591        0.131993      0.000502584     0.000935383
                    -0.000654084     -0.00041571         0.726849       -0.592537      0.000509193     0.000946093          0.24646        0.212792
281744                 0.0879988         0.12031      0.000602166     0.000894374         0.981168      -0.0735684     -0.000654707    -0.000379325
                      0.00060437     0.000845957         0.166727        0.284292      -0.00030839    -0.000688303         0.726134       -0.593005
                        0.981259      -0.0732703     -0.000219472    -0.000682196       -0.0677853         0.13205      0.000503109     0.000935058
                    -0.000654386    -0.000415376         0.726588       -0.592798      0.000509757     0.000945741         0.246691        0.212667
281746                 0.0880119        0.120322      0.000602385     0.000894134         0.981142      -0.0738842     -0.000654908    -0.000379044
                     0.000604472     0.000845886         0.166787        0.284368     -0.000308704    -0.000688309         0.725874       -0.593267
                        0.981234      -0.0735861     -0.000219736    -0.000682184       -0.0677115        0.132107      0.000503634     0.000934733
                    -0.000654688    -0.000415043         0.726327        -0.59306       0.00051032     0.000945389         0.246923        0.212541
281748                  0.088025        0.120333      0.000602604     0.000893893         0.981116      -0.0742001      -0.00065511    -0.000378762
                     0.000604574     0.000845815         0.166847        0.284443     -0.000309018    -0.000688315         0.725613       -0.593528
                        0.981208       -0.073902         -0.00022    -0.000682173       -0.0676376        0.132164      0.000504159     0.000934407
                    -0.000654989    -0.000414709         0.726066       -0.593321      0.000510883     0.000945036         0.247154        0.212415
281750                  0.088038        0.120345      0.000602822     0.000893653         0.981089      -0.0745159     -0.000655312     -0.00037848
                     0.000604678     0.000845744         0.166907        0.284519     -0.000309332     -0.00068832         0.725353       -0.593789
                        0.981182      -0.0742178     -0.000220265    -0.000682161       -0.0675637        0.132221      0.000504684     0.000934081
                    -0.000655289    -0.000414374         0.725804       -0.593583      0.000511446     0.000944682         0.247385        0.212288
281752                 0.0880511        0.120357      0.000603041     0.000893412         0.981063      -0.0748317     -0.000655514    -0.000378198
                     0.000604781     0.000845674         0.166966        0.284595     -0.000309647    -0.000688326         0.725092        -0.59405
                        0.981156      -0.0745337      -0.00022053     -0.00068215       -0.0674897        0.132278       0.00050521     0.000933755
                    -0.000655589     -0.00041404         0.725543       -0.593844      0.000512008     0.000944329         0.247617        0.212162
281754                 0.0880642        0.120369       0.00060326     0.000893171         0.981036      -0.0751475     -0.000655715    -0.000377915
                     0.000604885     0.000845604         0.167026        0.284671     -0.000309961    -0.000688332         0.724831       -0.594312
                         0.98113      -0.0748495     -0.000220795    -0.000682139       -0.0674157        0.132335      0.000505735     0.000933428
                    -0.000655889    -0.000413705         0.725281       -0.594106      0.000512571     0.000943974         0.247849        0.212035
281756                 0.0880772         0.12038      0.000603479     0.000892931          0.98101      -0.0754632     -0.000655917    -0.000377633
                      0.00060499     0.000845535         0.167086        0.284747     -0.000310276    -0.000688337          0.72457       -0.594573
                        0.981103      -0.0751653     -0.000221061    -0.000682128       -0.0673416        0.132392       0.00050626     0.000933101
                    -0.000656188    -0.000413369         0.725019       -0.594367      0.000513134      0.00094362          0.24808        0.211908
281758                 0.0880903        0.120392      0.000603698      0.00089269         0.980983       -0.075779     -0.000656118     -0.00037735
                     0.000605095     0.000845465         0.167146        0.284823      -0.00031059    -0.000688342         0.724309       -0.594834
                        0.981077      -0.0754811     -0.000221326    -0.000682117       -0.0672675        0.132449      0.000506785     0.000932773
                    -0.000656486    -0.000413034         0.724757       -0.594628      0.000513697     0.000943264         0.248312         0.21178
281760                 0.0881034        0.120404      0.000603917     0.000892449         0.980956      -0.0760947     -0.000656319    -0.000377068
                       0.0006052     0.000845397         0.167207        0.284899     -0.000310905    -0.000688348         0.724047       -0.595094
                        0.981051      -0.0757969     -0.000221592    -0.000682106       -0.0671934        0.132506      0.000507311     0.000932445
                    -0.000656784    -0.000412698         0.724494       -0.594889      0.000514259     0.000942909         0.248543        0.211653
281762                 0.0881165        0.120416      0.000604136     0.000892208         0.980929      -0.0764105     -0.000656521    -0.000376785
                     0.000605306     0.000845328         0.167267        0.284975     -0.000311219    -0.000688353         0.723786       -0.595355
                        0.981024      -0.0761126     -0.000221858    -0.000682095       -0.0671192        0.132563      0.000507836     0.000932116
