! TOUCHSTONE file generated by CST MICROWAVE STUDIO
! Date and time: Wed Oct 15 17:28:05 2025
! Project name: Teste_Macro_Metasurface_Nanopilar.cst
! Parameters = {H=600; L_x=75; L_y=95; Lambda=1064; Max_L=200; Min_L=70; PathPara=1; Phi=0; Step_L=10; Theta=0; p=520; phaseX=180; phaseY=0}
! Header version: 2018
! Port assignment regex: !\s*Touchstone port\s*([0-9]+)\s*=\s*(CST MWS port|CST DS port)\s*([0-9]+|Zmin|Zmax)\s*\(\"(.*)\"\)(\s*mode\s*([0-9]+))?.*
! Touchstone port assignment:
! Touchstone port 1 = CST MWS port Zmax ("") mode 1
! Touchstone port 2 = CST MWS port Zmax ("") mode 2
! Touchstone port 3 = CST MWS port Zmin ("") mode 1
! Touchstone port 4 = CST MWS port Zmin ("") mode 2
! S-Parameters are not renormalized. Each port impedance will be approximated by the real part at minimum frequency. The values are described via the [Reference] keyword.
! Default impedance is overridden by [Reference]
[Version] 2.0
# GHz S RI R 376.73
[Number of Ports] 4
[Reference]
376.73 376.73 259.888 259.888 
[Number of Frequencies] 51
[Network Data]
281700                 0.0163833       -0.091182      0.000196694      7.1931e-05         -0.10257       -0.989779      -0.00022537     3.38557e-05
                     0.000311421    -8.16252e-05        0.0427275       -0.123544     -0.000266111    -5.09754e-05         0.109871       -0.985251
                       -0.102551       -0.989883     -0.000353481     4.70569e-05        0.0345422       0.0860402      0.000283355     2.72223e-05
                    -0.000300663     0.000237641          0.11024       -0.985095      0.000271814     2.61678e-05        0.0143389        0.129977
281702                 0.0163721      -0.0911786      0.000196573     7.16913e-05        -0.102814       -0.989754     -0.000225326      3.3932e-05
                     0.000311364    -8.17849e-05        0.0427153       -0.123544     -0.000266106    -5.08892e-05         0.109636       -0.985278
                       -0.102795       -0.989858     -0.000353552     4.69335e-05        0.0345729       0.0860222      0.000283285     2.70978e-05
                    -0.000300213     0.000238015         0.110005       -0.985121      0.000271771     2.60551e-05        0.0143888        0.129968
281704                 0.0163609      -0.0911753      0.000196452     7.14516e-05        -0.103058       -0.989728     -0.000225282     3.40083e-05
                     0.000311305    -8.19442e-05        0.0427031       -0.123545     -0.000266101    -5.08031e-05         0.109401       -0.985304
                        -0.10304       -0.989833     -0.000353623     4.68103e-05        0.0346036       0.0860042      0.000283215     2.69735e-05
                    -0.000299762     0.000238387          0.10977       -0.985147      0.000271729     2.59424e-05        0.0144387        0.129959
281706                 0.0163497       -0.091172      0.000196331      7.1212e-05        -0.103303       -0.989703     -0.000225237     3.40845e-05
                     0.000311246    -8.21032e-05        0.0426909       -0.123546     -0.000266096    -5.07169e-05         0.109166       -0.985331
                       -0.103284       -0.989807     -0.000353694     4.66873e-05        0.0346344       0.0859861      0.000283145     2.68492e-05
                     -0.00029931     0.000238758         0.109535       -0.985174      0.000271686     2.58297e-05        0.0144885        0.129951
281708                 0.0163384      -0.0911686       0.00019621     7.09724e-05        -0.103547       -0.989678     -0.000225193     3.41606e-05
                     0.000311187    -8.22618e-05        0.0426787       -0.123547     -0.000266091    -5.06307e-05         0.108931       -0.985357
                       -0.103529       -0.989782     -0.000353764     4.65644e-05        0.0346651       0.0859681      0.000283075     2.67249e-05
                    -0.000298856     0.000239128           0.1093         -0.9852      0.000271644      2.5717e-05        0.0145384        0.129942
281710                 0.0163272      -0.0911653       0.00019609      7.0733e-05        -0.103791       -0.989653     -0.000225148     3.42367e-05
                     0.000311127    -8.24201e-05        0.0426666       -0.123548     -0.000266087    -5.05445e-05         0.108696       -0.985383
                       -0.103773       -0.989757     -0.000353835     4.64417e-05        0.0346958       0.0859501      0.000283005     2.66008e-05
                    -0.000298402     0.000239496         0.109065       -0.985226      0.000271601     2.56043e-05        0.0145882        0.129933
281712                  0.016316       -0.091162       0.00019597     7.04935e-05        -0.104035       -0.989628     -0.000225103     3.43127e-05
                     0.000311067     -8.2578e-05        0.0426544       -0.123549     -0.000266082    -5.04583e-05         0.108461       -0.985409
                       -0.104017       -0.989732     -0.000353905     4.63192e-05        0.0347265        0.085932      0.000282934     2.64767e-05
                    -0.000297946     0.000239864          0.10883       -0.985252      0.000271558     2.54915e-05        0.0146381        0.129925
281714                 0.0163048      -0.0911586       0.00019585     7.02542e-05        -0.104279       -0.989602     -0.000225059     3.43886e-05
                     0.000311007    -8.27355e-05        0.0426422        -0.12355     -0.000266077    -5.03721e-05         0.108226       -0.985436
                       -0.104262       -0.989707     -0.000353975     4.61969e-05        0.0347572        0.085914      0.000282863     2.63528e-05
                    -0.000297489     0.000240231         0.108595       -0.985278      0.000271515     2.53787e-05        0.0146879        0.129916
281716                 0.0162936      -0.0911553       0.00019573     7.00149e-05        -0.104524       -0.989577     -0.000225014     3.44645e-05
                     0.000310945    -8.28927e-05          0.04263       -0.123551     -0.000266072    -5.02858e-05         0.107991       -0.985462
                       -0.104506       -0.989681     -0.000354045     4.60747e-05        0.0347878       0.0858959      0.000282792     2.62289e-05
                    -0.000297032     0.000240596          0.10836       -0.985304      0.000271473      2.5266e-05        0.0147377        0.129907
281718                 0.0162824      -0.0911519      0.000195611     6.97757e-05        -0.104768       -0.989551     -0.000224969     3.45404e-05
                     0.000310884    -8.30495e-05        0.0426178       -0.123552     -0.000266067    -5.01995e-05         0.107755       -0.985488
                        -0.10475       -0.989656     -0.000354115     4.59528e-05        0.0348185       0.0858778      0.000282721     2.61051e-05
                    -0.000296573      0.00024096         0.108125        -0.98533       0.00027143     2.51532e-05        0.0147876        0.129898
281720                 0.0162711      -0.0911486      0.000195492     6.95365e-05        -0.105012       -0.989526     -0.000224923     3.46162e-05
                     0.000310822     -8.3206e-05        0.0426056       -0.123552     -0.000266062    -5.01132e-05          0.10752       -0.985514
                       -0.104995        -0.98963     -0.000354185      4.5831e-05        0.0348492       0.0858597       0.00028265     2.59813e-05
                    -0.000296113     0.000241324         0.107889       -0.985356      0.000271386     2.50404e-05        0.0148374         0.12989
281722                 0.0162599      -0.0911452      0.000195374     6.92974e-05        -0.105256         -0.9895     -0.000224878     3.46919e-05
                     0.000310759    -8.33621e-05        0.0425934       -0.123553     -0.000266057    -5.00269e-05         0.107285        -0.98554
                       -0.105239       -0.989605     -0.000354255     4.57094e-05        0.0348798       0.0858416      0.000282578     2.58577e-05
                    -0.000295652     0.000241686         0.107654       -0.985381      0.000271343     2.49276e-05        0.0148872        0.129881
281724                 0.0162487      -0.0911419      0.000195256     6.90584e-05          -0.1055       -0.989475     -0.000224833     3.47675e-05
                     0.000310697    -8.35178e-05        0.0425812       -0.123554     -0.000266051    -4.99406e-05          0.10705       -0.985566
                       -0.105484       -0.989579     -0.000354324      4.5588e-05        0.0349105       0.0858235      0.000282507     2.57341e-05
                    -0.000295191     0.000242047         0.107419       -0.985407        0.0002713     2.48148e-05         0.014937        0.129872
281726                 0.0162375      -0.0911386      0.000195138     6.88195e-05        -0.105745       -0.989449     -0.000224787     3.48431e-05
                     0.000310633    -8.36731e-05        0.0425691       -0.123555     -0.000266046    -4.98542e-05         0.106815       -0.985591
                       -0.105728       -0.989553     -0.000354394     4.54668e-05        0.0349411       0.0858054      0.000282435     2.56106e-05
                    -0.000294728     0.000242406         0.107184       -0.985433      0.000271257     2.47021e-05        0.0149869        0.129863
281728                 0.0162263      -0.0911352       0.00019502     6.85806e-05        -0.105989       -0.989423     -0.000224742     3.49187e-05
                     0.000310569    -8.38281e-05        0.0425569       -0.123556     -0.000266041    -4.97679e-05          0.10658       -0.985617
                       -0.105972       -0.989528     -0.000354463     4.53457e-05        0.0349717       0.0857872      0.000282363     2.54872e-05
                    -0.000294264     0.000242765         0.106949       -0.985458      0.000271213     2.45893e-05        0.0150367        0.129854
281730                 0.0162151      -0.0911319      0.000194903     6.83419e-05        -0.106233       -0.989397     -0.000224696     3.49941e-05
                     0.000310505    -8.39826e-05        0.0425447       -0.123557     -0.000266036    -4.96815e-05         0.106345       -0.985643
                       -0.106217       -0.989502     -0.000354533     4.52249e-05        0.0350023       0.0857691      0.000282291     2.53639e-05
                      -0.0002938     0.000243122         0.106714       -0.985484       0.00027117     2.44766e-05        0.0150865        0.129845
281732                 0.0162039      -0.0911285      0.000194786     6.81032e-05        -0.106477       -0.989371      -0.00022465     3.50696e-05
                      0.00031044    -8.41368e-05        0.0425325       -0.123558     -0.000266031    -4.95951e-05          0.10611       -0.985668
                       -0.106461       -0.989476     -0.000354602     4.51042e-05        0.0350329       0.0857509      0.000282219     2.52407e-05
                    -0.000293334     0.000243478         0.106479       -0.985509      0.000271126     2.43638e-05        0.0151363        0.129836
281734                 0.0161927      -0.0911252      0.000194669     6.78645e-05        -0.106721       -0.989345     -0.000224604     3.51449e-05
                     0.000310375    -8.42906e-05        0.0425203       -0.123559     -0.000266025    -4.95087e-05         0.105875       -0.985694
                       -0.106705        -0.98945     -0.000354671     4.49837e-05        0.0350635       0.0857328      0.000282146     2.51176e-05
                    -0.000292867     0.000243833         0.106243       -0.985535      0.000271083     2.42511e-05        0.0151861        0.129827
281736                 0.0161814      -0.0911218      0.000194552      6.7626e-05        -0.106965       -0.989319     -0.000224558     3.52202e-05
                      0.00031031     -8.4444e-05        0.0425081       -0.123559      -0.00026602    -4.94223e-05          0.10564        -0.98572
                        -0.10695       -0.989424      -0.00035474     4.48634e-05        0.0350941       0.0857146      0.000282073     2.49945e-05
                      -0.0002924     0.000244186         0.106008        -0.98556      0.000271039     2.41384e-05        0.0152359        0.129818
281738                 0.0161702      -0.0911185      0.000194436     6.73875e-05        -0.107209       -0.989293     -0.000224512     3.52954e-05
                     0.000310244    -8.45971e-05        0.0424959        -0.12356     -0.000266014    -4.93359e-05         0.105405       -0.985745
                       -0.107194       -0.989398     -0.000354809     4.47434e-05        0.0351247       0.0856964      0.000282001     2.48715e-05
                    -0.000291931     0.000244539         0.105773       -0.985586      0.000270995     2.40258e-05        0.0152856        0.129809
281740                  0.016159      -0.0911151       0.00019432     6.71491e-05        -0.107454       -0.989267     -0.000224466     3.53705e-05
                     0.000310177    -8.47497e-05        0.0424838       -0.123561     -0.000266009    -4.92495e-05          0.10517       -0.985771
                       -0.107438       -0.989372     -0.000354877     4.46235e-05        0.0351553       0.0856782      0.000281928     2.47486e-05
                    -0.000291462      0.00024489         0.105538       -0.985611      0.000270951     2.39132e-05        0.0153354          0.1298
281742                 0.0161478      -0.0911117      0.000194205     6.69109e-05        -0.107698       -0.989241      -0.00022442     3.54456e-05
                      0.00031011    -8.49019e-05        0.0424716       -0.123562     -0.000266003    -4.91632e-05         0.104935       -0.985796
                       -0.107682       -0.989346     -0.000354946     4.45038e-05        0.0351858         0.08566      0.000281855     2.46258e-05
                    -0.000290992      0.00024524         0.105303       -0.985636      0.000270907     2.38006e-05        0.0153852        0.129791
281744                 0.0161366      -0.0911084       0.00019409     6.66727e-05        -0.107942       -0.989215     -0.000224373     3.55206e-05
                     0.000310043    -8.50537e-05        0.0424594       -0.123563     -0.000265997    -4.90768e-05         0.104699       -0.985821
                       -0.107927        -0.98932     -0.000355014     4.43844e-05        0.0352164       0.0856418      0.000281781     2.45031e-05
                     -0.00029052     0.000245588         0.105067       -0.985661      0.000270863     2.36881e-05         0.015435        0.129782
281746                 0.0161254       -0.091105      0.000193975     6.64346e-05        -0.108186       -0.989188     -0.000224327     3.55955e-05
                     0.000309975    -8.52052e-05        0.0424472       -0.123564     -0.000265992    -4.89904e-05         0.104464       -0.985847
                       -0.108171       -0.989293     -0.000355083     4.42652e-05        0.0352469       0.0856236      0.000281708     2.43805e-05
                    -0.000290048     0.000245935         0.104832       -0.985686      0.000270819     2.35757e-05        0.0154847        0.129773
281748                 0.0161142      -0.0911017       0.00019386     6.61967e-05         -0.10843       -0.989162      -0.00022428     3.56704e-05
                     0.000309907    -8.53562e-05         0.042435       -0.123565     -0.000265986    -4.89042e-05         0.104229       -0.985872
                       -0.108415       -0.989267     -0.000355151     4.41462e-05        0.0352774       0.0856053      0.000281635      2.4258e-05
                    -0.000289575     0.000246281         0.104597       -0.985711      0.000270775     2.34634e-05        0.0155345        0.129764
281750                  0.016103      -0.0910983      0.000193745     6.59589e-05        -0.108674       -0.989135     -0.000224233     3.57451e-05
                     0.000309838    -8.55068e-05        0.0424228       -0.123566     -0.000265979     -4.8818e-05         0.103994       -0.985897
                        -0.10866        -0.98924     -0.000355219     4.40276e-05         0.035308       0.0855871      0.000281561     2.41355e-05
                    -0.000289102     0.000246626         0.104362       -0.985736       0.00027073     2.33515e-05        0.0155842        0.129755
281752                 0.0160918       -0.091095      0.000193631     6.57213e-05        -0.108918       -0.989109     -0.000224187     3.58198e-05
                     0.000309769     -8.5657e-05        0.0424106       -0.123566     -0.000265973     -4.8732e-05         0.103759       -0.985922
                       -0.108904       -0.989214     -0.000355288     4.39093e-05        0.0353385       0.0855688      0.000281487     2.40131e-05
                    -0.000288627      0.00024697         0.104127       -0.985761      0.000270686       2.324e-05         0.015634        0.129746
281754                 0.0160806      -0.0910916      0.000193517     6.54841e-05        -0.109162       -0.989082      -0.00022414     3.58944e-05
                       0.0003097    -8.58068e-05        0.0423984       -0.123567     -0.000265964    -4.86466e-05         0.103524       -0.985947
                       -0.109148       -0.989187     -0.000355356     4.37915e-05         0.035369       0.0855505      0.000281414     2.38908e-05
                    -0.000288152     0.000247312         0.103891       -0.985786      0.000270641     2.31302e-05        0.0156837        0.129737
281756                 0.0160693      -0.0910882      0.000193403     6.52474e-05        -0.109406       -0.989056     -0.000224093     3.59688e-05
                      0.00030963    -8.59562e-05        0.0423863       -0.123568     -0.000265943    -4.85559e-05         0.103289       -0.985972
                       -0.109392       -0.989161     -0.000355424     4.36746e-05        0.0353995       0.0855323       0.00028134     2.37686e-05
                    -0.000287675     0.000247652         0.103656       -0.985811      0.000270594     2.30333e-05        0.0157335        0.129728
281758                 0.0160581      -0.0910849      0.000193289     6.50119e-05        -0.109651       -0.989029     -0.000224045      3.6043e-05
                     0.000309559    -8.61052e-05        0.0423741       -0.123569     -0.000265962    -4.84611e-05         0.103053       -0.985997
                       -0.109637       -0.989134     -0.000355493     4.35596e-05          0.03543        0.085514      0.000281268     2.36462e-05
                    -0.000287198     0.000247992         0.103421       -0.985836      0.000270552     2.28813e-05        0.0157832        0.129719
281760                 0.0160469      -0.0910815      0.000193172     6.47821e-05        -0.109895       -0.989002     -0.000223995      3.6119e-05
                     0.000309489    -8.62538e-05        0.0423619        -0.12357     -0.000265955    -4.83802e-05         0.102818       -0.986022
                       -0.109881       -0.989108     -0.000355565     4.34527e-05        0.0354604       0.0854957      0.000281181     2.35276e-05
                     -0.00028672      0.00024833         0.103186       -0.985861      0.000270508     2.27797e-05         0.015833        0.129709
281762                 0.0160357      -0.0910781      0.000193113     6.44409e-05        -0.110139       -0.988975     -0.000223951     3.61934e-05
                     0.000309417     -8.6402e-05        0.0423497       -0.123571     -0.000265948    -4.82952e-05         0.102583       -0.986047
                       -0.110125       -0.989081      -0.00035557     4.31785e-05        0.0354909       0.0854773      0.000281113     2.34034e-05
