! TOUCHSTONE file generated by CST MICROWAVE STUDIO
! Date and time: Wed Oct 15 17:35:09 2025
! Project name: Teste_Macro_Metasurface_Nanopilar.cst
! Parameters = {H=600; L_x=195; L_y=185; Lambda=1064; Max_L=200; Min_L=70; PathPara=1; Phi=0; Step_L=10; Theta=0; p=520; phaseX=180; phaseY=0}
! Header version: 2018
! Port assignment regex: !\s*Touchstone port\s*([0-9]+)\s*=\s*(CST MWS port|CST DS port)\s*([0-9]+|Zmin|Zmax)\s*\(\"(.*)\"\)(\s*mode\s*([0-9]+))?.*
! Touchstone port assignment:
! Touchstone port 1 = CST MWS port Zmax ("") mode 1
! Touchstone port 2 = CST MWS port Zmax ("") mode 2
! Touchstone port 3 = CST MWS port Zmin ("") mode 1
! Touchstone port 4 = CST MWS port Zmin ("") mode 2
! S-Parameters are not renormalized. Each port impedance will be approximated by the real part at minimum frequency. The values are described via the [Reference] keyword.
! Default impedance is overridden by [Reference]
[Version] 2.0
# GHz S RI R 376.73
[Number of Ports] 4
[Reference]
376.73 376.73 259.888 259.888 
[Number of Frequencies] 51
[Network Data]
281700                  0.336969        0.149904      0.000213675     4.31137e-05         0.116931       -0.918991     -0.000484537     -0.00020875
                     0.000266618     1.10966e-05         0.415405        0.179013     -0.000622204     0.000336568         0.064027       -0.885413
                        0.116714       -0.919163     -0.000583466      0.00024017         0.362091      -0.0616224       2.7411e-05    -0.000469431
                    -0.000592267    -0.000263428        0.0646786       -0.885333     -9.26079e-06    -0.000426489         0.435185       -0.116759
281702                  0.336988         0.14989       0.00021351     4.30789e-05         0.116671       -0.919019     -0.000484825    -0.000208751
                     0.000266471     1.12486e-05         0.415418         0.17898     -0.000622215     0.000336756        0.0637612       -0.885434
                        0.116453       -0.919192     -0.000583144     0.000240281          0.36207      -0.0618084      2.74041e-05     -0.00046997
                    -0.000592529    -0.000262815        0.0644131       -0.885355     -9.77769e-06    -0.000426223         0.435122       -0.116987
281704                  0.337006        0.149875      0.000213344     4.30444e-05         0.116412       -0.919047     -0.000485112    -0.000208751
                     0.000266326     1.14007e-05          0.41543        0.178947     -0.000622226     0.000336943        0.0634955       -0.885454
                        0.116192        -0.91922     -0.000582822     0.000240391          0.36205      -0.0619944      2.73972e-05    -0.000470511
                    -0.000592788    -0.000262202        0.0641476       -0.885376      -1.0292e-05    -0.000425957         0.435059       -0.117215
281706                  0.337024        0.149861      0.000213179     4.30102e-05         0.116153       -0.919075       -0.0004854    -0.000208751
                     0.000266182      1.1553e-05         0.415443        0.178914     -0.000622238     0.000337129        0.0632297       -0.885474
                        0.115931       -0.919248       -0.0005825       0.0002405         0.362029      -0.0621803      2.73901e-05    -0.000471053
                    -0.000593044     -0.00026159        0.0638821       -0.885398     -1.08038e-05    -0.000425691         0.434996       -0.117442
281708                  0.337043        0.149847      0.000213014     4.29763e-05         0.115894       -0.919103     -0.000485688    -0.000208751
                     0.000266039     1.17053e-05         0.415455         0.17888     -0.000622251     0.000337314        0.0629639       -0.885495
                         0.11567       -0.919277     -0.000582177     0.000240608         0.362009      -0.0623663      2.73829e-05    -0.000471597
                    -0.000593296    -0.000260978        0.0636166       -0.885419     -1.13129e-05    -0.000425426         0.434933        -0.11767
281710                  0.337061        0.149833      0.000212848     4.29428e-05         0.115634        -0.91913     -0.000485977     -0.00020875
                     0.000265898     1.18578e-05         0.415468        0.178847     -0.000622264     0.000337498        0.0626982       -0.885515
                        0.115408       -0.919305     -0.000581855     0.000240714         0.361988      -0.0625522      2.73754e-05    -0.000472142
                    -0.000593546    -0.000260367        0.0633512       -0.885441     -1.18193e-05    -0.000425162          0.43487       -0.117898
281712                   0.33708        0.149818      0.000212682     4.29096e-05         0.115375       -0.919158     -0.000486266     -0.00020875
                     0.000265758     1.20105e-05          0.41548        0.178814     -0.000622279     0.000337681        0.0624324       -0.885535
                        0.115147       -0.919333     -0.000581532     0.000240818         0.361967      -0.0627382      2.73678e-05    -0.000472688
                    -0.000593792    -0.000259756        0.0630857       -0.885462      -1.2323e-05    -0.000424898         0.434806       -0.118125
281714                  0.337098        0.149804      0.000212515     4.28769e-05         0.115116       -0.919186     -0.000486555    -0.000208749
                     0.000265619     1.21633e-05         0.415493        0.178781     -0.000622294     0.000337863        0.0621666       -0.885555
                        0.114886       -0.919361     -0.000581209     0.000240922         0.361946      -0.0629241        2.736e-05    -0.000473235
                    -0.000594034    -0.000259146        0.0628202       -0.885483      -1.2824e-05    -0.000424635         0.434743       -0.118353
281716                  0.337117         0.14979      0.000212349     4.28445e-05         0.114857       -0.919213     -0.000486845    -0.000208748
                     0.000265481     1.23162e-05         0.415505        0.178747      -0.00062231     0.000338044        0.0619009       -0.885575
                        0.114625       -0.919389     -0.000580887     0.000241023         0.361925        -0.06311      2.73519e-05    -0.000473785
                    -0.000594274    -0.000258535        0.0625547       -0.885504     -1.33222e-05    -0.000424373         0.434679        -0.11858
281718                  0.337135        0.149776      0.000212182     4.28125e-05         0.114597       -0.919241     -0.000487134    -0.000208747
                     0.000265345     1.24694e-05         0.415518        0.178714     -0.000622326     0.000338223        0.0616351       -0.885594
                        0.114364       -0.919416     -0.000580564     0.000241123         0.361904      -0.0632959      2.73436e-05    -0.000474335
                     -0.00059451    -0.000257924        0.0622892       -0.885525     -1.38176e-05    -0.000424111         0.434615       -0.118808
281720                  0.337153        0.149761      0.000212014      4.2781e-05         0.114338       -0.919268     -0.000487424    -0.000208745
                      0.00026521     1.26227e-05          0.41553        0.178681     -0.000622344     0.000338402        0.0613694       -0.885614
                        0.114103       -0.919444     -0.000580241     0.000241221         0.361883      -0.0634819       2.7335e-05    -0.000474887
                    -0.000594742    -0.000257314        0.0620237       -0.885546     -1.43102e-05     -0.00042385         0.434551       -0.119035
281722                  0.337172        0.149747      0.000211846     4.27499e-05         0.114079       -0.919296     -0.000487715    -0.000208744
                     0.000265077     1.27762e-05         0.415543        0.178648     -0.000622362     0.000338579        0.0611036       -0.885634
                        0.113842       -0.919472     -0.000579917     0.000241318         0.361862      -0.0636678      2.73261e-05    -0.000475441
                    -0.000594972    -0.000256703        0.0617582       -0.885566     -1.47999e-05    -0.000423589         0.434487       -0.119262
281724                   0.33719        0.149733      0.000211678     4.27193e-05         0.113819       -0.919323     -0.000488006    -0.000208742
                     0.000264945       1.293e-05         0.415555        0.178615     -0.000622382     0.000338754        0.0608378       -0.885653
                        0.113581       -0.919499     -0.000579594     0.000241413          0.36184      -0.0638537      2.73167e-05    -0.000475996
                    -0.000595198    -0.000256092        0.0614927       -0.885587     -1.52866e-05     -0.00042333         0.434423        -0.11949
281726                  0.337209        0.149718      0.000211509     4.26892e-05          0.11356        -0.91935     -0.000488297     -0.00020874
                     0.000264814     1.30839e-05         0.415568        0.178582     -0.000622402     0.000338928        0.0605721       -0.885672
                         0.11332       -0.919527      -0.00057927     0.000241505         0.361819      -0.0640395       2.7307e-05    -0.000476553
                     -0.00059542    -0.000255481        0.0612273       -0.885608     -1.57704e-05     -0.00042307         0.434359       -0.119717
281728                  0.337227        0.149704       0.00021134     4.26597e-05         0.113301       -0.919377     -0.000488588    -0.000208738
                     0.000264685     1.32381e-05          0.41558        0.178548     -0.000622423     0.000339101        0.0603063       -0.885692
                        0.113059       -0.919554     -0.000578946     0.000241596         0.361797      -0.0642254      2.72968e-05    -0.000477111
                     -0.00059564    -0.000254869        0.0609618       -0.885628     -1.62513e-05    -0.000422812         0.434295       -0.119944
281730                  0.337246         0.14969       0.00021117     4.26307e-05         0.113041       -0.919404      -0.00048888    -0.000208735
                     0.000264557     1.33925e-05         0.415593        0.178515     -0.000622445     0.000339271        0.0600406       -0.885711
                        0.112798       -0.919581     -0.000578622     0.000241684         0.361776      -0.0644113      2.72861e-05     -0.00047767
                    -0.000595856    -0.000254257        0.0606963       -0.885648      -1.6729e-05    -0.000422554          0.43423       -0.120172
281732                  0.337264        0.149676      0.000210999     4.26023e-05         0.112782       -0.919431     -0.000489172    -0.000208732
                      0.00026443     1.35472e-05         0.415605        0.178482     -0.000622468      0.00033944        0.0597749        -0.88573
                        0.112536       -0.919609     -0.000578297     0.000241771         0.361754      -0.0645972      2.72747e-05    -0.000478232
                    -0.000596069    -0.000253645        0.0604308       -0.885669     -1.72037e-05    -0.000422296         0.434166       -0.120399
281734                  0.337283        0.149661      0.000210828     4.25746e-05         0.112522       -0.919458     -0.000489465    -0.000208729
                     0.000264305     1.37022e-05         0.415618        0.178449     -0.000622492     0.000339608        0.0595091       -0.885749
                        0.112275       -0.919636     -0.000577973     0.000241854         0.361732       -0.064783      2.72627e-05    -0.000478794
                    -0.000596279    -0.000253032        0.0601654       -0.885689     -1.76753e-05     -0.00042204         0.434101       -0.120626
281736                  0.337301        0.149647      0.000210656     4.25475e-05         0.112263       -0.919485     -0.000489757    -0.000208726
                     0.000264181     1.38574e-05          0.41563        0.178416     -0.000622517     0.000339773        0.0592434       -0.885768
                        0.112014       -0.919663     -0.000577648     0.000241936          0.36171      -0.0649689      2.72498e-05    -0.000479358
                    -0.000596485    -0.000252419        0.0598999       -0.885709     -1.81437e-05    -0.000421783         0.434036       -0.120853
281738                  0.337319        0.149633      0.000210483     4.25211e-05         0.112004       -0.919512     -0.000490051    -0.000208723
                     0.000264058     1.40129e-05         0.415643        0.178383     -0.000622543     0.000339936        0.0589776       -0.885787
                        0.111753        -0.91969     -0.000577322     0.000242015         0.361688      -0.0651548       2.7236e-05    -0.000479924
                    -0.000596689    -0.000251805        0.0596345       -0.885729      -1.8609e-05    -0.000421528         0.433972        -0.12108
281740                  0.337338        0.149618       0.00021031     4.24954e-05         0.111744       -0.919539     -0.000490344    -0.000208719
                     0.000263937     1.41687e-05         0.415655         0.17835     -0.000622569     0.000340097        0.0587119       -0.885806
                        0.111492       -0.919717     -0.000576996     0.000242091         0.361666      -0.0653406      2.72213e-05     -0.00048049
                    -0.000596889     -0.00025119         0.059369       -0.885749      -1.9071e-05    -0.000421273         0.433907       -0.121307
281742                  0.337356        0.149604      0.000210135     4.24705e-05         0.111485       -0.919565     -0.000490638    -0.000208715
                     0.000263817     1.43248e-05         0.415668        0.178317     -0.000622597     0.000340256        0.0584462       -0.885825
                        0.111231       -0.919744      -0.00057667     0.000242164         0.361643      -0.0655264      2.72055e-05    -0.000481058
                    -0.000597086    -0.000250574        0.0591036       -0.885769     -1.95297e-05    -0.000421018         0.433842       -0.121534
281744                  0.337375         0.14959       0.00020996     4.24464e-05         0.111225       -0.919592     -0.000490933     -0.00020871
                     0.000263699     1.44813e-05          0.41568        0.178283     -0.000622626     0.000340413        0.0581804       -0.885843
                         0.11097       -0.919771     -0.000576344     0.000242235         0.361621      -0.0657123      2.71885e-05    -0.000481627
                     -0.00059728    -0.000249958        0.0588381       -0.885789      -1.9985e-05    -0.000420764         0.433776       -0.121761
281746                  0.337393        0.149575      0.000209783     4.24232e-05         0.110966       -0.919618     -0.000491228    -0.000208706
                     0.000263582     1.46381e-05         0.415693         0.17825     -0.000622655     0.000340567        0.0579147       -0.885862
                        0.110708       -0.919797     -0.000576017     0.000242302         0.361599      -0.0658981      2.71704e-05    -0.000482196
                    -0.000597471    -0.000249341        0.0585727       -0.885809     -2.04371e-05    -0.000420511         0.433711       -0.121988
281748                  0.337412        0.149561      0.000209606     4.24009e-05         0.110707       -0.919645     -0.000491523      -0.0002087
                     0.000263466     1.47952e-05         0.415705        0.178217     -0.000622686     0.000340719         0.057649        -0.88588
                        0.110447       -0.919824      -0.00057569     0.000242366         0.361576      -0.0660839      2.71512e-05    -0.000482766
                    -0.000597659    -0.000248722        0.0583073       -0.885829     -2.08857e-05    -0.000420258         0.433646       -0.122215
281750                   0.33743        0.149547      0.000209427     4.23795e-05         0.110447       -0.919671     -0.000491818    -0.000208695
                     0.000263352     1.49527e-05         0.415718        0.178184     -0.000622717     0.000340868        0.0573833       -0.885899
                        0.110186        -0.91985     -0.000575362     0.000242427         0.361553      -0.0662697      2.71309e-05    -0.000483335
                    -0.000597844    -0.000248103        0.0580418       -0.885849     -2.13308e-05    -0.000420006          0.43358       -0.122442
281752                  0.337449        0.149533      0.000209247     4.23591e-05         0.110188       -0.919698     -0.000492115    -0.000208689
                      0.00026324     1.51106e-05         0.415731        0.178151      -0.00062275     0.000341014        0.0571175       -0.885917
                        0.109925       -0.919877     -0.000575033     0.000242484         0.361531      -0.0664555      2.71099e-05    -0.000483905
                    -0.000598026    -0.000247483        0.0577764       -0.885868     -2.17725e-05    -0.000419755         0.433515       -0.122669
281754                  0.337467        0.149518      0.000209066     4.23396e-05         0.109928       -0.919724     -0.000492411    -0.000208683
                     0.000263128     1.52688e-05         0.415743        0.178118     -0.000622783     0.000341158        0.0568518       -0.885935
                        0.109664       -0.919903     -0.000574705     0.000242538         0.361508      -0.0666413      2.70883e-05    -0.000484474
                    -0.000598205    -0.000246862         0.057511       -0.885888     -2.22106e-05    -0.000419503         0.433449       -0.122895
281756                  0.337485        0.149504      0.000208884     4.23211e-05         0.109669        -0.91975     -0.000492709    -0.000208676
                     0.000263018     1.54275e-05         0.415756        0.178085     -0.000622817     0.000341298        0.0565861       -0.885954
                        0.109402        -0.91993     -0.000574376     0.000242589         0.361485      -0.0668271      2.70666e-05    -0.000485043
                    -0.000598381     -0.00024624        0.0572456       -0.885908     -2.26451e-05    -0.000419253         0.433383       -0.123122
281758                  0.337504         0.14949      0.000208701     4.23036e-05         0.109409       -0.919776     -0.000493006    -0.000208669
                      0.00026291     1.55866e-05         0.415768        0.178052     -0.000622852     0.000341435        0.0563204       -0.885972
                        0.109141       -0.919956     -0.000574046     0.000242637         0.361462      -0.0670129      2.70453e-05    -0.000485611
                    -0.000598555    -0.000245617        0.0569802       -0.885928      -2.3076e-05    -0.000419003         0.433317       -0.123349
281760                  0.337522        0.149475      0.000208517     4.22869e-05          0.10915       -0.919802     -0.000493305    -0.000208661
                     0.000262803     1.57461e-05         0.415781        0.178019     -0.000622888      0.00034157        0.0560547        -0.88599
                         0.10888       -0.919982     -0.000573716     0.000242682         0.361439      -0.0671987      2.70248e-05    -0.000486179
                    -0.000598725    -0.000244992        0.0567147       -0.885947     -2.35032e-05    -0.000418753         0.433251       -0.123575
281762                  0.337541        0.149461      0.000208332     4.22709e-05         0.108891       -0.919828     -0.000493604    -0.000208653
                     0.000262697     1.59061e-05         0.415794        0.177986     -0.000622925       0.0003417         0.055789       -0.886007
                        0.108619       -0.920008     -0.000573386     0.000242724         0.361416      -0.0673844      2.70057e-05    -0.000486746
