! TOUCHSTONE file generated by CST MICROWAVE STUDIO
! Date and time: Wed Oct 15 17:31:37 2025
! Project name: Teste_Macro_Metasurface_Nanopilar.cst
! Parameters = {H=600; L_x=135; L_y=130; Lambda=1064; Max_L=200; Min_L=70; PathPara=1; Phi=0; Step_L=10; Theta=0; p=520; phaseX=180; phaseY=0}
! Header version: 2018
! Port assignment regex: !\s*Touchstone port\s*([0-9]+)\s*=\s*(CST MWS port|CST DS port)\s*([0-9]+|Zmin|Zmax)\s*\(\"(.*)\"\)(\s*mode\s*([0-9]+))?.*
! Touchstone port assignment:
! Touchstone port 1 = CST MWS port Zmax ("") mode 1
! Touchstone port 2 = CST MWS port Zmax ("") mode 2
! Touchstone port 3 = CST MWS port Zmin ("") mode 1
! Touchstone port 4 = CST MWS port Zmin ("") mode 2
! S-Parameters are not renormalized. Each port impedance will be approximated by the real part at minimum frequency. The values are described via the [Reference] keyword.
! Default impedance is overridden by [Reference]
[Version] 2.0
# GHz S RI R 376.73
[Number of Ports] 4
[Reference]
376.73 376.73 259.888 259.888 
[Number of Frequencies] 51
[Network Data]
281700                 0.0623752        0.101862      -0.00133743     -0.00011388         0.970039         0.18317      0.000104819    -0.000702667
                     -0.00129739    -0.000122116        0.0754541        0.122744      0.000255484    -0.000760817         0.984126       0.0153502
                        0.970037        0.183155      2.91984e-05     -0.00073195        -0.094004       0.0730027        0.0014292     0.000356335
                      0.00014192    -0.000698178         0.983806       0.0148695       0.00154475     0.000186884       -0.0780092        0.120592
281702                 0.0623896        0.101875      -0.00133784    -0.000113557         0.970098        0.182843      0.000104668    -0.000702907
                      -0.0012977    -0.000121729        0.0754694        0.122756      0.000255159    -0.000761111         0.984129       0.0150273
                        0.970097        0.182828      2.88072e-05    -0.000732459       -0.0939733        0.073073       0.00142984      0.00035581
                     0.000141708    -0.000698421         0.983809       0.0145456       0.00154511     0.000186414       -0.0779458        0.120654
281704                 0.0624041        0.101888      -0.00133828    -0.000113253         0.970158        0.182516      0.000104515    -0.000703146
                     -0.00129801    -0.000121342        0.0754847        0.122768      0.000254833    -0.000761405         0.984132       0.0147043
                        0.970157        0.182501      2.83001e-05    -0.000733033       -0.0939426       0.0731433       0.00143047     0.000355284
                     0.000141496    -0.000698663         0.983811       0.0142215       0.00154548     0.000185944       -0.0778823        0.120717
281706                 0.0624185        0.101902      -0.00133875    -0.000112972         0.970217        0.182189      0.000104354    -0.000703383
                     -0.00129831    -0.000120954           0.0755         0.12278      0.000254506    -0.000761699         0.984134       0.0143813
                        0.970216        0.182174      2.76662e-05    -0.000733678       -0.0939118       0.0732135       0.00143108     0.000354752
                     0.000141284    -0.000698905         0.983813       0.0138973       0.00154584     0.000185474       -0.0778188        0.120779
281708                 0.0624329        0.101915      -0.00133925    -0.000112715         0.970277        0.181862       0.00010418    -0.000703666
                     -0.00129862    -0.000120566        0.0755153        0.122792       0.00025418    -0.000761993         0.984136       0.0140583
                        0.970276        0.181847       2.6894e-05    -0.000734402        -0.093881       0.0732838       0.00143166       0.0003542
                     0.000141072    -0.000699147         0.983814       0.0135728        0.0015462     0.000185004       -0.0777552        0.120842
281710                 0.0624474        0.101928       -0.0013398    -0.000112485         0.970336        0.181535      0.000104072    -0.000703904
                     -0.00129893    -0.000120178        0.0755306        0.122804      0.000253853    -0.000762287         0.984139       0.0137354
                        0.970335         0.18152       2.5972e-05    -0.000735211       -0.0938501       0.0733541       0.00143223     0.000353576
                     0.000140859    -0.000699389         0.983815       0.0132481       0.00154657     0.000184534       -0.0776916        0.120904
281712                 0.0624618        0.101942      -0.00134038    -0.000112285         0.970395        0.181208      0.000103925    -0.000704137
                     -0.00129924    -0.000119789        0.0755459        0.122816      0.000253526    -0.000762581         0.984141       0.0134124
                        0.970394        0.181192      2.48894e-05    -0.000736113       -0.0938191       0.0734243       0.00143291     0.000352846
                     0.000140646    -0.000699631         0.983815       0.0129233       0.00154693     0.000184064        -0.077628        0.120967
281714                 0.0624763        0.101955      -0.00134101    -0.000112115         0.970454        0.180881      0.000103774    -0.000704375
                     -0.00129955      -0.0001194        0.0755612        0.122829      0.000253199    -0.000762875         0.984143       0.0130895
                        0.970453        0.180865      2.36382e-05    -0.000737113       -0.0937881       0.0734946       0.00143374     0.000352252
                     0.000140433    -0.000699872         0.983814       0.0125983       0.00154729     0.000183594       -0.0775643        0.121029
281716                 0.0624907        0.101968      -0.00134168    -0.000111978         0.970513        0.180554      0.000103623    -0.000704615
                     -0.00129985    -0.000119011        0.0755765        0.122841      0.000252871    -0.000763169         0.984145       0.0127665
                        0.970512        0.180538      2.22152e-05    -0.000738214       -0.0937571       0.0735648       0.00143449     0.000351775
                      0.00014022    -0.000700114         0.983812       0.0122732       0.00154765     0.000183123       -0.0775006        0.121091
281718                 0.0625052        0.101982       -0.0013424    -0.000111872         0.970572        0.180227      0.000103471    -0.000704857
                     -0.00130016    -0.000118621        0.0755918        0.122853      0.000252543    -0.000763463         0.984147       0.0124436
                        0.970571        0.180211      2.06272e-05    -0.000739412        -0.093726        0.073635       0.00143518     0.000351292
                     0.000140006    -0.000700355          0.98381       0.0119481       0.00154802     0.000182653       -0.0774368        0.121154
281720                 0.0625196        0.101995      -0.00134315    -0.000111795         0.970631          0.1799      0.000103319    -0.000705098
                     -0.00130047    -0.000118231        0.0756071        0.122865      0.000252214    -0.000763756         0.984149       0.0121206
                         0.97063        0.179884      1.88984e-05    -0.000740696       -0.0936948       0.0737052       0.00143584     0.000350788
                     0.000139792    -0.000700597         0.983807        0.011623       0.00154838     0.000182183        -0.077373        0.121216
281722                 0.0625341        0.102008      -0.00134392    -0.000111737          0.97069        0.179573      0.000103168     -0.00070534
                     -0.00130078    -0.000117841        0.0756225        0.122878      0.000251886     -0.00076405          0.98415       0.0117977
                        0.970689        0.179557       1.7083e-05    -0.000742035       -0.0936636       0.0737754       0.00143649     0.000350271
                     0.000139578    -0.000700838         0.983803        0.011298       0.00154874     0.000181713       -0.0773091        0.121278
281724                 0.0625485        0.102022      -0.00134468    -0.000111679         0.970748        0.179246      0.000103016    -0.000705582
                     -0.00130108    -0.000117451        0.0756378         0.12289      0.000251557    -0.000764343         0.984152       0.0114748
                        0.970747        0.179229      1.52865e-05    -0.000743369       -0.0936324       0.0738455       0.00143714     0.000349746
                     0.000139363    -0.000701079           0.9838       0.0109733        0.0015491     0.000181243       -0.0772452         0.12134
281726                  0.062563        0.102035       -0.0013454    -0.000111584         0.970807        0.178919      0.000102863    -0.000705825
                     -0.00130139     -0.00011706        0.0756531        0.122902      0.000251227    -0.000764637         0.984153       0.0111519
                        0.970805        0.178902      1.36978e-05     -0.00074459       -0.0936011       0.0739157       0.00143779     0.000349214
                     0.000139148     -0.00070132         0.983798       0.0106488       0.00154946     0.000180772       -0.0771812        0.121402
281728                 0.0625774        0.102048      -0.00134598    -0.000111392         0.970865        0.178592      0.000102711    -0.000706067
                      -0.0013017    -0.000116669        0.0756684        0.122914      0.000250898     -0.00076493         0.984155       0.0108289
                        0.970864        0.178575      1.26404e-05     -0.00074551       -0.0935697       0.0739858       0.00143844     0.000348679
                     0.000138933     -0.00070156         0.983797       0.0103248       0.00154982     0.000180302       -0.0771172        0.121465
281730                 0.0625919        0.102062      -0.00134629       -0.000111         0.970923        0.178264      0.000102558     -0.00070631
                     -0.00130201    -0.000116277        0.0756837        0.122926      0.000250568    -0.000765223         0.984156       0.0105059
                        0.970922        0.178248      1.26405e-05    -0.000745822       -0.0935383        0.074056       0.00143909      0.00034814
                     0.000138718    -0.000701801           0.9838       0.0100012       0.00155019     0.000179832       -0.0770531        0.121527
281732                 0.0626063        0.102075      -0.00134612    -0.000110255         0.970981        0.177937      0.000102405    -0.000706553
                     -0.00130232    -0.000115885         0.075699        0.122938      0.000250237    -0.000765515         0.984159       0.0101826
                         0.97098         0.17792       1.4504e-05    -0.000745053       -0.0935069       0.0741261       0.00143974     0.000347598
                     0.000138502    -0.000702042         0.983809       0.0096786       0.00155055     0.000179362       -0.0769892        0.121589
281734                 0.0626208        0.102088       -0.0013452    -0.000108957         0.971039         0.17761      0.000102252    -0.000706796
                     -0.00130262    -0.000115493        0.0757142        0.122948      0.000249906    -0.000765808         0.984158      0.00986036
                        0.971038        0.177593      1.93496e-05    -0.000742546       -0.0934754       0.0741962        0.0014404     0.000347054
                     0.000138287    -0.000702282         0.983829      0.00935868       0.00155091     0.000178891       -0.0769249        0.121651
281736                 0.0626353        0.102101      -0.00134317    -0.000106904         0.971097        0.177283      0.000102099    -0.000707039
                     -0.00130293    -0.000115101        0.0757296        0.122958      0.000249574    -0.000766099         0.984159      0.00953744
                        0.971096        0.177266      2.84757e-05    -0.000737544       -0.0934438       0.0742663       0.00144105     0.000346509
                      0.00013807    -0.000702522         0.983862      0.00904617       0.00155127     0.000178421       -0.0768607        0.121713
281738                 0.0626497        0.102115      -0.00133977    -0.000104016         0.971155        0.176956      0.000101945    -0.000707282
                     -0.00130324    -0.000114708        0.0757453        0.122966      0.000249241     -0.00076639          0.98416      0.00921455
                        0.971154        0.176939      4.28796e-05    -0.000729472       -0.0934122       0.0743364        0.0014417     0.000345961
                     0.000137854    -0.000702762         0.983909      0.00875047       0.00155163     0.000177951       -0.0767965        0.121775
281740                 0.0626642        0.102128      -0.00133501    -0.000100485         0.971212        0.176629      0.000101791    -0.000707526
                     -0.00130355    -0.000114314         0.075762        0.122973      0.000248907    -0.000766679         0.984161      0.00889166
                        0.971211        0.176611      6.23965e-05    -0.000718451       -0.0933805       0.0744064       0.00144235     0.000345412
                     0.000137637    -0.000703003         0.983955      0.00848026         0.001552      0.00017748       -0.0767322        0.121837
281742                 0.0626786        0.102141      -0.00132942    -9.68006e-05          0.97127        0.176301      0.000101637    -0.000707769
                     -0.00130386    -0.000113921        0.0757801        0.122979       0.00024857    -0.000766965         0.984161      0.00856878
                        0.971269        0.176284      8.49983e-05    -0.000705683       -0.0933488       0.0744765         0.001443      0.00034486
                      0.00013742    -0.000703243          0.98398      0.00822748       0.00155236      0.00017701       -0.0766678        0.121899
281744                 0.0626931        0.102155      -0.00132392    -9.35143e-05         0.971327        0.175974      0.000101483    -0.000708013
                     -0.00130416    -0.000113527        0.0757993        0.122986      0.000248226    -0.000767243         0.984162      0.00824591
                        0.971326        0.175957      0.000107225    -0.000693171       -0.0933171       0.0745465       0.00144365     0.000344308
                     0.000137203    -0.000703482         0.983979      0.00796834       0.00155274      0.00017654       -0.0766034         0.12196
281746                 0.0627076        0.102168      -0.00131938    -9.09454e-05         0.971384        0.175647      0.000101328    -0.000708257
                     -0.00130447    -0.000113133        0.0758187        0.122994      0.000247856    -0.000767487         0.984162      0.00792304
                        0.971384        0.175629      0.000125836    -0.000682746       -0.0932852       0.0746166       0.00144431     0.000343753
                     0.000136986    -0.000703722         0.983964      0.00768892       0.00155314     0.000176071        -0.076539        0.122022
281748                  0.062722        0.102181      -0.00131619    -8.91103e-05         0.971441        0.175321      0.000101173    -0.000708501
                     -0.00130478    -0.000112738        0.0758374        0.123003      0.000252207    -0.000777352         0.984163      0.00760018
                        0.971441        0.175302      0.000139248    -0.000675276       -0.0932531       0.0746863       0.00144496     0.000343197
                     0.000136768    -0.000703962         0.983949      0.00739111       0.00155394     0.000175861       -0.0764745        0.122084
281750                 0.0627365        0.102194       -0.0013143    -8.78573e-05         0.971499        0.174992      0.000101018    -0.000708746
                     -0.00130509    -0.000112343        0.0758549        0.123014      0.000247347    -0.000768273         0.984163      0.00727733
                        0.971498        0.174975      0.000147621    -0.000670647       -0.0932216       0.0747567       0.00144561     0.000342639
                      0.00013655    -0.000704201         0.983938      0.00708136       0.00155364     0.000175157         -0.07641        0.122146
281752                  0.062751        0.102208      -0.00131343    -8.70068e-05         0.971556        0.174665      0.000100862    -0.000708991
                      -0.0013054    -0.000111948        0.0758715        0.123025      0.000246978    -0.000768519         0.984163      0.00695448
                        0.971555        0.174647      0.000152041     -0.00066824       -0.0931896       0.0748266       0.00144627     0.000342079
                     0.000136332    -0.000704441         0.983932      0.00676469       0.00155406      0.00017467       -0.0763454        0.122208
281754                 0.0627654        0.102221      -0.00131326    -8.64131e-05         0.971613        0.174338      0.000100706    -0.000709236
                     -0.00130571    -0.000111553        0.0758874        0.123037      0.000246634    -0.000768797         0.984163      0.00663163
                        0.971612         0.17432      0.000153755    -0.000667353       -0.0931575       0.0748966       0.00144692     0.000341517
                     0.000136113     -0.00070468         0.983928       0.0064441       0.00155444     0.000174197       -0.0762808        0.122269
281756                 0.0627799        0.102234      -0.00131352    -8.59744e-05         0.971669         0.17401       0.00010055    -0.000709482
                     -0.00130601    -0.000111157        0.0759029        0.123049      0.000246295    -0.000769083         0.984163       0.0063088
                        0.971669        0.173992      0.000153787    -0.000667414       -0.0931255       0.0749666       0.00144758     0.000340952
                     0.000135894    -0.000704919         0.983927       0.0061213        0.0015548     0.000173725       -0.0762162        0.122331
281758                 0.0627944        0.102248      -0.00131402     -8.5624e-05         0.971726        0.173683      0.000100393     -0.00070973
                     -0.00130632    -0.000110761        0.0759181        0.123061       0.00024596    -0.000769373         0.984163      0.00598596
                        0.971725        0.173665      0.000152861    -0.000668019       -0.0930933       0.0750365       0.00144824     0.000340386
                     0.000135675    -0.000705158         0.983926      0.00579727       0.00155517     0.000173255       -0.0761515        0.122392
281760                 0.0628089        0.102261      -0.00131465    -8.53199e-05         0.971782        0.173356      0.000100236     -0.00070998
                     -0.00130663    -0.000110364        0.0759332        0.123073      0.000245625    -0.000769665         0.984162      0.00566313
                        0.971782        0.173338      0.000151447    -0.000668904       -0.0930612       0.0751065        0.0014489     0.000339817
                     0.000135456    -0.000705397         0.983927      0.00547258       0.00155553     0.000172784       -0.0760867        0.122454
281762                 0.0628233        0.102274      -0.00131533    -8.50362e-05         0.971839        0.173028       0.00010008    -0.000710236
                     -0.00130694    -0.000109967        0.0759482        0.123085      0.000245291    -0.000769957         0.984162      0.00534031
                        0.971838         0.17301      0.000149834    -0.000669906        -0.093029       0.0751764       0.00144957     0.000339247
