! TOUCHSTONE file generated by CST MICROWAVE STUDIO
! Date and time: Wed Oct 15 17:32:49 2025
! Project name: Teste_Macro_Metasurface_Nanopilar.cst
! Parameters = {H=600; L_x=155; L_y=160; Lambda=1064; Max_L=200; Min_L=70; PathPara=1; Phi=0; Step_L=10; Theta=0; p=520; phaseX=180; phaseY=0}
! Header version: 2018
! Port assignment regex: !\s*Touchstone port\s*([0-9]+)\s*=\s*(CST MWS port|CST DS port)\s*([0-9]+|Zmin|Zmax)\s*\(\"(.*)\"\)(\s*mode\s*([0-9]+))?.*
! Touchstone port assignment:
! Touchstone port 1 = CST MWS port Zmax ("") mode 1
! Touchstone port 2 = CST MWS port Zmax ("") mode 2
! Touchstone port 3 = CST MWS port Zmin ("") mode 1
! Touchstone port 4 = CST MWS port Zmin ("") mode 2
! S-Parameters are not renormalized. Each port impedance will be approximated by the real part at minimum frequency. The values are described via the [Reference] keyword.
! Default impedance is overridden by [Reference]
[Version] 2.0
# GHz S RI R 376.73
[Number of Ports] 4
[Reference]
376.73 376.73 259.888 259.888 
[Number of Frequencies] 51
[Network Data]
281700                  0.170373       -0.025625      0.000309869     0.000274711         0.730948       -0.653529     -0.000245493    -3.81266e-05
                     0.000251949     0.000192818         0.175239      -0.0404557      1.00858e-05    -0.000208834         0.775399       -0.597086
                        0.731252        -0.65341     -4.04647e-05    -0.000195255       -0.0439778        0.161168      0.000260743     0.000368022
                    -0.000150306     1.13088e-05         0.775446       -0.597053      0.000309079     0.000415207       -0.0826667        0.152855
281702                  0.170368      -0.0255972      0.000309783     0.000274523         0.730747       -0.653758     -0.000245378    -3.79307e-05
                     0.000251865     0.000192764         0.175229      -0.0404208      1.00882e-05    -0.000208566          0.77521       -0.597339
                        0.731051       -0.653639     -4.04303e-05    -0.000195087        -0.043849        0.161196      0.000260755     0.000367726
                    -0.000150302     1.15403e-05         0.775257       -0.597305      0.000309258     0.000414677       -0.0825316         0.15291
281704                  0.170364      -0.0255695      0.000309697     0.000274334         0.730545       -0.653986     -0.000245262    -3.77349e-05
                     0.000251781     0.000192711         0.175219      -0.0403859      1.00898e-05    -0.000208298         0.775021       -0.597591
                        0.730849       -0.653869     -4.03958e-05    -0.000194919       -0.0437202        0.161224      0.000260766     0.000367431
                    -0.000150298     1.17707e-05         0.775068       -0.597558      0.000309437     0.000414145       -0.0823965        0.152965
281706                  0.170359      -0.0255417      0.000309611     0.000274146         0.730343       -0.654215     -0.000245146    -3.75394e-05
                     0.000251696     0.000192658         0.175209      -0.0403511      1.00902e-05    -0.000208028         0.774832       -0.597843
                        0.730647       -0.654098     -4.03612e-05    -0.000194751       -0.0435914        0.161251      0.000260778     0.000367135
                    -0.000150295     1.19999e-05         0.774879        -0.59781      0.000309615      0.00041361       -0.0822615        0.153019
281708                  0.170355       -0.025514      0.000309525     0.000273958         0.730141       -0.654444     -0.000245031    -3.73441e-05
                     0.000251612     0.000192606         0.175198      -0.0403163      1.00891e-05    -0.000207756         0.774643       -0.598095
                        0.730445       -0.654327     -4.03265e-05    -0.000194583       -0.0434626        0.161278      0.000260789      0.00036684
                    -0.000150293     1.22279e-05          0.77469       -0.598062      0.000309793     0.000413073       -0.0821264        0.153074
281710                   0.17035      -0.0254863      0.000309439      0.00027377         0.729939       -0.654672     -0.000244914     -3.7149e-05
                     0.000251528     0.000192554         0.175188      -0.0402815      1.00858e-05    -0.000207481         0.774453       -0.598347
                        0.730243       -0.654556     -4.02917e-05    -0.000194415       -0.0433338        0.161306        0.0002608     0.000366545
                    -0.000150291     1.24549e-05         0.774501       -0.598314       0.00030997      0.00041253       -0.0819913        0.153128
281712                  0.170346      -0.0254585      0.000309353     0.000273582         0.729736         -0.6549     -0.000244798    -3.69542e-05
                     0.000251444     0.000192503         0.175178      -0.0402467      1.00793e-05    -0.000207202         0.774264       -0.598599
                        0.730041       -0.654785     -4.02569e-05    -0.000194248       -0.0432051        0.161333      0.000260811     0.000366251
                     -0.00015029     1.26807e-05         0.774311       -0.598567      0.000310147      0.00041198       -0.0818562        0.153182
281714                  0.170342      -0.0254308      0.000309267     0.000273394         0.729534       -0.655129     -0.000244682    -3.67595e-05
                      0.00025136     0.000192452         0.175168       -0.040212       1.0068e-05    -0.000206918         0.774075       -0.598851
                        0.729839       -0.655014      -4.0222e-05     -0.00019408       -0.0430763         0.16136      0.000260821     0.000365956
                     -0.00015029     1.29054e-05         0.774122       -0.598819      0.000310322     0.000411418       -0.0817211        0.153236
281716                  0.170337      -0.0254032      0.000309181     0.000273206         0.729332       -0.655357     -0.000244566     -3.6565e-05
                     0.000251276     0.000192401         0.175158      -0.0401772      1.00491e-05    -0.000206627         0.773885       -0.599103
                        0.729637       -0.655243      -4.0187e-05    -0.000193913       -0.0429476        0.161387      0.000260832     0.000365662
                    -0.000150291      1.3129e-05         0.773932       -0.599071      0.000310492     0.000410838        -0.081586         0.15329
281718                  0.170333      -0.0253755      0.000309095     0.000273019         0.729129       -0.655585     -0.000244449    -3.63707e-05
                     0.000251192     0.000192351         0.175147      -0.0401425       1.0017e-05    -0.000206324         0.773696       -0.599355
                        0.729435       -0.655472      -4.0152e-05    -0.000193745       -0.0428188        0.161414      0.000260842     0.000365368
                    -0.000150292     1.33514e-05         0.773743       -0.599323      0.000310647     0.000410227       -0.0814509        0.153344
281720                  0.170328      -0.0253478      0.000309009     0.000272831         0.728927       -0.655813     -0.000244332    -3.61766e-05
                     0.000251108     0.000192302         0.175137      -0.0401078      9.96096e-06    -0.000206007         0.773506       -0.599607
                        0.729233       -0.655701     -4.01169e-05    -0.000193578       -0.0426901        0.161441      0.000260852     0.000365074
                    -0.000150294     1.35728e-05         0.773553       -0.599574      0.000310756     0.000409566       -0.0813158        0.153398
281722                  0.170324      -0.0253202      0.000308922     0.000272644         0.728724       -0.656041     -0.000244216    -3.59827e-05
                     0.000251024     0.000192252         0.175127      -0.0400731      9.85664e-06    -0.000205672         0.773317       -0.599858
                         0.72903       -0.655929     -4.00817e-05    -0.000193411       -0.0425613        0.161467      0.000260862      0.00036478
                    -0.000150296     1.37931e-05         0.773364       -0.599826      0.000310721     0.000408863       -0.0811806        0.153452
281724                   0.17032      -0.0252925      0.000308836     0.000272456         0.728522       -0.656269     -0.000244099     -3.5789e-05
                      0.00025094     0.000192203         0.175117      -0.0400385      9.64829e-06    -0.000205336         0.773127        -0.60011
                        0.728828       -0.656158     -4.00464e-05    -0.000193244       -0.0424326        0.161494      0.000260872     0.000364487
                    -0.000150299     1.40124e-05         0.773174       -0.600078      0.000310426     0.000408363       -0.0810455        0.153505
281726                  0.170315      -0.0252649       0.00030875     0.000272269         0.728319       -0.656497     -0.000243982    -3.55954e-05
                     0.000250856     0.000192155         0.175107      -0.0400038      9.23876e-06    -0.000205125         0.772937       -0.600361
                        0.728625       -0.656386      -4.0011e-05    -0.000193077       -0.0423038        0.161521      0.000260882     0.000364193
                    -0.000150303     1.42305e-05         0.772984       -0.600329      0.000310357     0.000408318       -0.0809104        0.153559
281728                  0.170311      -0.0252373      0.000308663     0.000272082         0.728116       -0.656725     -0.000243865    -3.54021e-05
                     0.000250772     0.000192107         0.175097      -0.0399692      8.82878e-06    -0.000205441         0.772747       -0.600612
                        0.728423       -0.656615     -3.99756e-05     -0.00019291       -0.0421751        0.161547      0.000260891       0.0003639
                    -0.000150308     1.44476e-05         0.772794       -0.600581      0.000310697     0.000408118       -0.0807752        0.153612
281730                  0.170306      -0.0252097      0.000308577     0.000271895         0.727914       -0.656952     -0.000243747    -3.52089e-05
                     0.000250689     0.000192059         0.175087      -0.0399345      9.19408e-06    -0.000205865         0.772557       -0.600864
                         0.72822       -0.656843     -3.99401e-05    -0.000192743       -0.0420464        0.161573        0.0002609     0.000363607
                    -0.000150313     1.46636e-05         0.772604       -0.600832       0.00031104      0.00040769         -0.08064        0.153665
281732                  0.170302      -0.0251821       0.00030849     0.000271708         0.727711        -0.65718      -0.00024363     -3.5016e-05
                     0.000250605     0.000192012         0.175077      -0.0398999       9.6913e-06    -0.000205677         0.772367       -0.601115
                        0.728018       -0.657071     -3.99045e-05    -0.000192576       -0.0419176          0.1616       0.00026091     0.000363314
                    -0.000150319     1.48786e-05         0.772414       -0.601084      0.000311317     0.000407187       -0.0805049        0.153718
281734                  0.170298      -0.0251545      0.000308404     0.000271522         0.727508       -0.657407     -0.000243513    -3.48232e-05
                     0.000250521     0.000191965         0.175067      -0.0398653      9.94156e-06    -0.000205311         0.772177       -0.601366
                        0.727815         -0.6573     -3.98689e-05     -0.00019241       -0.0417889        0.161626      0.000260919     0.000363022
                    -0.000150325     1.50925e-05         0.772224       -0.601335       0.00031155     0.000406664       -0.0803697        0.153771
281736                  0.170293      -0.0251269      0.000308317     0.000271335         0.727305       -0.657635     -0.000243396    -3.46306e-05
                     0.000250437     0.000191918         0.175057      -0.0398308      1.00611e-05    -0.000204955         0.771987       -0.601617
                        0.727612       -0.657528     -3.98331e-05    -0.000192243       -0.0416602        0.161652      0.000260927     0.000362729
                    -0.000150332     1.53053e-05         0.772034       -0.601586      0.000311756     0.000406137       -0.0802345        0.153824
281738                  0.170289      -0.0250994       0.00030823     0.000271148         0.727102       -0.657862     -0.000243278    -3.44381e-05
                     0.000250354     0.000191872         0.175047      -0.0397962      1.01245e-05    -0.000204626         0.771797       -0.601868
                        0.727409       -0.657756     -3.97973e-05    -0.000192077       -0.0415315        0.161678      0.000260936     0.000362437
                     -0.00015034     1.55172e-05         0.771844       -0.601837      0.000311946     0.000405611       -0.0800993        0.153877
281740                  0.170285      -0.0250718      0.000308144     0.000270962         0.726898       -0.658089     -0.000243161    -3.42459e-05
                      0.00025027     0.000191826         0.175037      -0.0397617       1.0162e-05    -0.000204319         0.771606       -0.602119
                        0.727207       -0.657984     -3.97615e-05     -0.00019191       -0.0414028        0.161704      0.000260945     0.000362145
                    -0.000150348      1.5728e-05         0.771654       -0.602088      0.000312125     0.000405086       -0.0799642         0.15393
281742                   0.17028      -0.0250443      0.000308057     0.000270776         0.726695       -0.658317     -0.000243043    -3.40538e-05
                     0.000250186      0.00019178         0.175027      -0.0397272      1.01864e-05    -0.000204028         0.771416       -0.602369
                        0.727004       -0.658212     -3.97255e-05    -0.000191744        -0.041274         0.16173      0.000260953     0.000361853
                    -0.000150357     1.59378e-05         0.771463       -0.602339      0.000312298     0.000404562        -0.079829        0.153983
281744                  0.170276      -0.0250168       0.00030797      0.00027059         0.726492       -0.658544     -0.000242926    -3.38619e-05
                     0.000250103     0.000191735         0.175017      -0.0396927      1.02036e-05    -0.000203748         0.771226        -0.60262
                        0.726801       -0.658439     -3.96895e-05    -0.000191578       -0.0411453        0.161755      0.000260961     0.000361561
                    -0.000150367     1.61465e-05         0.771273        -0.60259      0.000312464      0.00040404       -0.0796937        0.154035
281746                  0.170272      -0.0249893      0.000307883     0.000270404         0.726289       -0.658771     -0.000242808    -3.36703e-05
                     0.000250019      0.00019169         0.175007      -0.0396582      1.02166e-05    -0.000203476         0.771035       -0.602871
                        0.726598       -0.658667     -3.96534e-05    -0.000191412       -0.0410166        0.161781       0.00026097     0.000361269
                    -0.000150377     1.63543e-05         0.771082       -0.602841      0.000312627      0.00040352       -0.0795585        0.154087
281748                  0.170267      -0.0249618      0.000307796     0.000270218         0.726085       -0.658998      -0.00024269    -3.34787e-05
                     0.000249936     0.000191646         0.174997      -0.0396237      1.02268e-05     -0.00020321         0.770844       -0.603121
                        0.726394       -0.658895     -3.96172e-05    -0.000191246       -0.0408879        0.161807      0.000260978     0.000360978
                    -0.000150388     1.65611e-05         0.770892       -0.603091      0.000312786     0.000403001       -0.0794233         0.15414
281750                  0.170263      -0.0249343      0.000307709     0.000270032         0.725882       -0.659225     -0.000242573    -3.32874e-05
                     0.000249852     0.000191602         0.174987      -0.0395893      1.02352e-05    -0.000202948         0.770654       -0.603371
                        0.726191       -0.659122     -3.95809e-05     -0.00019108       -0.0407592        0.161832      0.000260985     0.000360686
                    -0.000150399     1.67668e-05         0.770701       -0.603342      0.000312942     0.000402482       -0.0792881        0.154192
281752                  0.170259      -0.0249068      0.000307622     0.000269846         0.725678       -0.659451     -0.000242455    -3.30963e-05
                     0.000249769     0.000191558         0.174977      -0.0395549      1.02424e-05    -0.000202691         0.770463       -0.603622
                        0.725988        -0.65935     -3.95446e-05    -0.000190914       -0.0406305        0.161857      0.000260993     0.000360395
                    -0.000150411     1.69716e-05          0.77051       -0.603592      0.000313096     0.000401965       -0.0791529        0.154244
281754                  0.170255      -0.0248793      0.000307535     0.000269661         0.725475       -0.659678     -0.000242337    -3.29053e-05
                     0.000249686     0.000191514         0.174967      -0.0395204      1.02486e-05    -0.000202436         0.770272       -0.603872
                        0.725785       -0.659577     -3.95082e-05    -0.000190748       -0.0405018        0.161883      0.000261001     0.000360104
                    -0.000150423     1.71754e-05         0.770319       -0.603843      0.000313247     0.000401448       -0.0790176        0.154296
281756                   0.17025      -0.0248519      0.000307448     0.000269475         0.725271       -0.659905     -0.000242219    -3.27146e-05
                     0.000249602     0.000191471         0.174957       -0.039486       1.0254e-05    -0.000202184         0.770081       -0.604122
                        0.725581       -0.659805     -3.94717e-05    -0.000190582       -0.0403731        0.161908      0.000261008     0.000359813
                    -0.000150436     1.73782e-05         0.770129       -0.604093      0.000313397     0.000400932       -0.0788824        0.154348
281758                  0.170246      -0.0248244      0.000307361      0.00026929         0.725067       -0.660131     -0.000242101     -3.2524e-05
                     0.000249519     0.000191428         0.174947      -0.0394517      1.02588e-05    -0.000201934          0.76989       -0.604372
                        0.725378       -0.660032     -3.94352e-05    -0.000190417       -0.0402444        0.161933      0.000261016     0.000359522
                     -0.00015045       1.758e-05         0.769938       -0.604343      0.000313544     0.000400417       -0.0787471          0.1544
281760                  0.170242       -0.024797      0.000307274     0.000269104         0.724864       -0.660358     -0.000241983    -3.23336e-05
                     0.000249436     0.000191386         0.174938      -0.0394173       1.0263e-05    -0.000201685         0.769699       -0.604622
                        0.725174       -0.660259     -3.93985e-05    -0.000190251       -0.0401157        0.161958      0.000261023     0.000359231
                    -0.000150464     1.77809e-05         0.769747       -0.604593       0.00031369     0.000399902       -0.0786119        0.154451
281762                  0.170238      -0.0247696      0.000307187     0.000268919          0.72466       -0.660584     -0.000241865    -3.21434e-05
                     0.000249353     0.000191343         0.174928       -0.039383      1.02665e-05    -0.000201439         0.769508       -0.604872
                        0.724971       -0.660486     -3.93618e-05    -0.000190086        -0.039987        0.161983       0.00026103     0.000358941
