! TOUCHSTONE file generated by CST MICROWAVE STUDIO
! Date and time: Wed Oct 15 17:27:54 2025
! Project name: Teste_Macro_Metasurface_Nanopilar.cst
! Parameters = {H=600; L_x=70; L_y=145; Lambda=1064; Max_L=200; Min_L=70; PathPara=1; Phi=0; Step_L=10; Theta=0; p=520; phaseX=180; phaseY=0}
! Header version: 2018
! Port assignment regex: !\s*Touchstone port\s*([0-9]+)\s*=\s*(CST MWS port|CST DS port)\s*([0-9]+|Zmin|Zmax)\s*\(\"(.*)\"\)(\s*mode\s*([0-9]+))?.*
! Touchstone port assignment:
! Touchstone port 1 = CST MWS port Zmax ("") mode 1
! Touchstone port 2 = CST MWS port Zmax ("") mode 2
! Touchstone port 3 = CST MWS port Zmin ("") mode 1
! Touchstone port 4 = CST MWS port Zmin ("") mode 2
! S-Parameters are not renormalized. Each port impedance will be approximated by the real part at minimum frequency. The values are described via the [Reference] keyword.
! Default impedance is overridden by [Reference]
[Version] 2.0
# GHz S RI R 376.73
[Number of Ports] 4
[Reference]
376.73 376.73 259.888 259.888 
[Number of Frequencies] 51
[Network Data]
281700                  0.156274       -0.137743      8.49788e-05     8.69709e-05        -0.737351        0.630165     -0.000162893    -0.000123674
                      0.00014667       7.486e-05        0.0253775       -0.112103      0.000146726     0.000113361       0.00099815       -0.992816
                       -0.737548        0.629713      4.77196e-06     2.69255e-05          -0.1607        0.132256     -0.000270655    -0.000116556
                    -8.47853e-05    -0.000154861       0.00136207        -0.99304     -0.000256614    -0.000117328        0.0250613        0.112233
281702                  0.156243       -0.137766      8.49745e-05     8.69188e-05        -0.737112        0.630447     -0.000162978    -0.000123673
                      0.00014667     7.48205e-05        0.0253652       -0.112102      0.000146823     0.000113299      0.000758541       -0.992816
                       -0.737309        0.629995       4.8303e-06     2.68172e-05        -0.160617        0.132344     -0.000270762    -0.000116508
                    -8.48097e-05    -0.000155081       0.00112248        -0.99304     -0.000256657    -0.000117155        0.0251032         0.11222
281704                  0.156212       -0.137788      8.49702e-05     8.68669e-05        -0.736872        0.630729     -0.000163065    -0.000123673
                      0.00014667     7.47811e-05         0.025353       -0.112101       0.00014692     0.000113237      0.000518932       -0.992817
                       -0.737069        0.630277      4.88855e-06     2.67089e-05        -0.160533        0.132432     -0.000270873     -0.00011646
                    -8.48345e-05    -0.000155299      0.000882892       -0.993041       -0.0002567    -0.000116983        0.0251451        0.112207
281706                  0.156181       -0.137811       8.4966e-05      8.6815e-05        -0.736633        0.631011     -0.000163152    -0.000123672
                     0.000146669     7.47418e-05        0.0253407         -0.1121      0.000147016     0.000113174      0.000279322       -0.992817
                       -0.736829        0.630558      4.94673e-06     2.66005e-05         -0.16045         0.13252     -0.000270986    -0.000116411
                    -8.48595e-05    -0.000155517      0.000643301       -0.993041     -0.000256743     -0.00011681         0.025187        0.112194
281708                   0.15615       -0.137833      8.49618e-05     8.67631e-05        -0.736393        0.631292     -0.000163241     -0.00012367
                     0.000146669     7.47025e-05        0.0253285       -0.112099      0.000147113     0.000113112      3.97118e-05       -0.992818
                       -0.736589         0.63084      5.00483e-06     2.64922e-05        -0.160367        0.132608     -0.000271102    -0.000116362
                    -8.48847e-05    -0.000155735      0.000403709       -0.993042     -0.000256785    -0.000116637        0.0252289        0.112181
281710                  0.156119       -0.137856      8.49576e-05     8.67114e-05        -0.736153        0.631574      -0.00016333    -0.000123668
                     0.000146668     7.46633e-05        0.0253162       -0.112099       0.00014721     0.000113049     -0.000199899       -0.992818
                       -0.736349        0.631121      5.06287e-06     2.63838e-05        -0.160283        0.132696     -0.000271219    -0.000116311
                    -8.49102e-05    -0.000155953      0.000164118       -0.993042     -0.000256828    -0.000116463        0.0252708        0.112168
281712                  0.156089       -0.137878      8.49535e-05     8.66597e-05        -0.735913        0.631855      -0.00016342    -0.000123666
                     0.000146667     7.46242e-05         0.025304       -0.112098      0.000147307     0.000112986     -0.000439511       -0.992818
                       -0.736109        0.631402      5.12084e-06     2.62754e-05          -0.1602        0.132784     -0.000271336    -0.000116258
                    -8.49359e-05    -0.000156169     -7.54747e-05       -0.993042     -0.000256869     -0.00011629        0.0253127        0.112155
281714                  0.156058       -0.137901      8.49494e-05     8.66081e-05        -0.735673        0.632137      -0.00016351    -0.000123662
                     0.000146666     7.45852e-05        0.0252917       -0.112097      0.000147403     0.000112922     -0.000679123       -0.992818
                       -0.735869        0.631683      5.17877e-06      2.6167e-05        -0.160116        0.132872     -0.000271455    -0.000116205
                    -8.49619e-05    -0.000156386     -0.000315067       -0.993043     -0.000256911    -0.000116116        0.0253545        0.112142
281716                  0.156027       -0.137923      8.49453e-05     8.65565e-05        -0.735433        0.632418       -0.0001636    -0.000123659
                     0.000146664     7.45463e-05        0.0252794       -0.112096        0.0001475     0.000112859     -0.000918735       -0.992819
                       -0.735629        0.631964      5.23664e-06     2.60587e-05        -0.160033         0.13296     -0.000271573     -0.00011615
                    -8.49881e-05    -0.000156602      -0.00055466       -0.993043     -0.000256953    -0.000115942        0.0253964        0.112129
281718                  0.155996       -0.137945      8.49412e-05     8.65051e-05        -0.735192          0.6327     -0.000163691    -0.000123655
                     0.000146663     7.45074e-05        0.0252672       -0.112095      0.000147597     0.000112795      -0.00115835       -0.992819
                       -0.735388        0.632245      5.29447e-06     2.59503e-05        -0.159949        0.133048     -0.000271692    -0.000116094
                    -8.50146e-05    -0.000156817     -0.000794254       -0.993043     -0.000256994    -0.000115768        0.0254383        0.112116
281720                  0.155965       -0.137968      8.49372e-05     8.64537e-05        -0.734952        0.632981     -0.000163781     -0.00012365
                     0.000146661     7.44687e-05        0.0252549       -0.112094      0.000147693     0.000112731      -0.00139796       -0.992819
                       -0.735148        0.632526      5.35227e-06     2.58419e-05        -0.159866        0.133136      -0.00027181    -0.000116037
                    -8.50414e-05    -0.000157033      -0.00103385       -0.993043     -0.000257035    -0.000115593        0.0254801        0.112103
281722                  0.155934        -0.13799      8.49333e-05     8.64024e-05        -0.734711        0.633262     -0.000163872    -0.000123645
                     0.000146659       7.443e-05        0.0252427       -0.112094       0.00014779     0.000112667      -0.00163758       -0.992819
                       -0.734907        0.632807      5.41004e-06     2.57336e-05        -0.159782        0.133223     -0.000271928    -0.000115979
                    -8.50684e-05    -0.000157247      -0.00127344       -0.993043     -0.000257076    -0.000115418        0.0255219         0.11209
281724                  0.155903       -0.138013      8.49294e-05     8.63511e-05        -0.734471        0.633543     -0.000163963     -0.00012364
                     0.000146657     7.43914e-05        0.0252304       -0.112093      0.000147886     0.000112603      -0.00187719       -0.992819
                       -0.734666        0.633088      5.46779e-06     2.56252e-05        -0.159698        0.133311     -0.000272046    -0.000115921
                    -8.50957e-05    -0.000157461      -0.00151304       -0.993043     -0.000257117    -0.000115243        0.0255638        0.112076
281726                  0.155872       -0.138035      8.49255e-05        8.63e-05         -0.73423        0.633824     -0.000164053    -0.000123635
                     0.000146655     7.43529e-05        0.0252182       -0.112092      0.000147983     0.000112538      -0.00211681       -0.992818
                       -0.734425        0.633368      5.52553e-06     2.55169e-05        -0.159615        0.133399     -0.000272164    -0.000115863
                    -8.51232e-05    -0.000157675      -0.00175263       -0.993043     -0.000257158    -0.000115068        0.0256056        0.112063
281728                  0.155841       -0.138058      8.49217e-05     8.62489e-05        -0.733989        0.634105     -0.000164144    -0.000123629
                     0.000146653     7.43144e-05        0.0252059       -0.112091      0.000148079     0.000112473      -0.00235642       -0.992818
                       -0.734184        0.633649      5.58326e-06     2.54085e-05        -0.159531        0.133486     -0.000272282    -0.000115804
                     -8.5151e-05    -0.000157888      -0.00199223       -0.993043     -0.000257199    -0.000114892        0.0256474         0.11205
281730                   0.15581        -0.13808       8.4918e-05     8.61979e-05        -0.733748        0.634386     -0.000164235    -0.000123623
                      0.00014665     7.42761e-05        0.0251937        -0.11209      0.000148175     0.000112408      -0.00259604       -0.992818
                       -0.733943         0.63393        5.641e-06     2.53002e-05        -0.159447        0.133574     -0.000272399    -0.000115745
                     -8.5179e-05    -0.000158101      -0.00223182       -0.993042     -0.000257239    -0.000114716        0.0256892        0.112037
281732                  0.155779       -0.138102      8.49143e-05      8.6147e-05        -0.733507        0.634667     -0.000164326    -0.000123618
                     0.000146648     7.42378e-05        0.0251814        -0.11209      0.000148271     0.000112343      -0.00283565       -0.992818
                       -0.733702         0.63421      5.69875e-06      2.5192e-05        -0.159363        0.133661     -0.000272516    -0.000115685
                    -8.52073e-05    -0.000158314      -0.00247142       -0.993042      -0.00025728     -0.00011454         0.025731        0.112024
281734                  0.155748       -0.138125      8.49107e-05     8.60962e-05        -0.733266        0.634947     -0.000164416    -0.000123611
                     0.000146645     7.41996e-05        0.0251691       -0.112089      0.000148367     0.000112278      -0.00307527       -0.992817
                       -0.733461         0.63449      5.75654e-06     2.50837e-05        -0.159279        0.133748     -0.000272634    -0.000115625
                    -8.52359e-05    -0.000158525      -0.00271101       -0.993042     -0.000257321    -0.000114364        0.0257728         0.11201
281736                  0.155717       -0.138147      8.49073e-05     8.60455e-05        -0.733024        0.635228     -0.000164507    -0.000123605
                     0.000146642     7.41615e-05        0.0251569       -0.112088      0.000148463     0.000112212      -0.00331489       -0.992817
                       -0.733219         0.63477      5.81438e-06     2.49755e-05        -0.159195        0.133836     -0.000272751    -0.000115565
                    -8.52647e-05    -0.000158737      -0.00295061       -0.993042     -0.000257361    -0.000114187        0.0258146        0.111997
281738                  0.155686       -0.138169      8.49039e-05     8.59949e-05        -0.732783        0.635508     -0.000164598    -0.000123599
                     0.000146639     7.41234e-05        0.0251446       -0.112087      0.000148558     0.000112147       -0.0035545       -0.992816
                       -0.732978        0.635051      5.87231e-06     2.48674e-05        -0.159111        0.133923     -0.000272868    -0.000115505
                    -8.52939e-05    -0.000158948      -0.00319021       -0.993041     -0.000257402    -0.000114011        0.0258564        0.111984
281740                  0.155655       -0.138192      8.49008e-05     8.59445e-05        -0.732541        0.635789     -0.000164689    -0.000123592
                     0.000146636     7.40855e-05        0.0251324       -0.112086      0.000148654     0.000112081      -0.00379412       -0.992816
                       -0.732736        0.635331      5.93038e-06     2.47593e-05        -0.159027         0.13401     -0.000272985    -0.000115444
                    -8.53232e-05    -0.000159158      -0.00342981       -0.993041     -0.000257442    -0.000113834        0.0258982        0.111971
281742                  0.155624       -0.138214      8.48981e-05     8.58943e-05          -0.7323        0.636069      -0.00016478    -0.000123585
                     0.000146632     7.40476e-05        0.0251201       -0.112085      0.000148749     0.000112015      -0.00403374       -0.992815
                       -0.732494        0.635611      5.98872e-06     2.46515e-05        -0.158942        0.134097     -0.000273102    -0.000115384
                    -8.53529e-05    -0.000159368       -0.0036694        -0.99304     -0.000257483    -0.000113657          0.02594        0.111957
281744                  0.155593       -0.138237      8.48963e-05     8.58447e-05        -0.732058        0.636349      -0.00016487    -0.000123579
                     0.000146628     7.40099e-05        0.0251079       -0.112084      0.000148845     0.000111949      -0.00427336       -0.992815
                       -0.732253         0.63589      6.04765e-06      2.4544e-05        -0.158858        0.134184     -0.000273218    -0.000115323
                    -8.53828e-05    -0.000159577        -0.003909       -0.993039     -0.000257523     -0.00011348        0.0259818        0.111944
281746                  0.155562       -0.138259      8.48991e-05     8.57973e-05        -0.731816        0.636629     -0.000164961    -0.000123572
                     0.000146625     7.39722e-05        0.0250956       -0.112084       0.00014894     0.000111883      -0.00451297       -0.992814
                       -0.732011         0.63617      6.10851e-06     2.44381e-05        -0.158774        0.134271     -0.000273335    -0.000115261
                    -8.54129e-05    -0.000159786      -0.00414861       -0.993039     -0.000257564    -0.000113303        0.0260235        0.111931
281748                   0.15553       -0.138281      8.48498e-05     8.57264e-05        -0.731574        0.636909     -0.000165052    -0.000123565
                     0.000146621     7.39346e-05        0.0250834       -0.112083      0.000149035     0.000111817      -0.00475259       -0.992813
                       -0.731768         0.63645      6.18513e-06     2.43645e-05         -0.15869        0.134358     -0.000273452      -0.0001152
                    -8.54434e-05    -0.000159995      -0.00438825       -0.993038     -0.000257605    -0.000113125        0.0260653        0.111918
281750                  0.155499       -0.138304      8.48748e-05     8.56884e-05        -0.731332        0.637189     -0.000165143    -0.000123557
                     0.000146616      7.3897e-05        0.0250711       -0.112082       0.00014913     0.000111751      -0.00499221       -0.992812
                       -0.731526         0.63673      6.20592e-06     2.42128e-05        -0.158605        0.134445     -0.000273569    -0.000115138
                     -8.5474e-05    -0.000160202      -0.00462778       -0.993037     -0.000257646    -0.000112948         0.026107        0.111904
281752                  0.155468       -0.138326      8.48746e-05     8.56397e-05         -0.73109        0.637469     -0.000165235     -0.00012355
                     0.000146612     7.38596e-05        0.0250588       -0.112081      0.000149224     0.000111685      -0.00523183       -0.992812
                       -0.731284        0.637009      6.27018e-06     2.41068e-05        -0.158521        0.134532     -0.000273686    -0.000115076
                    -8.55049e-05     -0.00016041      -0.00486739       -0.993036     -0.000257688     -0.00011277        0.0261488        0.111891
281754                  0.155437       -0.138348      8.48726e-05     8.55902e-05        -0.730847        0.637749     -0.000165326    -0.000123543
                     0.000146608     7.38223e-05        0.0250466        -0.11208      0.000149318     0.000111619      -0.00547145       -0.992811
                       -0.731041        0.637289      6.32994e-06     2.39995e-05        -0.158436        0.134619     -0.000273803    -0.000115014
                    -8.55358e-05    -0.000160617      -0.00510699       -0.993035      -0.00025773    -0.000112591        0.0261905        0.111878
281756                  0.155406       -0.138371      8.48702e-05     8.55405e-05        -0.730605        0.638029     -0.000165417    -0.000123535
                     0.000146603     7.37853e-05        0.0250343       -0.112079       0.00014941     0.000111551      -0.00571107        -0.99281
                       -0.730799        0.637568      6.38882e-06     2.38919e-05        -0.158352        0.134706      -0.00027392    -0.000114951
                    -8.55661e-05    -0.000160823      -0.00534659       -0.993034     -0.000257775    -0.000112408        0.0262322        0.111864
281758                  0.155375       -0.138393      8.48676e-05     8.54909e-05        -0.730362        0.638308     -0.000165509    -0.000123527
                     0.000146599     7.37451e-05        0.0250221       -0.112079      0.000149508     0.000111478      -0.00595069       -0.992809
                       -0.730556        0.637847      6.44743e-06     2.37842e-05        -0.158267        0.134792     -0.000274038    -0.000114888
                    -8.56104e-05    -0.000161038      -0.00558619       -0.993033       -0.0002578    -0.000112216        0.0262739        0.111851
281760                  0.155344       -0.138415       8.4865e-05     8.54412e-05        -0.730119        0.638588     -0.000165601    -0.000123519
                     0.000146593     7.37101e-05        0.0250098       -0.112078      0.000149605     0.000111413      -0.00619031       -0.992807
                       -0.730313        0.638126      6.50594e-06     2.36764e-05        -0.158183        0.134879     -0.000274156    -0.000114824
                    -8.56343e-05    -0.000161235      -0.00582579       -0.993032     -0.000257834    -0.000112055        0.0263157        0.111837
281762                  0.155313       -0.138437      8.48623e-05     8.53917e-05        -0.729877        0.638867     -0.000165693     -0.00012351
                     0.000146588     7.36732e-05        0.0249976       -0.112077        0.0001497     0.000111347      -0.00642993       -0.992806
                       -0.730071        0.638406      6.56445e-06     2.35687e-05        -0.158098        0.134965     -0.000274275    -0.000114759
