! TOUCHSTONE file generated by CST MICROWAVE STUDIO
! Date and time: Wed Oct 15 17:33:28 2025
! Project name: Teste_Macro_Metasurface_Nanopilar.cst
! Parameters = {H=600; L_x=165; L_y=200; Lambda=1064; Max_L=200; Min_L=70; PathPara=1; Phi=0; Step_L=10; Theta=0; p=520; phaseX=180; phaseY=0}
! Header version: 2018
! Port assignment regex: !\s*Touchstone port\s*([0-9]+)\s*=\s*(CST MWS port|CST DS port)\s*([0-9]+|Zmin|Zmax)\s*\(\"(.*)\"\)(\s*mode\s*([0-9]+))?.*
! Touchstone port assignment:
! Touchstone port 1 = CST MWS port Zmax ("") mode 1
! Touchstone port 2 = CST MWS port Zmax ("") mode 2
! Touchstone port 3 = CST MWS port Zmin ("") mode 1
! Touchstone port 4 = CST MWS port Zmin ("") mode 2
! S-Parameters are not renormalized. Each port impedance will be approximated by the real part at minimum frequency. The values are described via the [Reference] keyword.
! Default impedance is overridden by [Reference]
[Version] 2.0
# GHz S RI R 376.73
[Number of Ports] 4
[Reference]
376.73 376.73 259.888 259.888 
[Number of Frequencies] 51
[Network Data]
281700                   0.28187       0.0991606     -0.000119156    -3.95785e-06       -0.0179615       -0.950278       0.00040746     6.31584e-05
                    -0.000147769    -3.70526e-05         0.242882        0.122652      0.000441447     9.54751e-05          0.39995       -0.871947
                      -0.0179353       -0.950892      0.000458253      6.3077e-05         0.275715       -0.110147      -6.9838e-05     0.000157328
                     0.000507247     7.29574e-05         0.399912       -0.872016     -0.000130092       0.0002158         0.250357        0.102765
281702                  0.281884       0.0991511     -0.000119114    -3.98916e-06       -0.0182423       -0.950269      0.000408192     6.29746e-05
                    -0.000147874    -3.70595e-05         0.242894        0.122646      0.000441854     9.51438e-05         0.399704       -0.872057
                      -0.0182182        -0.95088      0.000458234     6.29736e-05         0.275664       -0.110301     -7.06221e-05     0.000158315
                     0.000507576      7.2775e-05         0.399667       -0.872126     -0.000129967     0.000216233         0.250418        0.102638
281704                  0.281897       0.0991417     -0.000119072    -4.02224e-06       -0.0185231       -0.950261      0.000408916     6.27887e-05
                    -0.000147974    -3.70682e-05         0.242906         0.12264      0.000442256     9.48149e-05         0.399458       -0.872167
                      -0.0185009       -0.950867      0.000458218     6.28701e-05         0.275613       -0.110454     -7.13927e-05       0.0001593
                     0.000507897      7.2594e-05         0.399422       -0.872235     -0.000129839     0.000216664         0.250479        0.102511
281706                  0.281911       0.0991322     -0.000119029    -4.05704e-06       -0.0188039       -0.950252      0.000409632     6.26008e-05
                     -0.00014807    -3.70785e-05         0.242918        0.122634      0.000442651     9.44883e-05         0.399211       -0.872277
                      -0.0187837       -0.950855      0.000458202     6.27666e-05         0.275561       -0.110608       -7.215e-05     0.000160282
                      0.00050821     7.24144e-05         0.399176       -0.872345     -0.000129707     0.000217092          0.25054        0.102384
281708                  0.281924       0.0991228     -0.000118986    -4.09349e-06       -0.0190847       -0.950243      0.000410341     6.24111e-05
                    -0.000148161    -3.70906e-05          0.24293        0.122628      0.000443039      9.4164e-05         0.398965       -0.872387
                      -0.0190664       -0.950843      0.000458188     6.26632e-05          0.27551       -0.110762      -7.2894e-05     0.000161261
                     0.000508516     7.22361e-05         0.398931       -0.872454     -0.000129573     0.000217517         0.250601        0.102256
281710                  0.281938       0.0991133     -0.000118943    -4.13156e-06       -0.0193655       -0.950234      0.000411041     6.22194e-05
                    -0.000148249    -3.71043e-05         0.242942        0.122621      0.000443423      9.3842e-05         0.398719       -0.872497
                       -0.019349       -0.950831      0.000458175     6.25597e-05         0.275459       -0.110915     -7.36249e-05     0.000162237
                     0.000508815     7.20593e-05         0.398685       -0.872563     -0.000129436      0.00021794         0.250661        0.102129
281712                  0.281952       0.0991039       -0.0001189     -4.1712e-06       -0.0196463       -0.950225      0.000411734     6.20261e-05
                    -0.000148331    -3.71197e-05         0.242954        0.122615        0.0004438     9.35222e-05         0.398473       -0.872607
                      -0.0196317       -0.950818      0.000458163     6.24561e-05         0.275407       -0.111069     -7.43426e-05      0.00016321
                     0.000509106     7.18839e-05          0.39844       -0.872672     -0.000129296      0.00021836         0.250722        0.102002
281714                  0.281965       0.0990944     -0.000118857    -4.21235e-06        -0.019927       -0.950216      0.000412419     6.18311e-05
                     -0.00014841    -3.71367e-05         0.242966        0.122609      0.000444171     9.32047e-05         0.398227       -0.872716
                      -0.0199143       -0.950806      0.000458153     6.23526e-05         0.275356       -0.111222     -7.50473e-05      0.00016418
                      0.00050939     7.17098e-05         0.398194       -0.872782     -0.000129154     0.000218777         0.250782        0.101875
281716                  0.281979       0.0990849     -0.000118813    -4.25497e-06       -0.0202078       -0.950207      0.000413096     6.16345e-05
                    -0.000148485    -3.71554e-05         0.242978        0.122603      0.000444537     9.28893e-05          0.39798       -0.872826
                      -0.0201969       -0.950793      0.000458144      6.2249e-05         0.275304       -0.111376     -7.57391e-05     0.000165146
                     0.000509668     7.15371e-05         0.397949       -0.872891     -0.000129009     0.000219192         0.250842        0.101748
281718                  0.281992       0.0990755      -0.00011877    -4.29903e-06       -0.0204886       -0.950198      0.000413765     6.14363e-05
                    -0.000148556    -3.71756e-05          0.24299        0.122597      0.000444897     9.25762e-05         0.397734       -0.872936
                      -0.0204794       -0.950781      0.000458136     6.21454e-05         0.275252       -0.111529     -7.64181e-05     0.000166109
                     0.000509939     7.13658e-05         0.397703          -0.873     -0.000128861     0.000219603         0.250903        0.101621
281720                  0.282006        0.099066     -0.000118726    -4.34448e-06       -0.0207694       -0.950189      0.000414427     6.12368e-05
                    -0.000148623    -3.71974e-05         0.243002         0.12259      0.000445252     9.22652e-05         0.397488       -0.873045
                      -0.0207619       -0.950768       0.00045813     6.20418e-05         0.275201       -0.111683     -7.70844e-05     0.000167068
                     0.000510204     7.11959e-05         0.397457       -0.873109     -0.000128711     0.000220013         0.250963        0.101493
281722                  0.282019       0.0990565     -0.000118682    -4.39127e-06       -0.0210502        -0.95018      0.000415081     6.10359e-05
                    -0.000148686    -3.72207e-05         0.243014        0.122584      0.000445602     9.19564e-05         0.397241       -0.873154
                      -0.0210444       -0.950756      0.000458124     6.19382e-05         0.275149       -0.111836     -7.77381e-05     0.000168023
                     0.000510462     7.10273e-05         0.397212       -0.873217     -0.000128559     0.000220419         0.251023        0.101366
281724                  0.282033        0.099047     -0.000118638    -4.43938e-06        -0.021331        -0.95017      0.000415727     6.08337e-05
                    -0.000148746    -3.72455e-05         0.243026        0.122578      0.000445946     9.16497e-05         0.396995       -0.873264
                      -0.0213268       -0.950743       0.00045812     6.18345e-05         0.275097       -0.111989     -7.83793e-05     0.000168973
                     0.000510714     7.08601e-05         0.396966       -0.873326     -0.000128404     0.000220823         0.251083        0.101239
281726                  0.282046       0.0990375     -0.000118594    -4.48875e-06       -0.0216118       -0.950161      0.000416365     6.06303e-05
                    -0.000148802    -3.72718e-05         0.243038        0.122572      0.000446285      9.1345e-05         0.396749       -0.873373
                      -0.0216092        -0.95073      0.000458117     6.17307e-05         0.275045       -0.112143     -7.90082e-05     0.000169919
                      0.00051096     7.06943e-05          0.39672       -0.873435     -0.000128247     0.000221224         0.251144        0.101111
281728                   0.28206        0.099028      -0.00011855    -4.53937e-06       -0.0218926       -0.950151      0.000416996     6.04258e-05
                    -0.000148855    -3.72996e-05          0.24305        0.122566      0.000446618     9.10424e-05         0.396502       -0.873482
                      -0.0218915       -0.950718      0.000458115     6.16269e-05         0.274993       -0.112296     -7.96247e-05     0.000170861
                       0.0005112     7.05298e-05         0.396475       -0.873544     -0.000128088     0.000221622         0.251204        0.100984
281730                  0.282073       0.0990185     -0.000118506    -4.59118e-06       -0.0221734       -0.950142      0.000417619     6.02202e-05
                    -0.000148904    -3.73289e-05         0.243062        0.122559      0.000446947     9.07419e-05         0.396256       -0.873591
                      -0.0221739       -0.950705      0.000458114     6.15231e-05          0.27494        -0.11245     -8.02291e-05     0.000171798
                     0.000511434     7.03666e-05         0.396229       -0.873652     -0.000127927     0.000222018         0.251263        0.100856
281732                  0.282087        0.099009     -0.000118462    -4.64417e-06       -0.0224542       -0.950132      0.000418234     6.00137e-05
                     -0.00014895    -3.73596e-05         0.243074        0.122553      0.000447271     9.04433e-05         0.396009         -0.8737
                      -0.0224562       -0.950692      0.000458114     6.14192e-05         0.274888       -0.112603     -8.08214e-05     0.000172731
                     0.000511663     7.02049e-05         0.395983       -0.873761     -0.000127764     0.000222411         0.251323        0.100729
281734                  0.282101       0.0989995     -0.000118417    -4.69829e-06        -0.022735       -0.950122      0.000418842     5.98062e-05
                    -0.000148993    -3.73916e-05         0.243086        0.122547       0.00044759     9.01468e-05         0.395763       -0.873809
                      -0.0227384       -0.950679      0.000458116     6.13153e-05         0.274835       -0.112756     -8.14018e-05     0.000173658
                     0.000511886     7.00444e-05         0.395737       -0.873869     -0.000127598     0.000222802         0.251383        0.100601
281736                  0.282114         0.09899     -0.000118373    -4.75351e-06       -0.0230158       -0.950112      0.000419442     5.95979e-05
                    -0.000149032    -3.74251e-05         0.243098        0.122541      0.000447904     8.98521e-05         0.395516       -0.873918
                      -0.0230207       -0.950666      0.000458118     6.12113e-05         0.274783       -0.112909     -8.19704e-05      0.00017458
                     0.000512104     6.98853e-05         0.395491       -0.873978     -0.000127431     0.000223189         0.251443        0.100474
281738                  0.282128       0.0989805     -0.000118328    -4.80981e-06       -0.0232966       -0.950102      0.000420034     5.93888e-05
                    -0.000149069    -3.74599e-05          0.24311        0.122535      0.000448213     8.95595e-05          0.39527       -0.874027
                      -0.0233029       -0.950653      0.000458122     6.11073e-05          0.27473       -0.113063     -8.25273e-05     0.000175498
                     0.000512316     6.97275e-05         0.395246       -0.874086     -0.000127263     0.000223574         0.251503        0.100346
281740                  0.282141       0.0989709     -0.000118283    -4.86715e-06       -0.0235774       -0.950092      0.000420619      5.9179e-05
                    -0.000149103     -3.7496e-05         0.243122        0.122528      0.000448517     8.92687e-05         0.395023       -0.874136
                      -0.0235851        -0.95064      0.000458127     6.10032e-05         0.274678       -0.113216     -8.30726e-05     0.000176409
                     0.000512524      6.9571e-05            0.395       -0.874194     -0.000127092     0.000223957         0.251562        0.100219
281742                  0.282155       0.0989614     -0.000118239    -4.92551e-06       -0.0238582       -0.950082      0.000421196     5.89686e-05
                    -0.000149133    -3.75334e-05         0.243134        0.122522      0.000448817     8.89798e-05         0.394777       -0.874245
                      -0.0238672       -0.950627      0.000458132     6.08991e-05         0.274625       -0.113369     -8.36065e-05     0.000177316
                     0.000512726     6.94158e-05         0.394754       -0.874302      -0.00012692     0.000224337         0.251622        0.100091
281744                  0.282168       0.0989519     -0.000118194    -4.98486e-06        -0.024139       -0.950072      0.000421766     5.87576e-05
                    -0.000149161    -3.75721e-05         0.243146        0.122516      0.000449112     8.86927e-05          0.39453       -0.874353
                      -0.0241494       -0.950614      0.000458139     6.07948e-05         0.274572       -0.113522      -8.4129e-05     0.000178217
                     0.000512923      6.9262e-05         0.394508       -0.874411     -0.000126746     0.000224714         0.251681       0.0999633
281746                  0.282182       0.0989423     -0.000118149    -5.04518e-06       -0.0244199       -0.950062      0.000422328     5.85461e-05
                    -0.000149186    -3.76121e-05         0.243158         0.12251      0.000449402     8.84076e-05         0.394284       -0.874462
                      -0.0244315       -0.950601      0.000458147     6.06906e-05         0.274519       -0.113675     -8.46403e-05     0.000179112
                     0.000513116     6.91094e-05         0.394262       -0.874519     -0.000126571     0.000225089         0.251741       0.0998356
281748                  0.282195       0.0989328     -0.000118104    -5.10643e-06       -0.0247007       -0.950051      0.000422883     5.83342e-05
                    -0.000149209    -3.76533e-05          0.24317        0.122503      0.000449688     8.81243e-05         0.394037        -0.87457
                      -0.0247135       -0.950587      0.000458156     6.05862e-05         0.274466       -0.113828     -8.51405e-05     0.000180001
                     0.000513303     6.89581e-05         0.394016       -0.874627     -0.000126394     0.000225461           0.2518       0.0997078
281750                  0.282209       0.0989232     -0.000118059    -5.16859e-06       -0.0249815       -0.950041      0.000423431     5.81219e-05
                    -0.000149228    -3.76956e-05         0.243182        0.122497      0.000449969     8.78429e-05          0.39379       -0.874679
                      -0.0249956       -0.950574      0.000458165     6.04818e-05         0.274413       -0.113981     -8.56298e-05     0.000180884
                     0.000513486      6.8808e-05          0.39377       -0.874735     -0.000126216     0.000225831         0.251859         0.09958
281752                  0.282222       0.0989137     -0.000118014    -5.23165e-06       -0.0252623        -0.95003      0.000423971     5.79093e-05
                    -0.000149245    -3.77392e-05         0.243194        0.122491      0.000450246     8.75635e-05         0.393544       -0.874787
                      -0.0252776       -0.950561      0.000458176     6.03773e-05         0.274359       -0.114134     -8.61082e-05     0.000181762
                     0.000513665     6.86592e-05         0.393524       -0.874843     -0.000126036     0.000226198         0.251919       0.0994522
281754                  0.282235       0.0989041     -0.000117969    -5.29557e-06       -0.0255431        -0.95002      0.000424503     5.76964e-05
                     -0.00014926    -3.77839e-05         0.243206        0.122485      0.000450518     8.72859e-05         0.393297       -0.874895
                      -0.0255596       -0.950547      0.000458188     6.02727e-05         0.274306       -0.114287     -8.65758e-05     0.000182633
                     0.000513839     6.85117e-05         0.393278        -0.87495     -0.000125855     0.000226563         0.251978       0.0993243
281756                  0.282249       0.0988946     -0.000117924    -5.36034e-06       -0.0258239       -0.950009      0.000425029     5.74834e-05
                    -0.000149272    -3.78296e-05         0.243218        0.122479      0.000450786     8.70104e-05          0.39305       -0.875004
                      -0.0258416       -0.950534      0.000458201     6.01681e-05         0.274253        -0.11444     -8.70329e-05     0.000183498
                     0.000514008     6.83653e-05         0.393032       -0.875058     -0.000125673     0.000226925         0.252037       0.0991964
281758                  0.282262        0.098885     -0.000117879    -5.42593e-06       -0.0261047       -0.949998      0.000425547     5.72702e-05
                    -0.000149282    -3.78763e-05          0.24323        0.122472      0.000451049     8.67368e-05         0.392804       -0.875112
                      -0.0261235        -0.95052      0.000458214     6.00634e-05         0.274199       -0.114593     -8.74794e-05     0.000184356
                     0.000514173     6.82201e-05         0.392786       -0.875166     -0.000125489     0.000227285         0.252096       0.0990684
281760                  0.282276       0.0988754     -0.000117834    -5.49233e-06       -0.0263855       -0.949988      0.000426058     5.70569e-05
                    -0.000149289     -3.7924e-05         0.243242        0.122466      0.000451309     8.64652e-05         0.392557        -0.87522
                      -0.0264054       -0.950507      0.000458229     5.99586e-05         0.274145       -0.114746     -8.79155e-05     0.000185209
                     0.000514334     6.80761e-05         0.392539       -0.875273     -0.000125305     0.000227642         0.252155       0.0989405
281762                  0.282289       0.0988659     -0.000117789    -5.55951e-06       -0.0266663       -0.949977      0.000426562     5.68436e-05
                    -0.000149293    -3.79726e-05         0.243254         0.12246      0.000451564     8.61956e-05          0.39231       -0.875328
                      -0.0266873       -0.950493      0.000458244     5.98537e-05         0.274092       -0.114899     -8.83414e-05     0.000186054
