! TOUCHSTONE file generated by CST MICROWAVE STUDIO
! Date and time: Wed Oct 15 17:28:54 2025
! Project name: Teste_Macro_Metasurface_Nanopilar.cst
! Parameters = {H=600; L_x=90; L_y=80; Lambda=1064; Max_L=200; Min_L=70; PathPara=1; Phi=0; Step_L=10; Theta=0; p=520; phaseX=180; phaseY=0}
! Header version: 2018
! Port assignment regex: !\s*Touchstone port\s*([0-9]+)\s*=\s*(CST MWS port|CST DS port)\s*([0-9]+|Zmin|Zmax)\s*\(\"(.*)\"\)(\s*mode\s*([0-9]+))?.*
! Touchstone port assignment:
! Touchstone port 1 = CST MWS port Zmax ("") mode 1
! Touchstone port 2 = CST MWS port Zmax ("") mode 2
! Touchstone port 3 = CST MWS port Zmin ("") mode 1
! Touchstone port 4 = CST MWS port Zmin ("") mode 2
! S-Parameters are not renormalized. Each port impedance will be approximated by the real part at minimum frequency. The values are described via the [Reference] keyword.
! Default impedance is overridden by [Reference]
[Version] 2.0
# GHz S RI R 376.73
[Number of Ports] 4
[Reference]
376.73 376.73 259.888 259.888 
[Number of Frequencies] 51
[Network Data]
281700                  0.035169        -0.11759      9.13215e-05     5.70844e-05        0.0605721       -0.990608      0.000186666    -5.89161e-05
                     7.84944e-05     0.000109563        0.0208923       -0.101264      0.000201103     7.11179e-05       -0.0474834       -0.992884
                         0.06084       -0.990122      0.000169008     8.37102e-05        0.0204778        0.121094      9.99261e-05    -3.91176e-05
                     0.000181252    -4.02556e-05       -0.0471845       -0.992696      0.000168888     1.95177e-05        0.0303427       0.0989097
281702                 0.0351567       -0.117591      9.14046e-05     5.70408e-05        0.0603339       -0.990623      0.000186657    -5.89682e-05
                     7.85972e-05     0.000109483        0.0208804       -0.101262      0.000201112     7.11103e-05       -0.0477262       -0.992873
                       0.0606022       -0.990137      0.000169052     8.36939e-05        0.0205237        0.121083      9.99424e-05    -3.91602e-05
                      0.00018128    -4.03273e-05       -0.0474271       -0.992684      0.000168906     1.94485e-05         0.030379       0.0988938
281704                 0.0351444       -0.117591      9.14876e-05     5.69972e-05        0.0600957       -0.990637      0.000186649    -5.90203e-05
                        7.87e-05     0.000109403        0.0208685        -0.10126       0.00020112     7.11025e-05        -0.047969       -0.992862
                       0.0603643       -0.990152      0.000169097     8.36776e-05        0.0205696        0.121072      9.99586e-05    -3.92028e-05
                     0.000181308    -4.03989e-05       -0.0476697       -0.992673      0.000168923     1.93785e-05        0.0304153       0.0988779
281706                 0.0351321       -0.117591      9.15706e-05     5.69534e-05        0.0598575       -0.990652       0.00018664    -5.90724e-05
                     7.88025e-05     0.000109323        0.0208566       -0.101258      0.000201128     7.10943e-05       -0.0482118        -0.99285
                       0.0601264       -0.990167      0.000169141     8.36612e-05        0.0206155        0.121061      9.99748e-05    -3.92454e-05
                     0.000181336    -4.04706e-05       -0.0479123       -0.992662      0.000168939     1.93075e-05        0.0304515        0.098862
281708                 0.0351198       -0.117591      9.16536e-05     5.69096e-05        0.0596193       -0.990667      0.000186631    -5.91244e-05
                     7.89049e-05     0.000109243        0.0208447       -0.101255      0.000201135     7.10859e-05       -0.0484546       -0.992839
                       0.0598885       -0.990182      0.000169185     8.36448e-05        0.0206614        0.121049       9.9991e-05    -3.92881e-05
                     0.000181363    -4.05421e-05       -0.0481548       -0.992651      0.000168955     1.92357e-05        0.0304878       0.0988461
281710                 0.0351075       -0.117591      9.17367e-05     5.68656e-05        0.0593811       -0.990682      0.000186622    -5.91764e-05
                     7.90072e-05     0.000109163        0.0208328       -0.101253      0.000201142     7.10771e-05       -0.0486973       -0.992828
                       0.0596506       -0.990196       0.00016923     8.36283e-05        0.0207073        0.121038      0.000100007    -3.93307e-05
                     0.000181391    -4.06137e-05       -0.0483974       -0.992639      0.000168969      1.9163e-05        0.0305241       0.0988301
281712                 0.0350952       -0.117591      9.18197e-05     5.68216e-05        0.0591429       -0.990696      0.000186613    -5.92285e-05
                     7.91094e-05     0.000109082        0.0208209       -0.101251      0.000201149      7.1068e-05       -0.0489401       -0.992816
                       0.0594127       -0.990211      0.000169274     8.36118e-05        0.0207532        0.121027      0.000100023    -3.93734e-05
                     0.000181418    -4.06852e-05         -0.04864       -0.992628      0.000168982     1.90896e-05        0.0305603       0.0988142
281714                 0.0350829       -0.117592      9.19027e-05     5.67774e-05        0.0589046       -0.990711      0.000186604    -5.92805e-05
                     7.92114e-05     0.000109002         0.020809       -0.101249      0.000201155     7.10586e-05       -0.0491829       -0.992805
                       0.0591749       -0.990226      0.000169318     8.35953e-05        0.0207991        0.121016      0.000100039     -3.9416e-05
                     0.000181446    -4.07567e-05       -0.0488826       -0.992616      0.000168995     1.90153e-05        0.0305966       0.0987982
281716                 0.0350706       -0.117592      9.19857e-05     5.67332e-05        0.0586664       -0.990725      0.000186595    -5.93325e-05
                     7.93133e-05     0.000108921        0.0207972       -0.101247       0.00020116     7.10489e-05       -0.0494256       -0.992793
                        0.058937        -0.99024      0.000169362     8.35787e-05        0.0208449        0.121004      0.000100056    -3.94587e-05
                     0.000181473    -4.08281e-05       -0.0491252       -0.992605      0.000169006     1.89402e-05        0.0306328       0.0987822
281718                 0.0350583       -0.117592      9.20687e-05     5.66889e-05        0.0584282        -0.99074      0.000186586    -5.93845e-05
                     7.94151e-05      0.00010884        0.0207853       -0.101244      0.000201165     7.10389e-05       -0.0496684       -0.992781
                        0.058699       -0.990255      0.000169406     8.35621e-05        0.0208908        0.120993      0.000100072    -3.95014e-05
                       0.0001815    -4.08995e-05       -0.0493678       -0.992593      0.000169017     1.88643e-05        0.0306691       0.0987662
281720                  0.035046       -0.117592      9.21517e-05     5.66444e-05          0.05819       -0.990754      0.000186577    -5.94364e-05
                     7.95167e-05     0.000108759        0.0207734       -0.101242      0.000201169     7.10286e-05       -0.0499112        -0.99277
                       0.0584611        -0.99027       0.00016945     8.35454e-05        0.0209367        0.120982      0.000100088    -3.95441e-05
                     0.000181527    -4.09709e-05       -0.0496103       -0.992581      0.000169027     1.87877e-05        0.0307053       0.0987502
281722                 0.0350337       -0.117592      9.22347e-05     5.65999e-05        0.0579518       -0.990768      0.000186568    -5.94884e-05
                     7.96182e-05     0.000108678        0.0207615        -0.10124      0.000201173     7.10179e-05       -0.0501539       -0.992758
                       0.0582232       -0.990284      0.000169494     8.35286e-05        0.0209825         0.12097      0.000100104    -3.95868e-05
                     0.000181554    -4.10423e-05       -0.0498529       -0.992569      0.000169036     1.87103e-05        0.0307415       0.0987342
281724                 0.0350214       -0.117592      9.23177e-05     5.65553e-05        0.0577135       -0.990783      0.000186559    -5.95404e-05
                     7.97196e-05     0.000108597        0.0207496       -0.101238      0.000201177      7.1007e-05       -0.0503967       -0.992746
                       0.0579853       -0.990298      0.000169538     8.35119e-05        0.0210284        0.120959       0.00010012    -3.96296e-05
                     0.000181581    -4.11136e-05       -0.0500955       -0.992558      0.000169044     1.86322e-05        0.0307777       0.0987182
281726                 0.0350091       -0.117592      9.24006e-05     5.65106e-05        0.0574753       -0.990797       0.00018655    -5.95923e-05
                     7.98208e-05     0.000108516        0.0207377       -0.101235       0.00020118     7.09957e-05       -0.0506394       -0.992734
                       0.0577474       -0.990313      0.000169582      8.3495e-05        0.0210742        0.120947      0.000100136    -3.96723e-05
                     0.000181608    -4.11848e-05        -0.050338       -0.992546      0.000169052     1.85533e-05        0.0308139       0.0987022
281728                 0.0349968       -0.117593      9.24836e-05     5.64658e-05        0.0572371       -0.990811       0.00018654    -5.96443e-05
                      7.9922e-05     0.000108435        0.0207258       -0.101233      0.000201183     7.09841e-05       -0.0508822       -0.992722
                       0.0575095       -0.990327      0.000169626     8.34782e-05        0.0211201        0.120936      0.000100152    -3.97151e-05
                     0.000181634    -4.12561e-05       -0.0505806       -0.992534      0.000169058     1.84738e-05        0.0308501       0.0986861
281730                 0.0349845       -0.117593      9.25665e-05      5.6421e-05        0.0569988       -0.990825      0.000186531    -5.96962e-05
                      8.0023e-05     0.000108353         0.020714       -0.101231      0.000201185     7.09722e-05        -0.051125        -0.99271
                       0.0572716       -0.990341       0.00016967     8.34612e-05        0.0211659        0.120924      0.000100168    -3.97579e-05
                     0.000181661    -4.13273e-05       -0.0508232       -0.992522      0.000169064     1.83935e-05        0.0308863         0.09867
281732                 0.0349722       -0.117593      9.26495e-05      5.6376e-05        0.0567606       -0.990839      0.000186522    -5.97481e-05
                     8.01239e-05     0.000108271        0.0207021       -0.101229      0.000201187       7.096e-05       -0.0513677       -0.992698
                       0.0570336       -0.990355      0.000169713     8.34443e-05        0.0212117        0.120913      0.000100184    -3.98007e-05
                     0.000181687    -4.13985e-05       -0.0510657        -0.99251      0.000169069     1.83126e-05        0.0309225       0.0986539
281734                 0.0349599       -0.117593      9.27324e-05      5.6331e-05        0.0565223       -0.990853      0.000186513       -5.98e-05
                     8.02247e-05      0.00010819        0.0206902       -0.101227      0.000201188     7.09474e-05       -0.0516105       -0.992686
                       0.0567957       -0.990369      0.000169757     8.34273e-05        0.0212575        0.120902      0.000100199    -3.98435e-05
                     0.000181713    -4.14696e-05       -0.0513083       -0.992498      0.000169073     1.82311e-05        0.0309587       0.0986379
281736                 0.0349476       -0.117593      9.28153e-05     5.62859e-05        0.0562841       -0.990867      0.000186504    -5.98519e-05
                     8.03254e-05     0.000108108        0.0206783       -0.101224      0.000201189     7.09346e-05       -0.0518532       -0.992674
                       0.0565577       -0.990384      0.000169801     8.34102e-05        0.0213034         0.12089      0.000100215    -3.98864e-05
                     0.000181739    -4.15407e-05       -0.0515508       -0.992485      0.000169076     1.81488e-05        0.0309948       0.0986217
281738                 0.0349353       -0.117593      9.28981e-05     5.62408e-05        0.0560458       -0.990881      0.000186494    -5.99038e-05
                     8.04259e-05     0.000108026        0.0206664       -0.101222      0.000201189     7.09214e-05       -0.0520959       -0.992662
                       0.0563198       -0.990398      0.000169844     8.33931e-05        0.0213492        0.120879      0.000100231    -3.99293e-05
                     0.000181765    -4.16118e-05       -0.0517934       -0.992473      0.000169079      1.8066e-05         0.031031       0.0986056
281740                  0.034923       -0.117594      9.29809e-05     5.61956e-05        0.0558076       -0.990895      0.000186485    -5.99557e-05
                     8.05263e-05     0.000107944        0.0206545        -0.10122      0.000201189     7.09079e-05       -0.0523387       -0.992649
                       0.0560819       -0.990411      0.000169888      8.3376e-05         0.021395        0.120867      0.000100247    -3.99722e-05
                     0.000181791    -4.16828e-05       -0.0520359       -0.992461      0.000169081     1.79825e-05        0.0310671       0.0985895
281742                 0.0349107       -0.117594      9.30636e-05     5.61505e-05        0.0555693       -0.990909      0.000186476    -6.00076e-05
                     8.06266e-05     0.000107862        0.0206426       -0.101218      0.000201189     7.08941e-05       -0.0525814       -0.992637
                       0.0558439       -0.990425      0.000169931     8.33588e-05        0.0214408        0.120856      0.000100263    -4.00151e-05
                     0.000181817    -4.17538e-05       -0.0522785       -0.992449      0.000169082     1.78983e-05        0.0311033       0.0985733
281744                 0.0348984       -0.117594      9.31462e-05     5.61054e-05         0.055331       -0.990922      0.000186467    -6.00596e-05
                     8.07267e-05      0.00010778        0.0206308       -0.101216      0.000201188     7.08799e-05       -0.0528242       -0.992625
                        0.055606       -0.990439      0.000169975     8.33416e-05        0.0214866        0.120844      0.000100279    -4.00581e-05
                     0.000181843    -4.18248e-05        -0.052521       -0.992436      0.000169082     1.78135e-05        0.0311394       0.0985572
281746                 0.0348861       -0.117594      9.32283e-05     5.60609e-05        0.0550928       -0.990936      0.000186457    -6.01116e-05
                     8.08266e-05     0.000107697        0.0206189       -0.101213      0.000201187     7.08654e-05       -0.0530669       -0.992612
                        0.055368       -0.990453      0.000170018     8.33244e-05        0.0215324        0.120832      0.000100295    -4.01012e-05
                     0.000181868    -4.18957e-05       -0.0527636       -0.992424      0.000169081      1.7728e-05        0.0311755        0.098541
281748                 0.0348738       -0.117594      9.33074e-05     5.60199e-05        0.0548545        -0.99095      0.000186448     -6.0164e-05
                     8.09263e-05     0.000107615         0.020607       -0.101211      0.000201186     7.08503e-05       -0.0533096         -0.9926
                         0.05513       -0.990467       0.00017006     8.33074e-05        0.0215781        0.120821       0.00010031    -4.01448e-05
                     0.000181894    -4.19665e-05       -0.0530061       -0.992411      0.000169079     1.76415e-05        0.0312116       0.0985248
281750                 0.0348615       -0.117594      9.34018e-05     5.59574e-05        0.0546161       -0.990963      0.000186437    -6.02112e-05
                     8.10255e-05     0.000107533        0.0205951       -0.101209      0.000201187     7.08313e-05       -0.0535524       -0.992587
                       0.0548921        -0.99048      0.000170106     8.32886e-05        0.0216239        0.120809      0.000100324    -4.01827e-05
                      0.00018192    -4.20371e-05       -0.0532487       -0.992398      0.000169068      1.7549e-05        0.0312477       0.0985086
281752                 0.0348492       -0.117594      9.34807e-05     5.59181e-05         0.054378       -0.990977      0.000186429    -6.02659e-05
                     8.11236e-05      0.00010745        0.0205832       -0.101207       0.00020118     7.08217e-05       -0.0537951       -0.992574
                       0.0546541       -0.990494      0.000170148     8.32718e-05        0.0216697        0.120798      0.000100341    -4.02288e-05
                     0.000181946    -4.21074e-05       -0.0534912       -0.992386      0.000169081     1.74723e-05        0.0312838       0.0984924
281754                 0.0348369       -0.117595      9.35627e-05     5.58735e-05        0.0541397        -0.99099       0.00018642     -6.0318e-05
                      8.1218e-05     0.000107368        0.0205713       -0.101204      0.000201178     7.08055e-05       -0.0540378       -0.992562
                       0.0544161       -0.990507      0.000170191     8.32545e-05        0.0217154        0.120786      0.000100357    -4.02721e-05
                     0.000181975     -4.2177e-05       -0.0537337       -0.992373      0.000169076     1.73834e-05        0.0313199       0.0984762
281756                 0.0348246       -0.117595      9.36451e-05      5.5828e-05        0.0539014       -0.991003       0.00018641    -6.03699e-05
                     8.13033e-05     0.000107255        0.0205595       -0.101202      0.000201174     7.07893e-05       -0.0542805       -0.992549
                       0.0541782       -0.990521      0.000170234      8.3237e-05        0.0217612        0.120774      0.000100373    -4.03153e-05
                     0.000181989    -4.22758e-05       -0.0539763        -0.99236      0.000169072      1.7295e-05         0.031356       0.0984599
281758                 0.0348123       -0.117595      9.37277e-05     5.57823e-05        0.0536631       -0.991017      0.000186401    -6.04218e-05
                     8.14379e-05     0.000107188        0.0205476         -0.1012      0.000201171     7.07729e-05       -0.0545233       -0.992536
                       0.0539402       -0.990534      0.000170277     8.32195e-05         0.021807        0.120763      0.000100389    -4.03584e-05
                     0.000182013     -4.2326e-05       -0.0542188       -0.992348      0.000169067     1.72064e-05        0.0313921       0.0984437
281760                    0.0348       -0.117595      9.38103e-05     5.57363e-05        0.0534248        -0.99103      0.000186391    -6.04736e-05
                     8.15346e-05     0.000107111        0.0205357       -0.101198      0.000201167     7.07562e-05        -0.054766       -0.992523
                       0.0537022       -0.990548       0.00017032     8.32019e-05        0.0218527        0.120751      0.000100404    -4.04015e-05
                     0.000182039    -4.23949e-05       -0.0544613       -0.992335      0.000169062     1.71173e-05        0.0314282       0.0984274
281762                 0.0347877       -0.117595      9.38929e-05     5.56903e-05        0.0531865       -0.991043      0.000186382    -6.05254e-05
                     8.16328e-05      0.00010703        0.0205238       -0.101196      0.000201163     7.07393e-05       -0.0550087        -0.99251
                       0.0534642       -0.990561      0.000170363     8.31843e-05        0.0218984        0.120739       0.00010042    -4.04446e-05
