! TOUCHSTONE file generated by CST MICROWAVE STUDIO
! Date and time: Wed Oct 15 17:34:13 2025
! Project name: Teste_Macro_Metasurface_Nanopilar.cst
! Parameters = {H=600; L_x=180; L_y=150; Lambda=1064; Max_L=200; Min_L=70; PathPara=1; Phi=0; Step_L=10; Theta=0; p=520; phaseX=180; phaseY=0}
! Header version: 2018
! Port assignment regex: !\s*Touchstone port\s*([0-9]+)\s*=\s*(CST MWS port|CST DS port)\s*([0-9]+|Zmin|Zmax)\s*\(\"(.*)\"\)(\s*mode\s*([0-9]+))?.*
! Touchstone port assignment:
! Touchstone port 1 = CST MWS port Zmax ("") mode 1
! Touchstone port 2 = CST MWS port Zmax ("") mode 2
! Touchstone port 3 = CST MWS port Zmin ("") mode 1
! Touchstone port 4 = CST MWS port Zmin ("") mode 2
! S-Parameters are not renormalized. Each port impedance will be approximated by the real part at minimum frequency. The values are described via the [Reference] keyword.
! Default impedance is overridden by [Reference]
[Version] 2.0
# GHz S RI R 376.73
[Number of Ports] 4
[Reference]
376.73 376.73 259.888 259.888 
[Number of Frequencies] 51
[Network Data]
281700                   0.17333      0.00296491      0.000465687    -0.000194214          0.72754        -0.65745      0.000614732     0.000495896
                     0.000443868    -0.000156508         0.187351       0.0502152      0.000536654       0.0005611         0.459609        -0.86256
                        0.727616       -0.657758      0.000532292     0.000631181       -0.0142718        0.168602     -0.000327731     0.000523215
                     0.000629628     0.000552277         0.459238       -0.862735     -0.000249691     0.000476774         0.144972        0.124407
281702                  0.173322      0.00298721      0.000465939    -0.000194555         0.727341        -0.65767      0.000614861     0.000495581
                     0.000444245    -0.000156423         0.187361       0.0502272      0.000536794     0.000560616         0.459356       -0.862692
                        0.727417       -0.657983      0.000531803     0.000630901       -0.0141511        0.168611     -0.000328471     0.000523234
                      0.00063091     0.000550075         0.458989       -0.862872     -0.000249362      0.00047738         0.145061        0.124327
281704                   0.17332      0.00300566        0.0004662    -0.000194935         0.727142       -0.657891      0.000614993     0.000495265
                     0.000444755    -0.000156406         0.187371       0.0502387      0.000536944     0.000560135         0.459102       -0.862824
                        0.727216       -0.658208      0.000531288     0.000630557       -0.0140305         0.16862     -0.000329239     0.000523343
                     0.000632714     0.000546829         0.458739        -0.86301     -0.000249051     0.000478006         0.145153        0.124247
281706                  0.173318      0.00302354      0.000466474    -0.000195366         0.726943       -0.658111      0.000615131     0.000494948
                     0.000445448    -0.000156534         0.187382         0.05025      0.000537108     0.000559657         0.458849       -0.862956
                        0.727015       -0.658432      0.000530751     0.000630134       -0.0139099         0.16863     -0.000330023     0.000523552
                     0.000635709     0.000541541         0.458488       -0.863148     -0.000248763     0.000478658         0.145246        0.124163
281708                  0.173316      0.00304127      0.000466767    -0.000195868         0.726744       -0.658331      0.000615275      0.00049463
                     0.000446371    -0.000156973         0.187392        0.050261      0.000537287     0.000559184         0.458596       -0.863087
                        0.726814       -0.658654        0.0005302     0.000629613       -0.0137894        0.168639      -0.00033081     0.000523868
                     0.000642326      0.00053144         0.458237       -0.863287     -0.000248499     0.000479342         0.145333         0.12407
281710                  0.173314      0.00305895      0.000467092    -0.000196471         0.726545       -0.658552      0.000615427     0.000494312
                      0.00044746    -0.000158069         0.187402       0.0502719      0.000537487     0.000558717         0.458342       -0.863218
                        0.726612       -0.658875       0.00052965      0.00062897       -0.0136689        0.168648     -0.000331584     0.000524297
                     0.000668766      0.00050696         0.457986       -0.863428     -0.000248264     0.000480068         0.145407        0.123989
281712                  0.173312       0.0030766      0.000467474    -0.000197224         0.726346       -0.658773      0.000615589     0.000493994
                     0.000448157    -0.000160322         0.187413       0.0502827      0.000537713     0.000558257         0.458088       -0.863349
                        0.726411       -0.659095      0.000529127     0.000628183       -0.0135484        0.168656     -0.000332326     0.000524843
                     0.000776884     0.000649088         0.457733        -0.86357     -0.000248063     0.000480851         0.145492        0.123916
281714                   0.17331      0.00309423      0.000467965    -0.000198213         0.726147       -0.658993      0.000615763     0.000493678
                     0.000446983    -0.000163404         0.187424       0.0502935      0.000537973     0.000557807         0.457835       -0.863479
                        0.726211       -0.659315      0.000528672     0.000627228        -0.013428        0.168665     -0.000333016     0.000525505
                      0.00063448      0.00061828         0.457477       -0.863716       -0.0002479     0.000481707          0.14558        0.123838
281716                  0.173308      0.00311185      0.000468694    -0.000199604         0.725949       -0.659214      0.000615953     0.000493368
                     0.000443647    -0.000164891         0.187435       0.0503042      0.000538278      0.00055737         0.457581       -0.863609
                        0.726012       -0.659534      0.000528342     0.000626092       -0.0133076        0.168674     -0.000333633     0.000526277
                     0.000628258     0.000592887         0.457214       -0.863867     -0.000247777     0.000482665         0.145669        0.123759
281718                  0.173306      0.00312947       0.00047004    -0.000201731          0.72575       -0.659434      0.000616162     0.000493068
                     0.000440737    -0.000163954         0.187446        0.050315      0.000538645      0.00055695         0.457327       -0.863739
                        0.725813       -0.659753      0.000528214     0.000624784       -0.0131872        0.168682     -0.000334157      0.00052715
                     0.000628168     0.000583026          0.45693       -0.864024     -0.000247695     0.000483764         0.145757         0.12368
281720                  0.173304      0.00314708      0.000473457    -0.000205199         0.725551       -0.659655      0.000616393     0.000492786
                     0.000439307    -0.000162326         0.187457       0.0503258      0.000539102     0.000556557         0.457074       -0.863868
                        0.725614       -0.659972      0.000528377     0.000623348       -0.0130669        0.168691      -0.00033457     0.000528108
                      0.00062877     0.000577854         0.456591       -0.864147     -0.000247643      0.00048506         0.145845        0.123599
281722                  0.173302      0.00316468      0.000485566    -0.000207546         0.725352       -0.659875      0.000616647     0.000492535
                     0.000438768    -0.000160938         0.187468       0.0503367      0.000539691     0.000556205          0.45682       -0.863997
                        0.725416       -0.660192       0.00052891     0.000621879       -0.0129466        0.168699     -0.000334858     0.000529132
                     0.000629464      0.00057466         0.456319       -0.864147     -0.000247589     0.000486637         0.145933        0.123519
281724                    0.1733      0.00318229      0.000491463     -0.00018435         0.725154       -0.660096      0.000616918     0.000492333
                     0.000438611    -0.000159896         0.187479       0.0503475      0.000540493     0.000555921         0.456567       -0.864125
                        0.725217       -0.660411      0.000529846     0.000620521       -0.0128263        0.168707      -0.00033501       0.0005302
                     0.000630149      0.00057248         0.456154       -0.864243     -0.000247451     0.000488615         0.146021        0.123438
281726                  0.173298      0.00319989      0.000476215    -0.000182253         0.724955       -0.660317      0.000617187     0.000492199
                     0.000438601    -0.000159119          0.18749       0.0503584      0.000541662     0.000555762         0.456314       -0.864253
                        0.725019       -0.660631      0.000531143     0.000619439        -0.012706        0.168716     -0.000335021     0.000531289
                     0.000630806     0.000570885         0.455944       -0.864391     -0.000247035     0.000491138         0.146108        0.123357
281728                  0.173296      0.00321748      0.000471948    -0.000185958         0.724756       -0.660537      0.000617418     0.000492145
                     0.000438643    -0.000158521         0.187501       0.0503693      0.000543552     0.000555876         0.456061       -0.864381
                        0.724821       -0.660851      0.000532672     0.000618763       -0.0125858        0.168724     -0.000334893     0.000532374
                     0.000631438     0.000569659         0.455711       -0.864538     -0.000245931     0.000494301         0.146196        0.123276
281730                  0.173294      0.00323508      0.000470675    -0.000188322         0.724557       -0.660757      0.000617561     0.000492155
                     0.000438699    -0.000158045         0.187512       0.0503803      0.000547183     0.000556756         0.455809       -0.864509
                        0.724623        -0.66107      0.000534257     0.000618542       -0.0124656        0.168732      -0.00033463     0.000533433
                     0.000632047     0.000568679         0.455469       -0.864681     -0.000243438     0.000497866         0.146284        0.123195
281732                  0.173291      0.00325267      0.000470244    -0.000189854         0.724358       -0.660978      0.000617581     0.000492174
                     0.000438754    -0.000157652         0.187524       0.0503912      0.000557031     0.000561449         0.455557       -0.864636
                        0.724424        -0.66129      0.000535729     0.000618732       -0.0123454         0.16874     -0.000334244     0.000534447
                      0.00063264     0.000567871         0.455223       -0.864822     -0.000238937     0.000500741         0.146371        0.123113
281734                  0.173289      0.00327026      0.000470125    -0.000190938         0.724159       -0.661198      0.000617493     0.000492131
                     0.000438803    -0.000157319         0.187535       0.0504022      0.000533291     0.000675538         0.455306       -0.864764
                        0.724226        -0.66151      0.000536975     0.000619229       -0.0122252        0.168747     -0.000333747     0.000535397
                     0.000633219     0.000567187         0.454975        -0.86496     -0.000233146     0.000501174         0.146458        0.123032
281736                  0.173287      0.00328785      0.000470144    -0.000191762          0.72396       -0.661418      0.000617351     0.000491989
                     0.000438843    -0.000157029         0.187546       0.0504131      0.000511808     0.000551316         0.455054       -0.864891
                        0.724027        -0.66173      0.000537951     0.000619911        -0.012105        0.168755     -0.000333156     0.000536272
                     0.000633788     0.000566597         0.454726       -0.865097     -0.000228368     0.000498834         0.146545         0.12295
281738                  0.173285      0.00330544      0.000470234    -0.000192428         0.723761       -0.661639      0.000617211     0.000491752
                     0.000438875     -0.00015677         0.187557       0.0504241      0.000524154     0.000549832         0.454804       -0.865019
                        0.723828        -0.66195      0.000538663     0.000620673       -0.0119849        0.168763     -0.000332487     0.000537063
                     0.000634349     0.000566078         0.454476       -0.865233     -0.000225921     0.000495492         0.146632        0.122868
281740                  0.173283      0.00332303      0.000470362    -0.000192989         0.723561       -0.661859      0.000617105      0.00049145
                     0.000438899    -0.000156535         0.187568       0.0504351      0.000528271     0.000549539         0.454553       -0.865146
                        0.723629        -0.66217      0.000539147     0.000621441       -0.0118647        0.168771     -0.000331756     0.000537766
                     0.000634904     0.000565613         0.454226       -0.865368     -0.000225232     0.000492689         0.146719        0.122786
281742                  0.173281      0.00334061      0.000470513     -0.00019348         0.723362       -0.662079       0.00061704     0.000491111
                     0.000438916    -0.000156318          0.18758       0.0504462      0.000530329     0.000549239         0.454303       -0.865275
                         0.72343       -0.662389      0.000539448      0.00062217       -0.0117446        0.168778     -0.000330981     0.000538379
                     0.000635455     0.000565191         0.453976       -0.865503     -0.000225347     0.000490802         0.146806        0.122704
281744                  0.173279       0.0033582      0.000470677    -0.000193922         0.723163       -0.662299      0.000617014     0.000490756
                     0.000438928    -0.000156115         0.187591       0.0504572      0.000531571     0.000548889         0.454053       -0.865403
                        0.723231       -0.662609      0.000539608     0.000622836       -0.0116245        0.168786     -0.000330175     0.000538904
                     0.000636004     0.000564803         0.453725       -0.865637     -0.000225697     0.000489669         0.146893        0.122622
281746                  0.173277      0.00337578      0.000470849    -0.000194328         0.722963       -0.662519      0.000617018     0.000490396
                     0.000438935    -0.000155923         0.187602       0.0504683      0.000532405       0.0005485         0.453803       -0.865532
                        0.723031       -0.662829      0.000539664      0.00062343       -0.0115044        0.168793     -0.000329351     0.000539344
                     0.000636552     0.000564442         0.453474       -0.865771     -0.000226041     0.000489057          0.14698         0.12254
281748                  0.173274      0.00339336      0.000471025     -0.00019471         0.722763       -0.662739      0.000617046     0.000490038
                     0.000438938    -0.000155739         0.187613       0.0504794      0.000533009     0.000548084         0.453553       -0.865661
                        0.722832       -0.663048      0.000539645      0.00062395       -0.0113842          0.1688      -0.00032852     0.000539704
                     0.000637099     0.000564103         0.453223       -0.865904     -0.000226297     0.000488786         0.147067        0.122457
281750                  0.173272      0.00341094      0.000471202    -0.000195072         0.722564       -0.662959       0.00061709     0.000489685
                     0.000438937    -0.000155562         0.187625       0.0504905      0.000533468     0.000547649         0.453303       -0.865791
                        0.722632       -0.663268      0.000539571     0.000624401       -0.0112641        0.168808     -0.000327691     0.000539991
                     0.000637647     0.000563779         0.452972       -0.866038     -0.000226449     0.000488738         0.147153        0.122375
281752                   0.17327      0.00342852      0.000471378    -0.000195423         0.722364       -0.663178      0.000617147     0.000489336
                     0.000438934     -0.00015539         0.187636       0.0505016       0.00053383     0.000547201         0.453052       -0.865921
                        0.722432       -0.663487      0.000539461     0.000624787        -0.011144        0.168815      -0.00032687      0.00054021
                     0.000638197     0.000563469          0.45272       -0.866171     -0.000226504     0.000488839          0.14724        0.122292
281754                  0.173268       0.0034461      0.000471552    -0.000195764         0.722164       -0.663398      0.000617214     0.000488993
                     0.000438929    -0.000155221         0.187647       0.0505127      0.000534123     0.000546742         0.452801       -0.866051
                        0.722232       -0.663706      0.000539326     0.000625115       -0.0110239        0.168822     -0.000326064     0.000540368
                      0.00063875     0.000563168         0.452468       -0.866303     -0.000226474     0.000489041         0.147326        0.122209
281756                  0.173266      0.00346367      0.000471722      -0.0001961         0.721964       -0.663618      0.000617287     0.000488655
                     0.000438922    -0.000155056         0.187658       0.0505239      0.000534367     0.000546274          0.45255       -0.866181
                        0.722032       -0.663926      0.000539174      0.00062539       -0.0109037        0.168829     -0.000325277     0.000540473
                     0.000639307     0.000562873         0.452217       -0.866436     -0.000226373     0.000489313         0.147413        0.122127
281758                  0.173264      0.00348124      0.000471886    -0.000196432         0.721764       -0.663837      0.000617366     0.000488322
                     0.000438914    -0.000154891          0.18767       0.0505351      0.000534573       0.0005458         0.452299       -0.866312
                        0.721832       -0.664145      0.000539013     0.000625618       -0.0107836        0.168836      -0.00032451     0.000540529
                     0.000639869     0.000562581         0.451965       -0.866569     -0.000226212     0.000489635         0.147499        0.122044
281760                  0.173262      0.00349881      0.000472044    -0.000196765         0.721564       -0.664057      0.000617449     0.000487993
                     0.000438906    -0.000154728         0.187681       0.0505463      0.000534748      0.00054532         0.452047       -0.866442
                        0.721632       -0.664364      0.000538847     0.000625802       -0.0106634        0.168843     -0.000323767     0.000540544
                     0.000640437     0.000562289         0.451712       -0.866701     -0.000226002     0.000489995         0.147585        0.121961
281762                  0.173259      0.00351638      0.000472192    -0.000197098         0.721363       -0.664276      0.000617535     0.000487668
                     0.000438898    -0.000154564         0.187692       0.0505576      0.000534899     0.000544836         0.451794       -0.866572
                        0.721431       -0.664583       0.00053868     0.000625947       -0.0105432         0.16885     -0.000323047     0.000540523
