! TOUCHSTONE file generated by CST MICROWAVE STUDIO
! Date and time: Wed Oct 15 17:35:07 2025
! Project name: Teste_Macro_Metasurface_Nanopilar.cst
! Parameters = {H=600; L_x=195; L_y=165; Lambda=1064; Max_L=200; Min_L=70; PathPara=1; Phi=0; Step_L=10; Theta=0; p=520; phaseX=180; phaseY=0}
! Header version: 2018
! Port assignment regex: !\s*Touchstone port\s*([0-9]+)\s*=\s*(CST MWS port|CST DS port)\s*([0-9]+|Zmin|Zmax)\s*\(\"(.*)\"\)(\s*mode\s*([0-9]+))?.*
! Touchstone port assignment:
! Touchstone port 1 = CST MWS port Zmax ("") mode 1
! Touchstone port 2 = CST MWS port Zmax ("") mode 2
! Touchstone port 3 = CST MWS port Zmin ("") mode 1
! Touchstone port 4 = CST MWS port Zmin ("") mode 2
! S-Parameters are not renormalized. Each port impedance will be approximated by the real part at minimum frequency. The values are described via the [Reference] keyword.
! Default impedance is overridden by [Reference]
[Version] 2.0
# GHz S RI R 376.73
[Number of Ports] 4
[Reference]
376.73 376.73 259.888 259.888 
[Number of Frequencies] 51
[Network Data]
281700                  0.254676        0.140014     -0.000284237    -0.000111075         0.440812       -0.844971      0.000321335    -0.000150486
                    -0.000295647    -9.23904e-05         0.262637       0.0979531       0.00025096     0.000128383        0.0714688       -0.953533
                        0.440864       -0.845032      0.000348748     0.000128142         0.259256         0.12849     -9.07515e-05     0.000131513
                     0.000506134    -8.50008e-05        0.0713726       -0.953389     -0.000199927     0.000135063         0.272211      -0.0585366
281702                  0.254683        0.139996       -0.0002843    -0.000111076         0.440564       -0.845101      0.000321317    -0.000150717
                    -0.000295579    -9.22807e-05         0.262651       0.0979468      0.000251054     0.000128277        0.0711899        -0.95355
                        0.440617       -0.845163      0.000348815     0.000127929         0.259321        0.128352     -9.13296e-05     0.000131784
                      0.00050585    -8.51186e-05        0.0710933       -0.953406     -0.000200074     0.000135277         0.272189      -0.0586874
281704                  0.254689        0.139978     -0.000284362    -0.000111078         0.440317       -0.845232      0.000321299    -0.000150948
                    -0.000295509    -9.21712e-05         0.262665       0.0979406       0.00025115     0.000128169         0.070911       -0.953568
                        0.440369       -0.845294      0.000348882     0.000127715         0.259386        0.128215     -9.19074e-05     0.000132056
                     0.000505564    -8.52333e-05         0.070814       -0.953423     -0.000200221     0.000135491         0.272168      -0.0588382
281706                  0.254696         0.13996     -0.000284425    -0.000111079          0.44007       -0.845363       0.00032128     -0.00015118
                    -0.000295437    -9.20618e-05         0.262679       0.0979343      0.000251246     0.000128061        0.0706321       -0.953585
                        0.440122       -0.845425      0.000348948     0.000127501          0.25945        0.128078      -9.2485e-05     0.000132331
                     0.000505275    -8.53449e-05        0.0705347        -0.95344     -0.000200368     0.000135707         0.272146       -0.058989
281708                  0.254703        0.139941     -0.000284488     -0.00011108         0.439822       -0.845493      0.000321261    -0.000151413
                    -0.000295364    -9.19524e-05         0.262693        0.097928      0.000251344     0.000127952        0.0703532       -0.953603
                        0.439875       -0.845555      0.000349013     0.000127286         0.259515         0.12794     -9.30623e-05     0.000132608
                     0.000504984    -8.54534e-05        0.0702554       -0.953457     -0.000200515     0.000135923         0.272125      -0.0591398
281710                   0.25471        0.139923     -0.000284551    -0.000111081         0.439575       -0.845624      0.000321241    -0.000151646
                    -0.000295289    -9.18432e-05         0.262707       0.0979217      0.000251443     0.000127841        0.0700744        -0.95362
                        0.439627       -0.845686      0.000349078     0.000127071         0.259579        0.127803     -9.36395e-05     0.000132887
                      0.00050469    -8.55588e-05        0.0699761       -0.953474     -0.000200662      0.00013614         0.272103      -0.0592906
281712                  0.254717        0.139905     -0.000284614    -0.000111081         0.439327       -0.845754      0.000321221     -0.00015188
                    -0.000295212    -9.17341e-05          0.26272       0.0979154      0.000251542      0.00012773        0.0697954       -0.953637
                         0.43938       -0.845816      0.000349142     0.000126856         0.259644        0.127665     -9.42164e-05     0.000133167
                     0.000504393     -8.5661e-05        0.0696968        -0.95349      -0.00020081     0.000136357         0.272081      -0.0594414
281714                  0.254723        0.139887     -0.000284678    -0.000111081          0.43908       -0.845884        0.0003212    -0.000152115
                    -0.000295134    -9.16251e-05         0.262734       0.0979092      0.000251643     0.000127619        0.0695165       -0.953654
                        0.439133       -0.845947      0.000349205     0.000126639         0.259708        0.127528     -9.47931e-05      0.00013345
                     0.000504094    -8.57601e-05        0.0694175       -0.953507     -0.000200957     0.000136575          0.27206      -0.0595922
281716                   0.25473        0.139869     -0.000284741    -0.000111081         0.438832       -0.846014      0.000321179     -0.00015235
                    -0.000295054    -9.15162e-05         0.262748       0.0979029      0.000251744     0.000127506        0.0692376       -0.953671
                        0.438885       -0.846077      0.000349267     0.000126423         0.259772         0.12739     -9.53697e-05     0.000133735
                     0.000503793    -8.58559e-05        0.0691382       -0.953523     -0.000201106     0.000136794         0.272038      -0.0597429
281718                  0.254737        0.139851     -0.000284805     -0.00011108         0.438585       -0.846144      0.000321157    -0.000152586
                    -0.000294972    -9.14074e-05         0.262762       0.0978966      0.000251847     0.000127392        0.0689587       -0.953688
                        0.438638       -0.846207      0.000349329     0.000126206         0.259836        0.127253     -9.59461e-05     0.000134021
                     0.000503489    -8.59485e-05        0.0688589        -0.95354     -0.000201254     0.000137014         0.272016      -0.0598937
281720                  0.254744        0.139833     -0.000284869    -0.000111079         0.438337       -0.846274      0.000321134    -0.000152822
                    -0.000294889    -9.12988e-05         0.262776       0.0978903       0.00025195     0.000127277        0.0686798       -0.953705
                         0.43839       -0.846337      0.000349391     0.000125988           0.2599        0.127115     -9.65223e-05     0.000134309
                     0.000503182    -8.60379e-05        0.0685796       -0.953556     -0.000201402     0.000137234         0.271994      -0.0600444
281722                  0.254751        0.139815     -0.000284934    -0.000111078         0.438089       -0.846404      0.000321111    -0.000153059
                    -0.000294804    -9.11903e-05          0.26279        0.097884      0.000252054     0.000127162        0.0684008       -0.953722
                        0.438143       -0.846468      0.000349451      0.00012577         0.259965        0.126978     -9.70984e-05     0.000134599
                     0.000502873    -8.61239e-05        0.0683002       -0.953573     -0.000201551     0.000137456         0.271971      -0.0601952
281724                  0.254758        0.139797     -0.000284998    -0.000111076         0.437842       -0.846534      0.000321087    -0.000153296
                    -0.000294718    -9.10819e-05         0.262804       0.0978776      0.000252159     0.000127045        0.0681219       -0.953739
                        0.437895       -0.846597      0.000349511     0.000125551         0.260029         0.12684     -9.76743e-05     0.000134891
                     0.000502562    -8.62067e-05        0.0680209       -0.953589       -0.0002017     0.000137678         0.271949      -0.0603459
281726                  0.254764        0.139779     -0.000285063    -0.000111074         0.437594       -0.846664      0.000321062    -0.000153534
                    -0.000294629    -9.09737e-05         0.262818       0.0978713      0.000252265     0.000126928         0.067843       -0.953755
                        0.437648       -0.846727       0.00034957     0.000125332         0.260092        0.126702     -9.82502e-05     0.000135185
                     0.000502248    -8.62862e-05        0.0677416       -0.953605     -0.000201849     0.000137901         0.271927      -0.0604966
281728                  0.254771        0.139761     -0.000285127    -0.000111072         0.437346       -0.846794      0.000321037    -0.000153773
                    -0.000294539    -9.08655e-05         0.262832        0.097865      0.000252371     0.000126809         0.067564       -0.953772
                          0.4374       -0.846857      0.000349628     0.000125112         0.260156        0.126565     -9.88259e-05      0.00013548
                     0.000501932    -8.63623e-05        0.0674622       -0.953621     -0.000201999     0.000138125         0.271904      -0.0606473
281730                  0.254778        0.139743     -0.000285193    -0.000111069         0.437099       -0.846923      0.000321011    -0.000154012
                    -0.000294448    -9.07576e-05         0.262846       0.0978587      0.000252478      0.00012669        0.0672851       -0.953788
                        0.437153       -0.846987      0.000349686     0.000124892          0.26022        0.126427     -9.94016e-05     0.000135776
                     0.000501614    -8.64351e-05        0.0671829       -0.953637     -0.000202148      0.00013835         0.271882       -0.060798
281732                  0.254785        0.139725     -0.000285258    -0.000111066         0.436851       -0.847053      0.000320984    -0.000154252
                    -0.000294355    -9.06497e-05         0.262859       0.0978524      0.000252586      0.00012657        0.0670061       -0.953805
                        0.436905       -0.847117      0.000349743     0.000124672         0.260284        0.126289     -9.99771e-05     0.000136075
                     0.000501293    -8.65045e-05        0.0669035       -0.953653     -0.000202298     0.000138575         0.271859      -0.0609487
281734                  0.254792        0.139707     -0.000285323    -0.000111063         0.436603       -0.847182      0.000320957    -0.000154492
                     -0.00029426    -9.05421e-05         0.262873       0.0978461      0.000252695     0.000126449        0.0667271       -0.953821
                        0.436658       -0.847246      0.000349799      0.00012445         0.260348        0.126151     -0.000100553     0.000136375
                     0.000500971    -8.65705e-05        0.0666242       -0.953668     -0.000202448     0.000138802         0.271836      -0.0610994
281736                  0.254799        0.139689     -0.000285389    -0.000111059         0.436355       -0.847312      0.000320929    -0.000154733
                    -0.000294163    -9.04345e-05         0.262887       0.0978397      0.000252804     0.000126327        0.0664482       -0.953837
                         0.43641       -0.847376      0.000349854     0.000124229         0.260411        0.126014     -0.000101128     0.000136676
                     0.000500646    -8.66331e-05        0.0663448       -0.953684     -0.000202598      0.00013903         0.271814      -0.0612501
281738                  0.254806        0.139671     -0.000285454    -0.000111055         0.436107       -0.847441        0.0003209    -0.000154974
                    -0.000294065    -9.03272e-05         0.262901       0.0978334      0.000252914     0.000126204        0.0661692       -0.953854
                        0.436162       -0.847505      0.000349909     0.000124007         0.260475        0.125876     -0.000101704     0.000136979
                     0.000500319    -8.66922e-05        0.0660655         -0.9537     -0.000202748      0.00013926         0.271791      -0.0614008
281740                  0.254812        0.139653      -0.00028552     -0.00011105          0.43586        -0.84757       0.00032087    -0.000155216
                    -0.000293965    -9.02199e-05         0.262915       0.0978271      0.000253024      0.00012608        0.0658902        -0.95387
                        0.435915       -0.847635      0.000349962     0.000123784         0.260538        0.125738     -0.000102279     0.000137284
                     0.000499989    -8.67479e-05        0.0657861       -0.953715     -0.000202899      0.00013949         0.271768      -0.0615514
281742                  0.254819        0.139635     -0.000285586    -0.000111045         0.435612       -0.847699      0.000320839    -0.000155459
                    -0.000293863    -9.01129e-05         0.262929       0.0978207      0.000253135     0.000125955        0.0656112       -0.953886
                        0.435667       -0.847764      0.000350015     0.000123561         0.260602          0.1256     -0.000102855      0.00013759
                     0.000499658    -8.68002e-05        0.0655067       -0.953731     -0.000203049     0.000139722         0.271745      -0.0617021
281744                  0.254826        0.139617     -0.000285653     -0.00011104         0.435364       -0.847828      0.000320808    -0.000155702
                    -0.000293759     -9.0006e-05         0.262943       0.0978144      0.000253246      0.00012583        0.0653322       -0.953902
                        0.435419       -0.847893      0.000350067     0.000123337         0.260665        0.125462      -0.00010343     0.000137897
                     0.000499325     -8.6849e-05        0.0652273       -0.953746     -0.000203199     0.000139955         0.271722      -0.0618527
281746                  0.254833        0.139599     -0.000285719    -0.000111034         0.435116       -0.847957      0.000320776    -0.000155945
                    -0.000293654    -8.98993e-05         0.262957        0.097808      0.000253358     0.000125703        0.0650532       -0.953917
                        0.435171       -0.848022      0.000350119     0.000123113         0.260728        0.125324     -0.000104006     0.000138206
                      0.00049899    -8.68942e-05         0.064948       -0.953761     -0.000203349      0.00014019         0.271698      -0.0620034
281748                   0.25484        0.139581     -0.000285786    -0.000111028         0.434868       -0.848086      0.000320743    -0.000156189
                    -0.000293547    -8.97927e-05          0.26297       0.0978017      0.000253471     0.000125576        0.0647742       -0.953933
                        0.434924       -0.848151      0.000350169     0.000122889         0.260791        0.125186     -0.000104581     0.000138516
                     0.000498652     -8.6936e-05        0.0646686       -0.953777     -0.000203498     0.000140426         0.271675       -0.062154
281750                  0.254847        0.139563     -0.000285852    -0.000111022          0.43462       -0.848215      0.000320709    -0.000156434
                    -0.000293439    -8.96863e-05         0.262984       0.0977953      0.000253584     0.000125447        0.0644952       -0.953949
                        0.434676        -0.84828      0.000350219     0.000122664         0.260855        0.125049     -0.000105157     0.000138827
                     0.000498313    -8.69743e-05        0.0643892       -0.953792     -0.000203646     0.000140664         0.271652      -0.0623046
281752                  0.254854        0.139545     -0.000285919    -0.000111015         0.434372       -0.848343      0.000320674    -0.000156679
                    -0.000293329    -8.95801e-05         0.262998        0.097789      0.000253697     0.000125318        0.0642162       -0.953965
                        0.434428       -0.848409      0.000350268     0.000122438         0.260918        0.124911     -0.000105733      0.00013914
                     0.000497972    -8.70091e-05        0.0641098       -0.953807     -0.000203792     0.000140904         0.271628      -0.0624552
281754                  0.254861        0.139527     -0.000285986    -0.000111007         0.434124       -0.848472      0.000320638    -0.000156924
                    -0.000293217    -8.94741e-05         0.263012       0.0977826      0.000253811     0.000125188        0.0639372        -0.95398
                         0.43418       -0.848538      0.000350316     0.000122212         0.260981        0.124773     -0.000106309     0.000139454
                     0.000497629    -8.70404e-05        0.0638304       -0.953822     -0.000203938     0.000141144         0.271605      -0.0626058
281756                  0.254868        0.139509     -0.000286054       -0.000111         0.433875         -0.8486      0.000320601     -0.00015717
                    -0.000293103    -8.93683e-05         0.263026       0.0977762      0.000253925     0.000125057        0.0636582       -0.953996
                        0.433932       -0.848666      0.000350364     0.000121986         0.261044        0.124634     -0.000106885     0.000139768
                     0.000497285    -8.70681e-05         0.063551       -0.953836     -0.000204081     0.000141385         0.271581      -0.0627564
281758                  0.254875        0.139492     -0.000286121    -0.000110992         0.433627       -0.848729      0.000320563    -0.000157416
                    -0.000292988    -8.92627e-05          0.26304       0.0977699       0.00025404     0.000124925        0.0633791       -0.954011
                        0.433684       -0.848795      0.000350412     0.000121758         0.261107        0.124496     -0.000107462     0.000140084
                     0.000496938    -8.70923e-05        0.0632716       -0.953851     -0.000204222     0.000141626         0.271557       -0.062907
281760                  0.254881        0.139474     -0.000286189    -0.000110983         0.433379       -0.848857      0.000320525    -0.000157662
                    -0.000292871    -8.91572e-05         0.263053       0.0977635      0.000254155     0.000124793        0.0631001       -0.954026
                        0.433436       -0.848923       0.00035045     0.000121527         0.261169        0.124358     -0.000108038     0.000140401
                      0.00049659     -8.7113e-05        0.0629922       -0.953866     -0.000204361     0.000141865         0.271533      -0.0630576
281762                  0.254888        0.139456     -0.000286256    -0.000110974         0.433131       -0.848985      0.000320485     -0.00015791
                    -0.000292752     -8.9052e-05         0.263067       0.0977571       0.00025427     0.000124659        0.0628211       -0.954041
                        0.433188       -0.849052      0.000350497     0.000121303         0.261232         0.12422     -0.000108615     0.000140719
