! TOUCHSTONE file generated by CST MICROWAVE STUDIO
! Date and time: Wed Oct 15 17:28:48 2025
! Project name: Teste_Macro_Metasurface_Nanopilar.cst
! Parameters = {H=600; L_x=85; L_y=160; Lambda=1064; Max_L=200; Min_L=70; PathPara=1; Phi=0; Step_L=10; Theta=0; p=520; phaseX=180; phaseY=0}
! Header version: 2018
! Port assignment regex: !\s*Touchstone port\s*([0-9]+)\s*=\s*(CST MWS port|CST DS port)\s*([0-9]+|Zmin|Zmax)\s*\(\"(.*)\"\)(\s*mode\s*([0-9]+))?.*
! Touchstone port assignment:
! Touchstone port 1 = CST MWS port Zmax ("") mode 1
! Touchstone port 2 = CST MWS port Zmax ("") mode 2
! Touchstone port 3 = CST MWS port Zmin ("") mode 1
! Touchstone port 4 = CST MWS port Zmin ("") mode 2
! S-Parameters are not renormalized. Each port impedance will be approximated by the real part at minimum frequency. The values are described via the [Reference] keyword.
! Default impedance is overridden by [Reference]
[Version] 2.0
# GHz S RI R 376.73
[Number of Ports] 4
[Reference]
376.73 376.73 259.888 259.888 
[Number of Frequencies] 51
[Network Data]
281700                 0.0100812        0.135002     -0.000122022     0.000107395         0.944207        0.277441      0.000137127     4.94992e-05
                    -0.000152203     0.000154701       -0.0333038      -0.0131597      2.71342e-05     0.000240584        -0.537484        -0.84035
                        0.944114        0.277429      7.71939e-05       0.0001134       -0.0806616         0.10952      6.18233e-05    -7.01829e-05
                     0.000167686    -3.61028e-05        -0.537502       -0.840688       4.6971e-05    -0.000278993       -0.0020164        0.036389
281702                 0.0101046        0.135024     -0.000122012     0.000107343         0.944302        0.277109      0.000137205      4.9408e-05
                    -0.000152152     0.000154741        -0.033311      -0.0131459      2.73046e-05     0.000240552         -0.53771       -0.840205
                        0.944209        0.277096      7.71444e-05      0.00011335        -0.080616        0.109582      6.17891e-05    -7.02577e-05
                     0.000167696    -3.62154e-05        -0.537728       -0.840543      4.68106e-05    -0.000278907      -0.00201239       0.0363908
281704                 0.0101279        0.135046     -0.000122002     0.000107292         0.944396        0.276776      0.000137283     4.93166e-05
                      -0.0001521      0.00015478       -0.0333181      -0.0131321      2.74753e-05     0.000240519        -0.537936        -0.84006
                        0.944304        0.276763      7.70947e-05       0.0001133       -0.0805704        0.109644      6.17548e-05    -7.03323e-05
                     0.000167707    -3.63277e-05        -0.537954       -0.840398        4.665e-05    -0.000278822      -0.00200838       0.0363927
281706                 0.0101512        0.135067     -0.000121992     0.000107241         0.944491        0.276444       0.00013736     4.92252e-05
                    -0.000152049     0.000154819       -0.0333253      -0.0131183      2.76461e-05     0.000240486        -0.538162       -0.839915
                        0.944398        0.276431       7.7045e-05      0.00011325       -0.0805248        0.109706      6.17203e-05    -7.04069e-05
                     0.000167717    -3.64399e-05         -0.53818       -0.840253      4.64894e-05    -0.000278736      -0.00200437       0.0363945
281708                 0.0101745        0.135089     -0.000121982     0.000107189         0.944585        0.276111      0.000137437     4.91337e-05
                    -0.000151998     0.000154858       -0.0333325      -0.0131044       2.7817e-05     0.000240453        -0.538388        -0.83977
                        0.944493        0.276098      7.69952e-05       0.0001132       -0.0804791        0.109768      6.16858e-05    -7.04815e-05
                     0.000167728    -3.65518e-05        -0.538406       -0.840108      4.63287e-05     -0.00027865      -0.00200036       0.0363964
281710                 0.0101979        0.135111     -0.000121972     0.000107138         0.944679        0.275779      0.000137514     4.90421e-05
                    -0.000151947     0.000154896       -0.0333396      -0.0130906      2.79881e-05     0.000240419        -0.538613       -0.839625
                        0.944587        0.275765      7.69453e-05      0.00011315       -0.0804333         0.10983      6.16511e-05    -7.05559e-05
                     0.000167739    -3.66635e-05        -0.538632       -0.839963      4.61679e-05    -0.000278564      -0.00199635       0.0363982
281712                 0.0102212        0.135132     -0.000121962     0.000107086         0.944773        0.275446      0.000137591     4.89505e-05
                    -0.000151896     0.000154934       -0.0333468      -0.0130768      2.81594e-05     0.000240385        -0.538839        -0.83948
                        0.944682        0.275432      7.68953e-05     0.000113099       -0.0803875        0.109892      6.16163e-05    -7.06302e-05
                      0.00016775     -3.6775e-05        -0.538858       -0.839818       4.6007e-05    -0.000278478      -0.00199233       0.0364001
281714                 0.0102445        0.135154     -0.000121951     0.000107034         0.944867        0.275113      0.000137668     4.88588e-05
                    -0.000151845     0.000154972       -0.0333539       -0.013063      2.83308e-05     0.000240351        -0.539065       -0.839335
                        0.944776        0.275099      7.68452e-05     0.000113048       -0.0803417        0.109954      6.15813e-05    -7.07044e-05
                     0.000167761    -3.68862e-05        -0.539084       -0.839673       4.5846e-05    -0.000278391      -0.00198832        0.036402
281716                 0.0102678        0.135176     -0.000121941     0.000106982         0.944961        0.274781      0.000137744      4.8767e-05
                    -0.000151793      0.00015501       -0.0333611      -0.0130491      2.85024e-05     0.000240316         -0.53929        -0.83919
                         0.94487        0.274766       7.6795e-05     0.000112997       -0.0802958        0.110016      6.15462e-05    -7.07785e-05
                     0.000167772    -3.69973e-05         -0.53931       -0.839527      4.56849e-05    -0.000278304       -0.0019843       0.0364039
281718                 0.0102912        0.135197      -0.00012193     0.000106929         0.945055        0.274448       0.00013782     4.86753e-05
                    -0.000151742     0.000155048       -0.0333682      -0.0130353      2.86741e-05     0.000240281        -0.539516       -0.839044
                        0.944964        0.274433      7.67447e-05     0.000112946       -0.0802499        0.110078       6.1511e-05    -7.08524e-05
                     0.000167783    -3.71082e-05        -0.539536       -0.839382      4.55237e-05    -0.000278217      -0.00198028       0.0364057
281720                 0.0103145        0.135219     -0.000121919     0.000106877         0.945148        0.274115      0.000137895     4.85835e-05
                    -0.000151691     0.000155085       -0.0333754      -0.0130215      2.88459e-05     0.000240245        -0.539742       -0.838899
                        0.945057          0.2741      7.66944e-05     0.000112895       -0.0802039         0.11014      6.14754e-05    -7.09261e-05
                     0.000167794    -3.72189e-05        -0.539762       -0.839237      4.53624e-05    -0.000278129      -0.00197626       0.0364076
281722                 0.0103378        0.135241     -0.000121908     0.000106824         0.945242        0.273783      0.000137971     4.84916e-05
                     -0.00015164     0.000155122       -0.0333825      -0.0130076      2.90179e-05      0.00024021        -0.539967       -0.838754
                        0.945151        0.273767      7.66439e-05     0.000112843       -0.0801579        0.110202      6.14397e-05    -7.09997e-05
                     0.000167805    -3.73295e-05        -0.539987       -0.839091      4.52011e-05    -0.000278042      -0.00197224       0.0364095
281724                 0.0103612        0.135262     -0.000121896     0.000106772         0.945335         0.27345      0.000138046     4.83998e-05
                    -0.000151589     0.000155159       -0.0333897      -0.0129938      2.91901e-05     0.000240173        -0.540193       -0.838608
                        0.945245        0.273434      7.65934e-05     0.000112792       -0.0801118        0.110264      6.14036e-05    -7.10732e-05
                     0.000167816    -3.74398e-05        -0.540213       -0.838946      4.50396e-05    -0.000277954      -0.00196822       0.0364114
281726                 0.0103845        0.135284     -0.000121885     0.000106719         0.945428        0.273117      0.000138122     4.83079e-05
                    -0.000151537     0.000155196       -0.0333968        -0.01298      2.93624e-05     0.000240137        -0.540418       -0.838463
                        0.945338        0.273101      7.65428e-05      0.00011274       -0.0800657        0.110326      6.13671e-05    -7.11465e-05
                     0.000167828      -3.755e-05        -0.540439         -0.8388       4.4878e-05    -0.000277865       -0.0019642       0.0364133
281728                 0.0104078        0.135306     -0.000121873     0.000106666         0.945521        0.272784      0.000138197      4.8216e-05
                    -0.000151486     0.000155232        -0.033404      -0.0129661      2.95348e-05       0.0002401        -0.540643       -0.838317
                        0.945431        0.272767      7.64921e-05     0.000112688       -0.0800195        0.110387      6.13303e-05    -7.12198e-05
                     0.000167839      -3.766e-05        -0.540665       -0.838654      4.47163e-05    -0.000277777      -0.00196017       0.0364152
281730                 0.0104312        0.135327     -0.000121861     0.000106613         0.945614        0.272451      0.000138271     4.81241e-05
                    -0.000151435     0.000155268       -0.0334111      -0.0129523      2.97073e-05     0.000240062        -0.540869       -0.838171
                        0.945525        0.272434      7.64414e-05     0.000112635       -0.0799733        0.110449      6.12931e-05     -7.1293e-05
                      0.00016785    -3.77698e-05         -0.54089       -0.838509      4.45546e-05    -0.000277688      -0.00195615       0.0364171
281732                 0.0104545        0.135349     -0.000121849      0.00010656         0.945707        0.272119      0.000138346     4.80321e-05
                    -0.000151383     0.000155304       -0.0334182      -0.0129384        2.988e-05     0.000240024        -0.541094       -0.838026
                        0.945618        0.272101      7.63906e-05     0.000112583       -0.0799271        0.110511      6.12554e-05    -7.13663e-05
                     0.000167862    -3.78795e-05        -0.541116       -0.838363      4.43927e-05    -0.000277599      -0.00195212        0.036419
281734                 0.0104778         0.13537     -0.000121837     0.000106506           0.9458        0.271786      0.000138421     4.79401e-05
                    -0.000151332      0.00015534       -0.0334254      -0.0129246      3.00529e-05     0.000239986        -0.541319        -0.83788
                        0.945711        0.271768      7.63397e-05      0.00011253       -0.0798807        0.110573      6.12174e-05    -7.14397e-05
                     0.000167873     -3.7989e-05        -0.541341       -0.838217      4.42308e-05    -0.000277509       -0.0019481       0.0364209
281736                 0.0105012        0.135392     -0.000121825     0.000106453         0.945893        0.271453      0.000138495     4.78481e-05
                     -0.00015128     0.000155376       -0.0334325      -0.0129108      3.02258e-05     0.000239948        -0.541545       -0.837734
                        0.945803        0.271435      7.62888e-05     0.000112477       -0.0798344        0.110635      6.11791e-05    -7.15133e-05
                     0.000167884    -3.80984e-05        -0.541567       -0.838071      4.40687e-05    -0.000277419      -0.00194407       0.0364228
281738                 0.0105245        0.135414     -0.000121812     0.000106399         0.945985         0.27112      0.000138569     4.77561e-05
                    -0.000151229     0.000155411       -0.0334396      -0.0128969      3.03989e-05     0.000239909         -0.54177       -0.837588
                        0.945896        0.271101      7.62378e-05     0.000112424        -0.079788        0.110696      6.11404e-05     -7.1587e-05
                     0.000167895    -3.82076e-05        -0.541792       -0.837925      4.39065e-05    -0.000277329      -0.00194004       0.0364247
281740                 0.0105479        0.135435     -0.000121799     0.000106346         0.946077        0.270787      0.000138644      4.7664e-05
                    -0.000151177     0.000155446       -0.0334468      -0.0128831      3.05722e-05      0.00023987        -0.541995       -0.837442
                        0.945989        0.270768      7.61868e-05     0.000112371       -0.0797415        0.110758      6.11015e-05     -7.1661e-05
                     0.000167907    -3.83167e-05        -0.542018       -0.837779      4.37443e-05    -0.000277239      -0.00193601       0.0364267
281742                 0.0105712        0.135457     -0.000121786     0.000106292          0.94617        0.270454      0.000138718     4.75719e-05
                    -0.000151126     0.000155481       -0.0334539      -0.0128692      3.07455e-05      0.00023983         -0.54222       -0.837296
                        0.946081        0.270435      7.61358e-05     0.000112317        -0.079695         0.11082      6.10625e-05    -7.17352e-05
                     0.000167918    -3.84256e-05        -0.542243       -0.837633       4.3582e-05    -0.000277148      -0.00193198       0.0364286
281744                 0.0105946        0.135478     -0.000121773     0.000106238         0.946262        0.270121      0.000138792     4.74798e-05
                    -0.000151074     0.000155516        -0.033461      -0.0128554       3.0919e-05      0.00023979        -0.542445        -0.83715
                        0.946174        0.270101      7.60847e-05     0.000112263       -0.0796485        0.110882      6.10233e-05    -7.18095e-05
                     0.000167929    -3.85344e-05        -0.542469       -0.837487      4.34195e-05    -0.000277057      -0.00192794       0.0364305
281746                 0.0106179          0.1355     -0.000121759     0.000106184         0.946354        0.269788      0.000138866     4.73876e-05
                    -0.000151022     0.000155551       -0.0334682      -0.0128415      3.10926e-05     0.000239749         -0.54267       -0.837004
                        0.946266        0.269768      7.60337e-05     0.000112209       -0.0796019        0.110943      6.09841e-05     -7.1884e-05
                      0.00016794    -3.86431e-05        -0.542694       -0.837341       4.3257e-05    -0.000276965      -0.00192391       0.0364324
281748                 0.0106413        0.135522     -0.000121745     0.000106129         0.946446        0.269455      0.000138939     4.72954e-05
                    -0.000150971     0.000155585       -0.0334753      -0.0128277      3.12663e-05     0.000239709        -0.542895       -0.836858
                        0.946358        0.269435      7.59826e-05     0.000112155       -0.0795553        0.111005      6.09447e-05    -7.19586e-05
                     0.000167951    -3.87516e-05        -0.542919       -0.837194      4.30944e-05    -0.000276873      -0.00191988       0.0364344
281750                 0.0106646        0.135543     -0.000121731     0.000106075         0.946537        0.269122      0.000139013     4.72031e-05
                    -0.000150919     0.000155619       -0.0334824      -0.0128138      3.14402e-05     0.000239668         -0.54312       -0.836711
                         0.94645        0.269101      7.59317e-05     0.000112101       -0.0795086        0.111067      6.09053e-05    -7.20333e-05
                     0.000167962    -3.88601e-05        -0.543145       -0.837048      4.29317e-05    -0.000276781      -0.00191584       0.0364363
281752                  0.010688        0.135565     -0.000121716     0.000106021         0.946629        0.268789      0.000139087     4.71107e-05
                    -0.000150867     0.000155654       -0.0334895      -0.0127999      3.16142e-05     0.000239626        -0.543345       -0.836565
                        0.946542        0.268768       7.5881e-05     0.000112046       -0.0794618        0.111128      6.08658e-05    -7.21081e-05
                     0.000167973    -3.89684e-05         -0.54337       -0.836901      4.27689e-05    -0.000276688       -0.0019118       0.0364383
281754                 0.0107113        0.135586     -0.000121701     0.000105966         0.946721        0.268455       0.00013916     4.70183e-05
                    -0.000150815     0.000155688       -0.0334966      -0.0127861      3.17883e-05     0.000239584         -0.54357       -0.836419
                        0.946634        0.268434      7.58307e-05     0.000111991       -0.0794151         0.11119      6.08263e-05    -7.21828e-05
                     0.000167984    -3.90766e-05        -0.543595       -0.836755       4.2606e-05    -0.000276595      -0.00190776       0.0364402
281756                 0.0107347        0.135608     -0.000121684     0.000105911         0.946812        0.268122      0.000139234     4.69258e-05
                    -0.000150763     0.000155721       -0.0335038      -0.0127722      3.19625e-05     0.000239542        -0.543795       -0.836272
                        0.946725        0.268101      7.57817e-05     0.000111935       -0.0793682        0.111251      6.07867e-05    -7.22576e-05
                     0.000167995    -3.91847e-05         -0.54382       -0.836608      4.24431e-05    -0.000276502      -0.00190372       0.0364422
281758                  0.010758         0.13563     -0.000121663     0.000105856         0.946903        0.267789      0.000139307     4.68333e-05
                    -0.000150711     0.000155755       -0.0335109      -0.0127584      3.21368e-05     0.000239499         -0.54402       -0.836126
                        0.946817        0.267767      7.57375e-05     0.000111877       -0.0793214        0.111313       6.0747e-05    -7.23323e-05
                     0.000168006    -3.92927e-05        -0.544045       -0.836462        4.228e-05    -0.000276409      -0.00189968       0.0364441
281760                 0.0107814        0.135651     -0.000121623     0.000105784         0.946995        0.267456       0.00013938     4.67406e-05
                    -0.000150659     0.000155789        -0.033518      -0.0127445      3.23113e-05     0.000239457        -0.544245       -0.835979
                        0.946908        0.267434      7.57723e-05      0.00011188       -0.0792744        0.111375      6.07072e-05     -7.2407e-05
                     0.000168017    -3.94007e-05         -0.54427       -0.836315      4.21169e-05    -0.000276315      -0.00189564       0.0364461
281762                 0.0108047        0.135673     -0.000121677     0.000105719         0.947086        0.267123      0.000139453     4.66479e-05
                    -0.000150607     0.000155822       -0.0335251      -0.0127306      3.24858e-05     0.000239413         -0.54447       -0.835832
                        0.946999          0.2671      7.56036e-05     0.000111785       -0.0792275        0.111436      6.06673e-05    -7.24816e-05
