! TOUCHSTONE file generated by CST MICROWAVE STUDIO
! Date and time: Wed Oct 15 17:32:42 2025
! Project name: Teste_Macro_Metasurface_Nanopilar.cst
! Parameters = {H=600; L_x=155; L_y=105; Lambda=1064; Max_L=200; Min_L=70; PathPara=1; Phi=0; Step_L=10; Theta=0; p=520; phaseX=180; phaseY=0}
! Header version: 2018
! Port assignment regex: !\s*Touchstone port\s*([0-9]+)\s*=\s*(CST MWS port|CST DS port)\s*([0-9]+|Zmin|Zmax)\s*\(\"(.*)\"\)(\s*mode\s*([0-9]+))?.*
! Touchstone port assignment:
! Touchstone port 1 = CST MWS port Zmax ("") mode 1
! Touchstone port 2 = CST MWS port Zmax ("") mode 2
! Touchstone port 3 = CST MWS port Zmin ("") mode 1
! Touchstone port 4 = CST MWS port Zmin ("") mode 2
! S-Parameters are not renormalized. Each port impedance will be approximated by the real part at minimum frequency. The values are described via the [Reference] keyword.
! Default impedance is overridden by [Reference]
[Version] 2.0
# GHz S RI R 376.73
[Number of Ports] 4
[Reference]
376.73 376.73 259.888 259.888 
[Number of Frequencies] 51
[Network Data]
281700                  0.182886       0.0417152      0.000296157     6.62345e-05        -0.653293        0.721983      0.000107918     0.000211293
                      0.00042425    -1.12061e-05         0.097339        0.187006      6.66401e-05    -0.000179886         0.938002       -0.256539
                       -0.652806        0.722652     -4.86333e-05    -0.000190725         0.059281        0.176841      0.000289195    -0.000446946
                     0.000180043     0.000186137         0.938074       -0.256407      0.000325671     -0.00042164        0.0128174        0.209527
281702                  0.182889       0.0416887       0.00029682     6.61692e-05        -0.653009         0.72224      0.000107832     0.000211384
                     0.000424123    -1.14799e-05        0.0973603        0.187025      6.67329e-05    -0.000180379         0.937912       -0.256848
                       -0.652523        0.722908     -4.86989e-05    -0.000190532        0.0593931          0.1768      0.000288649    -0.000446945
                     0.000179936     0.000186056         0.937984       -0.256715      0.000325115    -0.000421553         0.012947        0.209545
281704                  0.182892       0.0416622      0.000296976     6.61026e-05        -0.652726        0.722496      0.000107751     0.000211473
                     0.000423998    -1.17563e-05        0.0973814        0.187044      6.60754e-05    -0.000179978         0.937823       -0.257156
                       -0.652241        0.723163      -4.8665e-05     -0.00019074        0.0595053        0.176759      0.000288102    -0.000446941
                     0.000179829     0.000185978         0.937895       -0.257024      0.000325335    -0.000421811        0.0130767        0.209563
281706                  0.182895       0.0416356      0.000296731     6.60351e-05        -0.652443        0.722752      0.000107673     0.000211558
                     0.000423875    -1.20351e-05        0.0974026        0.187062      6.48211e-05    -0.000178889         0.937733       -0.257464
                       -0.651958        0.723418     -4.85557e-05    -0.000191261        0.0596174        0.176718      0.000287545    -0.000446932
                     0.000179724     0.000185903         0.937806       -0.257334      0.000326157    -0.000422347        0.0132065        0.209581
281708                  0.182897       0.0416091      0.000296378     6.59678e-05        -0.652161        0.723007      0.000107596     0.000211633
                     0.000423755     -1.2316e-05        0.0974238        0.187081      6.33821e-05     -0.00017764         0.937643       -0.257772
                       -0.651675        0.723674     -4.84307e-05     -0.00019186        0.0597295        0.176677      0.000286912    -0.000447012
                     0.000179618     0.000185831         0.937716       -0.257643      0.000327132    -0.000422975        0.0133361        0.209599
281710                    0.1829       0.0415826      0.000296556     6.59016e-05        -0.651877        0.723262      0.000107551     0.000211664
                     0.000423638    -1.25989e-05        0.0974449          0.1871       6.2778e-05    -0.000177315         0.937553        -0.25808
                       -0.651392        0.723929     -4.84105e-05    -0.000192041        0.0598415        0.176636      0.000286549    -0.000447023
                     0.000179514     0.000185763         0.937627       -0.257952      0.000327296    -0.000423225        0.0134659        0.209617
281712                  0.182903        0.041556      0.000298591     6.58385e-05        -0.651591        0.723522      0.000107525     0.000211833
                     0.000423522    -1.28837e-05        0.0974663        0.187119      6.49465e-05    -0.000180148         0.937463       -0.258388
                       -0.651109        0.724184     -4.87404e-05     -0.00019078        0.0599535        0.176594      0.000286023    -0.000446986
                     0.000179409       0.0001857         0.937535       -0.258259      0.000324709    -0.000422201        0.0135957        0.209635
281714                  0.182906       0.0415295      0.000305405     6.57922e-05          -0.6513        0.723788      0.000107437     0.000211917
                     0.000423409    -1.31703e-05        0.0974879        0.187138      7.14294e-05    -0.000191202         0.937373       -0.258696
                       -0.650825        0.724439     -5.00013e-05    -0.000185736        0.0600652        0.176553      0.000285499    -0.000446972
                     0.000179304     0.000185642         0.937441       -0.258562      0.000315564    -0.000419215        0.0137255        0.209653
281716                  0.182908        0.041503      0.000324741     6.58759e-05        -0.650999        0.724068       0.00010737     0.000211994
                     0.000423298    -1.34588e-05          0.09751        0.187158      7.53885e-05    -0.000217559         0.937283       -0.259004
                       -0.650542        0.724694     -5.41163e-05    -0.000169981        0.0601766        0.176512      0.000284981    -0.000446963
                     0.000179198     0.000185588         0.937342       -0.258856      0.000294158    -0.000417652        0.0138554         0.20967
281718                  0.182911       0.0414765      0.000386864     6.72894e-05        -0.650682        0.724371      0.000107311      0.00021207
                      0.00042319     -1.3749e-05        0.0975329        0.187178      6.06631e-05    -0.000248322         0.937192       -0.259312
                       -0.650258        0.724948     -7.41825e-05    -0.000107369        0.0602873        0.176472      0.000284467    -0.000446955
                     0.000179091     0.000185538         0.937234       -0.259137      0.000262666    -0.000430035        0.0139853        0.209688
281720                  0.182914       0.0414499      0.000873059     0.000133667        -0.650344        0.724702      0.000107255     0.000212145
                     0.000423083     -1.4041e-05        0.0975569          0.1872      3.79094e-05    -0.000261731         0.937102        -0.25962
                       -0.649975        0.725203     -0.000442805     -0.00101768        0.0603975        0.176433      0.000283957    -0.000446948
                     0.000178983     0.000185493         0.937114       -0.259401      0.000241996    -0.000458041        0.0141153        0.209705
281722                  0.182917       0.0414234     -0.000136093     0.000104292        -0.649989        0.725055      0.000107203     0.000212219
                     0.000422979    -1.43345e-05        0.0975817        0.187222      2.31814e-05    -0.000263689         0.937011       -0.259928
                       -0.649691        0.725457     -2.88319e-05    -0.000357659        0.0605075        0.176394      0.000283451    -0.000446941
                     0.000178872     0.000185453         0.936985        -0.25965      0.000238274    -0.000481951        0.0142452        0.209723
281724                  0.182919       0.0413969      5.42154e-05      7.7811e-05        -0.649631        0.725408      0.000107153     0.000212291
                     0.000422877    -1.46296e-05        0.0976064        0.187244      1.57583e-05    -0.000263047          0.93692       -0.260236
                       -0.649407        0.725712     -3.04828e-05    -0.000311291        0.0606176        0.176354      0.000282949    -0.000446933
                      0.00017876     0.000185416         0.936856       -0.259898      0.000240311    -0.000495271        0.0143752         0.20974
281726                  0.182922       0.0413703      9.57477e-05     7.40532e-05        -0.649288        0.725738      0.000107106     0.000212361
                     0.000422778    -1.49259e-05        0.0976303        0.187265      1.22102e-05    -0.000262309          0.93683       -0.260544
                       -0.649123        0.725966     -3.15313e-05    -0.000297415        0.0607283        0.176314      0.000282451    -0.000446925
                     0.000178646     0.000185384         0.936734       -0.260158      0.000242461    -0.000501803        0.0145052        0.209758
281728                  0.182925       0.0413438      0.000110716     7.29022e-05        -0.648968        0.726039       0.00010706     0.000212431
                     0.000422681    -1.52234e-05        0.0976531        0.187286      1.05519e-05    -0.000261815         0.936739       -0.260852
                       -0.648839         0.72622     -3.19917e-05    -0.000291906        0.0608394        0.176272      0.000281956    -0.000446916
                     0.000178529     0.000185356         0.936625       -0.260436      0.000243789    -0.000504908        0.0146353        0.209775
281730                  0.182927       0.0413172      0.000116819     7.24934e-05        -0.648667        0.726315      0.000107017     0.000212498
                     0.000422588    -1.55217e-05         0.097675        0.187306      9.81306e-06    -0.000261504         0.936648        -0.26116
                       -0.648554        0.726475     -3.21681e-05    -0.000289525        0.0609509        0.176231      0.000281465    -0.000446907
                     0.000178411     0.000185331         0.936525       -0.260731      0.000244487    -0.000506343        0.0147654        0.209792
281732                   0.18293       0.0412907      0.000119269     7.23722e-05        -0.648378        0.726576      0.000106976     0.000212565
                     0.000422496    -1.58206e-05        0.0976965        0.187325      9.52048e-06    -0.000261297         0.936556       -0.261467
                        -0.64827        0.726729     -3.22069e-05    -0.000288492        0.0610625        0.176189      0.000280978    -0.000446897
                      0.00017829     0.000185311         0.936432       -0.261036      0.000244822    -0.000506968        0.0148955        0.209809
281734                  0.182933       0.0412642      0.000120114     7.23754e-05        -0.648095        0.726829      0.000106936      0.00021263
                     0.000422408    -1.61199e-05        0.0977177        0.187344       9.4381e-06     -0.00026114         0.936465       -0.261775
                       -0.647985        0.726983     -3.21796e-05    -0.000288059        0.0611742        0.176147      0.000280494    -0.000446887
                     0.000178167     0.000185294         0.936341       -0.261345      0.000244974     -0.00050721        0.0150257        0.209826
281736                  0.182935       0.0412376      0.000120286     7.24311e-05        -0.647814        0.727078      0.000106897     0.000212693
                     0.000422322    -1.64193e-05        0.0977388        0.187362      9.44619e-06    -0.000261004         0.936374       -0.262083
                       -0.647701        0.727236     -3.21227e-05     -0.00028788         0.061286        0.176104      0.000280014    -0.000446877
                     0.000178041     0.000185281         0.936252       -0.261657      0.000245042    -0.000507283        0.0151558        0.209843
281738                  0.182938       0.0412111      0.000120237     7.25044e-05        -0.647535        0.727325      0.000106861     0.000212755
                     0.000422239    -1.67186e-05        0.0977598        0.187381      9.48395e-06    -0.000260877         0.936282        -0.26239
                       -0.647416         0.72749     -3.20554e-05    -0.000287783        0.0613977        0.176062      0.000279537    -0.000446865
                     0.000177912     0.000185272         0.936164        -0.26197       0.00024508    -0.000507297        0.0152861         0.20986
281740                  0.182941       0.0411845      0.000120189     7.25773e-05        -0.647255        0.727573      0.000106825     0.000212816
                     0.000422159    -1.70176e-05        0.0977808          0.1874      9.52113e-06    -0.000260749          0.93619       -0.262698
                       -0.647131        0.727744     -3.19881e-05    -0.000287685        0.0615094        0.176019      0.000279064    -0.000446854
                     0.000177781     0.000185266         0.936075       -0.262283      0.000245117    -0.000507307        0.0154163        0.209877
281742                  0.182943        0.041158      0.000120245     7.26411e-05        -0.646975        0.727821       0.00010679     0.000212876
                     0.000422081     -1.7316e-05        0.0978019        0.187418      9.54361e-06    -0.000260621         0.936099       -0.263006
                       -0.646846        0.727997      -3.1926e-05    -0.000287549         0.061621        0.175977      0.000278595    -0.000446842
                     0.000177647     0.000185263         0.935986       -0.262595      0.000245164    -0.000507339        0.0155466        0.209894
281744                  0.182946       0.0411315      0.000120447     7.26919e-05        -0.646695         0.72807      0.000106757     0.000212934
                     0.000422005    -1.76137e-05        0.0978229        0.187437      9.54577e-06    -0.000260489         0.936007       -0.263313
                       -0.646561        0.728251     -3.18717e-05     -0.00028736        0.0617326        0.175934       0.00027813    -0.000446829
                      0.00017751     0.000185263         0.935897       -0.262907      0.000245227    -0.000507403        0.0156769         0.20991
281746                  0.182948       0.0411049      0.000120802     7.27286e-05        -0.646413        0.728319      0.000106724     0.000212991
                     0.000421932    -1.79104e-05         0.097844        0.187456       9.5264e-06    -0.000260356         0.935915       -0.263621
                       -0.646275        0.728504     -3.18262e-05    -0.000287116        0.0618442        0.175891      0.000277669    -0.000446816
                      0.00017737     0.000185267         0.935807       -0.263218      0.000245307    -0.000507503        0.0158073        0.209927
281748                  0.182951       0.0410784      0.000121301     7.27516e-05        -0.646131        0.728569      0.000106693     0.000213047
                     0.000421862     -1.8206e-05        0.0978652        0.187475      9.48654e-06     -0.00026022         0.935823       -0.263928
                        -0.64599        0.728757     -3.17896e-05     -0.00028682        0.0619557        0.175849      0.000277214    -0.000446802
                     0.000177226     0.000185274         0.935716       -0.263529      0.000245403    -0.000507636        0.0159375        0.209943
281750                  0.182954       0.0410518      0.000121925      7.2762e-05        -0.645848         0.72882      0.000106662     0.000213102
                     0.000421793    -1.85004e-05        0.0978863        0.187494      9.42824e-06    -0.000260084         0.935731       -0.264236
                       -0.645704         0.72901     -3.17615e-05     -0.00028648        0.0620672        0.175806      0.000276763    -0.000446786
                      0.00017708     0.000185283         0.935626       -0.263839      0.000245515    -0.000507799        0.0160679         0.20996
281752                  0.182956       0.0410253      0.000122656     7.27613e-05        -0.645565        0.729071      0.000106631     0.000213155
                     0.000421727    -1.87932e-05        0.0979075        0.187512      9.35394e-06    -0.000259947         0.935639       -0.264543
                       -0.645419        0.729263     -3.17413e-05    -0.000286102        0.0621787        0.175763      0.000276318    -0.000446765
                      0.00017693     0.000185295         0.935535       -0.264149      0.000245641    -0.000507988        0.0161984        0.209976
281754                  0.182959       0.0409987      0.000123473     7.27512e-05        -0.645281        0.729322      0.000106601     0.000213207
                     0.000421663    -1.90844e-05        0.0979287        0.187531      9.26608e-06     -0.00025981         0.935546       -0.264851
                       -0.645133        0.729516     -3.17283e-05    -0.000285696        0.0622901         0.17572      0.000275876    -0.000446738
                     0.000176778      0.00018531         0.935443       -0.264458      0.000245778      -0.0005082        0.0163288        0.209992
281756                  0.182961       0.0409722      0.000124357     7.27331e-05        -0.644997        0.729573      0.000106571     0.000213257
                     0.000421601    -1.93738e-05        0.0979499         0.18755      9.16698e-06    -0.000259674         0.935454       -0.265158
                       -0.644847        0.729769     -3.17215e-05    -0.000285266        0.0624015        0.175677      0.000275433    -0.000446704
                     0.000176621     0.000185326         0.935352       -0.264767      0.000245924    -0.000508429        0.0164593        0.210009
281758                  0.182964       0.0409456      0.000125291     7.27085e-05        -0.644712        0.729825      0.000106541     0.000213305
                     0.000421541    -1.96613e-05        0.0979711        0.187569      9.05874e-06    -0.000259539         0.935361       -0.265466
                       -0.644561        0.730021     -3.17203e-05    -0.000284821        0.0625129        0.175634      0.000274982    -0.000446668
                     0.000176462     0.000185345          0.93526       -0.265076      0.000246079    -0.000508674        0.0165898        0.210025
281760                  0.182966       0.0409191      0.000126261     7.26786e-05        -0.644427        0.730077      0.000106512     0.000213352
                     0.000421483    -1.99467e-05        0.0979924        0.187588       8.9432e-06    -0.000259405         0.935269       -0.265773
                       -0.644275        0.730274      -3.1724e-05    -0.000284364        0.0626242        0.175591      0.000274527    -0.000446637
                       0.0001763     0.000185365         0.935168       -0.265385      0.000246241    -0.000508929        0.0167204        0.210041
281762                  0.182969       0.0408925      0.000127255     7.26445e-05        -0.644142        0.730329      0.000106483     0.000213396
                     0.000421426    -2.02299e-05        0.0980136        0.187607      8.82198e-06    -0.000259274         0.935176        -0.26608
                       -0.643988        0.730526     -3.17319e-05    -0.000283901        0.0627355        0.175547      0.000274074    -0.000446613
