! TOUCHSTONE file generated by CST MICROWAVE STUDIO
! Date and time: Wed Oct 15 17:32:18 2025
! Project name: Teste_Macro_Metasurface_Nanopilar.cst
! Parameters = {H=600; L_x=145; L_y=190; Lambda=1064; Max_L=200; Min_L=70; PathPara=1; Phi=0; Step_L=10; Theta=0; p=520; phaseX=180; phaseY=0}
! Header version: 2018
! Port assignment regex: !\s*Touchstone port\s*([0-9]+)\s*=\s*(CST MWS port|CST DS port)\s*([0-9]+|Zmin|Zmax)\s*\(\"(.*)\"\)(\s*mode\s*([0-9]+))?.*
! Touchstone port assignment:
! Touchstone port 1 = CST MWS port Zmax ("") mode 1
! Touchstone port 2 = CST MWS port Zmax ("") mode 2
! Touchstone port 3 = CST MWS port Zmin ("") mode 1
! Touchstone port 4 = CST MWS port Zmin ("") mode 2
! S-Parameters are not renormalized. Each port impedance will be approximated by the real part at minimum frequency. The values are described via the [Reference] keyword.
! Default impedance is overridden by [Reference]
[Version] 2.0
# GHz S RI R 376.73
[Number of Ports] 4
[Reference]
376.73 376.73 259.888 259.888 
[Number of Frequencies] 51
[Network Data]
281700                  0.205054       0.0649877      0.000311277    -0.000156297         0.352773       -0.906818      0.000198272     0.000127951
                      0.00036981    -0.000216948         0.174789     -0.00117651     -2.45757e-05     0.000239956         0.758553       -0.620755
                        0.354116       -0.906667      0.000260962     0.000143992         0.193381       0.0877715     -0.000246874     0.000463586
                     7.66024e-05     3.51205e-05         0.758389       -0.620751      -5.6438e-05     0.000409927       -0.0352657        0.166646
281702                  0.205069       0.0649967      0.000311173    -0.000156402         0.352508       -0.906918      0.000198558     0.000127952
                      0.00036945    -0.000216608         0.174784     -0.00115715     -2.43618e-05     0.000240293         0.758362        -0.62099
                        0.353851        -0.90676      0.000260641     0.000143906          0.19345       0.0876628      -0.00024691     0.000463615
                     7.35478e-05     3.59944e-05         0.758198       -0.620987     -5.64356e-05     0.000410052       -0.0351427        0.166669
281704                  0.205085       0.0650056      0.000311069    -0.000156508         0.352243       -0.907017      2.17999e-05     5.84731e-05
                     0.000369069    -0.000216271         0.174779     -0.00113779     -2.41627e-05      0.00024066         0.758166       -0.621224
                        0.353585       -0.906852      0.000260321     0.000143821         0.193519       0.0875541     -2.83403e-06     0.000507723
                     7.05762e-05     3.68072e-05         0.758007       -0.621223      -5.6382e-05     0.000410121       -0.0350188        0.166691
281706                    0.2051       0.0650146      0.000310966    -0.000156614         0.351978       -0.907117      4.42077e-05      0.00022865
                     0.000368668    -0.000215939         0.174774     -0.00111845     -2.39561e-05     0.000241017         0.757957       -0.621452
                         0.35332       -0.906944          0.00026     0.000143738         0.193588       0.0874453     -0.000115733     0.000434689
                     6.76955e-05     3.75561e-05         0.757815       -0.621458     -5.63458e-05     0.000410208       -0.0348919        0.166712
281708                  0.205115       0.0650235      0.000310863    -0.000156721         0.351712       -0.907216      7.42685e-05     0.000238798
                     0.000368246    -0.000215614         0.174769     -0.00109913     -2.37484e-05     0.000241373         0.757719       -0.621619
                        0.353053       -0.907036       0.00025968     0.000143657         0.193656       0.0873365     -0.000129198     0.000433188
                     6.49132e-05     3.82389e-05         0.757624       -0.621694     -5.63115e-05     0.000410297       -0.0347439        0.166701
281710                  0.205131       0.0650325       0.00031076    -0.000156828         0.351447       -0.907315      8.34131e-05     0.000239675
                     0.000367804    -0.000215296         0.174764     -0.00107981     -2.35398e-05     0.000241728         0.757711       -0.621795
                        0.352787       -0.907127      0.000259361     0.000143574         0.193725       0.0872276     -0.000132852     0.000433268
                     6.22366e-05     3.88531e-05         0.757433       -0.621929     -5.62783e-05     0.000410386       -0.0346744        0.166759
281712                  0.205146       0.0650414      0.000310658    -0.000156938         0.351182       -0.907414      8.70175e-05       0.0002395
                     0.000367344    -0.000214987         0.174759     -0.00106052     -2.33303e-05     0.000242082          0.75752       -0.622118
                        0.352521       -0.907217       0.00025904     0.000143493         0.193793       0.0871187     -0.000134022     0.000433604
                     5.96725e-05     3.93968e-05         0.757242       -0.622164     -5.62459e-05     0.000410475       -0.0345431        0.166783
281714                  0.205162       0.0650504      0.000310556    -0.000157046         0.350916       -0.907513      8.86906e-05     0.000239096
                     0.000366865    -0.000214687         0.174755     -0.00104123     -2.31199e-05     0.000242435         0.757318       -0.622371
                        0.352254       -0.907307      0.000258718     0.000143414         0.193862       0.0870097     -0.000134311     0.000434021
                     5.72274e-05     3.98682e-05          0.75705         -0.6224     -5.62142e-05     0.000410565       -0.0344181        0.166805
281716                  0.205177       0.0650593      0.000310454    -0.000157155         0.350651       -0.907612      8.95774e-05     0.000238616
                     0.000366369    -0.000214399          0.17475     -0.00102196     -2.29087e-05     0.000242788         0.757122       -0.622611
                        0.351987       -0.907397      0.000258397     0.000143337          0.19393       0.0869007     -0.000134232     0.000434472
                     5.49071e-05     4.02655e-05         0.756859       -0.622635     -5.61831e-05     0.000410655       -0.0342945        0.166827
281718                  0.205193       0.0650683      0.000310353    -0.000157265         0.350386       -0.907711      9.01177e-05     0.000238102
                     0.000365856    -0.000214123         0.174745     -0.00100269     -2.26966e-05      0.00024314          0.75693       -0.622847
                         0.35172       -0.907487      0.000258076      0.00014326         0.193998       0.0867916     -0.000133983     0.000434942
                     5.27171e-05     4.05874e-05         0.756668        -0.62287     -5.61528e-05     0.000410745       -0.0341714        0.166849
281720                  0.205208       0.0650772      0.000310252    -0.000157376          0.35012        -0.90781      9.05019e-05      0.00023757
                     0.000365329     -0.00021386          0.17474    -0.000983448     -2.24837e-05     0.000243491         0.756739       -0.623081
                        0.351453       -0.907576      0.000257755     0.000143184         0.194066       0.0866825     -0.000133653     0.000435424
                     5.06619e-05     4.08329e-05         0.756476       -0.623105     -5.61231e-05     0.000410835       -0.0340485        0.166871
281722                  0.205224       0.0650862      0.000310152    -0.000157487         0.349855       -0.907908      9.08186e-05     0.000237025
                     0.000364787     -0.00021361         0.174735    -0.000964213     -2.22698e-05     0.000243842         0.756549       -0.623314
                        0.351186       -0.907664      0.000257433      0.00014311         0.194135       0.0865734     -0.000133284     0.000435912
                     4.87456e-05     4.10011e-05         0.756284        -0.62334     -5.60941e-05     0.000410925       -0.0339257        0.166893
281724                  0.205239       0.0650951      0.000310052    -0.000157599         0.349589       -0.908007      9.11113e-05     0.000236472
                     0.000364233    -0.000213374          0.17473    -0.000944993     -2.20551e-05     0.000244191         0.756359       -0.623547
                        0.350919       -0.907753      0.000257112     0.000143037         0.194203       0.0864642     -0.000132896     0.000436406
                     4.69718e-05     4.10915e-05         0.756093       -0.623575     -5.60657e-05     0.000411016       -0.0338029        0.166915
281726                  0.205255        0.065104      0.000309952    -0.000157712         0.349324       -0.908105      9.14014e-05     0.000235914
                     0.000363667    -0.000213153         0.174725    -0.000925785     -2.18396e-05      0.00024454         0.756169       -0.623779
                        0.350652       -0.907841       0.00025679     0.000142965         0.194271        0.086355     -0.000132502     0.000436903
                     4.53429e-05     4.11038e-05         0.755901        -0.62381     -5.60381e-05     0.000411107       -0.0336802        0.166936
281728                   0.20527        0.065113      0.000309853    -0.000157825         0.349058       -0.908204      9.16995e-05     0.000235351
                      0.00036309    -0.000212946          0.17472     -0.00090659     -2.16231e-05     0.000244889         0.755979       -0.624011
                        0.350384       -0.907929      0.000256469     0.000142894         0.194339       0.0862457     -0.000132106     0.000437403
                     4.38611e-05     4.10381e-05         0.755709       -0.624045     -5.60112e-05     0.000411198       -0.0335575        0.166958
281730                  0.205286       0.0651219      0.000309754    -0.000157939         0.348793       -0.908302      9.20105e-05     0.000234785
                     0.000362505    -0.000212755         0.174715    -0.000887409     -2.14058e-05     0.000245236         0.755788       -0.624243
                        0.350117       -0.908016      0.000256147     0.000142824         0.194407       0.0861364     -0.000131712     0.000437905
                     4.25275e-05     4.08948e-05         0.755517       -0.624279      -5.5985e-05     0.000411289       -0.0334348        0.166979
281732                  0.205301       0.0651309      0.000309655    -0.000158053         0.348527       -0.908401      9.23361e-05     0.000234216
                     0.000361911    -0.000212579         0.174711    -0.000868241     -2.11876e-05     0.000245583         0.755597       -0.624474
                        0.349849       -0.908104      0.000255826     0.000142755         0.194474        0.086027     -0.000131322     0.000438408
                     4.13427e-05     4.06746e-05         0.755325       -0.624514     -5.59596e-05      0.00041138       -0.0333121        0.167001
281734                  0.205317       0.0651398      0.000309557    -0.000158168         0.348262       -0.908499      9.26766e-05     0.000233644
                     0.000361311    -0.000212419         0.174706    -0.000849086     -2.09685e-05     0.000245929         0.755406       -0.624706
                        0.349581       -0.908191      0.000255504     0.000142687         0.194542       0.0859176     -0.000130936     0.000438913
                     4.03065e-05     4.03784e-05         0.755133       -0.624749     -5.59348e-05     0.000411472       -0.0331893        0.167022
281736                  0.205332       0.0651488      0.000309459    -0.000158284         0.347996       -0.908597      9.30312e-05     0.000233071
                     0.000360705    -0.000212274         0.174701    -0.000829943     -2.07485e-05     0.000246274         0.755215       -0.624938
                        0.349314       -0.908278      0.000255182     0.000142621          0.19461       0.0858082     -0.000130554     0.000439419
                      3.9418e-05     4.00075e-05         0.754941       -0.624983     -5.59108e-05     0.000411564       -0.0330666        0.167043
281738                  0.205348       0.0651577      0.000309361      -0.0001584         0.347731       -0.908695       9.3399e-05     0.000232495
                     0.000360096    -0.000212143         0.174696    -0.000810815     -2.05277e-05     0.000246618         0.755023        -0.62517
                        0.349046       -0.908365      0.000254861     0.000142555         0.194678       0.0856987     -0.000130176     0.000439927
                     3.86756e-05     3.95635e-05         0.754749       -0.625217     -5.58876e-05     0.000411656       -0.0329439        0.167065
281740                  0.205364       0.0651666      0.000309264    -0.000158517         0.347465       -0.908793      9.37786e-05     0.000231918
                     0.000359483    -0.000212028         0.174691    -0.000791699     -2.03059e-05     0.000246962         0.754831       -0.625402
                        0.348778       -0.908452      0.000254539     0.000142491         0.194745       0.0855891     -0.000129802     0.000440435
                     3.80773e-05     3.90481e-05         0.754557       -0.625452     -5.58652e-05     0.000411748       -0.0328211        0.167086
281742                  0.205379       0.0651756      0.000309168    -0.000158634         0.347199       -0.908891      9.41689e-05     0.000231338
                     0.000358869    -0.000211927         0.174686    -0.000772596     -2.00832e-05     0.000247304         0.754638       -0.625634
                         0.34851       -0.908539      0.000254217     0.000142427         0.194813       0.0854796     -0.000129432     0.000440943
                     3.76201e-05     3.84634e-05         0.754365       -0.625686     -5.58435e-05     0.000411841       -0.0326983        0.167107
281744                  0.205395       0.0651845      0.000309071    -0.000158752         0.346934       -0.908989      9.45685e-05     0.000230757
                     0.000358254    -0.000211839         0.174682    -0.000753506     -1.98596e-05     0.000247646         0.754446       -0.625866
                        0.348242       -0.908626      0.000253895     0.000142365          0.19488       0.0853699     -0.000129065     0.000441453
                     3.73009e-05     3.78117e-05         0.754172        -0.62592     -5.58226e-05     0.000411934       -0.0325755        0.167128
281746                   0.20541       0.0651935      0.000308975    -0.000158871         0.346668       -0.909086      9.49764e-05     0.000230175
                     0.000357639    -0.000211766         0.174677     -0.00073443     -1.96352e-05     0.000247987         0.754253       -0.626099
                        0.347974       -0.908712      0.000253574     0.000142304         0.194947       0.0852603     -0.000128701     0.000441963
                     3.71158e-05     3.70956e-05          0.75398       -0.626154     -5.58026e-05     0.000412027       -0.0324527        0.167148
281748                  0.205426       0.0652024       0.00030888    -0.000158991         0.346402       -0.909184      9.53913e-05     0.000229591
                     0.000357025    -0.000211705         0.174672    -0.000715366     -1.94098e-05     0.000248327          0.75406       -0.626332
                        0.347706       -0.908799      0.000253252     0.000142244         0.195015       0.0851505      -0.00012834     0.000442474
                     3.70607e-05     3.63178e-05         0.753788       -0.626388     -5.57833e-05      0.00041212       -0.0323299        0.167169
281750                  0.205441       0.0652113      0.000308784    -0.000159111         0.346136       -0.909282      9.58123e-05     0.000229005
                     0.000356414    -0.000211656         0.174667    -0.000696316     -1.91835e-05     0.000248666         0.753867       -0.626564
                        0.347438       -0.908886       0.00025293     0.000142185         0.195082       0.0850408     -0.000127982     0.000442985
                     3.71307e-05     3.54811e-05         0.753595       -0.626622     -5.57649e-05     0.000412214       -0.0322071         0.16719
281752                  0.205457       0.0652203       0.00030869    -0.000159231          0.34587       -0.909379      9.62385e-05     0.000228418
                     0.000355806     -0.00021162         0.174662    -0.000677278     -1.89563e-05     0.000249004         0.753674       -0.626797
                         0.34717       -0.908973      0.000252608     0.000142127         0.195149        0.084931     -0.000127625     0.000443497
                     3.73211e-05     3.45887e-05         0.753403       -0.626856     -5.57474e-05     0.000412308       -0.0320843         0.16721
281754                  0.205473       0.0652292      0.000308595    -0.000159353         0.345605       -0.909477       9.6669e-05     0.000227829
                     0.000355201    -0.000211594         0.174658    -0.000658254     -1.87281e-05     0.000249342         0.753481        -0.62703
                        0.346902        -0.90906      0.000252287      0.00014207         0.195216       0.0848211      -0.00012727     0.000444009
                     3.76265e-05     3.36437e-05          0.75321        -0.62709     -5.57307e-05     0.000412402       -0.0319614        0.167231
281756                  0.205488       0.0652381      0.000308501    -0.000159474         0.345339       -0.909574      9.71031e-05     0.000227239
                     0.000354602    -0.000211579         0.174653    -0.000639243      -1.8499e-05     0.000249678         0.753288       -0.627263
                        0.346634       -0.909147      0.000251965     0.000142014         0.195283       0.0847112     -0.000126916     0.000444522
                     3.80414e-05     3.26493e-05         0.753017       -0.627324     -5.57149e-05     0.000412497       -0.0318386        0.167251
281758                  0.205504       0.0652471      0.000308408    -0.000159597         0.345073       -0.909671      9.75401e-05     0.000226648
                     0.000354009    -0.000211573         0.174648    -0.000620245     -1.82691e-05     0.000250014         0.753095       -0.627496
                        0.346365       -0.909235      0.000251643     0.000141959          0.19535       0.0846013     -0.000126564     0.000445035
                     3.85603e-05     3.16089e-05         0.752824       -0.627558        -5.57e-05     0.000412592       -0.0317157        0.167272
281760                  0.205519        0.065256      0.000308314     -0.00015972         0.344807       -0.909768      9.79793e-05     0.000226055
                     0.000353421    -0.000211577         0.174643    -0.000601259     -1.80381e-05     0.000250348         0.752902       -0.627729
                        0.346097       -0.909322      0.000251322     0.000141905         0.195417       0.0844913     -0.000126213     0.000445549
                     3.91773e-05     3.05259e-05         0.752632       -0.627791      -5.5686e-05     0.000412688       -0.0315929        0.167292
281762                  0.205535        0.065265      0.000308222    -0.000159844         0.344541       -0.909866      9.84203e-05     0.000225461
                     0.000352841     -0.00021159         0.174638    -0.000582287     -1.78063e-05     0.000250682         0.752709       -0.627962
                        0.345829       -0.909409         0.000251     0.000141852         0.195484       0.0843813     -0.000125863     0.000446063
