! TOUCHSTONE file generated by CST MICROWAVE STUDIO
! Date and time: Wed Oct 15 17:29:22 2025
! Project name: Teste_Macro_Metasurface_Nanopilar.cst
! Parameters = {H=600; L_x=95; L_y=165; Lambda=1064; Max_L=200; Min_L=70; PathPara=1; Phi=0; Step_L=10; Theta=0; p=520; phaseX=180; phaseY=0}
! Header version: 2018
! Port assignment regex: !\s*Touchstone port\s*([0-9]+)\s*=\s*(CST MWS port|CST DS port)\s*([0-9]+|Zmin|Zmax)\s*\(\"(.*)\"\)(\s*mode\s*([0-9]+))?.*
! Touchstone port assignment:
! Touchstone port 1 = CST MWS port Zmax ("") mode 1
! Touchstone port 2 = CST MWS port Zmax ("") mode 2
! Touchstone port 3 = CST MWS port Zmin ("") mode 1
! Touchstone port 4 = CST MWS port Zmin ("") mode 2
! S-Parameters are not renormalized. Each port impedance will be approximated by the real part at minimum frequency. The values are described via the [Reference] keyword.
! Default impedance is overridden by [Reference]
[Version] 2.0
# GHz S RI R 376.73
[Number of Ports] 4
[Reference]
376.73 376.73 259.888 259.888 
[Number of Frequencies] 51
[Network Data]
281700                 0.0985722         0.21165     -0.000607093      0.00069138         0.918368       -0.303621      0.000749888     0.000805525
                    -0.000593449     0.000559256        0.0409432         0.12423      0.000418413    -0.000938933        -0.968496       -0.189078
                        0.918612       -0.304435      0.000422959    -0.000913052        0.0485349        0.227221     -0.000971431    -0.000536896
                     0.000800459     0.000818001        -0.968519       -0.189097     -0.000893125    -0.000570203       -0.0833941        0.100449
281702                 0.0985973        0.211674     -0.000606942     0.000691505         0.918258       -0.303927      0.000750219     0.000805361
                    -0.000593218     0.000559426        0.0409629        0.124243      0.000418142    -0.000939065        -0.968555        -0.18876
                        0.918503       -0.304741      0.000422648    -0.000913266        0.0486827        0.227223     -0.000971762    -0.000536394
                     0.000800602     0.000817958        -0.968578        -0.18878     -0.000893538    -0.000569823       -0.0833515        0.100508
281704                 0.0986223        0.211699     -0.000606791     0.000691629         0.918148       -0.304233      0.000750551     0.000805197
                    -0.000592987     0.000559596        0.0409826        0.124256      0.000417872    -0.000939196        -0.968614       -0.188443
                        0.918394       -0.305047      0.000422337    -0.000913479        0.0488305        0.227225     -0.000972092    -0.000535892
                     0.000800744     0.000817914        -0.968637       -0.188463     -0.000893952    -0.000569444       -0.0833089        0.100567
281706                 0.0986474        0.211724      -0.00060664     0.000691754         0.918039       -0.304539      0.000750883     0.000805033
                    -0.000592757     0.000559767        0.0410023        0.124269      0.000417601    -0.000939327        -0.968673       -0.188126
                        0.918284       -0.305353      0.000422026    -0.000913692        0.0489783        0.227227     -0.000972422     -0.00053539
                     0.000800886     0.000817868        -0.968696       -0.188146     -0.000894366    -0.000569063       -0.0832663        0.100626
281708                 0.0986725        0.211749      -0.00060649     0.000691878         0.917929       -0.304845      0.000751215     0.000804869
                    -0.000592527     0.000559938         0.041022        0.124282      0.000417331    -0.000939458        -0.968731       -0.187808
                        0.918174       -0.305658      0.000421714    -0.000913904        0.0491262        0.227228     -0.000972752    -0.000534888
                     0.000801028     0.000817822        -0.968755       -0.187829     -0.000894779    -0.000568682       -0.0832236        0.100686
281710                 0.0986976        0.211774      -0.00060634     0.000692002         0.917819        -0.30515      0.000751546     0.000804704
                    -0.000592297     0.000560109        0.0410417        0.124295      0.000417061    -0.000939589         -0.96879       -0.187491
                        0.918065       -0.305964      0.000421402    -0.000914117         0.049274        0.227229     -0.000973082    -0.000534385
                      0.00080117     0.000817774        -0.968813       -0.187511     -0.000895193    -0.000568301       -0.0831809        0.100745
281712                 0.0987227        0.211799     -0.000606191     0.000692126         0.917709       -0.305456      0.000751878      0.00080454
                    -0.000592068     0.000560282        0.0410614        0.124308       0.00041679     -0.00093972        -0.968848       -0.187173
                        0.917955        -0.30627      0.000421089     -0.00091433        0.0494219        0.227231     -0.000973411    -0.000533883
                     0.000801312     0.000817725        -0.968872       -0.187194     -0.000895607    -0.000567919       -0.0831382        0.100804
281714                 0.0987478        0.211823     -0.000606041     0.000692251         0.917598       -0.305762       0.00075221     0.000804375
                    -0.000591839     0.000560454        0.0410811        0.124321       0.00041652     -0.00093985        -0.968907       -0.186856
                        0.917845       -0.306575      0.000420777    -0.000914542        0.0495698        0.227232     -0.000973741     -0.00053338
                     0.000801454     0.000817675         -0.96893       -0.186877     -0.000896021    -0.000567537       -0.0830954        0.100863
281716                 0.0987729        0.211848     -0.000605892     0.000692375         0.917488       -0.306067      0.000752541     0.000804211
                    -0.000591611     0.000560628        0.0411009        0.124334       0.00041625    -0.000939981        -0.968965       -0.186538
                        0.917735       -0.306881      0.000420464    -0.000914755        0.0497178        0.227233      -0.00097407    -0.000532876
                     0.000801596     0.000817623        -0.968989       -0.186559     -0.000896436    -0.000567155       -0.0830525        0.100922
281718                  0.098798        0.211873     -0.000605743       0.0006925         0.917378       -0.306373      0.000752873     0.000804046
                    -0.000591383     0.000560802        0.0411206        0.124347       0.00041598    -0.000940111        -0.969023       -0.186221
                        0.917624       -0.307186      0.000420151    -0.000914967        0.0498658        0.227234     -0.000974399    -0.000532373
                     0.000801738     0.000817571        -0.969047       -0.186242      -0.00089685    -0.000566772       -0.0830097        0.100982
281720                 0.0988231        0.211898     -0.000605594     0.000692625         0.917267       -0.306679      0.000753205     0.000803881
                    -0.000591155     0.000560976        0.0411403         0.12436      0.000415711    -0.000940242        -0.969081       -0.185903
                        0.917514       -0.307492      0.000419837    -0.000915179        0.0500138        0.227235     -0.000974728    -0.000531869
                      0.00080188     0.000817517        -0.969105       -0.185925     -0.000897264    -0.000566388       -0.0829667        0.101041
281722                 0.0988482        0.211923     -0.000605445     0.000692749         0.917157       -0.306984      0.000753536     0.000803716
                    -0.000590928     0.000561151        0.0411601        0.124372      0.000415441    -0.000940372        -0.969139       -0.185585
                        0.917404       -0.307797      0.000419524    -0.000915391        0.0501618        0.227236     -0.000975057    -0.000531366
                     0.000802022     0.000817462        -0.969163       -0.185607     -0.000897679    -0.000566005       -0.0829238          0.1011
281724                 0.0988733        0.211948     -0.000605296     0.000692874         0.917046        -0.30729      0.000753868     0.000803551
                    -0.000590701     0.000561326        0.0411798        0.124385      0.000415171    -0.000940502        -0.969197       -0.185268
                        0.917293       -0.308102       0.00041921    -0.000915603        0.0503098        0.227237     -0.000975386    -0.000530861
                     0.000802164     0.000817405        -0.969221        -0.18529     -0.000898093     -0.00056562       -0.0828808        0.101159
281726                 0.0988984        0.211973     -0.000605147     0.000692999         0.916935       -0.307595        0.0007542     0.000803385
                    -0.000590475     0.000561502        0.0411996        0.124398      0.000414902    -0.000940633        -0.969255        -0.18495
                        0.917183       -0.308408      0.000418896    -0.000915815        0.0504579        0.227238     -0.000975714    -0.000530357
                     0.000802306     0.000817348        -0.969279       -0.184972     -0.000898508    -0.000565236       -0.0828377        0.101218
281728                 0.0989236        0.211997     -0.000604998     0.000693125         0.916824       -0.307901      0.000754531      0.00080322
                    -0.000590249     0.000561678        0.0412193        0.124411      0.000414632    -0.000940763        -0.969312       -0.184632
                        0.917072       -0.308713      0.000418581    -0.000916027         0.050606        0.227238     -0.000976042    -0.000529853
                     0.000802448     0.000817289        -0.969337       -0.184655     -0.000898922     -0.00056485       -0.0827947        0.101277
281730                 0.0989487        0.212022     -0.000604849      0.00069325         0.916713       -0.308206      0.000754863     0.000803054
                    -0.000590024     0.000561855        0.0412391        0.124424      0.000414363    -0.000940893         -0.96937       -0.184315
                        0.916961       -0.309018      0.000418266    -0.000916238        0.0507541        0.227239     -0.000976371    -0.000529348
                      0.00080259     0.000817229        -0.969394       -0.184337     -0.000899337    -0.000564465       -0.0827516        0.101336
281732                 0.0989738        0.212047       -0.0006047     0.000693375         0.916602       -0.308512      0.000755194     0.000802888
                    -0.000589799     0.000562033        0.0412588        0.124437      0.000414094    -0.000941023        -0.969427       -0.183997
                         0.91685       -0.309323      0.000417951     -0.00091645        0.0509022        0.227239     -0.000976699    -0.000528843
                     0.000802732     0.000817168        -0.969452        -0.18402     -0.000899752    -0.000564079       -0.0827084        0.101395
281734                  0.098999        0.212072      -0.00060455       0.0006935         0.916491       -0.308817      0.000755526     0.000802723
                    -0.000589574     0.000562211        0.0412786         0.12445      0.000413825    -0.000941153        -0.969484       -0.183679
                        0.916739       -0.309629      0.000417636    -0.000916661        0.0510504         0.22724     -0.000977026    -0.000528338
                     0.000802874     0.000817106        -0.969509       -0.183702     -0.000900167    -0.000563692       -0.0826652        0.101454
281736                 0.0990241        0.212097     -0.000604401     0.000693625         0.916379       -0.309122      0.000755857     0.000802557
                     -0.00058935     0.000562389        0.0412984        0.124463      0.000413556    -0.000941283        -0.969542       -0.183361
                        0.916628       -0.309934      0.000417321    -0.000916873        0.0511986         0.22724     -0.000977354    -0.000527832
                     0.000803016     0.000817042        -0.969566       -0.183384     -0.000900582    -0.000563306       -0.0826219        0.101513
281738                 0.0990493        0.212122     -0.000604252      0.00069375         0.916268       -0.309427      0.000756189      0.00080239
                    -0.000589126     0.000562568        0.0413182        0.124476      0.000413287    -0.000941413        -0.969599       -0.183043
                        0.916517       -0.310239      0.000417005    -0.000917084        0.0513468         0.22724     -0.000977682    -0.000527327
                     0.000803159     0.000816977        -0.969624       -0.183067     -0.000900997    -0.000562918       -0.0825787        0.101572
281740                 0.0990745        0.212147     -0.000604102     0.000693876         0.916156       -0.309733       0.00075652     0.000802224
                    -0.000588902     0.000562748        0.0413379        0.124488      0.000413018    -0.000941543        -0.969656       -0.182726
                        0.916405       -0.310544      0.000416689    -0.000917296        0.0514951         0.22724     -0.000978009    -0.000526821
                     0.000803301     0.000816911        -0.969681       -0.182749     -0.000901412    -0.000562531       -0.0825353        0.101631
281742                 0.0990996        0.212172     -0.000603953     0.000694001         0.916045       -0.310038      0.000756852     0.000802058
                    -0.000588679     0.000562928        0.0413577        0.124501      0.000412749    -0.000941673        -0.969713       -0.182408
                        0.916294       -0.310849      0.000416373    -0.000917507        0.0516433         0.22724     -0.000978336    -0.000526315
                     0.000803443     0.000816843        -0.969738       -0.182431     -0.000901827    -0.000562143        -0.082492         0.10169
281744                 0.0991248        0.212197     -0.000603803     0.000694126         0.915933       -0.310343      0.000757183     0.000801891
                    -0.000588457     0.000563109        0.0413775        0.124514       0.00041248    -0.000941802        -0.969769        -0.18209
                        0.916182       -0.311154      0.000416056    -0.000917718        0.0517916         0.22724     -0.000978663    -0.000525809
                     0.000803585     0.000816775        -0.969795       -0.182114     -0.000902242    -0.000561754       -0.0824486        0.101749
281746                   0.09915        0.212222     -0.000603653     0.000694251         0.915821       -0.310648      0.000757515     0.000801725
                    -0.000588234      0.00056329        0.0413973        0.124527      0.000412212    -0.000941932        -0.969826       -0.181772
                        0.916071       -0.311459      0.000415739    -0.000917929        0.0519399         0.22724      -0.00097899    -0.000525302
                     0.000803728     0.000816705        -0.969851       -0.181796     -0.000902657    -0.000561365       -0.0824051        0.101808
281748                 0.0991752        0.212247     -0.000603503     0.000694376         0.915709       -0.310953      0.000757846     0.000801558
                    -0.000588013     0.000563472        0.0414171         0.12454      0.000411943    -0.000942062        -0.969883       -0.181454
                        0.915959       -0.311764      0.000415422     -0.00091814        0.0520883         0.22724     -0.000979317    -0.000524795
                      0.00080387     0.000816634        -0.969908       -0.181478     -0.000903072    -0.000560976       -0.0823616        0.101867
281750                 0.0992004        0.212272     -0.000603353     0.000694501         0.915597       -0.311258      0.000758178     0.000801391
                    -0.000587791     0.000563654        0.0414369        0.124553      0.000411675    -0.000942192        -0.969939       -0.181136
                        0.915847       -0.312069      0.000415105    -0.000918352        0.0522366         0.22724     -0.000979643    -0.000524289
                     0.000804013     0.000816561        -0.969965        -0.18116     -0.000903487    -0.000560586       -0.0823181        0.101925
281752                 0.0992256        0.212297     -0.000603203     0.000694626         0.915485       -0.311563      0.000758509     0.000801224
                     -0.00058757     0.000563837        0.0414567        0.124566      0.000411406    -0.000942321        -0.969996       -0.180818
                        0.915735       -0.312374      0.000414788    -0.000918563         0.052385        0.227239     -0.000979969    -0.000523781
                     0.000804155     0.000816487        -0.970021       -0.180843     -0.000903902    -0.000560196       -0.0822745        0.101984
281754                 0.0992508        0.212321     -0.000603053     0.000694751         0.915372       -0.311868      0.000758841     0.000801057
                     -0.00058735      0.00056402        0.0414765        0.124578      0.000411138    -0.000942451        -0.970052         -0.1805
                        0.915623       -0.312678       0.00041447    -0.000918775        0.0525334        0.227239     -0.000980295    -0.000523274
                     0.000804298     0.000816412        -0.970077       -0.180525     -0.000904317    -0.000559805       -0.0822309        0.102043
281756                  0.099276        0.212346     -0.000602903     0.000694876          0.91526       -0.312173      0.000759172     0.000800889
                     -0.00058713     0.000564204        0.0414963        0.124591       0.00041087    -0.000942581        -0.970108       -0.180182
                        0.915511       -0.312983      0.000414153    -0.000918987        0.0526819        0.227238     -0.000980621    -0.000522766
                     0.000804441     0.000816336        -0.970134       -0.180207     -0.000904732    -0.000559414       -0.0821873        0.102102
281758                 0.0993012        0.212371     -0.000602753     0.000695001         0.915147       -0.312478      0.000759503     0.000800722
                     -0.00058691     0.000564388        0.0415162        0.124604      0.000410601    -0.000942711        -0.970164       -0.179864
                        0.915398       -0.313288      0.000413837    -0.000919199        0.0528303        0.227237     -0.000980947    -0.000522259
                     0.000804583     0.000816259         -0.97019       -0.179889     -0.000905147    -0.000559023       -0.0821436        0.102161
281760                 0.0993264        0.212396     -0.000602603     0.000695126         0.915035       -0.312783      0.000759835     0.000800554
                    -0.000586691     0.000564573        0.0415359        0.124618      0.000410333     -0.00094284         -0.97022       -0.179546
                        0.915286       -0.313593      0.000413522    -0.000919409        0.0529788        0.227236     -0.000981273    -0.000521751
                     0.000804726      0.00081618        -0.970246       -0.179571     -0.000905562    -0.000558631       -0.0820999         0.10222
281762                 0.0993516        0.212421     -0.000602452      0.00069525         0.914922       -0.313088      0.000760166     0.000800387
                    -0.000586472     0.000564759        0.0415557         0.12463      0.000410065     -0.00094297        -0.970276       -0.179228
                        0.915173       -0.313897      0.000413205    -0.000919618        0.0531273        0.227235     -0.000981598    -0.000521242
