! TOUCHSTONE file generated by CST MICROWAVE STUDIO
! Date and time: Wed Oct 15 17:29:56 2025
! Project name: Teste_Macro_Metasurface_Nanopilar.cst
! Parameters = {H=600; L_x=105; L_y=155; Lambda=1064; Max_L=200; Min_L=70; PathPara=1; Phi=0; Step_L=10; Theta=0; p=520; phaseX=180; phaseY=0}
! Header version: 2018
! Port assignment regex: !\s*Touchstone port\s*([0-9]+)\s*=\s*(CST MWS port|CST DS port)\s*([0-9]+|Zmin|Zmax)\s*\(\"(.*)\"\)(\s*mode\s*([0-9]+))?.*
! Touchstone port assignment:
! Touchstone port 1 = CST MWS port Zmax ("") mode 1
! Touchstone port 2 = CST MWS port Zmax ("") mode 2
! Touchstone port 3 = CST MWS port Zmin ("") mode 1
! Touchstone port 4 = CST MWS port Zmin ("") mode 2
! S-Parameters are not renormalized. Each port impedance will be approximated by the real part at minimum frequency. The values are described via the [Reference] keyword.
! Default impedance is overridden by [Reference]
[Version] 2.0
# GHz S RI R 376.73
[Number of Ports] 4
[Reference]
376.73 376.73 259.888 259.888 
[Number of Frequencies] 51
[Network Data]
281700                 0.0946332        0.185912     -0.000554112    -0.000241511         0.939673       -0.252297      0.000177964     0.000319783
                    -0.000558972    -0.000270228         0.179972       0.0452392     -6.09527e-05    -0.000371176        -0.655043        0.720798
                        0.940269       -0.252012     -3.30824e-05    -0.000376403        0.0125348        0.207323     -0.000104216     0.000637357
                     0.000239961     0.000291696         -0.65528        0.721115     -0.000178422     0.000496758        0.0616207         0.17391
281702                 0.0946542        0.185932     -0.000554178    -0.000241193         0.939584       -0.252605      0.000177967     0.000319744
                    -0.000559018    -0.000269901         0.179976        0.045214     -6.11367e-05    -0.000371378        -0.654761        0.721055
                        0.940178       -0.252319     -3.32808e-05    -0.000376433        0.0126634        0.207342     -0.000104207     0.000637438
                     0.000239842      0.00029158        -0.654998        0.721371     -0.000178539     0.000497069        0.0617319        0.173868
281704                 0.0946752        0.185952     -0.000554243    -0.000240875         0.939496       -0.252912       0.00017797     0.000319705
                    -0.000559065    -0.000269575          0.17998       0.0451887     -6.13203e-05    -0.000371579        -0.654479        0.721311
                        0.940087       -0.252627      -3.3479e-05    -0.000376464         0.012792        0.207361     -0.000104197     0.000637518
                     0.000239723     0.000291465        -0.654715        0.721627     -0.000178654     0.000497384        0.0618432        0.173826
281706                 0.0946963        0.185972     -0.000554309    -0.000240558         0.939407        -0.25322      0.000177974     0.000319665
                    -0.000559112    -0.000269248         0.179985       0.0451634     -6.15035e-05    -0.000371781        -0.654196        0.721568
                        0.939996       -0.252934     -3.36769e-05    -0.000376494        0.0129206         0.20738     -0.000104187     0.000637599
                     0.000239604      0.00029135        -0.654431        0.721883     -0.000178767     0.000497703        0.0619544        0.173785
281708                 0.0947173        0.185992     -0.000554374    -0.000240241         0.939318       -0.253527      0.000177978     0.000319626
                     -0.00055916    -0.000268921         0.179989       0.0451382     -6.16862e-05    -0.000371984        -0.653913        0.721824
                        0.939904       -0.253242     -3.38745e-05    -0.000376524        0.0130492        0.207399     -0.000104176      0.00063768
                     0.000239486     0.000291236        -0.654148        0.722138     -0.000178878     0.000498025        0.0620656        0.173743
281710                 0.0947384        0.186012     -0.000554439    -0.000239924         0.939229       -0.253834      0.000177983     0.000319587
                    -0.000559208    -0.000268594         0.179993       0.0451129     -6.18684e-05    -0.000372187        -0.653631         0.72208
                        0.939813       -0.253549     -3.40718e-05    -0.000376555        0.0131779        0.207418     -0.000104164     0.000637762
                     0.000239368     0.000291123        -0.653865        0.722394     -0.000178986      0.00049835        0.0621768        0.173701
281712                 0.0947594        0.186032     -0.000554504    -0.000239608         0.939139       -0.254141      0.000177988     0.000319549
                    -0.000559257    -0.000268267         0.179998       0.0450876     -6.20501e-05     -0.00037239        -0.653348        0.722336
                        0.939722       -0.253857     -3.42687e-05    -0.000376585        0.0133066        0.207437     -0.000104152     0.000637843
                      0.00023925     0.000291011        -0.653581        0.722649     -0.000179092     0.000498679        0.0622879        0.173659
281714                 0.0947805        0.186052     -0.000554569    -0.000239291          0.93905       -0.254449      0.000177994      0.00031951
                    -0.000559306     -0.00026794         0.180002       0.0450624     -6.22313e-05    -0.000372593        -0.653065        0.722592
                         0.93963       -0.254164     -3.44653e-05    -0.000376615        0.0134354        0.207456     -0.000104139     0.000637924
                     0.000239132     0.000290899        -0.653298        0.722905     -0.000179196      0.00049901         0.062399        0.173617
281716                 0.0948015        0.186072     -0.000554633    -0.000238975         0.938961       -0.254756         0.000178     0.000319471
                    -0.000559356    -0.000267613         0.180006       0.0450371     -6.24121e-05    -0.000372797        -0.652782        0.722848
                        0.939539       -0.254471     -3.46615e-05    -0.000376646        0.0135641        0.207474     -0.000104125     0.000638006
                     0.000239014     0.000290788        -0.653014         0.72316     -0.000179297     0.000499345        0.0625101        0.173574
281718                 0.0948226        0.186092     -0.000554698     -0.00023866         0.938871       -0.255063      0.000178006     0.000319433
                    -0.000559406    -0.000267286         0.180011       0.0450118     -6.25923e-05    -0.000373002        -0.652499        0.723104
                        0.939447       -0.254779     -3.48573e-05    -0.000376677        0.0136929        0.207493      -0.00010411     0.000638088
                     0.000238897     0.000290678         -0.65273        0.723415     -0.000179395     0.000499682        0.0626211        0.173532
281720                 0.0948437        0.186111     -0.000554763    -0.000238344         0.938782        -0.25537      0.000178014     0.000319394
                    -0.000559456    -0.000266958         0.180015       0.0449865      -6.2772e-05    -0.000373206        -0.652215         0.72336
                        0.939355       -0.255086     -3.50527e-05    -0.000376707        0.0138218        0.207511     -0.000104095      0.00063817
                      0.00023878     0.000290569        -0.652446         0.72367     -0.000179491     0.000500022        0.0627321         0.17349
281722                 0.0948647        0.186131     -0.000554827    -0.000238029         0.938692       -0.255677      0.000178021     0.000319356
                    -0.000559508    -0.000266631         0.180019       0.0449612     -6.29511e-05    -0.000373411        -0.651932        0.723615
                        0.939263       -0.255393     -3.52476e-05    -0.000376738        0.0139506         0.20753      -0.00010408     0.000638252
                     0.000238663      0.00029046        -0.652162        0.723924     -0.000179585     0.000500364        0.0628431        0.173447
281724                 0.0948858        0.186151     -0.000554892    -0.000237714         0.938602       -0.255985      0.000178029     0.000319318
                    -0.000559559    -0.000266303         0.180023        0.044936     -6.31298e-05    -0.000373615        -0.651649        0.723871
                        0.939171         -0.2557      -3.5442e-05    -0.000376769        0.0140795        0.207548     -0.000104063     0.000638334
                     0.000238547     0.000290353        -0.651878        0.724179     -0.000179675     0.000500709        0.0629541        0.173405
281726                 0.0949069        0.186171     -0.000554957      -0.0002374         0.938512       -0.256292      0.000178038      0.00031928
                    -0.000559611    -0.000265976         0.180028       0.0449107     -6.33079e-05     -0.00037382        -0.651365        0.724126
                        0.939079       -0.256008     -3.56359e-05      -0.0003768        0.0142085        0.207567     -0.000104047     0.000638417
                     0.000238431     0.000290246        -0.651594        0.724433     -0.000179763     0.000501056         0.063065        0.173362
281728                 0.0949279        0.186191     -0.000555021    -0.000237086         0.938422       -0.256599      0.000178047     0.000319242
                    -0.000559664    -0.000265648         0.180032       0.0448854     -6.34855e-05    -0.000374026        -0.651081        0.724381
                        0.938987       -0.256315     -3.58293e-05    -0.000376831        0.0143374        0.207585     -0.000104029       0.0006385
                     0.000238315      0.00029014         -0.65131        0.724688     -0.000179849     0.000501406        0.0631759         0.17332
281730                  0.094949        0.186211     -0.000555086    -0.000236772         0.938332       -0.256906      0.000178056     0.000319204
                    -0.000559717     -0.00026532         0.180036       0.0448601     -6.36626e-05    -0.000374231        -0.650798        0.724636
                        0.938895       -0.256622     -3.60221e-05    -0.000376863        0.0144664        0.207603     -0.000104011     0.000638583
                       0.0002382     0.000290035        -0.651025        0.724942     -0.000179932     0.000501757        0.0632868        0.173277
281732                 0.0949701        0.186231     -0.000555151    -0.000236459         0.938242       -0.257213      0.000178066     0.000319166
                     -0.00055977    -0.000264993          0.18004       0.0448348     -6.38391e-05    -0.000374436        -0.650514        0.724891
                        0.938803       -0.256929     -3.62143e-05    -0.000376894        0.0145954        0.207621     -0.000103992     0.000638666
                     0.000238085     0.000289931        -0.650741        0.725196     -0.000180012      0.00050211        0.0633976        0.173234
281734                 0.0949912        0.186251     -0.000555216    -0.000236146         0.938152        -0.25752      0.000178077     0.000319129
                    -0.000559824    -0.000264665         0.180044       0.0448095     -6.40151e-05    -0.000374642         -0.65023        0.725146
                        0.938711       -0.257236     -3.64058e-05    -0.000376926        0.0147245        0.207639     -0.000103973     0.000638749
                     0.000237971     0.000289827        -0.650456         0.72545     -0.000180089     0.000502465        0.0635084        0.173191
281736                 0.0950122        0.186271     -0.000555281    -0.000235834         0.938061       -0.257827      0.000178088     0.000319091
                    -0.000559878    -0.000264337         0.180049       0.0447842     -6.41906e-05    -0.000374847        -0.649946        0.725401
                        0.938618       -0.257543     -3.65966e-05    -0.000376958        0.0148536        0.207657     -0.000103953     0.000638833
                     0.000237857     0.000289725        -0.650171        0.725704     -0.000180164     0.000502822        0.0636192        0.173148
281738                 0.0950333        0.186291     -0.000555346    -0.000235522         0.937971       -0.258134        0.0001781     0.000319054
                    -0.000559933    -0.000264009         0.180053       0.0447589     -6.43656e-05    -0.000375053        -0.649661        0.725656
                        0.938526        -0.25785     -3.67867e-05    -0.000376991        0.0149827        0.207675     -0.000103933     0.000638917
                     0.000237744     0.000289623        -0.649887        0.725958     -0.000180237      0.00050318        0.0637299        0.173105
281740                 0.0950544        0.186311     -0.000555411    -0.000235211          0.93788        -0.25844      0.000178112     0.000319017
                    -0.000559988    -0.000263682         0.180057       0.0447336     -6.45401e-05    -0.000375258        -0.649377         0.72591
                        0.938433       -0.258157      -3.6976e-05    -0.000377024        0.0151118        0.207693     -0.000103912     0.000639001
                     0.000237631     0.000289521        -0.649602        0.726212     -0.000180307      0.00050354        0.0638407        0.173062
281742                 0.0950755        0.186331     -0.000555477      -0.0002349         0.937789       -0.258747      0.000178124      0.00031898
                    -0.000560044    -0.000263354         0.180061       0.0447083     -6.47141e-05    -0.000375463        -0.649093        0.726165
                         0.93834       -0.258464     -3.71645e-05    -0.000377057         0.015241         0.20771      -0.00010389     0.000639085
                     0.000237518     0.000289421        -0.649317        0.726466     -0.000180374     0.000503901        0.0639514        0.173019
281744                 0.0950966        0.186351     -0.000555543     -0.00023459         0.937699       -0.259054      0.000178137     0.000318943
                    -0.000560101    -0.000263027         0.180065        0.044683     -6.48876e-05    -0.000375669        -0.648808        0.726419
                        0.938247       -0.258771     -3.73521e-05    -0.000377091        0.0153702        0.207728     -0.000103868      0.00063917
                     0.000237406     0.000289321        -0.649032         0.72672     -0.000180439     0.000504264         0.064062        0.172976
281746                 0.0951177        0.186371     -0.000555609     -0.00023428         0.937608       -0.259361      0.000178151     0.000318906
                    -0.000560158    -0.000262699          0.18007       0.0446577     -6.50606e-05    -0.000375874        -0.648524        0.726674
                        0.938155       -0.259078     -3.75388e-05    -0.000377125        0.0154995        0.207746     -0.000103845     0.000639255
                     0.000237294     0.000289221        -0.648747        0.726974     -0.000180501     0.000504628        0.0641727        0.172932
281748                 0.0951388        0.186391     -0.000555676    -0.000233971         0.937517       -0.259668      0.000178165     0.000318869
                    -0.000560216    -0.000262371         0.180074       0.0446324     -6.52331e-05    -0.000376079        -0.648239        0.726928
                        0.938062       -0.259385     -3.77246e-05    -0.000377159        0.0156287        0.207763     -0.000103822      0.00063934
                     0.000237183     0.000289123        -0.648461        0.727227     -0.000180561     0.000504993        0.0642833        0.172889
281750                 0.0951599        0.186411     -0.000555743    -0.000233663         0.937426       -0.259974       0.00017818     0.000318833
                    -0.000560274    -0.000262043         0.180078       0.0446071     -6.54052e-05    -0.000376284        -0.647954        0.727182
                        0.937969       -0.259692     -3.79094e-05    -0.000377194         0.015758        0.207781     -0.000103799     0.000639425
                     0.000237072     0.000289025        -0.648176        0.727481     -0.000180619     0.000505359        0.0643938        0.172845
281752                  0.095181        0.186431      -0.00055581    -0.000233355         0.937334       -0.260281      0.000178195     0.000318796
                    -0.000560332    -0.000261715         0.180082       0.0445818     -6.55768e-05    -0.000376489        -0.647669        0.727436
                        0.937875       -0.259999     -3.80933e-05    -0.000377229        0.0158874        0.207798     -0.000103774     0.000639511
                     0.000236962     0.000288928        -0.647891        0.727735     -0.000180674     0.000505726        0.0645044        0.172802
281754                 0.0952021        0.186451     -0.000555877    -0.000233048         0.937243       -0.260588      0.000178211      0.00031876
                    -0.000560392    -0.000261387         0.180086       0.0445565      -6.5748e-05    -0.000376694        -0.647384         0.72769
                        0.937782       -0.260306     -3.82761e-05    -0.000377265        0.0160167        0.207815      -0.00010375     0.000639597
                     0.000236852     0.000288831        -0.647605        0.727989     -0.000180727     0.000506094        0.0646149        0.172758
281756                 0.0952232        0.186471     -0.000555945    -0.000232742         0.937152       -0.260894      0.000178227     0.000318724
                    -0.000560451    -0.000261059          0.18009       0.0445311     -6.59188e-05    -0.000376898        -0.647099        0.727943
                        0.937689       -0.260613      -3.8458e-05    -0.000377302        0.0161461        0.207832     -0.000103724     0.000639683
                     0.000236743     0.000288735         -0.64732        0.728242     -0.000180778     0.000506462        0.0647254        0.172715
281758                 0.0952443        0.186491     -0.000556014    -0.000232436          0.93706       -0.261201      0.000178244     0.000318688
                    -0.000560511    -0.000260731         0.180094       0.0445058     -6.60891e-05    -0.000377102        -0.646814        0.728197
                        0.937595        -0.26092     -3.86391e-05    -0.000377339        0.0162755        0.207849     -0.000103699     0.000639769
                     0.000236634      0.00028864        -0.647034        0.728496     -0.000180826     0.000506832        0.0648359        0.172671
281760                 0.0952654        0.186511     -0.000556082    -0.000232131         0.936968       -0.261508      0.000178261     0.000318652
                    -0.000560572    -0.000260402         0.180098       0.0444805      -6.6259e-05    -0.000377306        -0.646528        0.728451
                        0.937502       -0.261226     -3.88193e-05    -0.000377376         0.016405        0.207866     -0.000103672     0.000639856
                     0.000236526     0.000288545        -0.646748        0.728749     -0.000180872     0.000507202        0.0649463        0.172627
281762                 0.0952865        0.186531     -0.000556151    -0.000231826         0.936877       -0.261814      0.000178279     0.000318617
                    -0.000560633    -0.000260074         0.180102       0.0444551     -6.64285e-05     -0.00037751        -0.646243        0.728704
                        0.937408       -0.261533     -3.89991e-05    -0.000377414        0.0165345        0.207883     -0.000103646     0.000639943
