! TOUCHSTONE file generated by CST MICROWAVE STUDIO
! Date and time: Wed Oct 15 17:32:38 2025
! Project name: Teste_Macro_Metasurface_Nanopilar.cst
! Parameters = {H=600; L_x=155; L_y=75; Lambda=1064; Max_L=200; Min_L=70; PathPara=1; Phi=0; Step_L=10; Theta=0; p=520; phaseX=180; phaseY=0}
! Header version: 2018
! Port assignment regex: !\s*Touchstone port\s*([0-9]+)\s*=\s*(CST MWS port|CST DS port)\s*([0-9]+|Zmin|Zmax)\s*\(\"(.*)\"\)(\s*mode\s*([0-9]+))?.*
! Touchstone port assignment:
! Touchstone port 1 = CST MWS port Zmax ("") mode 1
! Touchstone port 2 = CST MWS port Zmax ("") mode 2
! Touchstone port 3 = CST MWS port Zmin ("") mode 1
! Touchstone port 4 = CST MWS port Zmin ("") mode 2
! S-Parameters are not renormalized. Each port impedance will be approximated by the real part at minimum frequency. The values are described via the [Reference] keyword.
! Default impedance is overridden by [Reference]
[Version] 2.0
# GHz S RI R 376.73
[Number of Ports] 4
[Reference]
376.73 376.73 259.888 259.888 
[Number of Frequencies] 51
[Network Data]
281700                0.00242357      -0.0896532     -0.000119476       0.0001985        -0.158055       -0.982775      0.000136382    -0.000271979
                    -0.000243207     0.000184053       -0.0642759      -0.0609529     -0.000292907     -0.00033958         0.323052        0.932351
                       -0.157475       -0.983229     -0.000222676    -0.000347384        0.0303092       0.0845579      0.000129957     5.84997e-05
                     9.53448e-05    -0.000348276         0.323152        0.932662      0.000123382     2.39572e-05       -0.0153322          0.0895
281702                0.00241159      -0.0896493     -0.000119491     0.000198556        -0.158298       -0.982736      0.000136387    -0.000272176
                    -0.000243194     0.000184274       -0.0642922      -0.0609073     -0.000293006    -0.000339519         0.323422        0.932225
                       -0.157717        -0.98319     -0.000222899    -0.000347308        0.0303384        0.084543      0.000130017     5.85351e-05
                      9.5333e-05    -0.000348353         0.323522        0.932536      0.000123494     2.38216e-05       -0.0153027       0.0894859
281704                0.00239962      -0.0896453     -0.000119507     0.000198611        -0.158541       -0.982698      0.000136393    -0.000272373
                    -0.000243181     0.000184496       -0.0643084      -0.0608616     -0.000293105    -0.000339457         0.323791        0.932099
                        -0.15796       -0.983152     -0.000223122    -0.000347232        0.0303676        0.084528      0.000130077     5.85704e-05
                     9.53213e-05    -0.000348429         0.323891         0.93241       0.00012361     2.36764e-05       -0.0152732       0.0894719
281706                0.00238765      -0.0896414     -0.000119523     0.000198667        -0.158784       -0.982659      0.000136398     -0.00027257
                    -0.000243166     0.000184718       -0.0643246      -0.0608159     -0.000293202    -0.000339396         0.324161        0.931973
                       -0.158203       -0.983113     -0.000223344    -0.000347155        0.0303968        0.084513      0.000130138     5.86056e-05
                     9.53095e-05    -0.000348506         0.324261        0.932284      0.000123721     2.35183e-05       -0.0152437       0.0894578
281708                0.00237568      -0.0896374     -0.000119538     0.000198722        -0.159027        -0.98262      0.000136403    -0.000272767
                    -0.000243151     0.000184941       -0.0643408      -0.0607702     -0.000293299    -0.000339336          0.32453        0.931846
                       -0.158446       -0.983074     -0.000223567    -0.000347079         0.030426        0.084498      0.000130199     5.86407e-05
                     9.52978e-05    -0.000348583          0.32463        0.932157      0.000123818     2.33546e-05       -0.0152142       0.0894437
281710                0.00236371      -0.0896335     -0.000119554     0.000198777         -0.15927       -0.982581      0.000136407    -0.000272964
                    -0.000243136     0.000185163        -0.064357      -0.0607245     -0.000293395    -0.000339277         0.324899         0.93172
                       -0.158689       -0.983035     -0.000223789    -0.000347003        0.0304551        0.084483       0.00013026     5.86757e-05
                      9.5286e-05    -0.000348661            0.325         0.93203      0.000123904     2.31957e-05       -0.0151848       0.0894297
281712                0.00235174      -0.0896295      -0.00011957     0.000198832        -0.159514       -0.982542      0.000136411    -0.000273162
                    -0.000243119     0.000185385       -0.0643732      -0.0606788     -0.000293493    -0.000339219         0.325268        0.931593
                       -0.158932       -0.982997     -0.000224011    -0.000346927        0.0304843       0.0844679      0.000130321     5.87106e-05
                     9.52743e-05    -0.000348738         0.325369        0.931904      0.000123986     2.30449e-05       -0.0151554       0.0894156
281714                0.00233977      -0.0896255     -0.000119585     0.000198887        -0.159757       -0.982503      0.000136416    -0.000273359
                    -0.000243102     0.000185608       -0.0643894      -0.0606332     -0.000293591    -0.000339162         0.325638        0.931467
                       -0.159175       -0.982958     -0.000224233     -0.00034685        0.0305135       0.0844529      0.000130383     5.87454e-05
                     9.52625e-05    -0.000348816         0.325739        0.931777      0.000124068     2.28998e-05        -0.015126       0.0894015
281716                 0.0023278      -0.0896216     -0.000119601     0.000198942            -0.16       -0.982464      0.000136419    -0.000273557
                    -0.000243084     0.000185831       -0.0644055      -0.0605875     -0.000293691    -0.000339104         0.326007         0.93134
                       -0.159418       -0.982919     -0.000224455    -0.000346774        0.0305426       0.0844378      0.000130444     5.87802e-05
                     9.52508e-05    -0.000348894         0.326108         0.93165      0.000124153     2.27579e-05       -0.0150966       0.0893874
281718                0.00231583      -0.0896176     -0.000119617     0.000198997        -0.160243       -0.982425      0.000136423    -0.000273756
                    -0.000243066     0.000186054       -0.0644217      -0.0605418     -0.000293791    -0.000339045         0.326376        0.931213
                        -0.15966        -0.98288     -0.000224677    -0.000346697        0.0305718       0.0844228      0.000130506     5.88149e-05
                      9.5239e-05    -0.000348972         0.326477        0.931522      0.000124239     2.26173e-05       -0.0150673       0.0893734
281720                0.00230386      -0.0896137     -0.000119633     0.000199052        -0.160486       -0.982385      0.000136426    -0.000273955
                    -0.000243047     0.000186277       -0.0644378       -0.060496     -0.000293891    -0.000338986         0.326745        0.931086
                       -0.159903       -0.982841     -0.000224899    -0.000346621        0.0306009       0.0844077      0.000130568     5.88496e-05
                     9.52273e-05     -0.00034905         0.326846        0.931395      0.000124326     2.24772e-05        -0.015038       0.0893593
281722                0.00229189      -0.0896097     -0.000119648     0.000199106        -0.160729       -0.982346      0.000136429    -0.000274154
                    -0.000243027       0.0001865       -0.0644539      -0.0604503     -0.000293991    -0.000338927         0.327114        0.930958
                       -0.160146       -0.982802      -0.00022512    -0.000346545          0.03063       0.0843927      0.000130631     5.88845e-05
                     9.52155e-05    -0.000349129         0.327215        0.931268      0.000124414     2.23372e-05       -0.0150087       0.0893452
281724                0.00227993      -0.0896057     -0.000119664      0.00019916        -0.160972       -0.982307      0.000136433    -0.000274354
                    -0.000243006     0.000186723         -0.06447      -0.0604046     -0.000294091    -0.000338867         0.327483        0.930831
                       -0.160389       -0.982762     -0.000225342    -0.000346468        0.0306591       0.0843776      0.000130694     5.89197e-05
                     9.52037e-05    -0.000349207         0.327585         0.93114      0.000124504      2.2197e-05       -0.0149794       0.0893311
281726                0.00226796      -0.0896018      -0.00011968     0.000199215        -0.161215       -0.982267      0.000136436    -0.000274557
                    -0.000242984     0.000186947       -0.0644861      -0.0603589     -0.000294191    -0.000338807         0.327852        0.930703
                       -0.160632       -0.982723     -0.000225563    -0.000346392        0.0306883       0.0843625      0.000130758     5.89559e-05
                     9.51919e-05    -0.000349286         0.327954        0.931012      0.000124593     2.20565e-05       -0.0149502       0.0893171
281728                0.00225599      -0.0895978     -0.000119696     0.000199269        -0.161458       -0.982228      0.000136441    -0.000274764
                    -0.000242962     0.000187171       -0.0645022      -0.0603132     -0.000294291    -0.000338746          0.32822        0.930575
                       -0.160874       -0.982684     -0.000225785    -0.000346315        0.0307174       0.0843474      0.000130823     5.89956e-05
                     9.51801e-05    -0.000349365         0.328323        0.930884      0.000124683     2.19158e-05       -0.0149209        0.089303
281730                0.00224402      -0.0895938     -0.000119711     0.000199323        -0.161701       -0.982188      0.000136456    -0.000274984
                    -0.000242939     0.000187394       -0.0645182      -0.0602675     -0.000294391    -0.000338686          0.32859        0.930447
                       -0.161117       -0.982645     -0.000226006    -0.000346239        0.0307465       0.0843323      0.000130878     5.90526e-05
                     9.51683e-05    -0.000349445         0.328691        0.930756      0.000124773     2.17747e-05       -0.0148917       0.0892889
281732                0.00223206      -0.0895899     -0.000119727     0.000199377        -0.161944       -0.982149      0.000136595    -0.000275212
                    -0.000242916     0.000187618       -0.0645343      -0.0602217     -0.000294491    -0.000338626         0.328956         0.93032
                        -0.16136       -0.982605     -0.000226227    -0.000346162        0.0307756       0.0843171       0.00013091     5.90516e-05
                     9.51565e-05    -0.000349524          0.32906        0.930628      0.000124863     2.16332e-05       -0.0148626       0.0892748
281734                0.00222009      -0.0895859     -0.000119743     0.000199431        -0.162187       -0.982109      0.000136469     -0.00027524
                    -0.000242891     0.000187842       -0.0645503       -0.060176     -0.000294591    -0.000338565         0.329326        0.930192
                       -0.161603       -0.982566     -0.000226448    -0.000346085        0.0308047        0.084302       0.00013099     5.90785e-05
                     9.51446e-05    -0.000349604         0.329429        0.930499      0.000124953     2.14915e-05       -0.0148334       0.0892607
281736                0.00220813      -0.0895819     -0.000119759     0.000199484         -0.16243       -0.982069      0.000136444    -0.000275479
                    -0.000242866     0.000188067       -0.0645663      -0.0601303      -0.00029469    -0.000338504         0.329695        0.930063
                       -0.161845       -0.982526     -0.000226669    -0.000346009        0.0308337       0.0842869      0.000131058     5.91123e-05
                     9.51327e-05    -0.000349684         0.329798        0.930371      0.000125043     2.13495e-05       -0.0148043       0.0892466
281738                0.00219616      -0.0895779     -0.000119774     0.000199538        -0.162673        -0.98203       0.00013644    -0.000275691
                    -0.000242841     0.000188291       -0.0645823      -0.0600845      -0.00029479    -0.000338443         0.330063        0.929935
                       -0.162088       -0.982487      -0.00022689    -0.000345932        0.0308628       0.0842717      0.000131124      5.9146e-05
                     9.51208e-05    -0.000349764         0.330167        0.930242      0.000125133     2.12071e-05       -0.0147752       0.0892325
281740                 0.0021842       -0.089574      -0.00011979     0.000199592        -0.162916        -0.98199      0.000136439    -0.000275896
                    -0.000242814     0.000188516       -0.0645983      -0.0600388     -0.000294889    -0.000338382         0.330432        0.929806
                       -0.162331       -0.982447     -0.000227111    -0.000345855        0.0308919       0.0842566      0.000131188     5.91794e-05
                     9.51089e-05    -0.000349844         0.330535        0.930113      0.000125224     2.10646e-05       -0.0147461       0.0892185
281742                0.00217223        -0.08957     -0.000119806     0.000199645        -0.163159        -0.98195      0.000136439    -0.000276097
                    -0.000242787      0.00018874       -0.0646143      -0.0599931     -0.000294989    -0.000338321           0.3308        0.929677
                       -0.162573       -0.982407     -0.000227331    -0.000345779        0.0309209       0.0842414      0.000131253     5.92125e-05
                     9.50969e-05    -0.000349925         0.330904        0.929984      0.000125313     2.09217e-05       -0.0147171       0.0892044
281744                0.00216027       -0.089566     -0.000119821     0.000199698        -0.163402        -0.98191      0.000136438    -0.000276297
                    -0.000242759     0.000188965       -0.0646303      -0.0599473     -0.000295089     -0.00033826         0.331169        0.929548
                       -0.162816       -0.982368     -0.000227552    -0.000345702          0.03095       0.0842262      0.000131317     5.92453e-05
                     9.50849e-05    -0.000350005         0.331272        0.929855      0.000125403     2.07787e-05       -0.0146881       0.0891903
281746                0.00214831       -0.089562     -0.000119837     0.000199752        -0.163645        -0.98187      0.000136437    -0.000276496
                     -0.00024273      0.00018919       -0.0646462      -0.0599016     -0.000295188    -0.000338199         0.331537        0.929419
                       -0.163059       -0.982328     -0.000227773    -0.000345625         0.030979        0.084211      0.000131382     5.92779e-05
                     9.50729e-05    -0.000350086         0.331641        0.929726      0.000125493     2.06354e-05       -0.0146591       0.0891762
281748                0.00213634      -0.0895581     -0.000119853     0.000199805        -0.163888        -0.98183      0.000136436    -0.000276695
                    -0.000242701     0.000189415       -0.0646622      -0.0598558     -0.000295288    -0.000338138         0.331905         0.92929
                       -0.163302       -0.982288     -0.000227993    -0.000345548        0.0310081       0.0841958      0.000131446     5.93103e-05
                     9.50607e-05    -0.000350167         0.332009        0.929597      0.000125583     2.04919e-05       -0.0146301       0.0891621
281750                0.00212438      -0.0895541     -0.000119869     0.000199857        -0.164131        -0.98179      0.000136435    -0.000276893
                    -0.000242671     0.000189641       -0.0646781        -0.05981     -0.000295387    -0.000338076         0.332274        0.929161
                       -0.163544       -0.982248     -0.000228213    -0.000345471        0.0310371       0.0841806      0.000131511     5.93425e-05
                     9.50485e-05    -0.000350249         0.332378        0.929467      0.000125672     2.03483e-05       -0.0146011        0.089148
281752                0.00211242      -0.0895501     -0.000119885      0.00019991        -0.164374       -0.981749      0.000136433    -0.000277091
                    -0.000242641     0.000189866        -0.064694      -0.0597643     -0.000295486    -0.000338015         0.332642        0.929031
                       -0.163787       -0.982208     -0.000228434    -0.000345395        0.0310661       0.0841654      0.000131575     5.93746e-05
                     9.50359e-05     -0.00035033         0.332746        0.929337      0.000125761     2.02045e-05       -0.0145722       0.0891339
281754                0.00210045      -0.0895461       -0.0001199     0.000199959        -0.164617       -0.981709      0.000136431    -0.000277289
                     -0.00024261     0.000190093       -0.0647099      -0.0597185     -0.000295586    -0.000337953          0.33301        0.928901
                        -0.16403       -0.982168     -0.000228654    -0.000345319        0.0310951       0.0841502       0.00013164     5.94064e-05
                     9.50226e-05    -0.000350412         0.333114        0.929207       0.00012585     2.00605e-05       -0.0145433       0.0891198
281756                0.00208848      -0.0895421     -0.000119911     0.000200016         -0.16486       -0.981669      0.000136429    -0.000277487
                    -0.000242592     0.000190334       -0.0647258      -0.0596727     -0.000295685    -0.000337891         0.333378        0.928772
                       -0.164272       -0.982128     -0.000228881     -0.00034524        0.0311241        0.084135      0.000131705     5.94381e-05
                     9.49977e-05    -0.000350493         0.333482        0.929077      0.000125939     1.99165e-05       -0.0145144       0.0891057
281758                0.00207654      -0.0895381     -0.000119928      0.00020007        -0.165103       -0.981628      0.000136426    -0.000277685
                    -0.000242537     0.000190536       -0.0647417       -0.059627     -0.000295785     -0.00033783         0.333746        0.928642
                       -0.164515       -0.982088     -0.000229097    -0.000345161        0.0311531       0.0841197       0.00013177     5.94696e-05
                     9.50054e-05    -0.000350577         0.333851        0.928947      0.000126028     1.97724e-05       -0.0144855       0.0890916
281760                0.00206457      -0.0895341     -0.000119944     0.000200122        -0.165346       -0.981588      0.000136423    -0.000277882
                    -0.000242506     0.000190765       -0.0647576      -0.0595812     -0.000295884    -0.000337768         0.334114        0.928512
                       -0.164757       -0.982047     -0.000229317    -0.000345084        0.0311821       0.0841045      0.000131835     5.95009e-05
                     9.49909e-05    -0.000350659         0.334219        0.928817      0.000126117     1.96282e-05       -0.0144567       0.0890775
281762                0.00205261      -0.0895301      -0.00011996     0.000200175        -0.165589       -0.981547       0.00013642    -0.000278079
                    -0.000242472     0.000190991       -0.0647734      -0.0595354     -0.000295984    -0.000337706         0.334482        0.928381
                          -0.165       -0.982007     -0.000229536    -0.000345007        0.0312111       0.0840892        0.0001319     5.95321e-05
