! TOUCHSTONE file generated by CST MICROWAVE STUDIO
! Date and time: Wed Oct 15 17:29:23 2025
! Project name: Teste_Macro_Metasurface_Nanopilar.cst
! Parameters = {H=600; L_x=95; L_y=175; Lambda=1064; Max_L=200; Min_L=70; PathPara=1; Phi=0; Step_L=10; Theta=0; p=520; phaseX=180; phaseY=0}
! Header version: 2018
! Port assignment regex: !\s*Touchstone port\s*([0-9]+)\s*=\s*(CST MWS port|CST DS port)\s*([0-9]+|Zmin|Zmax)\s*\(\"(.*)\"\)(\s*mode\s*([0-9]+))?.*
! Touchstone port assignment:
! Touchstone port 1 = CST MWS port Zmax ("") mode 1
! Touchstone port 2 = CST MWS port Zmax ("") mode 2
! Touchstone port 3 = CST MWS port Zmin ("") mode 1
! Touchstone port 4 = CST MWS port Zmin ("") mode 2
! S-Parameters are not renormalized. Each port impedance will be approximated by the real part at minimum frequency. The values are described via the [Reference] keyword.
! Default impedance is overridden by [Reference]
[Version] 2.0
# GHz S RI R 376.73
[Number of Ports] 4
[Reference]
376.73 376.73 259.888 259.888 
[Number of Frequencies] 51
[Network Data]
281700                  0.187865        0.338857      0.000534608     0.000665854         0.692093       -0.598868      0.000520444     0.000671723
                     0.000612932     0.000768055        0.0650443        0.141107     -0.000444001    -0.000590438        -0.982045      -0.0180573
                        0.691829       -0.598749     -0.000395441    -0.000530458         0.309738         0.22778      -0.00039322    -0.000760999
                     0.000507407     0.000682135        -0.982482      -0.0180198     -0.000357043    -0.000801306       -0.0687386        0.138973
281702                  0.187939        0.338918      0.000535047     0.000665656         0.691832       -0.599111      0.000520762     0.000671735
                     0.000613407     0.000768085        0.0650684        0.141116     -0.000444468    -0.000590186        -0.982048      -0.0177249
                        0.691568       -0.598992     -0.000395912    -0.000529907         0.309966        0.227618       -0.0003937     -0.00076103
                     0.000507675     0.000682196        -0.982485      -0.0176877     -0.000357552     -0.00080142       -0.0686691        0.139027
281704                  0.188012        0.338979      0.000535487     0.000665455         0.691571       -0.599354       0.00052108     0.000671747
                     0.000613883     0.000768115        0.0650926        0.141124     -0.000444935    -0.000589934        -0.982051      -0.0173924
                        0.691306       -0.599234     -0.000396383    -0.000529352         0.310194        0.227455      -0.00039418    -0.000761061
                     0.000507943     0.000682257        -0.982488      -0.0173555     -0.000358061    -0.000801533       -0.0685995        0.139081
281706                  0.188086        0.339039      0.000535927     0.000665252         0.691309       -0.599597      0.000521398     0.000671758
                     0.000614358     0.000768144        0.0651167        0.141133     -0.000445402    -0.000589682        -0.982053        -0.01706
                        0.691045       -0.599477     -0.000396853    -0.000528792         0.310422        0.227293      -0.00039466    -0.000761091
                     0.000508212     0.000682318         -0.98249      -0.0170234     -0.000358571    -0.000801646         -0.06853        0.139136
281708                  0.188159          0.3391      0.000536368     0.000665046         0.691047       -0.599839      0.000521717     0.000671769
                     0.000614833     0.000768174        0.0651408        0.141141     -0.000445868    -0.000589429        -0.982056      -0.0167276
                        0.690783        -0.59972     -0.000397323    -0.000528229          0.31065         0.22713     -0.000395141    -0.000761122
                      0.00050848     0.000682378        -0.982493      -0.0166912     -0.000359081    -0.000801758       -0.0684604         0.13919
281710                  0.188233         0.33916      0.000536809     0.000664838         0.690785       -0.600082      0.000522035     0.000671781
                     0.000615309     0.000768203        0.0651649         0.14115     -0.000446335    -0.000589176        -0.982058      -0.0163951
                        0.690521       -0.599962     -0.000397793    -0.000527661         0.310877        0.226967     -0.000395621    -0.000761152
                     0.000508749     0.000682439        -0.982496       -0.016359     -0.000359592    -0.000801871       -0.0683907        0.139244
281712                  0.188307        0.339221       0.00053725     0.000664628         0.690523       -0.600324      0.000522354     0.000671792
                     0.000615784     0.000768232         0.065189        0.141158     -0.000446801    -0.000588922         -0.98206      -0.0160627
                        0.690259       -0.600205     -0.000398263    -0.000527088         0.311105        0.226803     -0.000396102    -0.000761182
                     0.000509019       0.0006825        -0.982498      -0.0160269     -0.000360103    -0.000801983        -0.068321        0.139298
281714                   0.18838        0.339282      0.000537691     0.000664416         0.690261       -0.600566      0.000522673     0.000671803
                      0.00061626     0.000768261        0.0652132        0.141167     -0.000447267    -0.000588669        -0.982062      -0.0157302
                        0.689996       -0.600447     -0.000398732    -0.000526511         0.311333         0.22664     -0.000396583    -0.000761211
                     0.000509288      0.00068256          -0.9825      -0.0156947     -0.000360615    -0.000802094       -0.0682513        0.139352
281716                  0.188454        0.339342      0.000538132     0.000664201         0.689999       -0.600808      0.000522992     0.000671814
                     0.000616735     0.000768289        0.0652373        0.141175     -0.000447733    -0.000588414        -0.982064      -0.0153978
                        0.689734       -0.600689     -0.000399201     -0.00052593          0.31156        0.226476     -0.000397064    -0.000761241
                     0.000509558     0.000682621        -0.982503      -0.0153625     -0.000361128    -0.000802205       -0.0681815        0.139406
281718                  0.188528        0.339403      0.000538574     0.000663983         0.689737        -0.60105      0.000523311     0.000671824
                     0.000617211     0.000768318        0.0652614        0.141184     -0.000448199     -0.00058816        -0.982066      -0.0150653
                        0.689471       -0.600931      -0.00039967    -0.000525345         0.311788        0.226312     -0.000397545     -0.00076127
                     0.000509828     0.000682681        -0.982505      -0.0150303      -0.00036164    -0.000802316       -0.0681117         0.13946
281720                  0.188602        0.339464      0.000539016     0.000663763         0.689474       -0.601292      0.000523631     0.000671835
                     0.000617687     0.000768346        0.0652856        0.141192     -0.000448664    -0.000587905        -0.982068      -0.0147328
                        0.689209       -0.601173     -0.000400138    -0.000524755         0.312015        0.226148     -0.000398027    -0.000761298
                     0.000510098     0.000682742        -0.982507      -0.0146981     -0.000362154    -0.000802426       -0.0680418        0.139514
281722                  0.188676        0.339524      0.000539459     0.000663541         0.689212       -0.601534       0.00052395     0.000671845
                     0.000618163     0.000768374        0.0653097        0.141201      -0.00044913     -0.00058765         -0.98207      -0.0144003
                        0.688946       -0.601415     -0.000400606     -0.00052416         0.312243        0.225984     -0.000398508    -0.000761327
                     0.000510368     0.000682802        -0.982508      -0.0143659     -0.000362668    -0.000802536       -0.0679719        0.139568
281724                   0.18875        0.339585      0.000539901     0.000663316         0.688949       -0.601776       0.00052427     0.000671856
                     0.000618639     0.000768402        0.0653339        0.141209     -0.000449595    -0.000587394        -0.982071      -0.0140678
                        0.688683       -0.601657     -0.000401074    -0.000523561          0.31247        0.225819      -0.00039899    -0.000761355
                     0.000510639     0.000682862         -0.98251      -0.0140337     -0.000363182    -0.000802646        -0.067902        0.139622
281726                  0.188824        0.339646      0.000540344     0.000663089         0.688686       -0.602017       0.00052459     0.000671866
                     0.000619115      0.00076843         0.065358        0.141218     -0.000450061    -0.000587138        -0.982073      -0.0137353
                         0.68842       -0.601898     -0.000401541    -0.000522957         0.312698        0.225655     -0.000399471    -0.000761383
                     0.000510909     0.000682922        -0.982512      -0.0137015     -0.000363697    -0.000802755        -0.067832        0.139676
281728                  0.188898        0.339706      0.000540787     0.000662859         0.688423       -0.602259       0.00052491     0.000671876
                     0.000619591     0.000768458        0.0653822        0.141226     -0.000450526    -0.000586882        -0.982074      -0.0134028
                        0.688157        -0.60214     -0.000402008    -0.000522348         0.312925         0.22549     -0.000399953     -0.00076141
                      0.00051118     0.000682982        -0.982513      -0.0133692     -0.000364212    -0.000802864       -0.0677619         0.13973
281730                  0.188972        0.339767      0.000541231     0.000662626          0.68816         -0.6025       0.00052523     0.000671886
                     0.000620068     0.000768485        0.0654063        0.141235      -0.00045099    -0.000586625        -0.982075      -0.0130703
                        0.687894       -0.602381     -0.000402475    -0.000521735         0.313153        0.225325     -0.000400435    -0.000761438
                     0.000511452     0.000683042        -0.982515       -0.013037     -0.000364728    -0.000802972       -0.0676919        0.139783
281732                  0.189046        0.339828      0.000541675     0.000662391         0.687897       -0.602742       0.00052555     0.000671895
                     0.000620544     0.000768513        0.0654305        0.141243     -0.000451455    -0.000586368        -0.982076      -0.0127378
                         0.68763       -0.602623     -0.000402941    -0.000521117          0.31338        0.225159     -0.000400917    -0.000761465
                     0.000511723     0.000683102        -0.982516      -0.0127048     -0.000365245     -0.00080308       -0.0676218        0.139837
281734                   0.18912        0.339889      0.000542119     0.000662154         0.687633       -0.602983       0.00052587     0.000671905
                     0.000621021      0.00076854        0.0654546        0.141252      -0.00045192     -0.00058611        -0.982077      -0.0124053
                        0.687367       -0.602864     -0.000403407    -0.000520494         0.313607        0.224994       -0.0004014    -0.000761492
                     0.000511995     0.000683162        -0.982517      -0.0123725     -0.000365761    -0.000803188       -0.0675516        0.139891
281736                  0.189194         0.33995      0.000542563     0.000661913          0.68737       -0.603224       0.00052619     0.000671914
                     0.000621497     0.000768567        0.0654788         0.14126     -0.000452384    -0.000585852        -0.982078      -0.0120728
                        0.687103       -0.603105     -0.000403873    -0.000519867         0.313835        0.224828     -0.000401882    -0.000761518
                     0.000512267     0.000683222        -0.982518      -0.0120403     -0.000366279    -0.000803296       -0.0674814        0.139944
281738                  0.189269         0.34001      0.000543008      0.00066167         0.687106       -0.603465      0.000526511     0.000671923
                     0.000621974     0.000768594         0.065503        0.141268     -0.000452848    -0.000585594        -0.982079      -0.0117402
                        0.686839       -0.603346     -0.000404338    -0.000519234         0.314062        0.224662     -0.000402364    -0.000761544
                     0.000512539     0.000683282        -0.982519       -0.011708     -0.000366796    -0.000803403       -0.0674112        0.139998
281740                  0.189343        0.340071      0.000543452     0.000661425         0.686842       -0.603706      0.000526832     0.000671932
                     0.000622451     0.000768621        0.0655271        0.141277     -0.000453312    -0.000585335         -0.98208      -0.0114077
                        0.686575       -0.603587     -0.000404803    -0.000518597         0.314289        0.224496     -0.000402847     -0.00076157
                     0.000512812     0.000683342         -0.98252      -0.0113758     -0.000367315    -0.000803509       -0.0673409        0.140052
281742                  0.189417        0.340132      0.000543897     0.000661176         0.686578       -0.603947      0.000527152     0.000671941
                     0.000622928     0.000768648        0.0655513        0.141285     -0.000453776    -0.000585076         -0.98208      -0.0110751
                        0.686311       -0.603828     -0.000405267    -0.000517956         0.314516         0.22433     -0.000403329    -0.000761595
                     0.000513084     0.000683401        -0.982521      -0.0110435     -0.000367833    -0.000803616       -0.0672706        0.140105
281744                  0.189492        0.340193      0.000544343     0.000660925         0.686314       -0.604187      0.000527473     0.000671949
                     0.000623406     0.000768675        0.0655755        0.141294      -0.00045424    -0.000584817        -0.982081      -0.0107426
                        0.686047       -0.604068     -0.000405731    -0.000517309         0.314743        0.224163     -0.000403811     -0.00076162
                     0.000513357      0.00068346        -0.982521      -0.0107112     -0.000368352    -0.000803722       -0.0672003        0.140159
281746                  0.189566        0.340254      0.000544788     0.000660671          0.68605       -0.604428      0.000527794     0.000671956
                     0.000623886      0.00076871        0.0655997        0.141302     -0.000454703    -0.000584557        -0.982081        -0.01041
                        0.685783       -0.604309     -0.000406194    -0.000516656          0.31497        0.223997     -0.000404293    -0.000761645
                     0.000513631     0.000683516        -0.982522       -0.010379     -0.000368872    -0.000803827       -0.0671299        0.140212
281748                  0.189641        0.340315      0.000545234     0.000660414         0.685786       -0.604669      0.000528116     0.000671962
                     0.000624352     0.000768711        0.0656239        0.141311     -0.000455166    -0.000584296        -0.982081      -0.0100774
                        0.685518        -0.60455     -0.000406657    -0.000515998         0.315197         0.22383     -0.000404773    -0.000761668
                     0.000513902     0.000683586        -0.982522      -0.0100467     -0.000369391    -0.000803932       -0.0670595        0.140266
281750                  0.189715        0.340376       0.00054568     0.000660154         0.685521       -0.604909      0.000528437     0.000671953
                     0.000624833     0.000768745        0.0656481        0.141319     -0.000455627    -0.000584036        -0.982081     -0.00974492
                        0.685253        -0.60479     -0.000407119    -0.000515335         0.315424        0.223663     -0.000405243    -0.000761685
                     0.000514176     0.000683642        -0.982522     -0.00971443      -0.00036991    -0.000804037        -0.066989        0.140319
281752                   0.18979        0.340436      0.000546127     0.000659891         0.685257       -0.605149      0.000528754     0.000672009
                     0.000625311     0.000768772        0.0656722        0.141328     -0.000456078    -0.000583772        -0.982081     -0.00941215
                        0.684989        -0.60503     -0.000407581    -0.000514666         0.315651        0.223495     -0.000405769    -0.000761734
                      0.00051445     0.000683701        -0.982523     -0.00938214      -0.00037042    -0.000804146       -0.0669185        0.140373
281754                  0.189864        0.340497      0.000546574     0.000659625         0.684992       -0.605389      0.000529078     0.000672003
                     0.000625789     0.000768798        0.0656964        0.141336     -0.000456566    -0.000583517        -0.982081     -0.00907962
                        0.684724       -0.605271     -0.000408043    -0.000513993         0.315878        0.223328     -0.000406238    -0.000761749
                     0.000514724      0.00068376        -0.982523     -0.00904985     -0.000370965     -0.00080425       -0.0668479        0.140426
281756                  0.189939        0.340558      0.000547021     0.000659357         0.684727       -0.605629        0.0005294     0.000672007
                     0.000626267     0.000768823        0.0657206        0.141344     -0.000457024    -0.000583254        -0.982081     -0.00874703
                        0.684459       -0.605511     -0.000408504    -0.000513314         0.316105         0.22316     -0.000406718    -0.000761771
                     0.000514999     0.000683819        -0.982523     -0.00871756     -0.000371482    -0.000804351       -0.0667773        0.140479
281758                  0.190014        0.340619      0.000547468     0.000659085         0.684462       -0.605869      0.000529722     0.000672014
                     0.000626744     0.000768848        0.0657448        0.141353     -0.000457485    -0.000582991         -0.98208     -0.00841443
                        0.684194       -0.605751     -0.000408965     -0.00051263         0.316332        0.222992     -0.000407201    -0.000761794
                     0.000515273     0.000683878        -0.982522     -0.00838526     -0.000372004    -0.000804454       -0.0667067        0.140533
281760                  0.190088         0.34068      0.000547916      0.00065881         0.684197       -0.606109      0.000530044      0.00067202
                     0.000627222     0.000768873        0.0657691        0.141361     -0.000457947    -0.000582729         -0.98208     -0.00808182
                        0.683928       -0.605991     -0.000409426     -0.00051194         0.316558        0.222824     -0.000407684    -0.000761816
                     0.000515548     0.000683937        -0.982522     -0.00805296     -0.000372526    -0.000804557        -0.066636        0.140586
281762                  0.190163        0.340741      0.000548364     0.000658533         0.683932       -0.606349      0.000530366     0.000672027
                       0.0006277     0.000768898        0.0657933        0.141369     -0.000458409    -0.000582466        -0.982079     -0.00774921
                        0.683663        -0.60623     -0.000409886    -0.000511245         0.316785        0.222656     -0.000408167    -0.000761839
