! TOUCHSTONE file generated by CST MICROWAVE STUDIO
! Date and time: Wed Oct 15 17:30:03 2025
! Project name: Teste_Macro_Metasurface_Nanopilar.cst
! Parameters = {H=600; L_x=110; L_y=75; Lambda=1064; Max_L=200; Min_L=70; PathPara=1; Phi=0; Step_L=10; Theta=0; p=520; phaseX=180; phaseY=0}
! Header version: 2018
! Port assignment regex: !\s*Touchstone port\s*([0-9]+)\s*=\s*(CST MWS port|CST DS port)\s*([0-9]+|Zmin|Zmax)\s*\(\"(.*)\"\)(\s*mode\s*([0-9]+))?.*
! Touchstone port assignment:
! Touchstone port 1 = CST MWS port Zmax ("") mode 1
! Touchstone port 2 = CST MWS port Zmax ("") mode 2
! Touchstone port 3 = CST MWS port Zmin ("") mode 1
! Touchstone port 4 = CST MWS port Zmin ("") mode 2
! S-Parameters are not renormalized. Each port impedance will be approximated by the real part at minimum frequency. The values are described via the [Reference] keyword.
! Default impedance is overridden by [Reference]
[Version] 2.0
# GHz S RI R 376.73
[Number of Ports] 4
[Reference]
376.73 376.73 259.888 259.888 
[Number of Frequencies] 51
[Network Data]
281700                 0.0327371       -0.116005     -0.000299705    -0.000109783        0.0477416       -0.991237      0.000131387     4.37741e-05
                    -0.000324906    -0.000200077       0.00797019      -0.0183887      5.67659e-05    -0.000216312        -0.480139       -0.874977
                       0.0477718        -0.99118      0.000156479    -5.05853e-05        0.0213372        0.118712     -0.000216331     0.000290513
                      0.00013115     0.000111907        -0.480101       -0.874901     -0.000164949     0.000195729        0.0194819      0.00364304
281702                 0.0327249       -0.116005     -0.000299801    -0.000109614        0.0475032       -0.991249      0.000131412     4.37361e-05
                    -0.000324901    -0.000200102       0.00796526      -0.0183787      5.66553e-05    -0.000216307        -0.480373       -0.874848
                       0.0475334       -0.991192      0.000156483    -5.06971e-05        0.0213821        0.118701      -0.00021637     0.000290571
                     0.000131105     0.000111966        -0.480335       -0.874772     -0.000164989     0.000195674        0.0194728      0.00363144
281704                 0.0327126       -0.116005     -0.000299897    -0.000109445        0.0472649       -0.991261      0.000131438     4.36981e-05
                    -0.000324897    -0.000200126       0.00796033      -0.0183688      5.65447e-05    -0.000216301        -0.480607        -0.87472
                        0.047295       -0.991204      0.000156486    -5.08089e-05         0.021427        0.118689     -0.000216409     0.000290628
                      0.00013106     0.000112024         -0.48057       -0.874644     -0.000165029     0.000195619        0.0194637      0.00361984
281706                 0.0327004       -0.116004     -0.000299993    -0.000109276        0.0470265       -0.991273      0.000131463     4.36602e-05
                    -0.000324892    -0.000200151        0.0079554      -0.0183589      5.64342e-05    -0.000216296        -0.480842       -0.874591
                       0.0470566       -0.991215       0.00015649    -5.09208e-05        0.0214719        0.118677     -0.000216448     0.000290686
                     0.000131015     0.000112083        -0.480804       -0.874515     -0.000165069     0.000195564        0.0194546      0.00360826
281708                 0.0326881       -0.116004     -0.000300089    -0.000109107        0.0467882       -0.991285      0.000131488     4.36223e-05
                    -0.000324887    -0.000200176       0.00795048       -0.018349      5.63237e-05     -0.00021629        -0.481076       -0.874462
                       0.0468181       -0.991227      0.000156494    -5.10328e-05        0.0215168        0.118665     -0.000216488     0.000290743
                     0.000130969     0.000112141        -0.481038       -0.874386     -0.000165109     0.000195508        0.0194455      0.00359668
281710                 0.0326759       -0.116004     -0.000300185    -0.000108938        0.0465498       -0.991296      0.000131514     4.35845e-05
                    -0.000324881    -0.000200201       0.00794555      -0.0183391      5.62132e-05    -0.000216285         -0.48131       -0.874333
                       0.0465797       -0.991239      0.000156498    -5.11448e-05        0.0215617        0.118654     -0.000216527     0.000290801
                     0.000130923       0.0001122        -0.481273       -0.874257      -0.00016515     0.000195453        0.0194363      0.00358511
281712                 0.0326637       -0.116004      -0.00030028    -0.000108768        0.0463114       -0.991308       0.00013154     4.35467e-05
                    -0.000324876    -0.000200226       0.00794063      -0.0183292      5.61028e-05    -0.000216279        -0.481544       -0.874204
                       0.0463413        -0.99125      0.000156501    -5.12569e-05        0.0216066        0.118642     -0.000216566     0.000290859
                     0.000130877     0.000112258        -0.481507       -0.874128     -0.000165191     0.000195398        0.0194272      0.00357355
281714                 0.0326514       -0.116003     -0.000300376    -0.000108599        0.0460731       -0.991319      0.000131565      4.3509e-05
                     -0.00032487    -0.000200252       0.00793571      -0.0183193      5.59924e-05    -0.000216273        -0.481779       -0.874075
                       0.0461029       -0.991262      0.000156505    -5.13691e-05        0.0216515         0.11863     -0.000216606     0.000290917
                     0.000130831     0.000112317        -0.481741       -0.873999     -0.000165232     0.000195343         0.019418        0.003562
281716                 0.0326392       -0.116003     -0.000300471    -0.000108429        0.0458347       -0.991331      0.000131591     4.34713e-05
                    -0.000324863    -0.000200277       0.00793079      -0.0183094      5.58821e-05    -0.000216267        -0.482013       -0.873946
                       0.0458645       -0.991273      0.000156508    -5.14813e-05        0.0216964        0.118618     -0.000216646     0.000290975
                     0.000130784     0.000112376        -0.481976        -0.87387     -0.000165273     0.000195288        0.0194089      0.00355045
281718                 0.0326269       -0.116003     -0.000300566    -0.000108259        0.0455963       -0.991342      0.000131617     4.34336e-05
                    -0.000324857    -0.000200303       0.00792587      -0.0182995      5.57718e-05    -0.000216261        -0.482247       -0.873817
                        0.045626       -0.991285      0.000156511    -5.15937e-05        0.0217412        0.118606     -0.000216685     0.000291033
                     0.000130737     0.000112434         -0.48221       -0.873741     -0.000165314     0.000195233        0.0193997      0.00353892
281720                 0.0326147       -0.116002      -0.00030066    -0.000108089        0.0453579       -0.991354      0.000131643      4.3396e-05
                     -0.00032485    -0.000200329       0.00792095      -0.0182896      5.56615e-05    -0.000216255        -0.482481       -0.873688
                       0.0453876       -0.991296      0.000156515     -5.1706e-05        0.0217861        0.118594     -0.000216725     0.000291092
                     0.000130689     0.000112493        -0.482444       -0.873612     -0.000165356     0.000195178        0.0193906      0.00352739
281722                 0.0326024       -0.116002     -0.000300755    -0.000107919        0.0451196       -0.991365      0.000131669     4.33584e-05
                    -0.000324843    -0.000200355       0.00791604      -0.0182797      5.55513e-05    -0.000216249        -0.482715       -0.873558
                       0.0451492       -0.991307      0.000156518    -5.18184e-05         0.021831        0.118582     -0.000216765      0.00029115
                     0.000130641     0.000112552        -0.482678       -0.873483     -0.000165398     0.000195122        0.0193814      0.00351588
281724                 0.0325902       -0.116002     -0.000300849    -0.000107749        0.0448812       -0.991376      0.000131695     4.33208e-05
                    -0.000324835    -0.000200381       0.00791112      -0.0182698      5.54411e-05    -0.000216242        -0.482949       -0.873429
                       0.0449107       -0.991319      0.000156521    -5.19309e-05        0.0218758         0.11857     -0.000216805     0.000291209
                     0.000130593     0.000112611        -0.482912       -0.873354      -0.00016544     0.000195067        0.0193722      0.00350437
281726                  0.032578       -0.116001     -0.000300943    -0.000107579        0.0446428       -0.991387      0.000131721     4.32833e-05
                    -0.000324827    -0.000200407       0.00790621      -0.0182598       5.5331e-05    -0.000216236        -0.483183         -0.8733
                       0.0446723        -0.99133      0.000156524    -5.20434e-05        0.0219207        0.118558     -0.000216846     0.000291268
                     0.000130545      0.00011267        -0.483146       -0.873224     -0.000165482     0.000195012         0.019363      0.00349287
281728                 0.0325657       -0.116001     -0.000301036    -0.000107409        0.0444044       -0.991398      0.000131747     4.32459e-05
                    -0.000324818    -0.000200433        0.0079013      -0.0182499       5.5221e-05    -0.000216229        -0.483417        -0.87317
                       0.0444338       -0.991341      0.000156527     -5.2156e-05        0.0219655        0.118546     -0.000216886     0.000291326
                     0.000130496     0.000112729         -0.48338       -0.873095     -0.000165524     0.000194957        0.0193538      0.00348138
281730                 0.0325535          -0.116     -0.000301129    -0.000107238         0.044166       -0.991409      0.000131773     4.32084e-05
                    -0.000324809     -0.00020046       0.00789639        -0.01824      5.51109e-05    -0.000216223        -0.483651        -0.87304
                       0.0441954       -0.991352       0.00015653    -5.22686e-05        0.0220103        0.118534     -0.000216926     0.000291386
                     0.000130446     0.000112789        -0.483614       -0.872965     -0.000165567     0.000194902        0.0193446       0.0034699
281732                 0.0325412          -0.116     -0.000301222    -0.000107068        0.0439276        -0.99142        0.0001318      4.3171e-05
                      -0.0003248    -0.000200487       0.00789149      -0.0182301       5.5001e-05    -0.000216216        -0.483885       -0.872911
                       0.0439569       -0.991363      0.000156533    -5.23812e-05        0.0220552        0.118522     -0.000216967     0.000291445
                     0.000130396     0.000112848        -0.483848       -0.872836     -0.000165609     0.000194847        0.0193354      0.00345842
281734                  0.032529          -0.116     -0.000301314    -0.000106897        0.0436892       -0.991431      0.000131826     4.31337e-05
                     -0.00032479    -0.000200514       0.00788658      -0.0182202      5.48911e-05    -0.000216209        -0.484119       -0.872781
                       0.0437185       -0.991374      0.000156536    -5.24938e-05           0.0221         0.11851     -0.000217008     0.000291504
                     0.000130346     0.000112907        -0.484082       -0.872706     -0.000165652     0.000194791        0.0193262      0.00344696
281736                 0.0325167       -0.115999     -0.000301406    -0.000106726        0.0434508       -0.991442      0.000131853     4.30964e-05
                    -0.000324779    -0.000200541       0.00788168      -0.0182103      5.47812e-05    -0.000216202        -0.484352       -0.872652
                         0.04348       -0.991385      0.000156539    -5.26064e-05        0.0221448        0.118498     -0.000217048     0.000291563
                     0.000130295     0.000112967        -0.484316       -0.872576     -0.000165696     0.000194736         0.019317      0.00343551
281738                 0.0325045       -0.115999     -0.000301496    -0.000106555        0.0432124       -0.991453      0.000131879     4.30591e-05
                    -0.000324768    -0.000200569       0.00787677      -0.0182003      5.46714e-05    -0.000216195        -0.484586       -0.872522
                       0.0432416       -0.991396      0.000156542     -5.2719e-05        0.0221896        0.118486     -0.000217089     0.000291623
                     0.000130243     0.000113027         -0.48455       -0.872447     -0.000165739     0.000194681        0.0193078      0.00342406
281740                 0.0324923       -0.115999     -0.000301586    -0.000106382         0.042974       -0.991464      0.000131906     4.30218e-05
                    -0.000324756    -0.000200597       0.00787187      -0.0181904      5.45617e-05    -0.000216188         -0.48482       -0.872392
                       0.0430031       -0.991407      0.000156545    -5.28317e-05        0.0222344        0.118474      -0.00021713     0.000291683
                     0.000130191     0.000113087        -0.484784       -0.872317     -0.000165782     0.000194626        0.0192986      0.00341262
281742                   0.03248       -0.115998     -0.000301674    -0.000106207        0.0427355       -0.991475      0.000131933     4.29846e-05
                    -0.000324744    -0.000200625       0.00786697      -0.0181805       5.4452e-05    -0.000216181        -0.485054       -0.872262
                       0.0427646       -0.991417      0.000156548    -5.29443e-05        0.0222792        0.118462     -0.000217171     0.000291743
                     0.000130139     0.000113147        -0.485018       -0.872187     -0.000165826     0.000194571        0.0192893      0.00340119
281744                 0.0324678       -0.115998     -0.000301763    -0.000106028        0.0424971       -0.991485       0.00013196     4.29475e-05
                    -0.000324731    -0.000200653       0.00786208      -0.0181706      5.43423e-05    -0.000216173        -0.485287       -0.872132
                       0.0425262       -0.991428       0.00015655    -5.30568e-05         0.022324         0.11845     -0.000217212     0.000291803
                     0.000130086     0.000113207        -0.485252       -0.872057      -0.00016587     0.000194515        0.0192801      0.00338977
281746                 0.0324555       -0.115998     -0.000301858    -0.000105847        0.0422587       -0.991496      0.000131987     4.29103e-05
                    -0.000324717    -0.000200682       0.00785718      -0.0181606      5.42327e-05    -0.000216166        -0.485521       -0.872002
                       0.0422877       -0.991439      0.000156553    -5.31694e-05        0.0223688        0.118438     -0.000217254     0.000291863
                     0.000130032     0.000113267        -0.485485       -0.871927     -0.000165914      0.00019446        0.0192708      0.00337836
281748                 0.0324433       -0.115997     -0.000301958     -0.00010567        0.0420203       -0.991506      0.000132014     4.28732e-05
                    -0.000324702    -0.000200711       0.00785229      -0.0181507      5.41232e-05    -0.000216158        -0.485755       -0.871872
                       0.0420492       -0.991449      0.000156556    -5.32818e-05        0.0224136        0.118426     -0.000217295     0.000291923
                     0.000129977     0.000113328        -0.485719       -0.871797     -0.000165958     0.000194405        0.0192616      0.00336696
281750                  0.032431       -0.115997     -0.000302056    -0.000105498        0.0417819       -0.991517      0.000132041     4.28362e-05
                    -0.000324687     -0.00020074        0.0078474      -0.0181408      5.40137e-05     -0.00021615        -0.485988       -0.871742
                       0.0418108        -0.99146      0.000156558    -5.33943e-05        0.0224584        0.118414     -0.000217337     0.000291983
                     0.000129922     0.000113388        -0.485953       -0.871667     -0.000166002      0.00019435        0.0192523      0.00335556
281752                 0.0324188       -0.115997     -0.000302153    -0.000105327        0.0415434       -0.991527      0.000132068     4.27992e-05
                    -0.000324671     -0.00020077        0.0078425      -0.0181309      5.39042e-05    -0.000216142        -0.486222       -0.871611
                       0.0415723        -0.99147      0.000156561    -5.35066e-05        0.0225031        0.118402     -0.000217378     0.000292044
                     0.000129866     0.000113449        -0.486186       -0.871537     -0.000166047     0.000194294         0.019243      0.00334418
281754                 0.0324065       -0.115996     -0.000302247    -0.000105157         0.041305       -0.991538      0.000132096     4.27622e-05
                    -0.000324654      -0.0002008       0.00783762      -0.0181209      5.37948e-05    -0.000216135        -0.486455       -0.871481
                       0.0413338       -0.991481      0.000156563    -5.36189e-05        0.0225479        0.118389      -0.00021742     0.000292104
                     0.000129809      0.00011351         -0.48642       -0.871407     -0.000166091     0.000194239        0.0192337       0.0033328
281756                 0.0323943       -0.115996      -0.00030234    -0.000104986        0.0410666       -0.991548      0.000132123     4.27252e-05
                    -0.000324635     -0.00020083       0.00783273       -0.018111      5.36854e-05    -0.000216126        -0.486689       -0.871351
                       0.0410953       -0.991491      0.000156566    -5.37311e-05        0.0225927        0.118377     -0.000217462     0.000292165
                     0.000129752     0.000113571        -0.486654       -0.871276     -0.000166136     0.000194184        0.0192245      0.00332144
281758                 0.0323821       -0.115996     -0.000302432    -0.000104815        0.0408281       -0.991558       0.00013215     4.26883e-05
                    -0.000324616     -0.00020086       0.00782784      -0.0181011      5.35761e-05    -0.000216118        -0.486922        -0.87122
                       0.0408568       -0.991502      0.000156568    -5.38432e-05        0.0226374        0.118365     -0.000217503     0.000292226
                     0.000129694     0.000113632        -0.486887       -0.871146     -0.000166181     0.000194128        0.0192152      0.00331008
281760                 0.0323698       -0.115995     -0.000302524    -0.000104643        0.0405897       -0.991569      0.000132178     4.26514e-05
                    -0.000324597    -0.000200891       0.00782296      -0.0180911      5.34667e-05     -0.00021611        -0.487156        -0.87109
                       0.0406184       -0.991512       0.00015657    -5.39552e-05        0.0226822        0.118353     -0.000217545     0.000292287
                     0.000129636     0.000113693        -0.487121       -0.871015     -0.000166226     0.000194073        0.0192059      0.00329873
281762                 0.0323576       -0.115995     -0.000302615    -0.000104471        0.0403512       -0.991579      0.000132206     4.26146e-05
                    -0.000324576    -0.000200922       0.00781808      -0.0180812      5.33574e-05    -0.000216101        -0.487389       -0.870959
                       0.0403799       -0.991522      0.000156572     -5.4067e-05        0.0227269         0.11834     -0.000217587     0.000292348
