! TOUCHSTONE file generated by CST MICROWAVE STUDIO
! Date and time: Wed Oct 15 17:29:34 2025
! Project name: Teste_Macro_Metasurface_Nanopilar.cst
! Parameters = {H=600; L_x=100; L_y=120; Lambda=1064; Max_L=200; Min_L=70; PathPara=1; Phi=0; Step_L=10; Theta=0; p=520; phaseX=180; phaseY=0}
! Header version: 2018
! Port assignment regex: !\s*Touchstone port\s*([0-9]+)\s*=\s*(CST MWS port|CST DS port)\s*([0-9]+|Zmin|Zmax)\s*\(\"(.*)\"\)(\s*mode\s*([0-9]+))?.*
! Touchstone port assignment:
! Touchstone port 1 = CST MWS port Zmax ("") mode 1
! Touchstone port 2 = CST MWS port Zmax ("") mode 2
! Touchstone port 3 = CST MWS port Zmin ("") mode 1
! Touchstone port 4 = CST MWS port Zmin ("") mode 2
! S-Parameters are not renormalized. Each port impedance will be approximated by the real part at minimum frequency. The values are described via the [Reference] keyword.
! Default impedance is overridden by [Reference]
[Version] 2.0
# GHz S RI R 376.73
[Number of Ports] 4
[Reference]
376.73 376.73 259.888 259.888 
[Number of Frequencies] 51
[Network Data]
281700                  0.173777      -0.0152052      0.000502118     1.18937e-05        -0.839714        0.498826      0.000279321     5.17767e-05
                     0.000489483     3.29578e-05       0.00561335       0.0594966     -9.85113e-05    -8.71381e-05        -0.808538       -0.579676
                       -0.839594        0.498546     -0.000189171    -1.68386e-05       -0.0961869        0.144812     -0.000549702     1.88061e-05
                     0.000219365    -7.87151e-06        -0.808638         -0.5797     -0.000527978     5.54532e-05       -0.0578885       0.0148727
281702                  0.173774      -0.0152319      0.000502159     1.17425e-05        -0.839521        0.499149      0.000279337     5.16588e-05
                     0.000489516     3.27687e-05        0.0056201       0.0595129     -9.87054e-05    -8.72871e-05         -0.80871       -0.579432
                       -0.839402        0.498869      -0.00018921    -1.68293e-05       -0.0960978         0.14487     -0.000549731     1.89271e-05
                     0.000219342    -7.96155e-06        -0.808811       -0.579457     -0.000527771     5.56484e-05       -0.0578973       0.0149064
281704                  0.173771      -0.0152586        0.0005022     1.15891e-05        -0.839331        0.499477      0.000279385     5.15721e-05
                     0.000489551     3.25786e-05       0.00562684       0.0595293     -0.000137951    -0.000227293        -0.808883       -0.579188
                       -0.839209        0.499192     -0.000189249    -1.68201e-05       -0.0960088        0.144928     -0.000549764     1.90485e-05
                     0.000219318    -8.04969e-06        -0.808984       -0.579213     -0.000675072     2.11648e-05        -0.057906       0.0149401
281706                  0.173768      -0.0152854      0.000502241     1.14338e-05        -0.839143        0.499811      0.000279426     5.14767e-05
                     0.000489586     3.23881e-05        0.0056336       0.0595456      -0.00022566    -5.20643e-05        -0.809056       -0.578944
                       -0.839016        0.499515     -0.000189286    -1.68105e-05       -0.0959202        0.144986     -0.000549799     1.91717e-05
                     0.000219292    -8.13691e-06        -0.809157        -0.57897     -0.000377208    -0.000113868       -0.0579147       0.0149739
281708                  0.173765      -0.0153121      0.000502281     1.12772e-05        -0.838961        0.500157      0.000279466     5.13804e-05
                     0.000489623     3.21972e-05       0.00564035       0.0595619     -0.000193535    -4.26405e-05        -0.809228         -0.5787
                       -0.838823        0.499838     -0.000189324    -1.68004e-05       -0.0958321        0.145044     -0.000549837     1.92972e-05
                     0.000219267    -8.22361e-06         -0.80933       -0.578726      -0.00040004    -3.61604e-05       -0.0579234       0.0150077
281710                  0.173762      -0.0153388       0.00050232     1.11196e-05        -0.838786         0.50053      0.000279506     5.12837e-05
                      0.00048966     3.20061e-05       0.00564711       0.0595783     -0.000184282    -4.21192e-05        -0.809401       -0.578456
                        -0.83863        0.500161     -0.000189361      -1.679e-05       -0.0957449        0.145101     -0.000549875     1.94252e-05
                     0.000219241    -8.30997e-06        -0.809502       -0.578482     -0.000410006    -1.99273e-05       -0.0579321       0.0150415
281712                  0.173759      -0.0153655      0.000502359     1.09614e-05        -0.838626        0.500985      0.000279545     5.11869e-05
                     0.000489697     3.18149e-05       0.00565388       0.0595946     -0.000180426     -4.2217e-05        -0.809574       -0.578212
                       -0.838437        0.500483     -0.000189398    -1.67792e-05       -0.0956596        0.145156     -0.000549914     1.95552e-05
                     0.000219215     -8.3961e-06        -0.809675       -0.578239     -0.000414407    -1.36475e-05       -0.0579408       0.0150753
281714                  0.173756      -0.0153923      0.000502397     1.08028e-05        -0.838299        0.501917      0.000279584       5.109e-05
                     0.000489735     3.16235e-05       0.00566065       0.0596109     -0.000178501    -4.23627e-05        -0.809746       -0.577968
                       -0.838244        0.500806     -0.000189435    -1.67682e-05       -0.0955795        0.145207     -0.000549953     1.96868e-05
                     0.000219188    -8.48207e-06        -0.809847       -0.577995     -0.000416666    -1.05105e-05       -0.0579495       0.0151091
281716                  0.173753       -0.015419      0.000502434     1.06439e-05         -0.83731         0.50093      0.000279623      5.0993e-05
                     0.000489773      3.1432e-05       0.00566742       0.0596273      -0.00017744    -4.24907e-05        -0.809919       -0.577724
                        -0.83805        0.501129     -0.000189472     -1.6757e-05       -0.0955228        0.145227     -0.000549991     1.98194e-05
                     0.000219162    -8.56791e-06         -0.81002       -0.577751     -0.000417943    -8.69831e-06       -0.0579581        0.015143
281718                   0.17375      -0.0154457      0.000502471     1.04848e-05        -0.837652        0.501369      0.000279662     5.08959e-05
                     0.000489811     3.12404e-05       0.00567419       0.0596436     -0.000176821    -4.25971e-05        -0.810091       -0.577479
                       -0.837857        0.501451     -0.000189509    -1.67458e-05       -0.0952403        0.145355      -0.00055003     1.99527e-05
                     0.000219135    -8.65365e-06        -0.810192       -0.577507      -0.00041871     -7.5433e-06       -0.0579667       0.0151768
281720                  0.173747      -0.0154724      0.000502508     1.03256e-05        -0.837563        0.501767      0.000279701     5.07988e-05
                     0.000489849     3.10488e-05       0.00568097         0.05966      -0.00017645    -4.26865e-05        -0.810263       -0.577235
                       -0.837663        0.501774     -0.000189547    -1.67344e-05       -0.0952465        0.145415     -0.000550068     2.00864e-05
                     0.000219108    -8.73929e-06        -0.810365       -0.577263     -0.000419188    -6.75036e-06       -0.0579753       0.0152107
281722                  0.173744      -0.0154992      0.000502544     1.01663e-05         -0.83741        0.502125      0.000279739     5.07016e-05
                     0.000489887     3.08571e-05       0.00568776       0.0596763     -0.000176228    -4.27634e-05        -0.810435       -0.576991
                       -0.837469        0.502096     -0.000189584    -1.67231e-05       -0.0951721        0.145468     -0.000550106     2.02202e-05
                     0.000219081    -8.82486e-06        -0.810537       -0.577019     -0.000419492     -6.1722e-06       -0.0579839       0.0152446
281724                  0.173741      -0.0155259       0.00050258     1.00069e-05        -0.837236        0.502467      0.000279778     5.06044e-05
                     0.000489925     3.06654e-05       0.00569455       0.0596926       -0.0001761     -4.2831e-05        -0.810607       -0.576746
                       -0.837276        0.502418     -0.000189622    -1.67116e-05       -0.0950883        0.145523     -0.000550145      2.0354e-05
                     0.000219054    -8.91035e-06        -0.810709       -0.576775     -0.000419686    -5.72863e-06       -0.0579924       0.0152784
281726                  0.173738      -0.0155526      0.000502615     9.84753e-06        -0.837054        0.502802      0.000279817     5.05071e-05
                     0.000489963     3.04736e-05       0.00570134       0.0597089     -0.000176033    -4.28917e-05         -0.81078       -0.576502
                       -0.837081        0.502741     -0.000189659    -1.67002e-05       -0.0950016         0.14558     -0.000550183     2.04877e-05
                     0.000219027    -8.99579e-06        -0.810881       -0.576531     -0.000419808    -5.37306e-06       -0.0580009       0.0153123
281728                  0.173735      -0.0155794      0.000502651     9.68809e-06        -0.836867        0.503131      0.000279855     5.04098e-05
                     0.000490001     3.02817e-05       0.00570814       0.0597253     -0.000176009    -4.29473e-05        -0.810951       -0.576257
                       -0.836887        0.503063     -0.000189697    -1.66887e-05       -0.0949136        0.145637     -0.000550221     2.06211e-05
                     0.000218999    -9.08116e-06        -0.811053       -0.576287      -0.00041988    -5.07696e-06       -0.0580095       0.0153463
281730                  0.173732      -0.0156061      0.000502686     9.52862e-06        -0.836677        0.503459      0.000279894     5.03124e-05
                     0.000490039     3.00898e-05       0.00571493       0.0597416     -0.000176014    -4.29988e-05        -0.811123       -0.576013
                       -0.836693        0.503385     -0.000189734    -1.66771e-05        -0.094825        0.145694     -0.000550259     2.07543e-05
                     0.000218972    -9.16648e-06        -0.811225       -0.576043     -0.000419918    -4.82218e-06       -0.0580179       0.0153802
281732                  0.173729      -0.0156329       0.00050272     9.36913e-06        -0.836486        0.503784      0.000279932      5.0215e-05
                     0.000490077     2.98978e-05       0.00572173       0.0597579     -0.000176039    -4.30473e-05        -0.811295       -0.575768
                       -0.836499        0.503707     -0.000189772    -1.66656e-05       -0.0947359        0.145751     -0.000550297     2.08872e-05
                     0.000218945    -9.25175e-06        -0.811397       -0.575798     -0.000419931    -4.59676e-06       -0.0580264       0.0154141
281734                  0.173725      -0.0156596      0.000502755     9.20961e-06        -0.836294        0.504108      0.000279971     5.01175e-05
                     0.000490115     2.97058e-05        0.0057285       0.0597743     -0.000176079    -4.30934e-05        -0.811467       -0.575524
                       -0.836304        0.504029      -0.00018981     -1.6654e-05       -0.0946466        0.145808     -0.000550334     2.10198e-05
                     0.000218917    -9.33697e-06        -0.811568       -0.575555     -0.000419927    -4.39256e-06       -0.0580349       0.0154481
281736                  0.173722      -0.0156863      0.000502789     9.05006e-06          -0.8361        0.504432      0.000280009       5.002e-05
                     0.000490153     2.95138e-05       0.00573536       0.0597906      -0.00017613    -4.31374e-05        -0.811639       -0.575279
                       -0.836109        0.504351     -0.000189847    -1.66424e-05       -0.0945571        0.145866     -0.000550372     2.11521e-05
                      0.00021889    -9.42214e-06        -0.811741       -0.575308      -0.00041991    -4.20398e-06       -0.0580433        0.015482
281738                  0.173719      -0.0157131      0.000502823     8.89048e-06        -0.835907        0.504755      0.000280047     4.99225e-05
                      0.00049019     2.93217e-05       0.00574219       0.0598069      -0.00017619    -4.31799e-05         -0.81181       -0.575034
                       -0.835915        0.504673     -0.000189885    -1.66308e-05       -0.0944675        0.145923     -0.000550409     2.12842e-05
                     0.000218862    -9.50727e-06        -0.811912       -0.575065     -0.000419882      -4.027e-06       -0.0580517        0.015516
281740                  0.173716      -0.0157398      0.000502857     8.73089e-06        -0.835712        0.505077      0.000280085     4.98249e-05
                     0.000490228     2.91295e-05       0.00574901       0.0598233     -0.000176256    -4.32211e-05        -0.811982       -0.574789
                        -0.83572        0.504994     -0.000189923    -1.66191e-05       -0.0943777         0.14598     -0.000550446     2.14161e-05
                     0.000218834    -9.59235e-06        -0.812084        -0.57482     -0.000419848    -3.85876e-06       -0.0580601         0.01555
281742                  0.173713      -0.0157666      0.000502891     8.57128e-06        -0.835518          0.5054      0.000280123     4.97273e-05
                     0.000490266     2.89374e-05       0.00575584       0.0598396     -0.000176326    -4.32611e-05        -0.812153       -0.574544
                       -0.835524        0.505316     -0.000189961    -1.66074e-05       -0.0942879        0.146038     -0.000550483     2.15478e-05
                     0.000218806    -9.67739e-06        -0.812255       -0.574576     -0.000419808    -3.69716e-06       -0.0580685        0.015584
281744                   0.17371      -0.0157933      0.000502924     8.41169e-06        -0.835323        0.505722      0.000280161     4.96296e-05
                     0.000490303     2.87451e-05       0.00576267       0.0598559       -0.0001764    -4.33003e-05        -0.812325       -0.574299
                       -0.835329        0.505638     -0.000189999    -1.65957e-05        -0.094198        0.146095      -0.00055052     2.16793e-05
                     0.000218779    -9.76239e-06        -0.812427       -0.574331     -0.000419764    -3.54062e-06       -0.0580768        0.015618
281746                  0.173706      -0.0158201      0.000502957     8.25221e-06        -0.835128        0.506044      0.000280199     4.95319e-05
                      0.00049034     2.85529e-05        0.0057695       0.0598722     -0.000176476    -4.33387e-05        -0.812496       -0.574054
                       -0.835134        0.505959     -0.000190036     -1.6584e-05        -0.094108        0.146152     -0.000550556     2.18106e-05
                     0.000218751    -9.84735e-06        -0.812598       -0.574086     -0.000419717    -3.38797e-06       -0.0580852        0.015652
281748                  0.173703      -0.0158468      0.000502989     8.09305e-06        -0.834933        0.506365      0.000280237     4.94342e-05
                     0.000490377     2.83605e-05       0.00577634       0.0598885     -0.000176555    -4.33765e-05        -0.812667       -0.573809
                       -0.834939        0.506281     -0.000190074    -1.65722e-05        -0.094018        0.146209     -0.000550592     2.19419e-05
                     0.000218723    -9.93228e-06        -0.812769       -0.573842     -0.000419667    -3.23833e-06       -0.0580935        0.015686
281750                    0.1737      -0.0158736      0.000503022      7.9346e-06        -0.834737        0.506687      0.000280275     4.93364e-05
                     0.000490414     2.81682e-05       0.00578318       0.0599048     -0.000176635    -4.34137e-05        -0.812839       -0.573564
                       -0.834743        0.506602     -0.000190113    -1.65604e-05       -0.0939279        0.146266     -0.000550628      2.2073e-05
                     0.000218695    -1.00172e-05        -0.812941       -0.573597     -0.000419615    -3.09102e-06       -0.0581018       0.0157201
281752                  0.173697      -0.0159003      0.000503054     7.77723e-06        -0.834541        0.507008      0.000280313     4.92386e-05
                     0.000490451     2.79758e-05       0.00579002       0.0599212     -0.000176717    -4.34504e-05         -0.81301       -0.573319
                       -0.834547        0.506924     -0.000190151    -1.65486e-05       -0.0938378        0.146323     -0.000550664     2.22041e-05
                     0.000218667     -1.0102e-05        -0.813112       -0.573352     -0.000419562     -2.9455e-06       -0.0581101       0.0157541
281754                  0.173694      -0.0159271      0.000503089     7.62002e-06        -0.834346        0.507329      0.000280351     4.91408e-05
                     0.000490488     2.77834e-05       0.00579687       0.0599375     -0.000176799    -4.34867e-05        -0.813181       -0.573074
                       -0.834351        0.507245     -0.000190189    -1.65372e-05       -0.0937476         0.14638       -0.0005507     2.23351e-05
                     0.000218639    -1.01868e-05        -0.813283       -0.573107     -0.000419508    -2.80137e-06       -0.0581183       0.0157882
281756                   0.17369      -0.0159538      0.000503124     7.46134e-06         -0.83415        0.507651      0.000280388     4.90429e-05
                     0.000490524     2.75909e-05       0.00580373       0.0599538     -0.000176882    -4.35227e-05        -0.813352       -0.572828
                       -0.834155        0.507566     -0.000190228    -1.65263e-05       -0.0936574        0.146437     -0.000550735     2.24661e-05
                      0.00021861    -1.02717e-05        -0.813454       -0.572862     -0.000419452    -2.65832e-06       -0.0581266       0.0158223
281758                  0.173687      -0.0159806      0.000503159     7.30137e-06        -0.833954        0.507972      0.000280426     4.89451e-05
                     0.000490561     2.73984e-05       0.00581059       0.0599701     -0.000176966    -4.35583e-05        -0.813523       -0.572583
                       -0.833959        0.507887     -0.000190265    -1.65154e-05       -0.0935671        0.146493     -0.000550771      2.2597e-05
                     0.000218582    -1.03564e-05        -0.813625       -0.572617     -0.000419396    -2.51608e-06       -0.0581348       0.0158564
281760                  0.173684      -0.0160073      0.000503192     7.14099e-06        -0.833757        0.508293      0.000280464     4.88473e-05
                     0.000490597     2.72059e-05       0.00581745       0.0599864      -0.00017705    -4.35937e-05        -0.813693       -0.572338
                       -0.833763        0.508208     -0.000190303    -1.65041e-05       -0.0934768         0.14655     -0.000550806     2.27279e-05
                     0.000218554    -1.04412e-05        -0.813796       -0.572372      -0.00041934    -2.37447e-06        -0.058143       0.0158905
281762                  0.173681      -0.0160341      0.000503226     6.98061e-06        -0.833561        0.508614      0.000280502     4.87495e-05
                     0.000490633     2.70133e-05       0.00582432       0.0600027     -0.000177135    -4.36289e-05        -0.813864       -0.572092
                       -0.833567        0.508529      -0.00019034    -1.64923e-05       -0.0933865        0.146607      -0.00055084     2.28588e-05
