! TOUCHSTONE file generated by CST MICROWAVE STUDIO
! Date and time: Wed Oct 15 17:30:00 2025
! Project name: Teste_Macro_Metasurface_Nanopilar.cst
! Parameters = {H=600; L_x=105; L_y=190; Lambda=1064; Max_L=200; Min_L=70; PathPara=1; Phi=0; Step_L=10; Theta=0; p=520; phaseX=180; phaseY=0}
! Header version: 2018
! Port assignment regex: !\s*Touchstone port\s*([0-9]+)\s*=\s*(CST MWS port|CST DS port)\s*([0-9]+|Zmin|Zmax)\s*\(\"(.*)\"\)(\s*mode\s*([0-9]+))?.*
! Touchstone port assignment:
! Touchstone port 1 = CST MWS port Zmax ("") mode 1
! Touchstone port 2 = CST MWS port Zmax ("") mode 2
! Touchstone port 3 = CST MWS port Zmin ("") mode 1
! Touchstone port 4 = CST MWS port Zmin ("") mode 2
! S-Parameters are not renormalized. Each port impedance will be approximated by the real part at minimum frequency. The values are described via the [Reference] keyword.
! Default impedance is overridden by [Reference]
[Version] 2.0
# GHz S RI R 376.73
[Number of Ports] 4
[Reference]
376.73 376.73 259.888 259.888 
[Number of Frequencies] 51
[Network Data]
281700                   0.29327       -0.317415      -0.00033942    -0.000174699         0.848445       -0.271628     -0.000300138     5.90945e-05
                     -0.00026907    -0.000262927         0.148804      -0.0111859      0.000120357     0.000322212         0.131395        0.971216
                          0.8487       -0.271541      0.000218327     0.000202032        -0.411959       -0.104264      0.000646912     8.96773e-06
                    -0.000186251     0.000151323          0.13106        0.971442      0.000502427     0.000160977         0.144683      -0.0267048
281702                  0.293136       -0.317334     -0.000339687    -0.000175293         0.848397       -0.272029     -0.000300038     5.97813e-05
                    -0.000269365    -0.000262698         0.148784      -0.0111933      0.000120486     0.000322032         0.131777        0.971167
                        0.848652       -0.271941      0.000218801     0.000202953        -0.411898       -0.103898       0.00064644     7.98031e-06
                    -0.000186382     0.000151583         0.131443        0.971393      0.000502373     0.000160647         0.144645       -0.026806
281704                  0.293003       -0.317254     -0.000339953    -0.000175884         0.848348       -0.272429     -0.000299937     6.04674e-05
                    -0.000269661     -0.00026247         0.148765      -0.0112007      0.000120615     0.000321851          0.13216        0.971118
                        0.848602       -0.272341      0.000219273     0.000203869        -0.411836       -0.103533      0.000645966     6.99467e-06
                    -0.000186513     0.000151842         0.131825        0.971344      0.000502319     0.000160318         0.144606      -0.0269072
281706                  0.292869       -0.317173     -0.000340218    -0.000176472         0.848299        -0.27283     -0.000299834     6.11528e-05
                    -0.000269956    -0.000262242         0.148745       -0.011208      0.000120743      0.00032167         0.132542        0.971069
                        0.848553       -0.272741      0.000219743     0.000204781        -0.411774       -0.103168      0.000645491     6.01088e-06
                    -0.000186644       0.0001521         0.132208        0.971295      0.000502264     0.000159988         0.144567      -0.0270083
281708                  0.292736       -0.317092     -0.000340482    -0.000177058          0.84825        -0.27323      -0.00029973     6.18375e-05
                    -0.000270251    -0.000262014         0.148725      -0.0112154      0.000120871      0.00032149         0.132924         0.97102
                        0.848504       -0.273141      0.000220209     0.000205688        -0.411713       -0.102804      0.000645014       5.029e-06
                    -0.000186775     0.000152358         0.132591        0.971246      0.000502208     0.000159658         0.144528      -0.0271095
281710                  0.292603       -0.317012     -0.000340745    -0.000177641         0.848201        -0.27363     -0.000299624     6.25214e-05
                    -0.000270547    -0.000261787         0.148705      -0.0112228      0.000120999     0.000321309         0.133307         0.97097
                        0.848454       -0.273541      0.000220674      0.00020659         -0.41165       -0.102439      0.000644535     4.04906e-06
                    -0.000186907     0.000152614         0.132973        0.971196      0.000502153     0.000159329         0.144489      -0.0272105
281712                   0.29247       -0.316931     -0.000341007    -0.000178221         0.848152       -0.274031     -0.000299517     6.32046e-05
                    -0.000270842     -0.00026156         0.148685      -0.0112301      0.000121126     0.000321127         0.133689        0.970921
                        0.848404       -0.273941      0.000221136     0.000207487        -0.411588       -0.102075      0.000644055     3.07114e-06
                    -0.000187038      0.00015287         0.133356        0.971147      0.000502096        0.000159          0.14445      -0.0273116
281714                  0.292337        -0.31685     -0.000341268    -0.000178798         0.848102       -0.274431     -0.000299409      6.3887e-05
                    -0.000271137    -0.000261332         0.148665      -0.0112375      0.000121254     0.000320946         0.134071        0.970871
                        0.848353        -0.27434      0.000221595      0.00020838        -0.411525        -0.10171      0.000643574     2.09526e-06
                     -0.00018717     0.000153124         0.133738        0.971097       0.00050204      0.00015867         0.144411      -0.0274126
281716                  0.292205        -0.31677     -0.000341527    -0.000179373         0.848053       -0.274831     -0.000299299     6.45687e-05
                    -0.000271432    -0.000261106         0.148645      -0.0112448      0.000121381     0.000320764         0.134453        0.970821
                        0.848303        -0.27474      0.000222052     0.000209268        -0.411462       -0.101347      0.000643091     1.12148e-06
                    -0.000187302     0.000153378         0.134121        0.971048      0.000501983     0.000158341         0.144372      -0.0275136
281718                  0.292072       -0.316689     -0.000341786    -0.000179945         0.848002       -0.275231     -0.000299189     6.52496e-05
                    -0.000271727    -0.000260879         0.148625      -0.0112521      0.000121507     0.000320583         0.134836        0.970771
                        0.848252       -0.275139      0.000222506     0.000210151        -0.411399       -0.100983      0.000642606     1.49845e-07
                    -0.000187434     0.000153631         0.134503        0.970998      0.000501925     0.000158011         0.144333      -0.0276145
281720                  0.291939       -0.316609     -0.000342044    -0.000180514         0.847952        -0.27563     -0.000299076     6.59297e-05
                    -0.000272022    -0.000260652         0.148605      -0.0112594      0.000121634     0.000320401         0.135218        0.970721
                        0.848201       -0.275539      0.000222958      0.00021103        -0.411336       -0.100619       0.00064212    -8.19608e-07
                    -0.000187566     0.000153883         0.134886        0.970948      0.000501867     0.000157682         0.144294      -0.0277154
281722                  0.291807       -0.316528     -0.000342301     -0.00018108         0.847902        -0.27603     -0.000298963      6.6609e-05
                    -0.000272316    -0.000260426         0.148585      -0.0112667       0.00012176     0.000320219           0.1356        0.970671
                         0.84815       -0.275938      0.000223407     0.000211904        -0.411272       -0.100256      0.000641633    -1.78684e-06
                    -0.000187698     0.000154134         0.135268        0.970897      0.000501809     0.000157353         0.144254      -0.0278162
281724                  0.291675       -0.316447     -0.000342556    -0.000181644         0.847851        -0.27643     -0.000298848     6.72874e-05
                    -0.000272611      -0.0002602         0.148565       -0.011274      0.000121886     0.000320036         0.135982         0.97062
                        0.848099       -0.276337      0.000223854     0.000212773        -0.411208      -0.0998928      0.000641144    -2.75181e-06
                     -0.00018783     0.000154384         0.135651        0.970847       0.00050175     0.000157024         0.144215      -0.0279171
281726                  0.291542       -0.316367     -0.000342811    -0.000182205           0.8478       -0.276829     -0.000298731     6.79651e-05
                    -0.000272906    -0.000259974         0.148545      -0.0112813      0.000122011     0.000319854         0.136364         0.97057
                        0.848047       -0.276736      0.000224298     0.000213638        -0.411144      -0.0995299      0.000640653    -3.71448e-06
                    -0.000187963     0.000154633         0.136033        0.970797      0.000501691     0.000156694         0.144175      -0.0280178
281728                   0.29141       -0.316286     -0.000343065    -0.000182763         0.847749       -0.277229     -0.000298614     6.86419e-05
                      -0.0002732    -0.000259749         0.148525      -0.0112886      0.000122136     0.000319671         0.136746        0.970519
                        0.847995       -0.277135      0.000224739     0.000214498        -0.411079      -0.0991672      0.000640161    -4.67482e-06
                    -0.000188096     0.000154881         0.136416        0.970746      0.000501632     0.000156365         0.144136      -0.0281186
281730                  0.291278       -0.316205     -0.000343317    -0.000183319         0.847697       -0.277628     -0.000298495     6.93179e-05
                    -0.000273495    -0.000259523         0.148505      -0.0112959      0.000122261     0.000319488         0.137129        0.970468
                        0.847943       -0.277534      0.000225178     0.000215354        -0.411014      -0.0988047      0.000639668     -5.6328e-06
                    -0.000188229     0.000155128         0.136798        0.970695      0.000501572     0.000156036         0.144096      -0.0282193
281732                  0.291146       -0.316124     -0.000343569    -0.000183871         0.847646       -0.278028     -0.000298375      6.9993e-05
                    -0.000273789    -0.000259298         0.148485      -0.0113032      0.000122385     0.000319305         0.137511        0.970417
                        0.847891       -0.277933      0.000225614     0.000216205        -0.410949      -0.0984424      0.000639173    -6.58839e-06
                    -0.000188362     0.000155375          0.13718        0.970644      0.000501512     0.000155706         0.144056        -0.02832
281734                  0.291015       -0.316044     -0.000343819    -0.000184422         0.847594       -0.278427     -0.000298254     7.06673e-05
                    -0.000274083    -0.000259073         0.148465      -0.0113104      0.000122509     0.000319122         0.137893        0.970366
                        0.847839       -0.278332      0.000226047     0.000217051        -0.410884      -0.0980803      0.000638677    -7.54155e-06
                    -0.000188495      0.00015562         0.137563        0.970593      0.000501452     0.000155377         0.144016      -0.0284206
281736                  0.290883       -0.315963     -0.000344069    -0.000184969         0.847542       -0.278826     -0.000298131     7.13407e-05
                    -0.000274378    -0.000258848         0.148445      -0.0113177      0.000122633     0.000318939         0.138275        0.970314
                        0.847786        -0.27873      0.000226478     0.000217893        -0.410818      -0.0977184      0.000638179    -8.49226e-06
                    -0.000188628     0.000155864         0.137945        0.970542      0.000501392     0.000155047         0.143977      -0.0285212
281738                  0.290751       -0.315882     -0.000344317    -0.000185514         0.847489       -0.279225     -0.000298007     7.20132e-05
                    -0.000274672    -0.000258624         0.148425      -0.0113249      0.000122756     0.000318755         0.138657        0.970263
                        0.847733       -0.279129      0.000226907      0.00021873        -0.410753      -0.0973567      0.000637679    -9.44049e-06
                    -0.000188762     0.000156108         0.138327        0.970491      0.000501331     0.000154718         0.143937      -0.0286217
281740                   0.29062       -0.315802     -0.000344564    -0.000186056         0.847437       -0.279624     -0.000297882     7.26848e-05
                    -0.000274966      -0.0002584         0.148405      -0.0113321      0.000122879     0.000318571         0.139039        0.970211
                         0.84768       -0.279528      0.000227332     0.000219563        -0.410687      -0.0969952      0.000637178    -1.03862e-05
                    -0.000188896      0.00015635          0.13871        0.970439       0.00050127     0.000154388         0.143897      -0.0287222
281742                  0.290488       -0.315721     -0.000344811    -0.000186595         0.847384       -0.280023     -0.000297756     7.33555e-05
                     -0.00027526    -0.000258175         0.148385      -0.0113394      0.000123001     0.000318387         0.139421        0.970159
                        0.847626       -0.279926      0.000227755     0.000220391         -0.41062      -0.0966339      0.000636676    -1.13294e-05
                     -0.00018903     0.000156592         0.139092        0.970387      0.000501209     0.000154059         0.143856      -0.0288227
281744                  0.290357        -0.31564     -0.000345056    -0.000187131         0.847331       -0.280422     -0.000297628     7.40252e-05
                    -0.000275554    -0.000257951         0.148365      -0.0113466      0.000123123     0.000318203         0.139803        0.970107
                        0.847573       -0.280324      0.000228176     0.000221215        -0.410554      -0.0962729      0.000636172    -1.22701e-05
                    -0.000189164     0.000156832         0.139474        0.970336      0.000501148     0.000153729         0.143816      -0.0289232
281746                  0.290226       -0.315559       -0.0003453    -0.000187665         0.847278       -0.280821       -0.0002975      7.4694e-05
                    -0.000275848    -0.000257728         0.148345      -0.0113538      0.000123244     0.000318019         0.140185        0.970055
                        0.847519       -0.280723      0.000228593     0.000222034        -0.410487       -0.095912      0.000635667    -1.32081e-05
                    -0.000189298     0.000157072         0.139856        0.970284      0.000501087     0.000153399         0.143776      -0.0290236
281748                  0.290095       -0.315479     -0.000345543    -0.000188197         0.847224       -0.281219      -0.00029737     7.53619e-05
                    -0.000276142    -0.000257504         0.148325       -0.011361      0.000123365     0.000317834         0.140567        0.970003
                        0.847465       -0.281121      0.000229008     0.000222849         -0.41042      -0.0955513       0.00063516    -1.41436e-05
                    -0.000189433      0.00015731         0.140239        0.970231      0.000501025     0.000153068         0.143736      -0.0291239
281750                  0.289964       -0.315398     -0.000345786    -0.000188725         0.847171       -0.281618     -0.000297239     7.60288e-05
                    -0.000276436    -0.000257281         0.148305      -0.0113682      0.000123485      0.00031765         0.140949        0.969951
                         0.84741       -0.281519      0.000229421     0.000223659        -0.410352      -0.0951909      0.000634652    -1.50765e-05
                    -0.000189568     0.000157548         0.140621        0.970179      0.000500963     0.000152738         0.143695      -0.0292242
281752                  0.289833       -0.315317     -0.000346027    -0.000189251         0.847117       -0.282016     -0.000297107     7.66948e-05
                     -0.00027673    -0.000257058         0.148285      -0.0113754      0.000123604     0.000317465          0.14133        0.969898
                        0.847356       -0.281917       0.00022983     0.000224465        -0.410285      -0.0948307      0.000634142    -1.60067e-05
                    -0.000189703     0.000157785         0.141003        0.970127      0.000500901     0.000152407         0.143655      -0.0293245
281754                  0.289702       -0.315236     -0.000346267    -0.000189774         0.847062       -0.282415     -0.000296974     7.73597e-05
                    -0.000277024    -0.000256835         0.148265      -0.0113825      0.000123723     0.000317279         0.141712        0.969845
                        0.847301       -0.282315      0.000230237     0.000225266        -0.410217      -0.0944706      0.000633631    -1.69343e-05
                    -0.000189838      0.00015802         0.141385        0.970074      0.000500838     0.000152076         0.143614      -0.0294248
281756                  0.289571       -0.315155     -0.000346506    -0.000190295         0.847008       -0.282813      -0.00029684     7.80237e-05
                    -0.000277318    -0.000256612         0.148245      -0.0113897      0.000123841     0.000317093         0.142094        0.969793
                        0.847246       -0.282713      0.000230642     0.000226063        -0.410149      -0.0941108      0.000633118    -1.78592e-05
                    -0.000189974     0.000158255         0.141767        0.970022      0.000500774     0.000151745         0.143574       -0.029525
281758                   0.28944       -0.315075     -0.000346744    -0.000190813         0.846953       -0.283211     -0.000296704     7.86866e-05
                    -0.000277612     -0.00025639         0.148225      -0.0113969       0.00012396     0.000316905         0.142476         0.96974
                        0.847191       -0.283111      0.000231043     0.000226855         -0.41008      -0.0937512      0.000632604    -1.87814e-05
                    -0.000190109     0.000158489         0.142149        0.969969       0.00050071     0.000151414         0.143533      -0.0296251
281760                   0.28931       -0.314994     -0.000346981    -0.000191328         0.846899        -0.28361     -0.000296568     7.93486e-05
                    -0.000277906    -0.000256167         0.148205       -0.011404      0.000124079     0.000316717         0.142858        0.969686
                        0.847135       -0.283508      0.000231442     0.000227643        -0.410012      -0.0933918      0.000632088    -1.97008e-05
                    -0.000190245     0.000158721         0.142532        0.969916      0.000500645     0.000151083         0.143492      -0.0297253
281762                   0.28918       -0.314913     -0.000347217    -0.000191841         0.846844       -0.284008      -0.00029643     8.00094e-05
                    -0.000278199    -0.000255945         0.148185      -0.0114112      0.000124199      0.00031653          0.14324        0.969633
                         0.84708       -0.283906      0.000231838     0.000228427        -0.409943      -0.0930326      0.000631571    -2.06176e-05
