! TOUCHSTONE file generated by CST MICROWAVE STUDIO
! Date and time: Wed Oct 15 17:29:52 2025
! Project name: Teste_Macro_Metasurface_Nanopilar.cst
! Parameters = {H=600; L_x=105; L_y=125; Lambda=1064; Max_L=200; Min_L=70; PathPara=1; Phi=0; Step_L=10; Theta=0; p=520; phaseX=180; phaseY=0}
! Header version: 2018
! Port assignment regex: !\s*Touchstone port\s*([0-9]+)\s*=\s*(CST MWS port|CST DS port)\s*([0-9]+|Zmin|Zmax)\s*\(\"(.*)\"\)(\s*mode\s*([0-9]+))?.*
! Touchstone port assignment:
! Touchstone port 1 = CST MWS port Zmax ("") mode 1
! Touchstone port 2 = CST MWS port Zmax ("") mode 2
! Touchstone port 3 = CST MWS port Zmin ("") mode 1
! Touchstone port 4 = CST MWS port Zmin ("") mode 2
! S-Parameters are not renormalized. Each port impedance will be approximated by the real part at minimum frequency. The values are described via the [Reference] keyword.
! Default impedance is overridden by [Reference]
[Version] 2.0
# GHz S RI R 376.73
[Number of Ports] 4
[Reference]
376.73 376.73 259.888 259.888 
[Number of Frequencies] 51
[Network Data]
281700                  0.076802      -0.0909649      0.000199366     7.14606e-05        -0.171432        0.967862     -2.49498e-05     0.000530655
                     6.89599e-05     5.59526e-05        0.0937324       0.0993196      0.000477881     0.000136906        -0.983189      -0.0648695
                       -0.171429        0.968145      0.000420568     0.000108392        0.0382226        0.112204      0.000151484     0.000146103
                     0.000154428     0.000421575        -0.983188      -0.0647491      8.29155e-05      0.00017748         -0.10481       0.0868942
281702                 0.0767671       -0.090958      0.000199275     7.14294e-05        -0.171034        0.967935     -2.48191e-05     0.000530677
                     6.89415e-05     5.60461e-05        0.0937536       0.0993207      0.000477943     0.000136688        -0.983208      -0.0645317
                       -0.171031        0.968218      0.000420615     0.000108185         0.038284        0.112154      0.000151614     0.000145958
                     0.000154406      0.00042148        -0.983208      -0.0644112      8.30324e-05     0.000177367        -0.104772       0.0869646
281704                 0.0767322      -0.0909511      0.000199183     7.13984e-05        -0.170637        0.968009     -2.46884e-05     0.000530698
                      6.8924e-05     5.61396e-05        0.0937748       0.0993218      0.000478005     0.000136471        -0.983228      -0.0641939
                       -0.170634        0.968292      0.000420662     0.000107978        0.0383452        0.112103      0.000151743     0.000145812
                     0.000154385     0.000421385        -0.983227      -0.0640732      8.31494e-05     0.000177254        -0.104733       0.0870349
281706                 0.0766973      -0.0909442      0.000199091     7.13676e-05        -0.170239        0.968082     -2.45576e-05      0.00053072
                     6.89071e-05      5.6233e-05        0.0937959       0.0993229      0.000478067     0.000136254        -0.983247      -0.0638561
                       -0.170237        0.968365       0.00042071      0.00010777        0.0384064        0.112053      0.000151873     0.000145666
                     0.000154363      0.00042129        -0.983246      -0.0637353      8.32664e-05     0.000177141        -0.104695       0.0871053
281708                 0.0766623      -0.0909372      0.000198999      7.1337e-05        -0.169842        0.968155     -2.44268e-05     0.000530741
                     6.88909e-05     5.63263e-05        0.0938171        0.099324      0.000478129     0.000136036        -0.983266      -0.0635182
                       -0.169839        0.968438      0.000420757     0.000107563        0.0384676        0.112003      0.000152002     0.000145519
                     0.000154342     0.000421194        -0.983266      -0.0633974      8.33834e-05     0.000177027        -0.104656       0.0871756
281710                 0.0766274      -0.0909303      0.000198907     7.13066e-05        -0.169444        0.968228     -2.42959e-05     0.000530762
                     6.88751e-05     5.64195e-05        0.0938383       0.0993251      0.000478191     0.000135819        -0.983285      -0.0631804
                       -0.169442        0.968511      0.000420805     0.000107356        0.0385287        0.111952      0.000152132     0.000145373
                     0.000154321     0.000421099        -0.983285      -0.0630594      8.35004e-05     0.000176914        -0.104617       0.0872459
281712                 0.0765925      -0.0909233      0.000198815     7.12765e-05        -0.169047        0.968301     -2.41649e-05     0.000530783
                     6.88598e-05     5.65125e-05        0.0938595       0.0993261      0.000478253     0.000135602        -0.983304      -0.0628425
                       -0.169044        0.968584      0.000420852     0.000107149        0.0385897        0.111902      0.000152262     0.000145226
                       0.0001543     0.000421003        -0.983303      -0.0627214      8.36174e-05       0.0001768        -0.104579       0.0873162
281714                 0.0765576      -0.0909163      0.000198722     7.12465e-05        -0.168649        0.968374     -2.40339e-05     0.000530804
                     6.88448e-05     5.66054e-05        0.0938806       0.0993272      0.000478314     0.000135384        -0.983323      -0.0625046
                       -0.168647        0.968656        0.0004209     0.000106941        0.0386508        0.111852      0.000152391     0.000145079
                      0.00015428     0.000420908        -0.983322      -0.0623834      8.37345e-05     0.000176686         -0.10454       0.0873864
281716                 0.0765227      -0.0909094       0.00019863     7.12168e-05        -0.168252        0.968446     -2.39029e-05     0.000530825
                     6.88301e-05     5.66981e-05        0.0939018       0.0993283      0.000478376     0.000135167        -0.983342      -0.0621667
                       -0.168249        0.968729      0.000420947     0.000106734        0.0387117        0.111801       0.00015252     0.000144931
                      0.00015426     0.000420812        -0.983341      -0.0620454      8.38515e-05     0.000176572        -0.104501       0.0874567
281718                 0.0764878      -0.0909024      0.000198537     7.11873e-05        -0.167854        0.968519     -2.37718e-05     0.000530846
                     6.88156e-05     5.67907e-05         0.093923       0.0993294      0.000478437      0.00013495         -0.98336      -0.0618288
                       -0.167852        0.968801      0.000420995     0.000106527        0.0387726        0.111751       0.00015265     0.000144784
                      0.00015424     0.000420717        -0.983359      -0.0617074      8.39686e-05     0.000176458        -0.104462       0.0875269
281720                 0.0764529      -0.0908953      0.000198444      7.1158e-05        -0.167456        0.968591     -2.36407e-05     0.000530866
                     6.88014e-05     5.68831e-05        0.0939442       0.0993304      0.000478498     0.000134733        -0.983379      -0.0614908
                       -0.167454        0.968873      0.000421042     0.000106319        0.0388335          0.1117      0.000152779     0.000144636
                      0.00015422     0.000420621        -0.983378      -0.0613694      8.40856e-05     0.000176343        -0.104423       0.0875972
281722                 0.0764179      -0.0908883      0.000198351     7.11289e-05        -0.167059        0.968663     -2.35096e-05     0.000530886
                     6.87872e-05     5.69754e-05        0.0939654       0.0993315      0.000478559     0.000134516        -0.983397      -0.0611529
                       -0.167057        0.968945      0.000421089     0.000106112        0.0388943        0.111649      0.000152908     0.000144488
                       0.0001542     0.000420526        -0.983396      -0.0610313      8.42027e-05     0.000176229        -0.104384       0.0876674
281724                  0.076383      -0.0908813      0.000198258     7.11001e-05        -0.166661        0.968735     -2.33784e-05     0.000530906
                     6.87732e-05     5.70676e-05        0.0939866       0.0993325      0.000478619     0.000134299        -0.983415      -0.0608149
                       -0.166659        0.969017      0.000421137     0.000105905         0.038955        0.111599      0.000153038     0.000144339
                     0.000154181     0.000420431        -0.983414      -0.0606932      8.43197e-05     0.000176114        -0.104345       0.0877376
281726                 0.0763481      -0.0908742      0.000198164     7.10715e-05        -0.166263        0.968807     -2.32472e-05     0.000530926
                     6.87593e-05     5.71596e-05        0.0940077       0.0993336       0.00047868     0.000134082        -0.983434      -0.0604769
                       -0.166261        0.969088      0.000421184     0.000105697        0.0390158        0.111548      0.000153167     0.000144191
                     0.000154162     0.000420337        -0.983432      -0.0603552      8.44368e-05     0.000175999        -0.104306       0.0878077
281728                 0.0763132      -0.0908671      0.000198071     7.10431e-05        -0.165865        0.968878      -2.3116e-05     0.000530945
                     6.87454e-05     5.72515e-05        0.0940289       0.0993346       0.00047874     0.000133865        -0.983452      -0.0601389
                       -0.165863         0.96916      0.000421231      0.00010549        0.0390764        0.111497      0.000153296     0.000144042
                     0.000154143     0.000420242         -0.98345      -0.0600171      8.45539e-05     0.000175884        -0.104267       0.0878779
281730                 0.0762783      -0.0908601      0.000197977     7.10149e-05        -0.165468        0.968949     -2.29847e-05     0.000530965
                     6.87316e-05     5.73433e-05        0.0940501       0.0993356        0.0004788     0.000133648         -0.98347      -0.0598009
                       -0.165466        0.969231      0.000421279     0.000105283         0.039137        0.111447      0.000153425     0.000143893
                     0.000154124     0.000420148        -0.983468       -0.059679       8.4671e-05     0.000175769        -0.104228        0.087948
281732                 0.0762434       -0.090853      0.000197883      7.0987e-05         -0.16507        0.969021     -2.28535e-05     0.000530984
                     6.87178e-05      5.7435e-05        0.0940713       0.0993366       0.00047886     0.000133431        -0.983487      -0.0594629
                       -0.165068        0.969302      0.000421326     0.000105075        0.0391976        0.111396      0.000153555     0.000143744
                     0.000154105     0.000420054        -0.983486      -0.0593408      8.47881e-05     0.000175653        -0.104189       0.0880182
281734                 0.0762086      -0.0908459      0.000197789     7.09593e-05        -0.164672        0.969092     -2.27222e-05     0.000531003
                     6.87039e-05     5.75267e-05        0.0940925       0.0993377       0.00047892     0.000133214        -0.983505      -0.0591249
                        -0.16467        0.969373      0.000421373     0.000104868        0.0392581        0.111345      0.000153684     0.000143595
                     0.000154087      0.00041996        -0.983503      -0.0590027      8.49052e-05     0.000175538        -0.104149       0.0880883
281736                 0.0761737      -0.0908387      0.000197695     7.09319e-05        -0.164274        0.969163     -2.25908e-05     0.000531021
                     6.86901e-05     5.76182e-05        0.0941137       0.0993387       0.00047898     0.000132997        -0.983523      -0.0587868
                       -0.164272        0.969444       0.00042142     0.000104661        0.0393185        0.111294      0.000153813     0.000143445
                     0.000154068     0.000419867        -0.983521      -0.0586646      8.50223e-05     0.000175422         -0.10411       0.0881584
281738                 0.0761388      -0.0908316      0.000197601     7.09046e-05        -0.163876        0.969233     -2.24594e-05      0.00053104
                     6.86763e-05     5.77096e-05        0.0941349       0.0993397       0.00047904     0.000132781         -0.98354      -0.0584488
                       -0.163874        0.969515      0.000421467     0.000104454        0.0393789        0.111243      0.000153943     0.000143295
                     0.000154049     0.000419773        -0.983538      -0.0583264      8.51394e-05     0.000175306        -0.104071       0.0882284
281740                 0.0761039      -0.0908245      0.000197507     7.08776e-05        -0.163478        0.969304     -2.23279e-05     0.000531058
                     6.86624e-05     5.78009e-05        0.0941561       0.0993407      0.000479099     0.000132564        -0.983557      -0.0581107
                       -0.163477        0.969585      0.000421514     0.000104247        0.0394393        0.111193      0.000154072     0.000143145
                      0.00015403      0.00041968        -0.983556      -0.0579882      8.52565e-05      0.00017519        -0.104031       0.0882985
281742                  0.076069      -0.0908173      0.000197412     7.08509e-05         -0.16308        0.969374     -2.21963e-05     0.000531075
                     6.86484e-05     5.78922e-05        0.0941773       0.0993417      0.000479158     0.000132347        -0.983575      -0.0577726
                       -0.163079        0.969655      0.000421561      0.00010404        0.0394996        0.111142      0.000154201     0.000142994
                     0.000154011     0.000419588        -0.983573        -0.05765      8.53736e-05     0.000175074        -0.103992       0.0883685
281744                 0.0760341      -0.0908101      0.000197317     7.08244e-05        -0.162682        0.969445     -2.20643e-05     0.000531092
                     6.86345e-05     5.79833e-05        0.0941985       0.0993426      0.000479217      0.00013213        -0.983592      -0.0574345
                       -0.162681        0.969726      0.000421608     0.000103833        0.0395599        0.111091      0.000154331     0.000142842
                     0.000153992     0.000419495         -0.98359      -0.0573118      8.54907e-05     0.000174957        -0.103952       0.0884385
281746                 0.0759992      -0.0908029      0.000197223     7.07981e-05        -0.162284        0.969515     -2.19315e-05     0.000531109
                     6.86204e-05     5.80744e-05        0.0942197       0.0993436      0.000479276     0.000131914        -0.983609      -0.0570964
                       -0.162283        0.969796      0.000421654     0.000103626        0.0396201         0.11104       0.00015446     0.000142688
                     0.000153973     0.000419403        -0.983607      -0.0569736      8.56079e-05     0.000174841        -0.103913       0.0885085
281748                 0.0759644      -0.0907957      0.000197128     7.07721e-05        -0.161886        0.969585      -2.1797e-05     0.000531123
                     6.86063e-05     5.81655e-05        0.0942409       0.0993446      0.000479335     0.000131697        -0.983626      -0.0567582
                       -0.161885        0.969865      0.000421701     0.000103419        0.0396802        0.110989       0.00015459     0.000142531
                     0.000153954     0.000419311        -0.983623      -0.0566354      8.57252e-05     0.000174724        -0.103873       0.0885785
281750                 0.0759295      -0.0907885      0.000197033     7.07464e-05        -0.161488        0.969654      -2.1657e-05     0.000531126
                     6.85922e-05     5.82564e-05        0.0942621       0.0993456      0.000479393     0.000131481        -0.983643      -0.0564201
                       -0.161487        0.969935      0.000421747     0.000103212        0.0397403        0.110937      0.000154723     0.000142351
                     0.000153934     0.000419219         -0.98364      -0.0562971      8.58429e-05     0.000174607        -0.103834       0.0886485
281752                 0.0758946      -0.0907813      0.000196937     7.07208e-05        -0.161088        0.969724     -2.16011e-05     0.000531132
                      6.8578e-05     5.83473e-05        0.0942833       0.0993465       0.00047945     0.000131277        -0.983658      -0.0560824
                       -0.161088        0.970005      0.000421794     0.000103005        0.0398004        0.110886      0.000154943     0.000142361
                     0.000153915     0.000419127        -0.983657      -0.0559589      8.59772e-05      0.00017447        -0.103794       0.0887184
281754                 0.0758597       -0.090774      0.000196842     7.06955e-05        -0.160691        0.969793     -2.14381e-05     0.000531185
                     6.85637e-05     5.84381e-05        0.0943045       0.0993475       0.00047951     0.000131046        -0.983676      -0.0557438
                        -0.16069        0.970074       0.00042184     0.000102798        0.0398604        0.110835      0.000154989     0.000142135
                     0.000153895     0.000419035        -0.983673      -0.0556206      8.60743e-05     0.000174372        -0.103754       0.0887884
281756                 0.0758249      -0.0907668      0.000196746     7.06705e-05        -0.160293        0.969862     -2.12991e-05     0.000531202
                     6.85493e-05     5.85289e-05        0.0943257       0.0993484      0.000479568      0.00013083        -0.983692      -0.0554056
                       -0.160292        0.970143      0.000421886     0.000102591        0.0399203        0.110784      0.000155115     0.000141972
                     0.000153875     0.000418944        -0.983689      -0.0552823       8.6192e-05     0.000174255        -0.103714       0.0888583
281758                   0.07579      -0.0907595      0.000196651     7.06457e-05        -0.159895        0.969932     -2.11658e-05     0.000531218
                     6.85349e-05     5.86196e-05         0.094347       0.0993494      0.000479626     0.000130614        -0.983708      -0.0550674
                       -0.159894        0.970212      0.000421932     0.000102385        0.0399802        0.110733      0.000155243     0.000141817
                     0.000153855     0.000418853        -0.983706       -0.054944      8.63093e-05     0.000174138        -0.103675       0.0889282
281760                 0.0757551      -0.0907522      0.000196555     7.06212e-05        -0.159496            0.97     -2.10342e-05     0.000531234
                     6.85204e-05     5.87102e-05        0.0943682       0.0993503      0.000479684     0.000130397        -0.983724      -0.0547292
                       -0.159496        0.970281      0.000421978     0.000102178        0.0400401        0.110682      0.000155372     0.000141664
                     0.000153835     0.000418762        -0.983722      -0.0546057      8.64264e-05      0.00017402        -0.103635       0.0889981
281762                 0.0757203       -0.090745      0.000196459     7.05968e-05        -0.159098        0.970069     -2.09036e-05     0.000531249
                     6.85058e-05     5.88007e-05        0.0943894       0.0993512      0.000479742     0.000130181        -0.983741       -0.054391
                       -0.159098         0.97035      0.000422024     0.000101971        0.0400999         0.11063      0.000155502     0.000141513
