! TOUCHSTONE file generated by CST MICROWAVE STUDIO
! Date and time: Wed Oct 15 17:27:47 2025
! Project name: Teste_Macro_Metasurface_Nanopilar.cst
! Parameters = {H=600; L_x=70; L_y=90; Lambda=1064; Max_L=200; Min_L=70; PathPara=1; Phi=0; Step_L=10; Theta=0; p=520; phaseX=180; phaseY=0}
! Header version: 2018
! Port assignment regex: !\s*Touchstone port\s*([0-9]+)\s*=\s*(CST MWS port|CST DS port)\s*([0-9]+|Zmin|Zmax)\s*\(\"(.*)\"\)(\s*mode\s*([0-9]+))?.*
! Touchstone port assignment:
! Touchstone port 1 = CST MWS port Zmax ("") mode 1
! Touchstone port 2 = CST MWS port Zmax ("") mode 2
! Touchstone port 3 = CST MWS port Zmin ("") mode 1
! Touchstone port 4 = CST MWS port Zmin ("") mode 2
! S-Parameters are not renormalized. Each port impedance will be approximated by the real part at minimum frequency. The values are described via the [Reference] keyword.
! Default impedance is overridden by [Reference]
[Version] 2.0
# GHz S RI R 376.73
[Number of Ports] 4
[Reference]
376.73 376.73 259.888 259.888 
[Number of Frequencies] 51
[Network Data]
281700                 0.0326587       -0.111727     -0.000218354      0.00033613          0.03104       -0.992526     -0.000311113    -9.44049e-05
                    -0.000190307     0.000203648        0.0583458       -0.131628     -0.000402035     5.91684e-05         0.195355       -0.969872
                       0.0315967       -0.993086     -0.000317375    -0.000104425        0.0254655        0.113641      4.38064e-05     -0.00036174
                    -0.000327551    -0.000280218         0.195075       -0.969683     -7.83748e-05    -0.000361494       0.00282911        0.143959
281702                 0.0326468       -0.111726     -0.000218486     0.000336113        0.0308004       -0.992533     -0.000311063    -9.44428e-05
                    -0.000190287     0.000203656        0.0583338       -0.131631        -0.000402     5.93419e-05         0.195126       -0.969919
                       0.0313567       -0.993095     -0.000317307    -0.000104301        0.0255085        0.113628      4.37762e-05    -0.000361679
                    -0.000327819     -0.00028008         0.194845       -0.969729     -7.85789e-05    -0.000361447       0.00288491        0.143956
281704                  0.032635       -0.111726     -0.000218617     0.000336096        0.0305608       -0.992541     -0.000311013    -9.44809e-05
                    -0.000190266     0.000203663        0.0583219       -0.131634     -0.000401964     5.95153e-05         0.194897       -0.969965
                       0.0311166       -0.993103      -0.00031724    -0.000104176        0.0255516        0.113614      4.37442e-05    -0.000361618
                    -0.000328087    -0.000279941         0.194615       -0.969775     -7.87831e-05      -0.0003614       0.00294071        0.143953
281706                 0.0326231       -0.111725     -0.000218748     0.000336079        0.0303212       -0.992549     -0.000310962    -9.45192e-05
                    -0.000190246     0.000203671          0.05831       -0.131636     -0.000401928     5.96889e-05         0.194668       -0.970012
                       0.0308766       -0.993111     -0.000317172    -0.000104051        0.0255946          0.1136      4.37107e-05    -0.000361556
                    -0.000328355    -0.000279802         0.194386       -0.969821     -7.89875e-05    -0.000361353       0.00299651        0.143949
281708                 0.0326112       -0.111725     -0.000218879     0.000336062        0.0300817       -0.992557     -0.000310912    -9.45576e-05
                    -0.000190225     0.000203678        0.0582981       -0.131639     -0.000401891     5.98625e-05         0.194439       -0.970058
                       0.0306366        -0.99312     -0.000317105    -0.000103926        0.0256376        0.113587      4.36763e-05    -0.000361493
                    -0.000328623    -0.000279663         0.194156       -0.969867     -7.91919e-05    -0.000361306       0.00305231        0.143946
281710                 0.0325994       -0.111724     -0.000219009     0.000336045        0.0298421       -0.992564     -0.000310861    -9.45963e-05
                    -0.000190205     0.000203686        0.0582861       -0.131642     -0.000401855     6.00361e-05          0.19421       -0.970104
                       0.0303965       -0.993128     -0.000317038    -0.000103801        0.0256806        0.113573      4.36411e-05     -0.00036143
                    -0.000328891    -0.000279524         0.193926       -0.969913     -7.93964e-05    -0.000361259        0.0031081        0.143942
281712                 0.0325875       -0.111724     -0.000219139     0.000336029        0.0296025       -0.992572     -0.000310811    -9.46352e-05
                    -0.000190184     0.000203694        0.0582742       -0.131645     -0.000401818     6.02098e-05         0.193981       -0.970151
                       0.0301565       -0.993136     -0.000316972    -0.000103677        0.0257237         0.11356      4.36054e-05    -0.000361365
                    -0.000329158    -0.000279384         0.193696       -0.969958     -7.96011e-05    -0.000361211       0.00316389        0.143939
281714                 0.0325756       -0.111723     -0.000219269     0.000336012        0.0293629       -0.992579      -0.00031076    -9.46743e-05
                    -0.000190164     0.000203701        0.0582623       -0.131647     -0.000401781     6.03835e-05         0.193753       -0.970197
                       0.0299164       -0.993144     -0.000316906    -0.000103552        0.0257667        0.113546      4.35693e-05      -0.0003613
                    -0.000329426    -0.000279244         0.193467       -0.970004     -7.98058e-05    -0.000361164       0.00321968        0.143935
281716                 0.0325638       -0.111723     -0.000219399     0.000335996        0.0291233       -0.992587      -0.00031071    -9.47136e-05
                    -0.000190143     0.000203709        0.0582503        -0.13165     -0.000401744     6.05573e-05         0.193524       -0.970243
                       0.0296764       -0.993153      -0.00031684    -0.000103427        0.0258097        0.113532      4.35329e-05    -0.000361235
                    -0.000329693    -0.000279104         0.193237        -0.97005     -8.00106e-05    -0.000361116       0.00327546        0.143931
281718                 0.0325519       -0.111722     -0.000219528     0.000335979        0.0288837       -0.992594     -0.000310659    -9.47532e-05
                    -0.000190123     0.000203717        0.0582384       -0.131653     -0.000401707     6.07311e-05         0.193295       -0.970289
                       0.0294363       -0.993161     -0.000316774    -0.000103301        0.0258526        0.113519      4.34963e-05    -0.000361169
                     -0.00032996    -0.000278964         0.193007       -0.970095     -8.02155e-05    -0.000361069       0.00333125        0.143928
281720                   0.03254       -0.111722     -0.000219658     0.000335963        0.0286441       -0.992601     -0.000310609     -9.4793e-05
                    -0.000190102     0.000203725        0.0582265       -0.131656      -0.00040167      6.0905e-05         0.193066       -0.970335
                       0.0291963       -0.993169     -0.000316708    -0.000103176        0.0258956        0.113505      4.34595e-05    -0.000361103
                    -0.000330228    -0.000278823         0.192777       -0.970141     -8.04205e-05    -0.000361021       0.00338703        0.143924
281722                 0.0325282       -0.111721     -0.000219786     0.000335946        0.0284045       -0.992609     -0.000310558     -9.4833e-05
                    -0.000190082     0.000203733        0.0582146       -0.131659     -0.000401632     6.10789e-05         0.192837       -0.970381
                       0.0289562       -0.993176     -0.000316643    -0.000103051        0.0259386        0.113491      4.34227e-05    -0.000361036
                    -0.000330495    -0.000278682         0.192547       -0.970186     -8.06256e-05    -0.000360973       0.00344281        0.143921
281724                 0.0325163       -0.111721     -0.000219915      0.00033593        0.0281649       -0.992616     -0.000310507    -9.48733e-05
                    -0.000190061     0.000203741        0.0582026       -0.131661     -0.000401595     6.12529e-05         0.192608       -0.970427
                       0.0287162       -0.993184     -0.000316578    -0.000102926        0.0259816        0.113478      4.33858e-05    -0.000360969
                    -0.000330762    -0.000278541         0.192318       -0.970232     -8.08308e-05    -0.000360925       0.00349858        0.143917
281726                 0.0325044        -0.11172     -0.000220044     0.000335913        0.0279253       -0.992623     -0.000310457    -9.49138e-05
                     -0.00019004     0.000203749        0.0581907       -0.131664     -0.000401557     6.14269e-05         0.192379       -0.970473
                       0.0284761       -0.993192     -0.000316513    -0.000102801        0.0260245        0.113464      4.33489e-05    -0.000360902
                    -0.000331029    -0.000278399         0.192088       -0.970277     -8.10361e-05    -0.000360877       0.00355436        0.143913
281728                 0.0324926        -0.11172     -0.000220172     0.000335897        0.0276856        -0.99263     -0.000310406    -9.49546e-05
                    -0.000190019     0.000203757        0.0581788       -0.131667     -0.000401519     6.16009e-05          0.19215       -0.970519
                        0.028236         -0.9932     -0.000316449    -0.000102675        0.0260675         0.11345      4.33119e-05    -0.000360834
                    -0.000331296    -0.000278257         0.191858       -0.970323     -8.12414e-05    -0.000360829       0.00361013         0.14391
281730                 0.0324807       -0.111719       -0.0002203     0.000335881         0.027446       -0.992637     -0.000310355    -9.49956e-05
                    -0.000189999     0.000203765        0.0581668        -0.13167     -0.000401481      6.1775e-05         0.191921       -0.970565
                        0.027996       -0.993208     -0.000316385     -0.00010255        0.0261104        0.113436       4.3275e-05    -0.000360766
                    -0.000331562    -0.000278115         0.191628       -0.970368     -8.14468e-05    -0.000360781        0.0036659        0.143906
281732                 0.0324688       -0.111719     -0.000220427     0.000335865        0.0272064       -0.992644     -0.000310305    -9.50369e-05
                    -0.000189978     0.000203773        0.0581549       -0.131672     -0.000401442     6.19492e-05         0.191692       -0.970611
                       0.0277559       -0.993215     -0.000316321    -0.000102424        0.0261534        0.113423       4.3238e-05    -0.000360699
                    -0.000331829    -0.000277972         0.191398       -0.970413     -8.16524e-05    -0.000360733       0.00372166        0.143902
281734                  0.032457       -0.111718     -0.000220555     0.000335849        0.0269668       -0.992651     -0.000310254    -9.50785e-05
                    -0.000189957     0.000203781         0.058143       -0.131675     -0.000401404     6.21233e-05         0.191463       -0.970656
                       0.0275158       -0.993223     -0.000316257    -0.000102299        0.0261963        0.113409      4.32011e-05     -0.00036063
                    -0.000332095     -0.00027783         0.191168       -0.970458      -8.1858e-05    -0.000360685       0.00377743        0.143898
281736                 0.0324451       -0.111718     -0.000220682     0.000335833        0.0267272       -0.992658     -0.000310203    -9.51204e-05
                    -0.000189936      0.00020379         0.058131       -0.131678     -0.000401365     6.22975e-05         0.191234       -0.970702
                       0.0272757        -0.99323     -0.000316194    -0.000102173        0.0262392        0.113395      4.31643e-05    -0.000360562
                    -0.000332362    -0.000277687         0.190938       -0.970503     -8.20636e-05    -0.000360637       0.00383319        0.143895
281738                 0.0324332       -0.111717     -0.000220809     0.000335817        0.0264876       -0.992665     -0.000310152    -9.51626e-05
                    -0.000189915     0.000203798        0.0581191       -0.131681     -0.000401326     6.24718e-05         0.191005       -0.970747
                       0.0270356       -0.993238     -0.000316131    -0.000102048        0.0262821        0.113381      4.31274e-05    -0.000360494
                    -0.000332628    -0.000277544         0.190709       -0.970549     -8.22694e-05    -0.000360588       0.00388895        0.143891
281740                 0.0324214       -0.111717     -0.000220935     0.000335801        0.0262479       -0.992671     -0.000310102    -9.52051e-05
                    -0.000189894     0.000203806        0.0581072       -0.131683     -0.000401287     6.26461e-05         0.190776       -0.970793
                       0.0267955       -0.993245     -0.000316068    -0.000101922        0.0263251        0.113367      4.30906e-05    -0.000360426
                    -0.000332894      -0.0002774         0.190479       -0.970594     -8.24752e-05     -0.00036054        0.0039447        0.143887
281742                 0.0324095       -0.111716     -0.000221062     0.000335785        0.0260083       -0.992678     -0.000310051    -9.52479e-05
                    -0.000189873     0.000203815        0.0580952       -0.131686     -0.000401247     6.28204e-05         0.190547       -0.970838
                       0.0265555       -0.993253     -0.000316006    -0.000101797         0.026368        0.113353      4.30539e-05    -0.000360357
                     -0.00033316    -0.000277256         0.190249       -0.970639     -8.26812e-05    -0.000360491       0.00400046        0.143883
281744                 0.0323976       -0.111715     -0.000221188     0.000335769        0.0257687       -0.992685     -0.000310001     -9.5291e-05
                    -0.000189852     0.000203823        0.0580833       -0.131689     -0.000401208     6.29947e-05         0.190318       -0.970884
                       0.0263154        -0.99326     -0.000315944    -0.000101671        0.0264109        0.113339      4.30172e-05    -0.000360289
                    -0.000333426    -0.000277112         0.190019       -0.970683     -8.28871e-05    -0.000360443       0.00405621        0.143879
281746                 0.0323858       -0.111715     -0.000221314     0.000335753        0.0255291       -0.992691      -0.00030995    -9.53345e-05
                    -0.000189831     0.000203832        0.0580714       -0.131692     -0.000401168     6.31691e-05         0.190089       -0.970929
                       0.0260753       -0.993267     -0.000315882    -0.000101545        0.0264537        0.113326      4.29805e-05     -0.00036022
                    -0.000333692    -0.000276968         0.189789       -0.970728     -8.30932e-05    -0.000360394       0.00411196        0.143875
281748                 0.0323739       -0.111714      -0.00022144     0.000335737        0.0252894       -0.992698     -0.000309899    -9.53783e-05
                     -0.00018981      0.00020384        0.0580594       -0.131694     -0.000401128     6.33435e-05         0.189859       -0.970975
                       0.0258352       -0.993274      -0.00031582    -0.000101419        0.0264966        0.113312       4.2944e-05    -0.000360152
                    -0.000333958    -0.000276824         0.189559       -0.970773     -8.32993e-05    -0.000360345        0.0041677        0.143872
281750                  0.032362       -0.111714     -0.000221565     0.000335721        0.0250498       -0.992704     -0.000309849    -9.54224e-05
                    -0.000189789     0.000203849        0.0580475       -0.131697     -0.000401088      6.3518e-05          0.18963        -0.97102
                       0.0255951       -0.993281     -0.000315759    -0.000101293        0.0265395        0.113298      4.29075e-05    -0.000360083
                    -0.000334224    -0.000276679         0.189329       -0.970818     -8.35055e-05    -0.000360296       0.00422345        0.143868
281752                 0.0323502       -0.111713      -0.00022169     0.000335706        0.0248102       -0.992711     -0.000309798    -9.54668e-05
                    -0.000189767     0.000203857        0.0580356         -0.1317     -0.000401048     6.36924e-05         0.189401       -0.971065
                       0.0253549       -0.993288     -0.000315698    -0.000101167        0.0265824        0.113284       4.2871e-05    -0.000360015
                     -0.00033449    -0.000276534         0.189099       -0.970863     -8.37117e-05    -0.000360247       0.00427919        0.143864
281754                 0.0323383       -0.111713     -0.000221815      0.00033569        0.0245705       -0.992717     -0.000309748    -9.55117e-05
                    -0.000189746     0.000203866        0.0580236       -0.131703     -0.000401008     6.38669e-05         0.189172        -0.97111
                       0.0251148       -0.993295     -0.000315638    -0.000101041        0.0266252         0.11327      4.28347e-05    -0.000359946
                    -0.000334755    -0.000276389         0.188869       -0.970907     -8.39179e-05    -0.000360198       0.00433492         0.14386
281756                 0.0323264       -0.111712     -0.000221939     0.000335674        0.0243309       -0.992723     -0.000309698    -9.55569e-05
                    -0.000189725     0.000203874        0.0580117       -0.131705     -0.000400967     6.40412e-05         0.188943       -0.971155
                       0.0248747       -0.993302     -0.000315577    -0.000100915        0.0266681        0.113256      4.27984e-05    -0.000359878
                    -0.000335021    -0.000276243         0.188639       -0.970952      -8.4124e-05    -0.000360149       0.00439066        0.143856
281758                 0.0323146       -0.111712     -0.000222064     0.000335659        0.0240913       -0.992729     -0.000309647    -9.56024e-05
                    -0.000189703     0.000203883        0.0579998       -0.131708     -0.000400926     6.42124e-05         0.188714         -0.9712
                       0.0246346       -0.993309     -0.000315517    -0.000100789        0.0267109        0.113242      4.27623e-05     -0.00035981
                    -0.000335286    -0.000276098         0.188409       -0.970996     -8.43243e-05    -0.000360096       0.00444639        0.143852
281760                 0.0323027       -0.111711     -0.000222188     0.000335643        0.0238516       -0.992736     -0.000309597    -9.56484e-05
                    -0.000189681     0.000203892        0.0579878       -0.131711     -0.000400886     6.43915e-05         0.188485       -0.971245
                       0.0243945       -0.993316     -0.000315457    -0.000100663        0.0267538        0.113228      4.27263e-05    -0.000359741
                    -0.000335552    -0.000275952         0.188179       -0.971041     -8.45391e-05    -0.000360051       0.00450212        0.143848
281762                 0.0322908       -0.111711     -0.000222312     0.000335628         0.023612       -0.992742     -0.000309547    -9.56947e-05
                    -0.000189659       0.0002039        0.0579759       -0.131714     -0.000400844     6.45658e-05         0.188255        -0.97129
                       0.0241544       -0.993323     -0.000315398    -0.000100537        0.0267966        0.113214      4.26905e-05    -0.000359673
