! TOUCHSTONE file generated by CST MICROWAVE STUDIO
! Date and time: Wed Oct 15 17:33:06 2025
! Project name: Teste_Macro_Metasurface_Nanopilar.cst
! Parameters = {H=600; L_x=160; L_y=155; Lambda=1064; Max_L=200; Min_L=70; PathPara=1; Phi=0; Step_L=10; Theta=0; p=520; phaseX=180; phaseY=0}
! Header version: 2018
! Port assignment regex: !\s*Touchstone port\s*([0-9]+)\s*=\s*(CST MWS port|CST DS port)\s*([0-9]+|Zmin|Zmax)\s*\(\"(.*)\"\)(\s*mode\s*([0-9]+))?.*
! Touchstone port assignment:
! Touchstone port 1 = CST MWS port Zmax ("") mode 1
! Touchstone port 2 = CST MWS port Zmax ("") mode 2
! Touchstone port 3 = CST MWS port Zmin ("") mode 1
! Touchstone port 4 = CST MWS port Zmin ("") mode 2
! S-Parameters are not renormalized. Each port impedance will be approximated by the real part at minimum frequency. The values are described via the [Reference] keyword.
! Default impedance is overridden by [Reference]
[Version] 2.0
# GHz S RI R 376.73
[Number of Ports] 4
[Reference]
376.73 376.73 259.888 259.888 
[Number of Frequencies] 51
[Network Data]
281700                  0.174464      -0.0424307     -0.000519282    -0.000679134         0.776162       -0.596275      0.000113909      4.9739e-05
                    -0.000505783    -0.000661526          0.16857      -0.0273117      0.000186597     2.70175e-05          0.73145       -0.653331
                        0.776344       -0.596199      0.000106258     4.82058e-05       -0.0847487        0.151336     -0.000661137    -0.000528521
                     7.30386e-05     0.000149588         0.731557       -0.653355     -0.000634552    -0.000615605       -0.0455144        0.159132
281702                  0.174453      -0.0423956     -0.000519456    -0.000679104         0.775974       -0.596528      0.000114031     4.94496e-05
                    -0.000505791    -0.000661504         0.168565      -0.0272834      0.000186434     2.70044e-05         0.731248        -0.65356
                        0.776156       -0.596452      0.000106248     4.81061e-05       -0.0846141        0.151392     -0.000661515    -0.000528155
                     7.30409e-05     0.000149371         0.731356       -0.653584     -0.000634709    -0.000615378       -0.0453863         0.15916
281704                  0.174441      -0.0423606      -0.00051963    -0.000679074         0.775785       -0.596781      0.000114153      4.9161e-05
                    -0.000505799    -0.000661482          0.16856      -0.0272552      0.000186271     2.69911e-05         0.731047       -0.653789
                        0.775967       -0.596705      0.000106238     4.80067e-05       -0.0844795        0.151447     -0.000661893    -0.000527789
                     7.30431e-05     0.000149155         0.731154       -0.653813     -0.000634864     -0.00061515       -0.0452583        0.159188
281706                   0.17443      -0.0423255     -0.000519805    -0.000679044         0.775596       -0.597033      0.000114275      4.8873e-05
                    -0.000505807     -0.00066146         0.168554      -0.0272269      0.000186109     2.69776e-05         0.730845       -0.654018
                        0.775778       -0.596958      0.000106229     4.79076e-05       -0.0843449        0.151502     -0.000662271    -0.000527422
                     7.30452e-05     0.000148939         0.730953       -0.654042      -0.00063502    -0.000614923       -0.0451303        0.159215
281708                  0.174419      -0.0422905     -0.000519979    -0.000679013         0.775407       -0.597286      0.000114396     4.85855e-05
                    -0.000505815    -0.000661437         0.168549      -0.0271986      0.000185947     2.69637e-05         0.730644       -0.654247
                         0.77559        -0.59721       0.00010622     4.78088e-05       -0.0842103        0.151557     -0.000662649    -0.000527055
                      7.3047e-05     0.000148723         0.730751       -0.654271     -0.000635175    -0.000614696       -0.0450022        0.159243
281710                  0.174408      -0.0422555     -0.000520153    -0.000678982         0.775218       -0.597539      0.000114518     4.82985e-05
                    -0.000505823    -0.000661415         0.168543      -0.0271704      0.000185785     2.69496e-05         0.730442       -0.654476
                        0.775401       -0.597463      0.000106212     4.77103e-05       -0.0840757        0.151612     -0.000663027    -0.000526689
                     7.30487e-05     0.000148508         0.730549         -0.6545     -0.000635329    -0.000614468       -0.0448742         0.15927
281712                  0.174396      -0.0422205     -0.000520327    -0.000678951         0.775029       -0.597791      0.000114639     4.80118e-05
                    -0.000505831    -0.000661392         0.168538      -0.0271422      0.000185624     2.69353e-05          0.73024       -0.654704
                        0.775212       -0.597716      0.000106205     4.76121e-05       -0.0839411        0.151667     -0.000663404    -0.000526322
                     7.30503e-05     0.000148292         0.730347       -0.654729     -0.000635483     -0.00061424       -0.0447462        0.159298
281714                  0.174385      -0.0421856       -0.0005205     -0.00067892          0.77484       -0.598043      0.000114759     4.77254e-05
                    -0.000505838    -0.000661369         0.168533      -0.0271139      0.000185462     2.69207e-05         0.730038       -0.654933
                        0.775023       -0.597968      0.000106198     4.75141e-05       -0.0838064        0.151722     -0.000663782    -0.000525955
                     7.30517e-05     0.000148078         0.730145       -0.654958     -0.000635637    -0.000614012       -0.0446182        0.159325
281716                  0.174374      -0.0421506     -0.000520674    -0.000678888         0.774651       -0.598296       0.00011488     4.74392e-05
                    -0.000505846    -0.000661347         0.168527      -0.0270857      0.000185301     2.69059e-05         0.729836       -0.655162
                        0.774834        -0.59822      0.000106192     4.74164e-05       -0.0836718        0.151777     -0.000664159    -0.000525588
                      7.3053e-05     0.000147863         0.729943       -0.655186     -0.000635791    -0.000613783       -0.0444901        0.159352
281718                  0.174363      -0.0421157     -0.000520848    -0.000678856         0.774462       -0.598548         0.000115     4.71532e-05
                    -0.000505853    -0.000661324         0.168522      -0.0270575       0.00018514     2.68909e-05         0.729634        -0.65539
                        0.774645       -0.598473      0.000106186      4.7319e-05       -0.0835371        0.151831     -0.000664536    -0.000525221
                     7.30541e-05     0.000147649         0.729741       -0.655415     -0.000635944    -0.000613554       -0.0443621        0.159379
281720                  0.174352      -0.0420808     -0.000521021    -0.000678824         0.774272         -0.5988       0.00011512     4.68674e-05
                    -0.000505861    -0.000661301         0.168517      -0.0270293      0.000184978     2.68758e-05         0.729432       -0.655618
                        0.774456       -0.598725      0.000106181     4.72218e-05       -0.0834025        0.151886     -0.000664912    -0.000524853
                     7.30551e-05     0.000147435         0.729539       -0.655643     -0.000636097    -0.000613325       -0.0442341        0.159406
281722                  0.174341      -0.0420459     -0.000521195    -0.000678792         0.774083       -0.599052       0.00011524     4.65817e-05
                    -0.000505868    -0.000661278         0.168511      -0.0270012      0.000184817     2.68604e-05          0.72923       -0.655847
                        0.774266       -0.598977      0.000106177     4.71248e-05       -0.0832678         0.15194     -0.000665289    -0.000524486
                      7.3056e-05     0.000147221         0.729336       -0.655872     -0.000636249    -0.000613096       -0.0441061        0.159433
281724                  0.174329       -0.042011     -0.000521368    -0.000678759         0.773893       -0.599304      0.000115359     4.62961e-05
                    -0.000505876    -0.000661255         0.168506       -0.026973      0.000184656      2.6845e-05         0.729028       -0.656075
                        0.774077       -0.599229      0.000106173     4.70281e-05       -0.0831332        0.151994     -0.000665665    -0.000524119
                     7.30568e-05     0.000147008         0.729134         -0.6561     -0.000636402    -0.000612866       -0.0439781        0.159459
281726                  0.174318      -0.0419762     -0.000521542    -0.000678726         0.773704       -0.599556      0.000115478     4.60106e-05
                    -0.000505883    -0.000661232         0.168501      -0.0269449      0.000184494     2.68296e-05         0.728826       -0.656303
                        0.773888       -0.599481       0.00010617     4.69316e-05       -0.0829985        0.152048     -0.000666041    -0.000523751
                     7.30575e-05     0.000146795         0.728932       -0.656328     -0.000636554    -0.000612636       -0.0438501        0.159486
281728                  0.174307      -0.0419413     -0.000521715    -0.000678693         0.773514       -0.599807      0.000115597     4.57251e-05
                     -0.00050589    -0.000661208         0.168496      -0.0269167      0.000184333     2.68141e-05         0.728624       -0.656531
                        0.773698       -0.599733      0.000106167     4.68353e-05       -0.0828638        0.152102     -0.000666417    -0.000523384
                      7.3058e-05     0.000146582         0.728729       -0.656556     -0.000636706    -0.000612405        -0.043722        0.159513
281730                  0.174296      -0.0419065     -0.000521889     -0.00067866         0.773324       -0.600059      0.000115716     4.54397e-05
                    -0.000505897    -0.000661185          0.16849      -0.0268886      0.000184171     2.67986e-05         0.728421       -0.656759
                        0.773509       -0.599985      0.000106166     4.67392e-05       -0.0827291        0.152156     -0.000666793    -0.000523016
                     7.30586e-05     0.000146369         0.728527       -0.656784     -0.000636857    -0.000612174        -0.043594        0.159539
281732                  0.174285      -0.0418717     -0.000522062    -0.000678627         0.773135       -0.600311      0.000115834     4.51543e-05
                    -0.000505904    -0.000661161         0.168485      -0.0268605       0.00018401     2.67832e-05         0.728219       -0.656987
                        0.773319       -0.600237      0.000106164     4.66433e-05       -0.0825944         0.15221     -0.000667168    -0.000522649
                      7.3059e-05     0.000146157         0.728324       -0.657013     -0.000637009    -0.000611943        -0.043466        0.159566
281734                  0.174274      -0.0418369     -0.000522235    -0.000678593         0.772945       -0.600562      0.000115952     4.48689e-05
                    -0.000505912    -0.000661137          0.16848      -0.0268323      0.000183849     2.67679e-05         0.728016       -0.657215
                        0.773129       -0.600488      0.000106164     4.65477e-05       -0.0824597        0.152264     -0.000667544    -0.000522281
                     7.30593e-05     0.000145945         0.728122        -0.65724      -0.00063716    -0.000611711        -0.043338        0.159592
281736                  0.174263      -0.0418021     -0.000522408    -0.000678559         0.772755       -0.600814       0.00011607     4.45836e-05
                    -0.000505919    -0.000661113         0.168474      -0.0268043      0.000183687     2.67526e-05         0.727814       -0.657443
                        0.772939        -0.60074      0.000106164     4.64522e-05        -0.082325        0.152317     -0.000667919    -0.000521914
                     7.30596e-05     0.000145733         0.727919       -0.657468     -0.000637312    -0.000611479         -0.04321        0.159618
281738                  0.174252      -0.0417673     -0.000522582    -0.000678525         0.772565       -0.601065      0.000116188     4.42983e-05
                    -0.000505925    -0.000661089         0.168469      -0.0267762      0.000183526     2.67376e-05         0.727611       -0.657671
                         0.77275       -0.600991      0.000106164     4.63568e-05       -0.0821903        0.152371     -0.000668294    -0.000521546
                     7.30599e-05     0.000145521         0.727716       -0.657696     -0.000637463    -0.000611247        -0.043082        0.159644
281740                  0.174241      -0.0417326     -0.000522755     -0.00067849         0.772375       -0.601316      0.000116305      4.4013e-05
                    -0.000505932    -0.000661064         0.168464      -0.0267481      0.000183365     2.67227e-05         0.727408       -0.657898
                         0.77256       -0.601243      0.000106165     4.62617e-05       -0.0820556        0.152424     -0.000668669    -0.000521179
                     7.30601e-05     0.000145309         0.727514       -0.657924     -0.000637614    -0.000611014        -0.042954         0.15967
281742                   0.17423      -0.0416979     -0.000522928    -0.000678455         0.772185       -0.601567      0.000116422     4.37278e-05
                    -0.000505939     -0.00066104         0.168459        -0.02672      0.000183203     2.67079e-05         0.727206       -0.658126
                         0.77237       -0.601494      0.000106167     4.61667e-05       -0.0819208        0.152477     -0.000669044    -0.000520811
                     7.30603e-05     0.000145098         0.727311       -0.658151     -0.000637766    -0.000610781        -0.042826        0.159696
281744                  0.174219      -0.0416632     -0.000523101     -0.00067842         0.771994       -0.601818      0.000116539     4.34426e-05
                    -0.000505946    -0.000661015         0.168453       -0.026692      0.000183042     2.66934e-05         0.727003       -0.658353
                         0.77218       -0.601745      0.000106169     4.60719e-05       -0.0817861         0.15253     -0.000669419    -0.000520443
                     7.30605e-05     0.000144887         0.727108       -0.658379     -0.000637917    -0.000610548        -0.042698        0.159722
281746                  0.174208      -0.0416285     -0.000523274    -0.000678385         0.771804       -0.602069      0.000116656     4.31574e-05
                    -0.000505953     -0.00066099         0.168448      -0.0266639      0.000182882      2.6679e-05           0.7268       -0.658581
                         0.77199       -0.601997      0.000106172     4.59772e-05       -0.0816513        0.152584     -0.000669793    -0.000520076
                     7.30608e-05     0.000144676         0.726905       -0.658607     -0.000638068    -0.000610314         -0.04257        0.159748
281748                  0.174197      -0.0415938     -0.000523447    -0.000678349         0.771614        -0.60232      0.000116772     4.28723e-05
                     -0.00050596    -0.000660964         0.168443      -0.0266359      0.000182721     2.66649e-05         0.726597       -0.658808
                        0.771799       -0.602248      0.000106176     4.58827e-05       -0.0815166        0.152636     -0.000670167    -0.000519708
                      7.3061e-05     0.000144465         0.726702       -0.658834      -0.00063822    -0.000610081        -0.042442        0.159773
281750                  0.174186      -0.0415592      -0.00052362    -0.000678314         0.771423       -0.602571      0.000116888     4.25873e-05
                    -0.000505967    -0.000660939         0.168438      -0.0266079       0.00018256     2.66509e-05         0.726394       -0.659035
                        0.771609       -0.602499       0.00010618     4.57883e-05       -0.0813818        0.152689     -0.000670542     -0.00051934
                     7.30613e-05     0.000144254         0.726499       -0.659061     -0.000638371    -0.000609847        -0.042314        0.159799
281752                  0.174175      -0.0415245     -0.000523793    -0.000678278         0.771233       -0.602822      0.000117004     4.23023e-05
                    -0.000505974    -0.000660912         0.168433      -0.0265799        0.0001824     2.66371e-05         0.726191       -0.659262
                        0.771419        -0.60275      0.000106185      4.5694e-05       -0.0812471        0.152742     -0.000670916    -0.000518972
                     7.30617e-05     0.000144043         0.726295       -0.659289     -0.000638522    -0.000609613        -0.042186        0.159824
281754                  0.174164      -0.0414899     -0.000523966    -0.000678241         0.771042       -0.603073      0.000117119     4.20174e-05
                    -0.000505982    -0.000660886         0.168427      -0.0265519       0.00018224     2.66235e-05         0.725988       -0.659489
                        0.771228       -0.603001       0.00010619     4.55998e-05       -0.0811123        0.152795     -0.000671289    -0.000518604
                     7.30621e-05     0.000143833         0.726092       -0.659516     -0.000638674    -0.000609378        -0.042058         0.15985
281756                  0.174153      -0.0414553     -0.000524139    -0.000678205         0.770852       -0.603323      0.000117234     4.17326e-05
                    -0.000505989     -0.00066086         0.168422      -0.0265239      0.000182081     2.66101e-05         0.725785       -0.659716
                        0.771038       -0.603251      0.000106196     4.55058e-05       -0.0809775        0.152847     -0.000671663    -0.000518236
                     7.30627e-05     0.000143622         0.725889       -0.659743     -0.000638825    -0.000609144       -0.0419301        0.159875
281758                  0.174143      -0.0414207     -0.000524311    -0.000678168         0.770661       -0.603574      0.000117349     4.14479e-05
                    -0.000505997    -0.000660833         0.168417      -0.0264959      0.000181921     2.65968e-05         0.725582       -0.659943
                        0.770847       -0.603502      0.000106203     4.54118e-05       -0.0808427          0.1529     -0.000672037    -0.000517868
                     7.30635e-05     0.000143412         0.725685        -0.65997     -0.000638977    -0.000608909       -0.0418021          0.1599
281760                  0.174132      -0.0413861     -0.000524484    -0.000678131          0.77047       -0.603824      0.000117464     4.11633e-05
                    -0.000506005    -0.000660805         0.168412       -0.026468      0.000181762     2.65836e-05         0.725378        -0.66017
                        0.770657       -0.603753       0.00010621      4.5318e-05       -0.0807079        0.152952      -0.00067241      -0.0005175
                     7.30644e-05     0.000143201         0.725482       -0.660197     -0.000639128    -0.000608675       -0.0416741        0.159925
281762                  0.174121      -0.0413516     -0.000524657    -0.000678094         0.770279       -0.604075      0.000117579     4.08789e-05
                    -0.000506014    -0.000660778         0.168407        -0.02644      0.000181603     2.65706e-05         0.725175       -0.660397
                        0.770466       -0.604003      0.000106218     4.52242e-05       -0.0805732        0.153004     -0.000672783    -0.000517132
