! TOUCHSTONE file generated by CST MICROWAVE STUDIO
! Date and time: Wed Oct 15 17:33:16 2025
! Project name: Teste_Macro_Metasurface_Nanopilar.cst
! Parameters = {H=600; L_x=165; L_y=100; Lambda=1064; Max_L=200; Min_L=70; PathPara=1; Phi=0; Step_L=10; Theta=0; p=520; phaseX=180; phaseY=0}
! Header version: 2018
! Port assignment regex: !\s*Touchstone port\s*([0-9]+)\s*=\s*(CST MWS port|CST DS port)\s*([0-9]+|Zmin|Zmax)\s*\(\"(.*)\"\)(\s*mode\s*([0-9]+))?.*
! Touchstone port assignment:
! Touchstone port 1 = CST MWS port Zmax ("") mode 1
! Touchstone port 2 = CST MWS port Zmax ("") mode 2
! Touchstone port 3 = CST MWS port Zmin ("") mode 1
! Touchstone port 4 = CST MWS port Zmin ("") mode 2
! S-Parameters are not renormalized. Each port impedance will be approximated by the real part at minimum frequency. The values are described via the [Reference] keyword.
! Default impedance is overridden by [Reference]
[Version] 2.0
# GHz S RI R 376.73
[Number of Ports] 4
[Reference]
376.73 376.73 259.888 259.888 
[Number of Frequencies] 51
[Network Data]
281700                  0.142618        0.115034     -0.000696418     0.000249817        -0.899306        0.378732      0.000128923     0.000567542
                     -0.00078039     0.000283667         0.125436        0.253955     -0.000475389    -0.000503344         0.840238       -0.451344
                       -0.899709          0.3787     -0.000498981    -0.000445204       -0.0163962        0.181826     -0.000425055     0.000302904
                      0.00015075     0.000570825         0.840155       -0.451318     -0.000393045     0.000295685         0.144017        0.241815
281702                  0.142642        0.115022     -0.000696279     0.000250003        -0.899165        0.379062      0.000129105     0.000567612
                    -0.000780236     0.000283872         0.125471        0.253993     -0.000475638    -0.000503256         0.840068       -0.451628
                       -0.899567         0.37903     -0.000499159    -0.000445116       -0.0162873        0.181847     -0.000424843     0.000302941
                     0.000150931     0.000570892         0.839985       -0.451602     -0.000392827     0.000295702         0.144198        0.241764
281704                  0.142666        0.115011     -0.000696139     0.000250189        -0.899023        0.379392      0.000129287     0.000567682
                    -0.000780082     0.000284078         0.125507        0.254031     -0.000475887    -0.000503169         0.839898       -0.451912
                       -0.899426         0.37936     -0.000499338    -0.000445027       -0.0161785        0.181868     -0.000424632     0.000302978
                     0.000151112     0.000570959         0.839815       -0.451886     -0.000392609     0.000295718         0.144379        0.241714
281706                   0.14269        0.114999     -0.000695999     0.000250375         -0.89888        0.379722      0.000129469     0.000567751
                    -0.000779928     0.000284283         0.125542        0.254069     -0.000476136    -0.000503081         0.839728       -0.452196
                       -0.899284         0.37969     -0.000499516    -0.000444938       -0.0160696        0.181889     -0.000424421     0.000303015
                     0.000151293     0.000571025         0.839645        -0.45217     -0.000392391     0.000295734          0.14456        0.241663
281708                  0.142713        0.114988     -0.000695859     0.000250561        -0.898738        0.380052      0.000129651     0.000567821
                    -0.000779773     0.000284488         0.125578        0.254108     -0.000476385    -0.000502993         0.839558        -0.45248
                       -0.899142         0.38002     -0.000499695    -0.000444849       -0.0159607         0.18191      -0.00042421     0.000303052
                     0.000151475     0.000571092         0.839475       -0.452454     -0.000392173      0.00029575          0.14474        0.241613
281710                  0.142737        0.114977     -0.000695719     0.000250747        -0.898596        0.380382      0.000129833      0.00056789
                    -0.000779619     0.000284693         0.125613        0.254146     -0.000476635    -0.000502905         0.839388       -0.452763
                          -0.899         0.38035     -0.000499873     -0.00044476       -0.0158517        0.181931     -0.000423999     0.000303089
                     0.000151656     0.000571159         0.839305       -0.452737     -0.000391956     0.000295766         0.144921        0.241562
281712                  0.142761        0.114965     -0.000695579     0.000250933        -0.898453        0.380711      0.000130015     0.000567959
                    -0.000779465     0.000284898         0.125649        0.254184     -0.000476884    -0.000502816         0.839217       -0.453047
                       -0.898858         0.38068     -0.000500052    -0.000444671       -0.0157428        0.181952     -0.000423788     0.000303126
                     0.000151838     0.000571225         0.839134       -0.453021     -0.000391738     0.000295781         0.145102        0.241511
281714                  0.142785        0.114954     -0.000695439     0.000251119        -0.898311        0.381041      0.000130197     0.000568028
                     -0.00077931     0.000285102         0.125684        0.254223     -0.000477134    -0.000502728         0.839047        -0.45333
                       -0.898716        0.381009      -0.00050023    -0.000444582       -0.0156338        0.181972     -0.000423577     0.000303163
                     0.000152019     0.000571292         0.838964       -0.453305     -0.000391521     0.000295796         0.145283         0.24146
281716                  0.142809        0.114942     -0.000695298     0.000251304        -0.898168        0.381371      0.000130379     0.000568097
                    -0.000779156     0.000285307          0.12572        0.254261     -0.000477383    -0.000502639         0.838876       -0.453614
                       -0.898573        0.381339     -0.000500409    -0.000444493       -0.0155249        0.181993     -0.000423366       0.0003032
                     0.000152201     0.000571359         0.838793       -0.453588     -0.000391304     0.000295811         0.145464        0.241409
281718                  0.142832        0.114931     -0.000695157      0.00025149        -0.898025          0.3817      0.000130561     0.000568167
                    -0.000779001     0.000285511         0.125756        0.254299     -0.000477633     -0.00050255         0.838705       -0.453898
                       -0.898431        0.381669     -0.000500587    -0.000444404       -0.0154158        0.182014     -0.000423155     0.000303236
                     0.000152382     0.000571426         0.838623       -0.453872     -0.000391087     0.000295826         0.145645        0.241357
281720                  0.142856        0.114919     -0.000695017     0.000251675        -0.897882         0.38203      0.000130743     0.000568236
                    -0.000778847     0.000285715         0.125791        0.254337     -0.000477883    -0.000502461         0.838535       -0.454181
                       -0.898288        0.381999     -0.000500766    -0.000444315       -0.0153068        0.182034     -0.000422944     0.000303273
                     0.000152564     0.000571492         0.838452       -0.454155     -0.000390871     0.000295841         0.145826        0.241306
281722                   0.14288        0.114908     -0.000694876      0.00025186        -0.897739        0.382359      0.000130924     0.000568305
                    -0.000778692      0.00028592         0.125827        0.254376     -0.000478133    -0.000502372         0.838364       -0.454464
                       -0.898146        0.382328     -0.000500945    -0.000444226       -0.0151978        0.182055     -0.000422733      0.00030331
                     0.000152746     0.000571559         0.838281       -0.454439     -0.000390654     0.000295855         0.146006        0.241254
281724                  0.142904        0.114897     -0.000694735     0.000252045        -0.897596        0.382689      0.000131106     0.000568374
                    -0.000778537     0.000286124         0.125862        0.254414     -0.000478382    -0.000502283         0.838193       -0.454748
                       -0.898003        0.382658     -0.000501123    -0.000444137       -0.0150887        0.182075     -0.000422522     0.000303346
                     0.000152927     0.000571626          0.83811       -0.454722     -0.000390438     0.000295869         0.146187        0.241203
281726                  0.142927        0.114885     -0.000694594      0.00025223        -0.897453        0.383018      0.000131288     0.000568443
                    -0.000778382     0.000286328         0.125898        0.254453     -0.000478632    -0.000502194         0.838021       -0.455031
                        -0.89786        0.382987     -0.000501302    -0.000444047       -0.0149796        0.182095     -0.000422311     0.000303382
                     0.000153109     0.000571693         0.837939       -0.455006     -0.000390221     0.000295883         0.146368        0.241151
281728                  0.142951        0.114874     -0.000694453     0.000252415        -0.897309        0.383348       0.00013147     0.000568512
                    -0.000778227     0.000286531         0.125934        0.254491     -0.000478883    -0.000502104          0.83785       -0.455314
                       -0.897717        0.383317     -0.000501481    -0.000443958       -0.0148705        0.182116       -0.0004221     0.000303419
                     0.000153291      0.00057176         0.837768       -0.455289     -0.000390005     0.000295897         0.146549        0.241099
281730                  0.142975        0.114862     -0.000694311     0.000252599        -0.897166        0.383677      0.000131652     0.000568581
                    -0.000778072     0.000286735         0.125969        0.254529     -0.000479133    -0.000502015         0.837679       -0.455597
                       -0.897574        0.383646      -0.00050166    -0.000443869       -0.0147614        0.182136     -0.000421889     0.000303455
                     0.000153473     0.000571826         0.837597       -0.455572     -0.000389789      0.00029591          0.14673        0.241047
281732                  0.142999        0.114851      -0.00069417     0.000252784        -0.897022        0.384006      0.000131834      0.00056865
                    -0.000777916     0.000286938         0.126005        0.254568     -0.000479383    -0.000501925         0.837507        -0.45588
                        -0.89743        0.383975     -0.000501839    -0.000443779       -0.0146522        0.182156     -0.000421678     0.000303491
                     0.000153655     0.000571893         0.837425       -0.455855     -0.000389573     0.000295924         0.146911        0.240995
281734                  0.143023        0.114839     -0.000694028     0.000252969        -0.896878        0.384336      0.000132016     0.000568719
                    -0.000777761     0.000287142         0.126041        0.254606     -0.000479633    -0.000501835         0.837336       -0.456163
                       -0.897287        0.384305     -0.000502017     -0.00044369        -0.014543        0.182176     -0.000421467     0.000303527
                     0.000153838      0.00057196         0.837254       -0.456138     -0.000389357     0.000295937         0.147092        0.240943
281736                  0.143046        0.114828     -0.000693886     0.000253153        -0.896734        0.384665      0.000132198     0.000568788
                    -0.000777606     0.000287345         0.126077        0.254645     -0.000479884    -0.000501745         0.837164       -0.456446
                       -0.897143        0.384634     -0.000502196      -0.0004436       -0.0144339        0.182196     -0.000421256     0.000303562
                      0.00015402     0.000572027         0.837082       -0.456421     -0.000389142     0.000295949         0.147273         0.24089
281738                   0.14307        0.114816     -0.000693745     0.000253337         -0.89659        0.384994       0.00013238     0.000568857
                     -0.00077745     0.000287548         0.126112        0.254683     -0.000480134    -0.000501655         0.836992       -0.456729
                          -0.897        0.384963     -0.000502375     -0.00044351       -0.0143246        0.182216     -0.000421044     0.000303597
                     0.000154202     0.000572094          0.83691       -0.456704     -0.000388926     0.000295962         0.147454        0.240838
281740                  0.143094        0.114805     -0.000693603     0.000253521        -0.896446        0.385323      0.000132562     0.000568926
                    -0.000777295     0.000287751         0.126148        0.254721     -0.000480385    -0.000501565          0.83682       -0.457012
                       -0.896856        0.385292     -0.000502555    -0.000443421       -0.0142154        0.182236     -0.000420833     0.000303633
                     0.000154384     0.000572161         0.836738       -0.456987      -0.00038871     0.000295974         0.147635        0.240785
281742                  0.143118        0.114793      -0.00069346     0.000253705        -0.896302        0.385652      0.000132745     0.000568995
                    -0.000777139     0.000287954         0.126184         0.25476     -0.000480635    -0.000501475         0.836648       -0.457295
                       -0.896712        0.385622     -0.000502734    -0.000443331       -0.0141062        0.182256     -0.000420621     0.000303668
                     0.000154567     0.000572228         0.836566        -0.45727     -0.000388495     0.000295986         0.147816        0.240733
281744                  0.143141        0.114781     -0.000693318     0.000253889        -0.896157        0.385981      0.000132927     0.000569064
                    -0.000776983     0.000288157          0.12622        0.254798     -0.000480886    -0.000501384         0.836476       -0.457578
                       -0.896568        0.385951     -0.000502913    -0.000443241       -0.0139969        0.182275     -0.000420409     0.000303702
                     0.000154749     0.000572295         0.836394       -0.457553     -0.000388279     0.000295998         0.147997         0.24068
281746                  0.143165         0.11477     -0.000693176     0.000254073        -0.896013         0.38631       0.00013311     0.000569133
                    -0.000776827      0.00028836         0.126255        0.254837     -0.000481136    -0.000501294         0.836304        -0.45786
                       -0.896424         0.38628     -0.000503092    -0.000443151       -0.0138876        0.182295     -0.000420197     0.000303737
                     0.000154932     0.000572362         0.836222       -0.457836     -0.000388064     0.000296009         0.148178        0.240627
281748                  0.143189        0.114758     -0.000693033     0.000254256        -0.895868        0.386639      0.000133292     0.000569202
                    -0.000776671     0.000288562         0.126291        0.254875     -0.000481387    -0.000501204         0.836131       -0.458143
                       -0.896279        0.386609     -0.000503271    -0.000443061       -0.0137783        0.182315     -0.000419985     0.000303771
                     0.000155115     0.000572429          0.83605       -0.458118     -0.000387848      0.00029602         0.148359        0.240574
281750                  0.143213        0.114747      -0.00069289      0.00025444        -0.895723        0.386968      0.000133475     0.000569271
                    -0.000776515     0.000288764         0.126327        0.254914     -0.000481638    -0.000501113         0.835959       -0.458426
                       -0.896135        0.386938     -0.000503451    -0.000442971       -0.0136689        0.182334     -0.000419773     0.000303805
                     0.000155297     0.000572496         0.835877       -0.458401     -0.000387633     0.000296031          0.14854         0.24052
281752                  0.143236        0.114735     -0.000692748     0.000254623        -0.895578        0.387296      0.000133658     0.000569341
                    -0.000776359     0.000288967         0.126363        0.254952     -0.000481889    -0.000501022         0.835786       -0.458708
                        -0.89599        0.387267      -0.00050363    -0.000442881       -0.0135596        0.182353     -0.000419561     0.000303839
                      0.00015548     0.000572563         0.835705       -0.458684     -0.000387417     0.000296042         0.148721        0.240467
281754                   0.14326        0.114724     -0.000692605     0.000254807        -0.895433        0.387625       0.00013384      0.00056941
                    -0.000776203     0.000289169         0.126399        0.254991      -0.00048214    -0.000500932         0.835614       -0.458991
                       -0.895846        0.387595     -0.000503809    -0.000442791       -0.0134502        0.182373     -0.000419348     0.000303872
                     0.000155663      0.00057263         0.835532       -0.458966     -0.000387201     0.000296053         0.148902        0.240413
281756                  0.143284        0.114712     -0.000692462      0.00025499        -0.895288        0.387954      0.000134023     0.000569479
                    -0.000776047     0.000289371         0.126435        0.255029      -0.00048239    -0.000500841         0.835441       -0.459273
                       -0.895701        0.387924     -0.000503989    -0.000442701       -0.0133408        0.182392     -0.000419136     0.000303905
                     0.000155846     0.000572697          0.83536       -0.459249     -0.000386986     0.000296063         0.149083         0.24036
281758                  0.143308        0.114701     -0.000692318     0.000255173        -0.895143        0.388283      0.000134206     0.000569548
                     -0.00077589     0.000289573          0.12647        0.255068     -0.000482641    -0.000500751         0.835268       -0.459555
                       -0.895556        0.388253     -0.000504168    -0.000442611       -0.0132314        0.182411     -0.000418923     0.000303938
                     0.000156029     0.000572764         0.835187       -0.459531      -0.00038677     0.000296073         0.149264        0.240306
281760                  0.143331        0.114689     -0.000692175     0.000255356        -0.894997        0.388611      0.000134389     0.000569617
                    -0.000775734     0.000289774         0.126506        0.255106     -0.000482892     -0.00050066         0.835095       -0.459838
                       -0.895411        0.388582     -0.000504348    -0.000442521        -0.013122        0.182431      -0.00041871     0.000303971
                     0.000156212     0.000572831         0.835014       -0.459814     -0.000386554     0.000296083         0.149445        0.240252
281762                  0.143355        0.114677     -0.000692032     0.000255539        -0.894852         0.38894      0.000134573     0.000569687
                    -0.000775577     0.000289976         0.126542        0.255145     -0.000483143    -0.000500569         0.834922        -0.46012
                       -0.895266         0.38891     -0.000504527    -0.000442431       -0.0130125         0.18245     -0.000418497     0.000304003
