! TOUCHSTONE file generated by CST MICROWAVE STUDIO
! Date and time: Wed Oct 15 17:30:29 2025
! Project name: Teste_Macro_Metasurface_Nanopilar.cst
! Parameters = {H=600; L_x=115; L_y=140; Lambda=1064; Max_L=200; Min_L=70; PathPara=1; Phi=0; Step_L=10; Theta=0; p=520; phaseX=180; phaseY=0}
! Header version: 2018
! Port assignment regex: !\s*Touchstone port\s*([0-9]+)\s*=\s*(CST MWS port|CST DS port)\s*([0-9]+|Zmin|Zmax)\s*\(\"(.*)\"\)(\s*mode\s*([0-9]+))?.*
! Touchstone port assignment:
! Touchstone port 1 = CST MWS port Zmax ("") mode 1
! Touchstone port 2 = CST MWS port Zmax ("") mode 2
! Touchstone port 3 = CST MWS port Zmin ("") mode 1
! Touchstone port 4 = CST MWS port Zmin ("") mode 2
! S-Parameters are not renormalized. Each port impedance will be approximated by the real part at minimum frequency. The values are described via the [Reference] keyword.
! Default impedance is overridden by [Reference]
[Version] 2.0
# GHz S RI R 376.73
[Number of Ports] 4
[Reference]
376.73 376.73 259.888 259.888 
[Number of Frequencies] 51
[Network Data]
281700                  0.063351        0.128922       0.00052383     0.000387163         0.977527        0.112466      0.000238161     0.000227866
                     0.000442579     0.000535974        0.0789827      -0.0398016     -0.000297661    -4.94529e-05         0.161427         0.97337
                        0.977285        0.112505     -0.000404291    -0.000290767       -0.0899557        0.111873     -0.000551688    -0.000451384
                      0.00013039     0.000247571         0.161327        0.973699     -0.000659562     -0.00031204        0.0854052       0.0142072
281702                 0.0633707        0.128933      0.000523869     0.000387017         0.977562        0.112139      0.000238077     0.000227735
                     0.000442854     0.000535847        0.0789588      -0.0397896     -0.000297665    -4.92887e-05         0.161819        0.973307
                        0.977321        0.112178     -0.000404579    -0.000290533       -0.0899027         0.11194     -0.000552028    -0.000451252
                     0.000130487     0.000247469          0.16172        0.973636     -0.000659687    -0.000311777        0.0853897       0.0141346
281704                 0.0633904        0.128945      0.000523908     0.000386871         0.977597        0.111811      0.000237993     0.000227604
                      0.00044313     0.000535721        0.0789349      -0.0397776      -0.00029767    -4.91249e-05         0.162212        0.973245
                        0.977356         0.11185     -0.000404867    -0.000290299       -0.0898496        0.112006     -0.000552368    -0.000451119
                     0.000130584     0.000247368         0.162112        0.973574     -0.000659811    -0.000311513        0.0853742        0.014062
281706                 0.0634101        0.128956      0.000523946     0.000386725         0.977632        0.111484      0.000237908     0.000227474
                     0.000443406     0.000535594        0.0789111      -0.0397655     -0.000297674    -4.89612e-05         0.162604        0.973182
                        0.977391        0.111523     -0.000405155    -0.000290064       -0.0897965        0.112073     -0.000552709    -0.000450987
                     0.000130681     0.000247266         0.162505        0.973511     -0.000659936     -0.00031125        0.0853586       0.0139895
281708                 0.0634298        0.128968      0.000523985     0.000386579         0.977667        0.111156      0.000237824     0.000227344
                     0.000443682     0.000535466        0.0788872      -0.0397534     -0.000297678    -4.87978e-05         0.162997        0.973119
                        0.977426        0.111195     -0.000405443     -0.00028983       -0.0897434         0.11214     -0.000553049    -0.000450854
                     0.000130778     0.000247164         0.162897        0.973448      -0.00066006    -0.000310987        0.0853429       0.0139169
281710                 0.0634495        0.128979      0.000524022     0.000386434         0.977701        0.110829       0.00023774     0.000227213
                     0.000443957     0.000535339        0.0788633      -0.0397414     -0.000297682    -4.86347e-05         0.163389        0.973056
                        0.977462        0.110868     -0.000405732    -0.000289595       -0.0896902        0.112206      -0.00055339    -0.000450721
                     0.000130875     0.000247062          0.16329        0.973385     -0.000660184    -0.000310725        0.0853272       0.0138444
281712                 0.0634692        0.128991       0.00052406     0.000386288         0.977736        0.110501      0.000237655     0.000227084
                     0.000444233     0.000535211        0.0788395      -0.0397293     -0.000297686    -4.84718e-05         0.163782        0.972992
                        0.977496         0.11054      -0.00040602    -0.000289361       -0.0896369        0.112273     -0.000553731    -0.000450588
                     0.000130972      0.00024696         0.163682        0.973322     -0.000660308    -0.000310462        0.0853114       0.0137719
281714                 0.0634889        0.129002      0.000524097     0.000386142          0.97777        0.110174      0.000237571     0.000226954
                     0.000444509     0.000535083        0.0788156      -0.0397172     -0.000297689    -4.83092e-05         0.164174        0.972929
                        0.977531        0.110213     -0.000406308    -0.000289126       -0.0895836        0.112339     -0.000554072    -0.000450455
                     0.000131069     0.000246859         0.164074        0.973258     -0.000660432      -0.0003102        0.0852956       0.0136995
281716                 0.0635087        0.129014      0.000524135     0.000385997         0.977805        0.109846      0.000237487     0.000226824
                     0.000444784     0.000534955        0.0787918      -0.0397051     -0.000297692    -4.81468e-05         0.164567        0.972865
                        0.977566        0.109885     -0.000406597    -0.000288891       -0.0895303        0.112406     -0.000554413    -0.000450321
                     0.000131166     0.000246757         0.164467        0.973195     -0.000660556    -0.000309939        0.0852797        0.013627
281718                 0.0635284        0.129025      0.000524171     0.000385852         0.977839        0.109519      0.000237402     0.000226695
                      0.00044506     0.000534827         0.078768       -0.039693     -0.000297695    -4.79847e-05         0.164959        0.972801
                        0.977601        0.109558     -0.000406885    -0.000288656       -0.0894769        0.112473     -0.000554754    -0.000450188
                     0.000131263     0.000246655         0.164859        0.973131      -0.00066068    -0.000309677        0.0852637       0.0135546
281720                 0.0635481        0.129037      0.000524208     0.000385707         0.977873        0.109191      0.000237318     0.000226566
                     0.000445335     0.000534699        0.0787442      -0.0396809     -0.000297698    -4.78228e-05         0.165351        0.972738
                        0.977635         0.10923     -0.000407174    -0.000288421       -0.0894234        0.112539     -0.000555095    -0.000450054
                     0.000131359     0.000246553         0.165251        0.973067     -0.000660804    -0.000309416        0.0852477       0.0134822
281722                 0.0635678        0.129048      0.000524244     0.000385562         0.977907        0.108864      0.000237234     0.000226437
                     0.000445611      0.00053457        0.0787203      -0.0396688       -0.0002977    -4.76612e-05         0.165744        0.972673
                         0.97767        0.108903     -0.000407462    -0.000288185       -0.0893699        0.112605     -0.000555437     -0.00044992
                     0.000131456     0.000246451         0.165644        0.973003     -0.000660927    -0.000309154        0.0852316       0.0134099
281724                 0.0635875         0.12906       0.00052428     0.000385417         0.977941        0.108536      0.000237149     0.000226308
                     0.000445886     0.000534441        0.0786965      -0.0396566     -0.000297703    -4.74999e-05         0.166136        0.972609
                        0.977704        0.108575     -0.000407751     -0.00028795       -0.0893164        0.112672     -0.000555778    -0.000449786
                     0.000131553     0.000246349         0.166036        0.972939      -0.00066105    -0.000308894        0.0852155       0.0133375
281726                 0.0636072        0.129071      0.000524316     0.000385272         0.977975        0.108209      0.000237065      0.00022618
                     0.000446161     0.000534312        0.0786727      -0.0396445     -0.000297705    -4.73388e-05         0.166528        0.972545
                        0.977738        0.108248      -0.00040804    -0.000287714       -0.0892628        0.112738      -0.00055612    -0.000449652
                     0.000131649     0.000246247         0.166428        0.972874     -0.000661174    -0.000308633        0.0851993       0.0132652
281728                 0.0636269        0.129083      0.000524351     0.000385128         0.978008        0.107881      0.000236981     0.000226052
                     0.000446437     0.000534182        0.0786489      -0.0396323     -0.000297707    -4.71781e-05          0.16692         0.97248
                        0.977772         0.10792     -0.000408329    -0.000287478       -0.0892091        0.112805     -0.000556462    -0.000449518
                     0.000131746     0.000246145          0.16682         0.97281     -0.000661297    -0.000308373        0.0851831       0.0131929
281730                 0.0636466        0.129094      0.000524387     0.000384983         0.978042        0.107554      0.000236897     0.000225924
                     0.000446712     0.000534053        0.0786251      -0.0396202     -0.000297708    -4.70176e-05         0.167313        0.972415
                        0.977806        0.107592     -0.000408618    -0.000287242       -0.0891554        0.112871     -0.000556803    -0.000449383
                     0.000131842     0.000246043         0.167212        0.972745      -0.00066142    -0.000308112        0.0851668       0.0131207
281732                 0.0636663        0.129106      0.000524421     0.000384839         0.978075        0.107226      0.000236812     0.000225796
                     0.000446987     0.000533923        0.0786013       -0.039608      -0.00029771    -4.68574e-05         0.167705        0.972351
                         0.97784        0.107265     -0.000408907    -0.000287006       -0.0891017        0.112937     -0.000557145    -0.000449249
                     0.000131939     0.000245942         0.167604         0.97268     -0.000661542    -0.000307852        0.0851504       0.0130484
281734                  0.063686        0.129117      0.000524456     0.000384695         0.978109        0.106899      0.000236728     0.000225669
                     0.000447262     0.000533793        0.0785775      -0.0395958     -0.000297711    -4.66974e-05         0.168097        0.972286
                        0.977874        0.106937     -0.000409197    -0.000286769       -0.0890479        0.113004     -0.000557488    -0.000449114
                     0.000132035      0.00024584         0.167997        0.972615     -0.000661665    -0.000307593         0.085134       0.0129762
281736                 0.0637057        0.129128       0.00052449     0.000384551         0.978142        0.106571      0.000236643     0.000225542
                     0.000447537     0.000533663        0.0785537      -0.0395836     -0.000297712    -4.65378e-05         0.168489         0.97222
                        0.977907         0.10661     -0.000409486    -0.000286532       -0.0889941         0.11307      -0.00055783    -0.000448979
                     0.000132132     0.000245738         0.168389         0.97255     -0.000661787    -0.000307333        0.0851175        0.012904
281738                 0.0637254         0.12914      0.000524524     0.000384407         0.978175        0.106244      0.000236559     0.000225415
                     0.000447813     0.000533533          0.07853      -0.0395714     -0.000297713    -4.63785e-05         0.168881        0.972155
                        0.977941        0.106282     -0.000409776    -0.000286295       -0.0889402        0.113136     -0.000558172    -0.000448844
                     0.000132228     0.000245636         0.168781        0.972485      -0.00066191    -0.000307074         0.085101       0.0128318
281740                 0.0637451        0.129151      0.000524558     0.000384263         0.978208        0.105916      0.000236475     0.000225289
                     0.000448088     0.000533402        0.0785062      -0.0395592     -0.000297713    -4.62194e-05         0.169273        0.972089
                        0.977974        0.105955     -0.000410065    -0.000286058       -0.0888862        0.113202     -0.000558514    -0.000448709
                     0.000132324     0.000245534         0.169173         0.97242     -0.000662032    -0.000306814        0.0850844       0.0127597
281742                 0.0637648        0.129163      0.000524591      0.00038412         0.978241        0.105588       0.00023639     0.000225163
                     0.000448363     0.000533271        0.0784824       -0.039547     -0.000297713    -4.60607e-05         0.169665        0.972024
                        0.978007        0.105627     -0.000410355    -0.000285821       -0.0888323        0.113269     -0.000558857    -0.000448573
                     0.000132421     0.000245432         0.169565        0.972354     -0.000662154    -0.000306555        0.0850677       0.0126876
281744                 0.0637845        0.129174      0.000524624     0.000383976         0.978274        0.105261      0.000236305     0.000225037
                     0.000448638      0.00053314        0.0784587      -0.0395348     -0.000297713    -4.59023e-05         0.170057        0.971958
                        0.978041          0.1053     -0.000410645    -0.000285583       -0.0887782        0.113335     -0.000559199    -0.000448438
                     0.000132517      0.00024533         0.169957        0.972288     -0.000662275    -0.000306296         0.085051       0.0126155
281746                 0.0638042        0.129186      0.000524657     0.000383833         0.978306        0.104933      0.000236221     0.000224912
                     0.000448913     0.000533009        0.0784349      -0.0395226     -0.000297713    -4.57442e-05         0.170449        0.971892
                        0.978074        0.104972     -0.000410935    -0.000285345       -0.0887241        0.113401     -0.000559542    -0.000448301
                     0.000132613     0.000245228         0.170349        0.972222     -0.000662397    -0.000306038        0.0850342       0.0125434
281748                 0.0638239        0.129197       0.00052469      0.00038369         0.978339        0.104606      0.000236136     0.000224787
                     0.000449187     0.000532878        0.0784112      -0.0395103     -0.000297712    -4.55864e-05         0.170841        0.971826
                        0.978107        0.104644     -0.000411226    -0.000285107         -0.08867        0.113467     -0.000559883    -0.000448164
                     0.000132709     0.000245126          0.17074        0.972156     -0.000662518    -0.000305779        0.0850174       0.0124714
281750                 0.0638436        0.129208      0.000524722     0.000383548         0.978371        0.104278      0.000236051     0.000224662
                     0.000449462     0.000532746        0.0783874      -0.0394981     -0.000297712    -4.54289e-05         0.171233        0.971759
                        0.978139        0.104317     -0.000411516    -0.000284868       -0.0886158        0.113533     -0.000560218    -0.000448027
                     0.000132805     0.000245024         0.171132         0.97209      -0.00066264    -0.000305521        0.0850005       0.0123994
281752                 0.0638633         0.12922      0.000524754     0.000383405         0.978403        0.103951      0.000235965     0.000224538
                     0.000449737     0.000532615        0.0783637      -0.0394858      -0.00029771    -4.52718e-05         0.171625        0.971693
                        0.978172        0.103989     -0.000411807     -0.00028463       -0.0885616        0.113599     -0.000560562    -0.000447903
                     0.000132901     0.000244922         0.171524        0.972023     -0.000662761    -0.000305263        0.0849836       0.0123274
281754                  0.063883        0.129231      0.000524786     0.000383263         0.978436        0.103623       0.00023588     0.000224414
                     0.000450012     0.000532483          0.07834      -0.0394735     -0.000297709     -4.5115e-05         0.172017        0.971626
                        0.978205        0.103662     -0.000412098    -0.000284391       -0.0885073        0.113665      -0.00056091    -0.000447767
                     0.000132998      0.00024482         0.171916        0.971957     -0.000662882    -0.000305005        0.0849666       0.0122554
281756                 0.0639027        0.129243      0.000524817     0.000383121         0.978468        0.103295      0.000235795      0.00022429
                     0.000450287     0.000532351        0.0783163      -0.0394613     -0.000297708    -4.49586e-05         0.172408        0.971559
                        0.978237        0.103334     -0.000412389    -0.000284151        -0.088453        0.113731     -0.000561255     -0.00044763
                     0.000133094     0.000244719         0.172308         0.97189     -0.000663002    -0.000304747        0.0849495       0.0121835
281758                 0.0639224        0.129254      0.000524848     0.000382981           0.9785        0.102968      0.000235709     0.000224167
                     0.000450561     0.000532218        0.0782925       -0.039449     -0.000297706    -4.48026e-05           0.1728        0.971493
                         0.97827        0.103006     -0.000412682    -0.000283912       -0.0883986        0.113797     -0.000561599    -0.000447494
                      0.00013319     0.000244617         0.172699        0.971823     -0.000663123    -0.000304489        0.0849324       0.0121116
281760                 0.0639421        0.129266      0.000524879     0.000382841         0.978532         0.10264      0.000235623     0.000224043
                     0.000450836     0.000532086        0.0782688      -0.0394367     -0.000297703    -4.46469e-05         0.173192        0.971425
                        0.978302        0.102679     -0.000412974    -0.000283671       -0.0883442        0.113863     -0.000561943    -0.000447357
                     0.000133288     0.000244514         0.173091        0.971756     -0.000663243    -0.000304231        0.0849152       0.0120397
281762                 0.0639618        0.129277      0.000524907     0.000382702         0.978563        0.102313      0.000235537      0.00022392
                      0.00045111     0.000531953        0.0782451      -0.0394244     -0.000297701    -4.44917e-05         0.173584        0.971358
                        0.978334        0.102351     -0.000413267    -0.000283428       -0.0882897        0.113929     -0.000562287    -0.000447221
