! TOUCHSTONE file generated by CST MICROWAVE STUDIO
! Date and time: Wed Oct 15 17:31:32 2025
! Project name: Teste_Macro_Metasurface_Nanopilar.cst
! Parameters = {H=600; L_x=135; L_y=95; Lambda=1064; Max_L=200; Min_L=70; PathPara=1; Phi=0; Step_L=10; Theta=0; p=520; phaseX=180; phaseY=0}
! Header version: 2018
! Port assignment regex: !\s*Touchstone port\s*([0-9]+)\s*=\s*(CST MWS port|CST DS port)\s*([0-9]+|Zmin|Zmax)\s*\(\"(.*)\"\)(\s*mode\s*([0-9]+))?.*
! Touchstone port assignment:
! Touchstone port 1 = CST MWS port Zmax ("") mode 1
! Touchstone port 2 = CST MWS port Zmax ("") mode 2
! Touchstone port 3 = CST MWS port Zmin ("") mode 1
! Touchstone port 4 = CST MWS port Zmin ("") mode 2
! S-Parameters are not renormalized. Each port impedance will be approximated by the real part at minimum frequency. The values are described via the [Reference] keyword.
! Default impedance is overridden by [Reference]
[Version] 2.0
# GHz S RI R 376.73
[Number of Ports] 4
[Reference]
376.73 376.73 259.888 259.888 
[Number of Frequencies] 51
[Network Data]
281700                -0.0130677       0.0508278       0.00024001     0.000701116        -0.761168       -0.641915        0.0003411    -0.000150631
                     0.000206945     0.000659854       -0.0105028      -0.0605802     -0.000179926     0.000193156         0.248711        0.956559
                       -0.761291       -0.641383     -0.000313092     0.000233825       -0.0476277       0.0225083       0.00054368     0.000397189
                     0.000322475    -0.000197917          0.24955        0.957021      0.000445889     0.000493222        0.0178449       0.0598461
281702                -0.0130641       0.0508452       0.00024023     0.000701079        -0.761355       -0.641691      0.000341039    -0.000150894
                     0.000207165     0.000659881       -0.0105232      -0.0605445     -0.000180294     0.000193302         0.249097        0.956461
                       -0.761478        -0.64116     -0.000313034     0.000233972       -0.0476323       0.0225357      0.000543956     0.000396974
                     0.000322427    -0.000198156         0.249936        0.956923      0.000446258      0.00049297        0.0178576       0.0598101
281704                -0.0130605       0.0508626      0.000240449     0.000701042        -0.761543       -0.641467      0.000340976    -0.000151153
                     0.000207384     0.000659907       -0.0105435      -0.0605088     -0.000180664     0.000193451         0.249482        0.956363
                       -0.761664       -0.640936     -0.000312976     0.000234118       -0.0476369        0.022563      0.000544232     0.000396759
                      0.00032238    -0.000198395         0.250323        0.956824      0.000446626     0.000492717        0.0178703       0.0597741
281706                 -0.013057         0.05088      0.000240668     0.000701005         -0.76173       -0.641242      0.000340909    -0.000151412
                     0.000207603     0.000659933       -0.0105638       -0.060473     -0.000181035     0.000193603         0.249868        0.956264
                       -0.761851       -0.640712     -0.000312918     0.000234264       -0.0476415       0.0225904      0.000544507     0.000396543
                     0.000322332    -0.000198634         0.250709        0.956725      0.000446993     0.000492464        0.0178829       0.0597382
281708                -0.0130534       0.0508974      0.000240887     0.000700968        -0.761917       -0.641018      0.000340839    -0.000151672
                     0.000207823     0.000659959       -0.0105841      -0.0604373     -0.000181408     0.000193757         0.250254        0.956166
                       -0.762038       -0.640488      -0.00031286      0.00023441       -0.0476461       0.0226179      0.000544783     0.000396329
                     0.000322284    -0.000198873         0.251095        0.956626      0.000447358      0.00049221        0.0178955       0.0597022
281710                -0.0130498       0.0509149      0.000241106     0.000700931        -0.762105       -0.640794      0.000340766    -0.000151935
                     0.000208042     0.000659985       -0.0106044      -0.0604015     -0.000181783     0.000193913         0.250639        0.956067
                       -0.762225       -0.640264     -0.000312801     0.000234555       -0.0476507       0.0226453      0.000545056     0.000396115
                     0.000322236    -0.000199112         0.251482        0.956527      0.000447723     0.000491955        0.0179081       0.0596663
281712                -0.0130462       0.0509323      0.000241326     0.000700893        -0.762292       -0.640569      0.000340693      -0.0001522
                     0.000208261      0.00066001       -0.0106247      -0.0603658     -0.000182159     0.000194072         0.251025        0.955968
                       -0.762411        -0.64004     -0.000312743     0.000234701       -0.0476552       0.0226727      0.000545328     0.000395902
                     0.000322189    -0.000199351         0.251868        0.956427      0.000448086       0.0004917        0.0179206       0.0596303
281714                -0.0130426       0.0509497      0.000241545     0.000700856        -0.762479       -0.640345       0.00034062    -0.000152467
                      0.00020848     0.000660036        -0.010645        -0.06033     -0.000182537     0.000194234         0.251411        0.955869
                       -0.762598       -0.639816     -0.000312684     0.000234846       -0.0476598       0.0227002      0.000545592     0.000395689
                     0.000322141    -0.000199589         0.252254        0.956328      0.000448448     0.000491444        0.0179331       0.0595944
281716                 -0.013039       0.0509671      0.000241765     0.000700818        -0.762666        -0.64012      0.000340549    -0.000152734
                     0.000208699     0.000660061       -0.0106653      -0.0602943     -0.000182917     0.000194398         0.251796         0.95577
                       -0.762784       -0.639592     -0.000312625     0.000234992       -0.0476643       0.0227276      0.000545849     0.000395463
                     0.000322093    -0.000199828          0.25264        0.956228      0.000448808     0.000491188        0.0179455       0.0595585
281718                -0.0130354       0.0509845      0.000241985     0.000700781        -0.762853       -0.639895      0.000340478    -0.000153002
                     0.000208918     0.000660086       -0.0106855      -0.0602585     -0.000183298     0.000194565         0.252182         0.95567
                        -0.76297       -0.639368     -0.000312565     0.000235137       -0.0476688       0.0227551      0.000546122     0.000395223
                     0.000322045    -0.000200066         0.253026        0.956128      0.000449168     0.000490931        0.0179579       0.0595225
281720                -0.0130318       0.0510019      0.000242205     0.000700742         -0.76304       -0.639671      0.000340408     -0.00015327
                     0.000209137      0.00066011       -0.0107057      -0.0602227     -0.000183681     0.000194734         0.252567        0.955571
                       -0.763157       -0.639143     -0.000312505     0.000235283       -0.0476733       0.0227825      0.000546408     0.000394994
                     0.000321997    -0.000200305         0.253413        0.956028      0.000449526     0.000490673        0.0179703       0.0594866
281722                -0.0130282       0.0510193      0.000242426     0.000700702        -0.763227       -0.639446      0.000340338    -0.000153538
                     0.000209356     0.000660135        -0.010726      -0.0601869     -0.000184066     0.000194906         0.252952        0.955471
                       -0.763343       -0.638919     -0.000312446      0.00023543       -0.0476777         0.02281      0.000546691     0.000394774
                     0.000321949    -0.000200543         0.253799        0.955928      0.000449882     0.000490415        0.0179826       0.0594507
281724                -0.0130246       0.0510367      0.000242644     0.000700661        -0.763414       -0.639221      0.000340269    -0.000153805
                     0.000209575     0.000660159       -0.0107462      -0.0601511     -0.000184453     0.000195081         0.253338        0.955371
                       -0.763529       -0.638695     -0.000312386     0.000235576       -0.0476822       0.0228375       0.00054697     0.000394555
                       0.0003219    -0.000200781         0.254185        0.955827      0.000450238     0.000490156        0.0179949       0.0594148
281726                -0.0130209       0.0510542      0.000242861     0.000700621        -0.763601       -0.638996      0.000340199    -0.000154072
                     0.000209794     0.000660184       -0.0107664      -0.0601153      -0.00018484     0.000195258         0.253723        0.955271
                       -0.763715        -0.63847     -0.000312326     0.000235722       -0.0476866        0.022865      0.000547247     0.000394336
                     0.000321852    -0.000201019         0.254571        0.955727      0.000450592     0.000489897        0.0180072       0.0593789
281728                -0.0130173       0.0510716      0.000243078     0.000700583        -0.763788       -0.638771      0.000340129    -0.000154339
                     0.000210013     0.000660208       -0.0107865      -0.0600795      -0.00018523     0.000195437         0.254108        0.955171
                       -0.763901       -0.638246     -0.000312266     0.000235869       -0.0476911       0.0228925      0.000547523     0.000394116
                     0.000321804    -0.000201258         0.254956        0.955626      0.000450945     0.000489637        0.0180194       0.0593431
281730                -0.0130137        0.051089      0.000243296     0.000700545        -0.763974       -0.638546      0.000340059    -0.000154606
                     0.000210232     0.000660232       -0.0108067      -0.0600437     -0.000185621     0.000195619         0.254493        0.955071
                       -0.764087       -0.638021     -0.000312207     0.000236015       -0.0476955         0.02292      0.000547799     0.000393896
                     0.000321756    -0.000201496         0.255342        0.955525      0.000451297     0.000489376        0.0180315       0.0593072
281732                -0.0130101       0.0511064      0.000243515     0.000700506        -0.764161       -0.638321      0.000339989    -0.000154872
                     0.000210451     0.000660255       -0.0108269      -0.0600079     -0.000186014     0.000195803         0.254878         0.95497
                       -0.764273       -0.637796     -0.000312147     0.000236161       -0.0476999       0.0229476      0.000548074     0.000393676
                     0.000321708    -0.000201733         0.255728        0.955424      0.000451647     0.000489115        0.0180437       0.0592713
281734                -0.0130064       0.0511238      0.000243734     0.000700468        -0.764347       -0.638096      0.000339918    -0.000155138
                     0.000210669     0.000660279        -0.010847      -0.0599721     -0.000186408      0.00019599         0.255263         0.95487
                       -0.764459       -0.637572     -0.000312087     0.000236307       -0.0477042       0.0229751      0.000548348     0.000393455
                     0.000321659    -0.000201971         0.256114        0.955323      0.000451996     0.000488853        0.0180558       0.0592355
281736                -0.0130028       0.0511412      0.000243952     0.000700429        -0.764534       -0.637871      0.000339848    -0.000155404
                     0.000210888     0.000660302       -0.0108671      -0.0599363     -0.000186804      0.00019618         0.255649        0.954769
                       -0.764645       -0.637347     -0.000312027     0.000236454       -0.0477086       0.0230026      0.000548622     0.000393234
                     0.000321611    -0.000202209           0.2565        0.955222      0.000452343     0.000488591        0.0180678       0.0591996
281738                -0.0129992       0.0511586      0.000244171      0.00070039         -0.76472       -0.637645      0.000339777     -0.00015567
                     0.000211106     0.000660326       -0.0108873      -0.0599005     -0.000187201     0.000196372         0.256034        0.954668
                       -0.764831       -0.637122     -0.000311967       0.0002366       -0.0477129       0.0230302      0.000548896     0.000393012
                     0.000321563    -0.000202447         0.256885         0.95512      0.000452689     0.000488328        0.0180799       0.0591638
281740                -0.0129955        0.051176       0.00024439     0.000700351        -0.764906        -0.63742      0.000339706    -0.000155935
                     0.000211325     0.000660349       -0.0109074      -0.0598646       -0.0001876     0.000196567         0.256418        0.954567
                       -0.765016       -0.636897     -0.000311906     0.000236746       -0.0477173       0.0230578       0.00054917      0.00039279
                     0.000321514    -0.000202685         0.257271        0.955019      0.000453034     0.000488065        0.0180919       0.0591279
281742                -0.0129919       0.0511934      0.000244608     0.000700312        -0.765093       -0.637195      0.000339634    -0.000156201
                     0.000211543     0.000660372       -0.0109275      -0.0598288     -0.000188001     0.000196764         0.256803        0.954466
                       -0.765202       -0.636672     -0.000311846     0.000236892       -0.0477216       0.0230853      0.000549443     0.000392568
                     0.000321466    -0.000202922         0.257656        0.954917      0.000453377     0.000487801        0.0181038       0.0590921
281744                -0.0129882       0.0512109      0.000244827     0.000700272        -0.765279       -0.636969      0.000339563    -0.000156466
                     0.000211762     0.000660395       -0.0109475      -0.0597929     -0.000188403     0.000196963         0.257188        0.954365
                       -0.765388       -0.636447     -0.000311786     0.000237038       -0.0477259       0.0231129      0.000549717     0.000392345
                     0.000321417     -0.00020316         0.258042        0.954815      0.000453719     0.000487536        0.0181157       0.0590563
281746                -0.0129846       0.0512283      0.000245046     0.000700233        -0.765465       -0.636744      0.000339491    -0.000156731
                      0.00021198     0.000660417       -0.0109676      -0.0597571     -0.000188806     0.000197166         0.257573        0.954263
                       -0.765573       -0.636222     -0.000311725     0.000237184       -0.0477302       0.0231405       0.00054999     0.000392122
                     0.000321369    -0.000203397         0.258427        0.954713       0.00045406     0.000487271        0.0181276       0.0590205
281748                -0.0129809       0.0512457      0.000245265     0.000700193        -0.765651       -0.636518      0.000339419    -0.000156996
                     0.000212199      0.00066044       -0.0109877      -0.0597212     -0.000189211      0.00019737         0.257958        0.954161
                       -0.765758       -0.635997     -0.000311664      0.00023733       -0.0477344       0.0231681      0.000550263     0.000391899
                      0.00032132    -0.000203635         0.258813        0.954611      0.000454399     0.000487006        0.0181394       0.0589847
281750                -0.0129773       0.0512631      0.000245483     0.000700153        -0.765837       -0.636292      0.000339346    -0.000157261
                     0.000212417     0.000660462       -0.0110077      -0.0596854     -0.000189618     0.000197577         0.258343        0.954059
                       -0.765944       -0.635772     -0.000311604     0.000237476       -0.0477387       0.0231957      0.000550535     0.000391675
                     0.000321272    -0.000203872         0.259198        0.954508      0.000454736      0.00048674        0.0181512       0.0589489
281752                -0.0129736       0.0512805      0.000245702     0.000700113        -0.766023       -0.636067      0.000339274    -0.000157525
                     0.000212635     0.000660484       -0.0110277      -0.0596495     -0.000190026     0.000197787         0.258727        0.953957
                       -0.766129       -0.635547     -0.000311543     0.000237622       -0.0477429       0.0232234      0.000550808     0.000391451
                     0.000321223     -0.00020411         0.259584        0.954406      0.000455073     0.000486473         0.018163       0.0589131
281754                -0.0129699       0.0512979       0.00024592     0.000700073        -0.766209       -0.635841      0.000339201     -0.00015779
                     0.000212853     0.000660506       -0.0110478      -0.0596136     -0.000190435     0.000197999         0.259112        0.953855
                       -0.766314       -0.635322     -0.000311482     0.000237769       -0.0477471        0.023251       0.00055108     0.000391226
                     0.000321175    -0.000204347         0.259969        0.954303      0.000455407     0.000486206        0.0181747       0.0588773
281756                -0.0129663       0.0513153      0.000246139     0.000700033        -0.766394       -0.635615      0.000339128    -0.000158054
                     0.000213071     0.000660528       -0.0110678      -0.0595777     -0.000190846     0.000198214         0.259496        0.953753
                         -0.7665       -0.635096     -0.000311421     0.000237915       -0.0477513       0.0232786      0.000551353     0.000391002
                     0.000321126    -0.000204584         0.260354          0.9542       0.00045574     0.000485938        0.0181864       0.0588415
281758                -0.0129626       0.0513327      0.000246357     0.000699992         -0.76658       -0.635389      0.000339055    -0.000158318
                     0.000213289      0.00066055       -0.0110877      -0.0595418     -0.000191259     0.000198431         0.259881        0.953651
                       -0.766685       -0.634871     -0.000311359     0.000238061       -0.0477555       0.0233063      0.000551625     0.000390777
                     0.000321078    -0.000204822         0.260739        0.954097      0.000456072     0.000485669         0.018198       0.0588058
281760                -0.0129589       0.0513501      0.000246576     0.000699952        -0.766766       -0.635163      0.000338981    -0.000158583
                     0.000213507     0.000660571       -0.0111077      -0.0595059     -0.000191673     0.000198651         0.260266        0.953548
                        -0.76687       -0.634645     -0.000311298     0.000238207       -0.0477597        0.023334      0.000551897     0.000390551
                     0.000321029    -0.000205059         0.261125        0.953994      0.000456402     0.000485399        0.0182096         0.05877
281762                -0.0129552       0.0513675      0.000246794     0.000699911        -0.766951       -0.634937      0.000338908    -0.000158847
                     0.000213725     0.000660593       -0.0111277        -0.05947     -0.000192088     0.000198873          0.26065        0.953445
                       -0.767055        -0.63442     -0.000311236     0.000238353       -0.0477639       0.0233616      0.000552169     0.000390326
