! TOUCHSTONE file generated by CST MICROWAVE STUDIO
! Date and time: Wed Oct 15 17:31:23 2025
! Project name: Teste_Macro_Metasurface_Nanopilar.cst
! Parameters = {H=600; L_x=130; L_y=160; Lambda=1064; Max_L=200; Min_L=70; PathPara=1; Phi=0; Step_L=10; Theta=0; p=520; phaseX=180; phaseY=0}
! Header version: 2018
! Port assignment regex: !\s*Touchstone port\s*([0-9]+)\s*=\s*(CST MWS port|CST DS port)\s*([0-9]+|Zmin|Zmax)\s*\(\"(.*)\"\)(\s*mode\s*([0-9]+))?.*
! Touchstone port assignment:
! Touchstone port 1 = CST MWS port Zmax ("") mode 1
! Touchstone port 2 = CST MWS port Zmax ("") mode 2
! Touchstone port 3 = CST MWS port Zmin ("") mode 1
! Touchstone port 4 = CST MWS port Zmin ("") mode 2
! S-Parameters are not renormalized. Each port impedance will be approximated by the real part at minimum frequency. The values are described via the [Reference] keyword.
! Default impedance is overridden by [Reference]
[Version] 2.0
# GHz S RI R 376.73
[Number of Ports] 4
[Reference]
376.73 376.73 259.888 259.888 
[Number of Frequencies] 51
[Network Data]
281700                  0.633412       -0.317948      0.000510966    -0.000607985         0.649307        0.126461     -8.80169e-05     0.000565923
                     0.000551587    -0.000600073         0.106628        0.135866     -0.000719037     0.000569819         0.962094       -0.189079
                        0.649387        0.126441     -0.000583789     0.000722409        -0.379336       -0.578024       -0.0006447     -0.00132614
                    -0.000223708      0.00058457         0.962082       -0.188904     -0.000355216      -0.0013605       -0.0460303        0.165505
281702                  0.632791       -0.318113      0.000510239    -0.000608125         0.649978        0.125948     -8.71436e-05     0.000565015
                     0.000550606    -0.000600474          0.10664        0.135877     -0.000717634     0.000570019         0.962031       -0.189385
                        0.650058        0.125928        -0.000583     0.000722141        -0.379938       -0.577063     -0.000644972     -0.00132458
                    -0.000222428     0.000584223         0.962019        -0.18921     -0.000356177     -0.00135925       -0.0459324         0.16555
281704                   0.63217       -0.318276      0.000509511    -0.000608265         0.650647        0.125434     -8.62735e-05     0.000564107
                     0.000549626    -0.000600873         0.106653        0.135888     -0.000716233     0.000570217         0.961968       -0.189691
                        0.650727        0.125415      -0.00058221     0.000721871        -0.380538       -0.576101     -0.000645241     -0.00132303
                     -0.00022115     0.000583874         0.961955       -0.189516     -0.000357135     -0.00135799       -0.0458345        0.165594
281706                   0.63155       -0.318439      0.000508782    -0.000608405         0.651315        0.124919     -8.54067e-05       0.0005632
                     0.000548648     -0.00060127         0.106666          0.1359     -0.000714833     0.000570412         0.961905       -0.189996
                        0.651395          0.1249     -0.000581417     0.000721599        -0.381136       -0.575139     -0.000645507     -0.00132148
                    -0.000219873     0.000583523         0.961892       -0.189821      -0.00035809     -0.00135673       -0.0457365        0.165638
281708                  0.630931       -0.318601      0.000508052    -0.000608544         0.651982        0.124404     -8.45431e-05     0.000562293
                      0.00054767    -0.000601664         0.106679        0.135911     -0.000713435     0.000570605         0.961842       -0.190302
                        0.652061        0.124385     -0.000580621     0.000721326        -0.381731       -0.574177      -0.00064577     -0.00131993
                    -0.000218597      0.00058317         0.961828       -0.190127     -0.000359042     -0.00135547       -0.0456384        0.165683
281710                  0.630312       -0.318761       0.00050732    -0.000608684         0.652647        0.123887     -8.36827e-05     0.000561387
                     0.000546694    -0.000602056         0.106692        0.135923     -0.000712039     0.000570795         0.961779       -0.190607
                        0.652726        0.123868     -0.000579824     0.000721051        -0.382323       -0.573215      -0.00064603     -0.00131839
                    -0.000217323     0.000582815         0.961764       -0.190433     -0.000359991     -0.00135421       -0.0455404        0.165727
281712                  0.629693        -0.31892      0.000506588    -0.000608823          0.65331        0.123369     -8.28256e-05     0.000560482
                     0.000545719    -0.000602446         0.106704        0.135934     -0.000710644     0.000570983         0.961715       -0.190913
                        0.653389        0.123351     -0.000579025     0.000720775        -0.382913       -0.572254     -0.000646287     -0.00131684
                    -0.000216051     0.000582459           0.9617       -0.190739     -0.000360937     -0.00135295       -0.0454422        0.165771
281714                  0.629075       -0.319078      0.000505854    -0.000608962         0.653972        0.122851     -8.19717e-05     0.000559577
                     0.000544744    -0.000602834         0.106717        0.135945     -0.000709251     0.000571169         0.961652       -0.191218
                        0.654051        0.122833     -0.000578224     0.000720498        -0.383501       -0.571292     -0.000646541      -0.0013153
                     -0.00021478       0.0005821         0.961636       -0.191044      -0.00036188     -0.00135169       -0.0453441        0.165815
281716                  0.628458       -0.319235      0.000505119      -0.0006091         0.654632        0.122332     -8.11209e-05     0.000558673
                     0.000543771    -0.000603219          0.10673        0.135957      -0.00070786     0.000571351         0.961588       -0.191524
                        0.654711        0.122314     -0.000577421     0.000720219        -0.384086        -0.57033     -0.000646793     -0.00131377
                    -0.000213511      0.00058174         0.961572        -0.19135     -0.000362821     -0.00135043       -0.0452459        0.165859
281718                  0.627841       -0.319391      0.000504383    -0.000609239         0.655291        0.121812     -8.02733e-05      0.00055777
                     0.000542799    -0.000603603         0.106743        0.135968     -0.000706471     0.000571531         0.961525       -0.191829
                         0.65537        0.121794     -0.000576616     0.000719938        -0.384669       -0.569369     -0.000647041     -0.00131224
                    -0.000212243     0.000581377         0.961508       -0.191655     -0.000363758     -0.00134917       -0.0451477        0.165903
281720                  0.627224       -0.319545      0.000503645    -0.000609377         0.655948        0.121291     -7.94289e-05     0.000556867
                     0.000541827    -0.000603984         0.106756         0.13598     -0.000705083     0.000571709         0.961461       -0.192135
                        0.656027        0.121273     -0.000575809     0.000719656        -0.385249       -0.568407     -0.000647287     -0.00131071
                    -0.000210977     0.000581013         0.961443       -0.191961     -0.000364692     -0.00134791       -0.0450494        0.165947
281722                  0.626609       -0.319699      0.000502907    -0.000609515         0.656604        0.120769     -7.85876e-05     0.000555965
                     0.000540857    -0.000604363         0.106768        0.135991     -0.000703697     0.000571884         0.961397        -0.19244
                        0.656683        0.120752        -0.000575     0.000719373        -0.385827       -0.567446      -0.00064753     -0.00130918
                    -0.000209712     0.000580647         0.961379       -0.192267     -0.000365624     -0.00134665       -0.0449511        0.165991
281724                  0.625993       -0.319851      0.000502167    -0.000609652         0.657258        0.120246     -7.77494e-05     0.000555064
                     0.000539888     -0.00060474         0.106781        0.136002     -0.000702313     0.000572056         0.961333       -0.192746
                        0.657337        0.120229      -0.00057419     0.000719088        -0.386403       -0.566484      -0.00064777     -0.00130766
                    -0.000208449     0.000580279         0.961315       -0.192572     -0.000366552     -0.00134538       -0.0448527        0.166035
281726                  0.625379       -0.320003      0.000501425     -0.00060979         0.657911        0.119722     -7.69144e-05     0.000554163
                     0.000538919    -0.000605114         0.106794        0.136014      -0.00070093     0.000572225         0.961269       -0.193051
                        0.657989        0.119706     -0.000573377     0.000718801        -0.386976       -0.565523     -0.000648007     -0.00130613
                    -0.000207188     0.000579908          0.96125       -0.192878     -0.000367478     -0.00134412       -0.0447543        0.166079
281728                  0.624764       -0.320153      0.000500681    -0.000609926         0.658562        0.119198     -7.60824e-05     0.000553263
                     0.000537952    -0.000605487         0.106807        0.136025      -0.00069955     0.000572392         0.961205       -0.193356
                         0.65864        0.119182     -0.000572563     0.000718513        -0.387547       -0.564562     -0.000648241     -0.00130462
                    -0.000205929     0.000579536         0.961185       -0.193183       -0.0003684     -0.00134286       -0.0446559        0.166123
281730                  0.624151       -0.320302      0.000499935    -0.000610063         0.659212        0.118672     -7.52535e-05     0.000552363
                     0.000536986    -0.000605857          0.10682        0.136037     -0.000698171     0.000572556         0.961141       -0.193662
                         0.65929        0.118656     -0.000571746     0.000718224        -0.388116         -0.5636     -0.000648473      -0.0013031
                    -0.000204671     0.000579162          0.96112       -0.193489      -0.00036932     -0.00134159       -0.0445575        0.166166
281732                  0.623538        -0.32045      0.000499184    -0.000610199          0.65986        0.118146     -7.44277e-05     0.000551464
                     0.000536021    -0.000606226         0.106832        0.136048     -0.000696793     0.000572717         0.961076       -0.193967
                        0.659938         0.11813     -0.000570928     0.000717933        -0.388682       -0.562639     -0.000648702     -0.00130159
                    -0.000203414     0.000578786         0.961056       -0.193794     -0.000370236     -0.00134033       -0.0444589         0.16621
281734                  0.622925       -0.320597      0.000498425    -0.000610334         0.660506        0.117619     -7.36049e-05     0.000550566
                     0.000535056    -0.000606592         0.106845        0.136059     -0.000695418     0.000572876         0.961012       -0.194272
                        0.660584        0.117604     -0.000570108      0.00071764        -0.389245       -0.561678     -0.000648928     -0.00130008
                     -0.00020216     0.000578408         0.960991       -0.194099     -0.000371149     -0.00133906       -0.0443604        0.166253
281736                  0.622313       -0.320742      0.000497644    -0.000610469         0.661151        0.117091     -7.27852e-05     0.000549668
                     0.000534093    -0.000606956         0.106858        0.136071     -0.000694044     0.000573031         0.960947       -0.194578
                        0.661229        0.117076     -0.000569287     0.000717346        -0.389807       -0.560717     -0.000649151     -0.00129857
                    -0.000200907     0.000578028         0.960925       -0.194405      -0.00037206     -0.00133779       -0.0442618        0.166297
281738                  0.621702       -0.320887       0.00049674    -0.000610654         0.661795        0.116562     -7.19685e-05     0.000548772
                     0.000533131    -0.000607319         0.106871        0.136082     -0.000692673     0.000573184         0.960883       -0.194883
                        0.661873        0.116547     -0.000568463     0.000717051        -0.390366       -0.559756     -0.000649372     -0.00129707
                    -0.000199655     0.000577647          0.96086        -0.19471     -0.000372967     -0.00133653       -0.0441632         0.16634
281740                  0.621091        -0.32103      0.000496463    -0.000610938         0.662437        0.116033     -7.11548e-05     0.000547875
                      0.00053217    -0.000607679         0.106884        0.136094     -0.000691303     0.000573334         0.960818       -0.195188
                        0.662515        0.116018     -0.000567637     0.000716753        -0.390922       -0.558796      -0.00064959     -0.00129557
                    -0.000198406     0.000577263         0.960795       -0.195016     -0.000373872     -0.00133526       -0.0440645        0.166384
281742                   0.62048       -0.321173      0.000495596     -0.00061093         0.663077        0.115502     -7.03441e-05      0.00054698
                     0.000531209    -0.000608037         0.106896        0.136105     -0.000689934     0.000573481         0.960753       -0.195493
                        0.663155        0.115488      -0.00056681     0.000716455        -0.391477       -0.557835     -0.000649805     -0.00129407
                    -0.000197158     0.000576877          0.96073       -0.195321     -0.000374773     -0.00133399       -0.0439658        0.166427
281744                  0.619871       -0.321314      0.000494814    -0.000611045         0.663716        0.114971     -6.95364e-05     0.000546085
                      0.00053025    -0.000608393         0.106909        0.136117     -0.000688568     0.000573626         0.960688       -0.195799
                        0.663794        0.114957      -0.00056598     0.000716154        -0.392028       -0.556875     -0.000650018     -0.00129258
                    -0.000195912     0.000576489         0.960664       -0.195627     -0.000375671     -0.00133272       -0.0438671         0.16647
281746                  0.619261       -0.321454      0.000494051    -0.000611174         0.664354        0.114439     -6.87317e-05     0.000545191
                     0.000529292    -0.000608747         0.106922        0.136128     -0.000687203     0.000573767         0.960623       -0.196104
                        0.664431        0.114425     -0.000565146     0.000715852        -0.392578       -0.555914     -0.000650228     -0.00129108
                    -0.000194667       0.0005761         0.960599       -0.195931     -0.000376566     -0.00133145       -0.0437683        0.166514
281748                  0.618653       -0.321593      0.000493294    -0.000611305          0.66499        0.113906     -6.79299e-05     0.000544297
                     0.000528334    -0.000609099         0.106935        0.136139     -0.000685841     0.000573906         0.960558       -0.196409
                        0.665067        0.113892     -0.000564308     0.000715544        -0.393125       -0.554954     -0.000650435     -0.00128959
                    -0.000193425     0.000575708         0.960533       -0.196237     -0.000377458     -0.00133018       -0.0436695        0.166557
281750                  0.618044       -0.321731       0.00049254    -0.000611438         0.665624        0.113372      -6.7131e-05     0.000543404
                     0.000527378    -0.000609449         0.106948        0.136151      -0.00068448     0.000574042         0.960493       -0.196714
                        0.665701        0.113359     -0.000563475     0.000715216         -0.39367       -0.553994      -0.00065064     -0.00128811
                    -0.000192184     0.000575315         0.960467       -0.196542     -0.000378347     -0.00132891       -0.0435706          0.1666
281752                  0.617437       -0.321868      0.000491786    -0.000611571         0.666257        0.112838     -6.63351e-05     0.000542512
                     0.000526422    -0.000609797          0.10696        0.136162     -0.000683121     0.000574174         0.960428       -0.197019
                        0.666334        0.112824     -0.000562665     0.000714915        -0.394213       -0.553034     -0.000650842     -0.00128662
                    -0.000190944     0.000574919         0.960401       -0.196847     -0.000379232     -0.00132764       -0.0434717        0.166643
281754                   0.61683       -0.322004      0.000491033    -0.000611704         0.666889        0.112302     -6.55421e-05     0.000541621
                     0.000525468    -0.000610143         0.106973        0.136174     -0.000681764     0.000574304         0.960362       -0.197324
                        0.666966        0.112289      -0.00056183     0.000714617        -0.394753       -0.552074     -0.000651042     -0.00128514
                    -0.000189707     0.000574522         0.960335       -0.197153     -0.000380115     -0.00132636       -0.0433728        0.166686
281756                  0.616223       -0.322139       0.00049028    -0.000611838         0.667519        0.111766      -6.4752e-05      0.00054073
                     0.000524515    -0.000610487         0.106986        0.136185     -0.000680409     0.000574431         0.960297       -0.197629
                        0.667595        0.111754     -0.000560991     0.000714311        -0.395291       -0.551115     -0.000651239     -0.00128366
                    -0.000188471     0.000574123         0.960269       -0.197458     -0.000380994     -0.00132509       -0.0432738        0.166729
281758                  0.615618       -0.322273      0.000489526    -0.000611971         0.668147        0.111229     -6.39648e-05      0.00053984
                     0.000523563    -0.000610829         0.106999        0.136197     -0.000679056     0.000574555         0.960231       -0.197934
                        0.668224        0.111217     -0.000560151     0.000714001        -0.395826       -0.550155     -0.000651433     -0.00128219
                    -0.000187236     0.000573721         0.960203       -0.197763     -0.000381869     -0.00132382       -0.0431748        0.166772
281760                  0.615012       -0.322406      0.000488773    -0.000612104         0.668774        0.110692     -6.31805e-05      0.00053895
                     0.000522612     -0.00061117         0.107012        0.136208     -0.000677705     0.000574676         0.960166       -0.198239
                         0.66885        0.110679     -0.000559309     0.000713689         -0.39636       -0.549196     -0.000651625     -0.00128071
                    -0.000186003     0.000573318         0.960137       -0.198068     -0.000382742     -0.00132254       -0.0430757        0.166815
281762                  0.614407       -0.322537      0.000488018    -0.000612236         0.669399        0.110153      -6.2399e-05     0.000538062
                     0.000521663    -0.000611509         0.107024         0.13622     -0.000676355     0.000574794           0.9601       -0.198544
                        0.669476        0.110141     -0.000558467     0.000713375         -0.39689       -0.548236     -0.000651815     -0.00127924
