! TOUCHSTONE file generated by CST MICROWAVE STUDIO
! Date and time: Wed Oct 15 17:31:43 2025
! Project name: Teste_Macro_Metasurface_Nanopilar.cst
! Parameters = {H=600; L_x=135; L_y=180; Lambda=1064; Max_L=200; Min_L=70; PathPara=1; Phi=0; Step_L=10; Theta=0; p=520; phaseX=180; phaseY=0}
! Header version: 2018
! Port assignment regex: !\s*Touchstone port\s*([0-9]+)\s*=\s*(CST MWS port|CST DS port)\s*([0-9]+|Zmin|Zmax)\s*\(\"(.*)\"\)(\s*mode\s*([0-9]+))?.*
! Touchstone port assignment:
! Touchstone port 1 = CST MWS port Zmax ("") mode 1
! Touchstone port 2 = CST MWS port Zmax ("") mode 2
! Touchstone port 3 = CST MWS port Zmin ("") mode 1
! Touchstone port 4 = CST MWS port Zmin ("") mode 2
! S-Parameters are not renormalized. Each port impedance will be approximated by the real part at minimum frequency. The values are described via the [Reference] keyword.
! Default impedance is overridden by [Reference]
[Version] 2.0
# GHz S RI R 376.73
[Number of Ports] 4
[Reference]
376.73 376.73 259.888 259.888 
[Number of Frequencies] 51
[Network Data]
281700                  0.161078      -0.0122916      -0.00045715     3.17483e-05         0.622091       -0.760709      0.000751912    -0.000593522
                    -0.000471558    -0.000133684         0.249438        0.406869     -8.98712e-06     0.000603666         0.541638        -0.66692
                        0.621905       -0.760461     -3.30771e-05     0.000669062         0.019592        0.155624     -0.000588951    -0.000377025
                     0.000834481    -0.000446249         0.541899       -0.666699      -0.00039072    -0.000176072         0.448403        0.122083
281702                  0.161081      -0.0122656     -0.000457672     3.23438e-05          0.62186       -0.760898       0.00075208    -0.000594299
                    -0.000474195    -0.000132463         0.249729        0.407115     -1.10127e-05     0.000608378         0.541021       -0.667121
                        0.621674        -0.76065     -3.27114e-05     0.000669311        0.0197134         0.15561     -0.000589362    -0.000376905
                     0.000839004    -0.000451063         0.541284       -0.666899     -0.000393027    -0.000178708         0.448894        0.121599
281704                  0.161084      -0.0122395      -0.00045818     3.29633e-05         0.621629       -0.761086      0.000752416    -0.000594777
                    -0.000477091    -0.000131088          0.25002        0.407361     -1.22686e-05     0.000614091         0.540404       -0.667321
                        0.621444       -0.760839     -3.23438e-05     0.000669559        0.0198346        0.155596     -0.000589782    -0.000376795
                     0.000842644    -0.000456628         0.540668       -0.667098     -0.000395916    -0.000181437         0.449386        0.121114
281706                  0.161087      -0.0122135     -0.000458666     3.36032e-05         0.621398       -0.761274       0.00075281    -0.000594384
                    -0.000480302    -0.000129467         0.250312        0.407607     -1.21165e-05      0.00062066         0.539786        -0.66752
                        0.621213       -0.761028     -3.19741e-05     0.000669806        0.0199558        0.155583     -0.000590216    -0.000376703
                     0.000845202    -0.000462678         0.540052       -0.667296     -0.000399646    -0.000184156         0.449877        0.120628
281708                   0.16109      -0.0121875     -0.000459127     3.42583e-05         0.621167       -0.761463      0.000751261    -0.000592356
                    -0.000483884    -0.000127448         0.250604        0.407853     -9.89308e-06     0.000627465         0.539167       -0.667719
                        0.620982       -0.761216      -3.1602e-05     0.000670052        0.0200768        0.155569     -0.000590671    -0.000376651
                      0.00084659    -0.000468894         0.539434       -0.667494     -0.000404592     -0.00018659         0.450368         0.12014
281710                  0.161092      -0.0121615     -0.000459561     3.49218e-05         0.620936       -0.761651      0.000746657    -0.000594295
                    -0.000487863    -0.000124784         0.250898          0.4081     -5.36034e-06     0.000633337         0.538547       -0.667916
                        0.620751       -0.761404     -3.12274e-05     0.000670296        0.0201977        0.155554      -0.00059116    -0.000376703
                     0.000846843    -0.000474949         0.538815       -0.667691      -0.00041121    -0.000188076          0.45086        0.119651
281712                  0.161095      -0.0121355     -0.000459966     3.55865e-05         0.620705       -0.761839      0.000746117    -0.000598014
                    -0.000492156    -0.000121087         0.251192        0.408347      8.23287e-07     0.000637021         0.537927       -0.668114
                        0.620521       -0.761592     -3.08499e-05     0.000670539        0.0203185         0.15554     -0.000591596    -0.000377126
                     0.000846099    -0.000480569         0.538196       -0.667888     -0.000419729     -0.00018718         0.451351         0.11916
281714                  0.161098      -0.0121095     -0.000460345     3.62461e-05         0.620474       -0.762028      0.000746526    -0.000600118
                    -0.000496393     -0.00011583         0.251487        0.408593      7.25156e-06     0.000637976         0.537305        -0.66831
                         0.62029        -0.76178     -3.04691e-05     0.000670779        0.0204392        0.155526     -0.000590359    -0.000377564
                     0.000844569    -0.000485562         0.537575       -0.668083     -0.000428993    -0.000181498         0.451843        0.118668
281716                    0.1611      -0.0120835     -0.000460701     3.68953e-05         0.620243       -0.762216      0.000746786    -0.000601586
                    -0.000499626    -0.000108552         0.251783        0.408841       1.2603e-05     0.000636692         0.536683       -0.668506
                        0.620059       -0.761968     -3.00846e-05     0.000671017        0.0205599        0.155511     -0.000590809    -0.000375811
                     0.000842482    -0.000489827         0.536954       -0.668279     -0.000434591    -0.000169588         0.452335        0.118175
281718                  0.161103      -0.0120575      -0.00046104     3.75305e-05         0.620012       -0.762405       0.00074689    -0.000602825
                    -0.000500211    -9.95747e-05         0.252079        0.409088      1.62776e-05     0.000634178          0.53606         -0.6687
                        0.619828       -0.762155      -2.9696e-05     0.000671251        0.0206804        0.155497     -0.000591674    -0.000375493
                     0.000840059    -0.000493344         0.536331       -0.668473      -0.00043118    -0.000155845         0.452826         0.11768
281720                  0.161106      -0.0120316     -0.000461366     3.81498e-05         0.619781       -0.762593      0.000746891    -0.000603968
                    -0.000496794     -9.0918e-05         0.252376        0.409335      1.83417e-05     0.000631324         0.535436       -0.668895
                        0.619597       -0.762343     -2.93026e-05      0.00067148        0.0208008        0.155482     -0.000592266    -0.000375352
                     0.000837485     -0.00049615         0.535708       -0.668667      -0.00042071    -0.000148038         0.453318        0.117183
281722                  0.161108      -0.0120056     -0.000461683     3.87529e-05          0.61955       -0.762782      0.000746825    -0.000605063
                      -0.0004903     -8.5466e-05         0.252674        0.409583       1.9157e-05     0.000628659         0.534811       -0.669088
                        0.619367        -0.76253     -2.89039e-05     0.000671702        0.0209211        0.155467     -0.000592762    -0.000375227
                     0.000834901    -0.000498319         0.535084        -0.66886     -0.000409984    -0.000147522          0.45381        0.116685
281724                  0.161111      -0.0119797     -0.000461995     3.93402e-05         0.619319        -0.76297      0.000746713    -0.000606133
                    -0.000483668    -8.41636e-05         0.252973        0.409831      1.91076e-05     0.000626403         0.534185       -0.669281
                        0.619136       -0.762717     -2.84993e-05     0.000671916        0.0210414        0.155453     -0.000593217    -0.000375102
                     0.000832408    -0.000499939         0.534458       -0.669052      -0.00040222    -0.000150919         0.454302        0.116186
281726                  0.161113      -0.0119538     -0.000462307     3.99132e-05         0.619087       -0.763158       0.00074657    -0.000607186
                    -0.000479013    -8.55508e-05         0.253273        0.410079      1.84942e-05     0.000624603         0.533558       -0.669473
                        0.618905       -0.762905     -2.80884e-05     0.000672116        0.0211616        0.155438     -0.000593651    -0.000374975
                     0.000830071      -0.0005011         0.533832       -0.669244     -0.000397291    -0.000155552         0.454793        0.115685
281728                  0.161116      -0.0119279      -0.00046262     4.04734e-05         0.618856       -0.763347      0.000746401    -0.000608228
                    -0.000476612    -8.78383e-05         0.253573        0.410327       1.7523e-05     0.000623223         0.532931       -0.669664
                        0.618674       -0.763092     -2.76719e-05     0.000672299        0.0212817        0.155423     -0.000594073    -0.000374847
                     0.000827925    -0.000501886         0.533205       -0.669435     -0.000394304    -0.000160262         0.455285        0.115183
281730                  0.161118       -0.011902     -0.000462936     4.10226e-05         0.618624       -0.763535      0.000746214    -0.000609261
                    -0.000475895    -9.00242e-05         0.253875        0.410575      1.63248e-05     0.000622203         0.532302       -0.669854
                        0.618443       -0.763279     -2.72522e-05     0.000672455        0.0214017        0.155408     -0.000594488    -0.000374718
                     0.000825989    -0.000502373         0.532577       -0.669625     -0.000392537    -0.000164691         0.455777        0.114679
281732                   0.16112      -0.0118762     -0.000463256     4.15624e-05         0.618392       -0.763724       0.00074601    -0.000610287
                    -0.000476249    -9.17591e-05         0.254177        0.410824      1.49774e-05     0.000621476         0.531673       -0.670044
                        0.618213       -0.763466     -2.68375e-05     0.000672573        0.0215217        0.155392       -0.0005949    -0.000374589
                     0.000824266    -0.000502622         0.531948       -0.669815      -0.00039153    -0.000168781         0.456269        0.114174
281734                  0.161123      -0.0118504     -0.000463581     4.20944e-05         0.618159       -0.763912      0.000745791    -0.000611306
                    -0.000477244    -9.30008e-05         0.254479        0.411073      1.35219e-05     0.000620985         0.531043       -0.670233
                        0.617982       -0.763653     -2.64471e-05     0.000672639        0.0216416        0.155377     -0.000595308    -0.000374462
                     0.000822749    -0.000502685         0.531318       -0.670003     -0.000391006    -0.000172575         0.456761        0.113667
281736                  0.161125      -0.0118247     -0.000463912     4.26196e-05         0.617926         -0.7641       0.00074556    -0.000612317
                    -0.000478617    -9.38123e-05         0.254783        0.411322      1.19729e-05     0.000620679         0.530412       -0.670421
                        0.617751       -0.763841     -2.61229e-05     0.000672648        0.0217614        0.155362     -0.000595715    -0.000374336
                     0.000821428    -0.000502606         0.530687       -0.670191       -0.0003908    -0.000176139         0.457254        0.113159
281738                  0.161127      -0.0117991     -0.000464249     4.31392e-05         0.617691       -0.764286      0.000745316    -0.000613321
                    -0.000480216     -9.4278e-05         0.255088        0.411571      1.03214e-05     0.000620512          0.52978       -0.670609
                        0.617519       -0.764028     -2.59291e-05     0.000672633        0.0218812        0.155346     -0.000596122    -0.000374212
                     0.000820291    -0.000502416         0.530055       -0.670378     -0.000390815     -0.00017954         0.457746         0.11265
281740                  0.161129      -0.0117737     -0.000464594     4.36538e-05         0.617457       -0.764471      0.000745059    -0.000614315
                    -0.000481951    -9.44762e-05         0.255393         0.41182      8.53282e-06     0.000620448         0.529147       -0.670795
                        0.617288       -0.764215     -2.58956e-05     0.000672712         0.022001        0.155331     -0.000596528    -0.000374093
                     0.000819321    -0.000502144         0.529422       -0.670565     -0.000390995    -0.000182841         0.458238        0.112139
281742                   0.16113      -0.0117488     -0.000464946      4.4164e-05         0.617223       -0.764654      0.000744788    -0.000615298
                    -0.000483772    -9.44723e-05         0.255699        0.412069      6.53236e-06     0.000620455         0.528513       -0.670981
                        0.617056       -0.764403     -2.59119e-05     0.000673007        0.0221207        0.155315     -0.000596935    -0.000373979
                     0.000818505    -0.000501809         0.528789        -0.67075     -0.000391314    -0.000186102         0.458731        0.111626
281744                  0.161132      -0.0117252     -0.000465307       4.467e-05         0.616992       -0.764835        0.0007445    -0.000616267
                     -0.00048565    -9.43194e-05         0.256006        0.412319      4.16871e-06     0.000620516         0.527879       -0.671167
                        0.616824        -0.76459     -2.58029e-05     0.000673476        0.0222404          0.1553     -0.000597344    -0.000373872
                      0.00081783    -0.000501427         0.528156       -0.670935     -0.000391768    -0.000189387         0.459223        0.111112
281746                  0.161136      -0.0117024     -0.000465678     4.51721e-05         0.616764       -0.765018      0.000744194    -0.000617217
                    -0.000487567    -9.40609e-05         0.256314        0.412569      1.11373e-06     0.000620663         0.527243       -0.671351
                        0.616592       -0.764778     -2.55261e-05     0.000673974        0.0223601        0.155284     -0.000597756    -0.000373776
                     0.000817281     -0.00050101         0.527522        -0.67112     -0.000392382    -0.000192764         0.459716        0.110597
281748                  0.161142      -0.0116768     -0.000466065     4.56709e-05         0.616537       -0.765204      0.000743862    -0.000618143
                    -0.000489513    -9.37329e-05         0.256623        0.412819     -3.43757e-06     0.000621189         0.526607       -0.671535
                        0.616359       -0.764966     -2.51427e-05     0.000674417        0.0224798        0.155268      -0.00059817    -0.000373695
                     0.000816847    -0.000500568         0.526887       -0.671304     -0.000393217    -0.000196317         0.460208         0.11008
281750                  0.161146      -0.0116495      -0.00046647     4.61683e-05         0.616308        -0.76539      0.000743496    -0.000619034
                     -0.00049148    -9.33665e-05         0.256932        0.413069     -1.15944e-05     0.000624168         0.525969       -0.671718
                        0.616126       -0.765154     -2.47131e-05     0.000674795        0.0225995        0.155252     -0.000598591    -0.000373636
                     0.000816517    -0.000500106         0.526251       -0.671489     -0.000394405    -0.000200149         0.460701        0.109561
281752                  0.161149      -0.0116226     -0.000466905     4.66698e-05         0.616079       -0.765578      0.000743078    -0.000619875
                    -0.000493462    -9.29892e-05         0.257242         0.41332     -2.00017e-05     0.000643588          0.52533         -0.6719
                        0.615893       -0.765342     -2.42696e-05     0.000675121        0.0227192        0.155236     -0.000599018    -0.000373611
                     0.000816283    -0.000499629         0.525613       -0.671674     -0.000396216    -0.000204381         0.461193        0.109041
281754                  0.161151      -0.0115963     -0.000467378       4.719e-05         0.615849       -0.765765      0.000742579    -0.000620642
                    -0.000495452    -9.26262e-05         0.257554         0.41357      6.67053e-06      0.00065171         0.524691       -0.672082
                        0.615658        -0.76553     -2.38267e-05     0.000675407         0.022839         0.15522     -0.000599458    -0.000373645
                     0.000816136    -0.000499137         0.524973       -0.671858     -0.000399217    -0.000209079         0.461686         0.10852
281756                  0.161153      -0.0115704     -0.000467894     4.77628e-05         0.615618       -0.765952      0.000741931    -0.000621289
                    -0.000497443    -9.23011e-05         0.257866        0.413821      1.06672e-05     0.000639595          0.52405       -0.672263
                        0.615423       -0.765719     -2.33906e-05     0.000675664        0.0229587        0.155204     -0.000599915    -0.000373786
                      0.00081607    -0.000498631         0.524332       -0.672041     -0.000404583      -0.0002139         0.462178        0.107996
281758                  0.161156      -0.0115447     -0.000468419     4.84404e-05         0.615387       -0.766139      0.000740972    -0.000621736
                    -0.000499422    -9.20362e-05         0.258179        0.414072      8.49249e-06     0.000635065         0.523408       -0.672442
                        0.615188       -0.765908     -2.29642e-05       0.0006759        0.0230785        0.155188     -0.000600398    -0.000374164
                     0.000816082    -0.000498108          0.52369       -0.672223      -0.00041411    -0.000216597         0.462671        0.107472
281760                  0.161158       -0.011519      -0.00046885     4.92293e-05         0.615156       -0.766326      0.000739207    -0.000621859
                    -0.000501375    -9.18523e-05         0.258492        0.414323      6.26192e-06     0.000633384         0.522765       -0.672621
                        0.614953       -0.766099     -2.25495e-05     0.000676119        0.0231984        0.155172     -0.000600874    -0.000375221
                     0.000816168    -0.000497559         0.523047       -0.672403     -0.000426007    -0.000210641         0.463163        0.106946
281762                  0.161161      -0.0114935     -0.000469117       5.001e-05         0.614925       -0.766513        0.0007346      -0.0006221
                    -0.000503281    -9.17679e-05         0.258807        0.414575      4.33181e-06     0.000632809          0.52212       -0.672799
                        0.614719       -0.766292      -2.2148e-05     0.000676325        0.0233184        0.155156     -0.000599916    -0.000379836
