! TOUCHSTONE file generated by CST MICROWAVE STUDIO
! Date and time: Wed Oct 15 17:32:00 2025
! Project name: Teste_Macro_Metasurface_Nanopilar.cst
! Parameters = {H=600; L_x=140; L_y=185; Lambda=1064; Max_L=200; Min_L=70; PathPara=1; Phi=0; Step_L=10; Theta=0; p=520; phaseX=180; phaseY=0}
! Header version: 2018
! Port assignment regex: !\s*Touchstone port\s*([0-9]+)\s*=\s*(CST MWS port|CST DS port)\s*([0-9]+|Zmin|Zmax)\s*\(\"(.*)\"\)(\s*mode\s*([0-9]+))?.*
! Touchstone port assignment:
! Touchstone port 1 = CST MWS port Zmax ("") mode 1
! Touchstone port 2 = CST MWS port Zmax ("") mode 2
! Touchstone port 3 = CST MWS port Zmin ("") mode 1
! Touchstone port 4 = CST MWS port Zmin ("") mode 2
! S-Parameters are not renormalized. Each port impedance will be approximated by the real part at minimum frequency. The values are described via the [Reference] keyword.
! Default impedance is overridden by [Reference]
[Version] 2.0
# GHz S RI R 376.73
[Number of Ports] 4
[Reference]
376.73 376.73 259.888 259.888 
[Number of Frequencies] 51
[Network Data]
281700                  0.178139       0.0347231      0.000301683    -0.000131624         0.486846       -0.849973      -0.00012127     0.000107932
                     0.000317048    -0.000136582         0.225757       -0.115579      0.000158727     3.71719e-05         0.888329       -0.356747
                        0.486654       -0.850116      0.000205977     6.03657e-05         0.118966        0.132424     -0.000343644     0.000317063
                    -0.000107318     0.000137389         0.888263       -0.356445     -0.000209988     0.000329068        -0.234722       0.0572442
281702                  0.178151       0.0347399      0.000301775    -0.000132072         0.486595       -0.850114     -0.000121144     0.000108531
                     0.000317114    -0.000137033         0.225672       -0.115479       0.00015899     3.72834e-05         0.888211       -0.357149
                        0.486403       -0.850257      0.000206127      6.0444e-05         0.119064        0.132356     -0.000343366     0.000316974
                    -0.000107079     0.000137798         0.888144       -0.356847      -0.00021036     0.000329091        -0.234547         0.05748
281704                  0.178162       0.0347566      0.000301867     -0.00013252         0.486343       -0.850255     -0.000121006     0.000109116
                     0.000317179    -0.000137483         0.225587       -0.115379      0.000159253     3.73945e-05         0.888092        -0.35755
                        0.486152       -0.850398      0.000206277     6.05225e-05         0.119163        0.132287     -0.000343132     0.000316906
                     -0.00010684     0.000138208         0.888025       -0.357249      -0.00021073     0.000329115        -0.234372       0.0577156
281706                  0.178173       0.0347734      0.000301959    -0.000132967         0.486091       -0.850396     -0.000120855     0.000109687
                     0.000317244    -0.000137933         0.225503        -0.11528      0.000159516     3.75053e-05         0.887973       -0.357952
                        0.485901       -0.850539      0.000206427     6.06009e-05         0.119261        0.132218     -0.000342946     0.000316861
                      -0.0001066     0.000138616         0.887905       -0.357651     -0.000211101      0.00032914        -0.234197       0.0579507
281708                  0.178184       0.0347901       0.00030205    -0.000133413          0.48584       -0.850537     -0.000120689     0.000110241
                     0.000317308    -0.000138383         0.225418       -0.115181      0.000159778     3.76159e-05         0.887854       -0.358353
                        0.485649        -0.85068      0.000206578     6.06794e-05          0.11936        0.132149     -0.000342813     0.000316841
                     -0.00010636     0.000139024         0.887786       -0.358053     -0.000211471     0.000329165        -0.234022       0.0581856
281710                  0.178196       0.0348068       0.00030214     -0.00013386         0.485588       -0.850678      -0.00012051     0.000110775
                     0.000317372    -0.000138833         0.225333       -0.115081      0.000160041     3.77261e-05         0.887735       -0.358754
                        0.485398        -0.85082      0.000206728      6.0758e-05         0.119458         0.13208     -0.000342736      0.00031685
                     -0.00010612     0.000139432         0.887666       -0.358455     -0.000211841     0.000329191        -0.233846       0.0584201
281712                  0.178207       0.0348235       0.00030223    -0.000134305         0.485336       -0.850819     -0.000120314     0.000111289
                     0.000317435    -0.000139283         0.225249       -0.114982      0.000160303     3.78361e-05         0.887615       -0.359155
                        0.485146       -0.850961      0.000206878     6.08366e-05         0.119557        0.132012     -0.000342721     0.000316889
                     -0.00010588     0.000139839         0.887546       -0.358856      -0.00021221     0.000329218         -0.23367       0.0586542
281714                  0.178218       0.0348402      0.000302319    -0.000134751         0.485084        -0.85096     -0.000120102      0.00011178
                     0.000317498    -0.000139732         0.225165       -0.114883      0.000160565     3.79457e-05         0.887495       -0.359556
                        0.484895       -0.851102      0.000207028     6.09152e-05         0.119655        0.131943     -0.000342773     0.000316962
                     -0.00010564     0.000140245         0.887426       -0.359257     -0.000212579     0.000329246        -0.233495       0.0588881
281716                   0.17823       0.0348569      0.000302408    -0.000135196         0.484832       -0.851101     -0.000119873     0.000112245
                     0.000317561    -0.000140181         0.225081       -0.114784      0.000160827      3.8055e-05         0.887375       -0.359956
                        0.484643       -0.851242      0.000207179     6.09939e-05         0.119753        0.131874     -0.000342899     0.000317072
                      -0.0001054     0.000140651         0.887306       -0.359658     -0.000212947     0.000329274        -0.233319       0.0591216
281718                  0.178241       0.0348736      0.000302497    -0.000135641          0.48458       -0.851242     -0.000119625     0.000112682
                     0.000317623     -0.00014063         0.224997       -0.114685      0.000161089     3.81641e-05         0.887254       -0.360357
                        0.484392       -0.851382      0.000207329     6.10727e-05         0.119851        0.131804     -0.000343104     0.000317224
                     -0.00010516     0.000141057         0.887185       -0.360059     -0.000213315     0.000329303        -0.233143       0.0593547
281720                  0.178252       0.0348903      0.000302585    -0.000136085         0.484328       -0.851382     -0.000119356     0.000113088
                     0.000317685    -0.000141079         0.224913       -0.114586       0.00016135     3.82728e-05         0.887133       -0.360757
                         0.48414       -0.851523      0.000207479     6.11515e-05         0.119949        0.131735     -0.000343397     0.000317421
                    -0.000104919     0.000141462         0.887064        -0.36046     -0.000213683     0.000329332        -0.232967       0.0595875
281722                  0.178263        0.034907      0.000302672    -0.000136529         0.484076       -0.851523     -0.000119066      0.00011346
                     0.000317746    -0.000141527         0.224829       -0.114488      0.000161611     3.83813e-05         0.887012       -0.361157
                        0.483888       -0.851663      0.000207629     6.12303e-05         0.120047        0.131666     -0.000343784     0.000317668
                    -0.000104679     0.000141867         0.886943        -0.36086      -0.00021405     0.000329363         -0.23279         0.05982
281724                  0.178275       0.0349237       0.00030276    -0.000136973         0.483824       -0.851663     -0.000118754     0.000113795
                     0.000317807    -0.000141975         0.224746       -0.114389      0.000161872     3.84895e-05         0.886891       -0.361557
                        0.483637       -0.851803       0.00020778     6.13092e-05         0.120146        0.131597     -0.000344275      0.00031797
                    -0.000104438     0.000142271         0.886822        -0.36126     -0.000214417     0.000329394        -0.232614       0.0600521
281726                  0.178286       0.0349404      0.000302846    -0.000137416         0.483572       -0.851804     -0.000118416      0.00011409
                     0.000317868    -0.000142423         0.224662        -0.11429      0.000162133     3.85973e-05         0.886769       -0.361957
                        0.483385       -0.851943       0.00020793     6.13882e-05         0.120244        0.131527     -0.000344878     0.000318332
                    -0.000104197     0.000142674         0.886701        -0.36166     -0.000214784     0.000329425        -0.232438       0.0602839
281728                  0.178297        0.034957      0.000302932    -0.000137859          0.48332       -0.851944     -0.000118052     0.000114344
                     0.000317928    -0.000142871         0.224579       -0.114192      0.000162394     3.87049e-05         0.886647       -0.362356
                        0.483133       -0.852083       0.00020808     6.14673e-05         0.120341        0.131458     -0.000345599      0.00031876
                    -0.000103956     0.000143077         0.886579       -0.362059      -0.00021515     0.000329458        -0.232261       0.0605154
281730                  0.178309       0.0349737      0.000303018    -0.000138302         0.483068       -0.852084     -0.000117662     0.000114553
                     0.000317988    -0.000143318         0.224496       -0.114093      0.000162655     3.88121e-05         0.886525       -0.362756
                        0.482881       -0.852223      0.000208231     6.15464e-05         0.120439        0.131388     -0.000346447     0.000319258
                    -0.000103715      0.00014348         0.886458       -0.362459     -0.000215516     0.000329491        -0.232084       0.0607465
281732                   0.17832       0.0349904      0.000303103    -0.000138744         0.482816       -0.852224     -0.000117244     0.000114719
                     0.000318047    -0.000143766         0.224413       -0.113995      0.000162915      3.8919e-05         0.886403       -0.363155
                         0.48263       -0.852363      0.000208382     6.16258e-05         0.120537        0.131319     -0.000347423     0.000319828
                    -0.000103474     0.000143882         0.886336       -0.362858      -0.00021588     0.000329524        -0.231908       0.0609773
281734                  0.178331        0.035007      0.000303187    -0.000139186         0.482564       -0.852364     -0.000116799     0.000114842
                     0.000318106    -0.000144213          0.22433       -0.113897      0.000163175     3.90255e-05         0.886281       -0.363554
                        0.482378       -0.852502      0.000208532     6.17054e-05         0.120635        0.131249     -0.000348525     0.000320471
                    -0.000103233     0.000144284         0.886214       -0.363257     -0.000216244     0.000329559        -0.231731       0.0612078
281736                  0.178343       0.0350237      0.000303271    -0.000139627         0.482311       -0.852504      -0.00011633     0.000114929
                     0.000318165     -0.00014466         0.224247       -0.113799      0.000163434     3.91313e-05         0.886158       -0.363952
                        0.482126       -0.852642      0.000208684     6.17855e-05         0.120733        0.131179     -0.000349739     0.000321181
                    -0.000102992     0.000144685         0.886092       -0.363655     -0.000216606     0.000329594        -0.231554       0.0614379
281738                  0.178354       0.0350403      0.000303353    -0.000140068         0.482059       -0.852644     -0.000115846     0.000114991
                     0.000318223    -0.000145106         0.224165         -0.1137      0.000163693     3.92357e-05         0.886035       -0.364351
                        0.481874       -0.852781      0.000208836     6.18664e-05         0.120831         0.13111     -0.000351033     0.000321941
                     -0.00010275     0.000145085         0.885969       -0.364054     -0.000216964     0.000329628        -0.231377       0.0616677
281740                  0.178365       0.0350569      0.000303433    -0.000140508         0.481807       -0.852784      -0.00011536      0.00011505
                     0.000318281    -0.000145553         0.224082       -0.113602      0.000163948     3.93323e-05         0.885912       -0.364749
                        0.481622       -0.852921      0.000208991     6.19492e-05         0.120928         0.13104     -0.000352343     0.000322717
                    -0.000102509     0.000145486         0.885847       -0.364452     -0.000217299     0.000329658        -0.231201       0.0618971
281742                  0.178377       0.0350736      0.000303499    -0.000140945         0.481555       -0.852924     -0.000114898     0.000115144
                     0.000318339    -0.000145999            0.224       -0.113504       0.00016424     3.94554e-05         0.885789       -0.365147
                         0.48137        -0.85306       0.00020916     6.20353e-05         0.121026         0.13097     -0.000353551     0.000323443
                    -0.000102267     0.000145885         0.885723       -0.364852     -0.000217831       0.0003297        -0.231024       0.0621262
281744                  0.178388       0.0350902      0.000303669    -0.000141371         0.481302       -0.853064     -0.000114505     0.000115338
                     0.000318396    -0.000146445         0.223918       -0.113407      0.000164483     3.95612e-05         0.885666       -0.365544
                        0.481118         -0.8532      0.000209339     6.20227e-05         0.121124          0.1309     -0.000354451     0.000324004
                    -0.000102026     0.000146284         0.885601       -0.365248     -0.000218107     0.000329746        -0.230847        0.062355
281746                  0.178399       0.0351068      0.000303709    -0.000141829          0.48105       -0.853203     -0.000114255      0.00011574
                     0.000318453     -0.00014689         0.223836       -0.113309       0.00016474     3.96653e-05         0.885543       -0.365942
                        0.480866       -0.853339       0.00020942     6.21387e-05         0.121221         0.13083     -0.000354704     0.000324202
                    -0.000101784     0.000146683         0.885478       -0.365645     -0.000218459     0.000329784         -0.23067       0.0625834
281748                  0.178411       0.0351234      0.000303785    -0.000142269         0.480797       -0.853343     -0.000114263     0.000116528
                      0.00031851    -0.000147336         0.223754       -0.113211      0.000164998     3.97698e-05          0.88542       -0.366338
                        0.480613       -0.853478       0.00020957     6.22322e-05         0.121319         0.13076     -0.000353764     0.000323728
                    -0.000101542     0.000147081         0.885355       -0.366043     -0.000218819     0.000329823        -0.230494       0.0628115
281750                  0.178422         0.03514      0.000303864    -0.000142708         0.480545       -0.853482     -0.000114692     0.000117997
                     0.000318566    -0.000147781         0.223672       -0.113114      0.000165257     3.98743e-05         0.885298       -0.366735
                        0.480361       -0.853617      0.000209721     6.23161e-05         0.121416         0.13069     -0.000350823     0.000322129
                      -0.0001013     0.000147479         0.885231        -0.36644      -0.00021918     0.000329863        -0.230318       0.0630393
281752                  0.178433       0.0351567      0.000303944    -0.000143147         0.480292       -0.853622     -0.000115731      0.00012063
                     0.000318622    -0.000148226         0.223591       -0.113016      0.000165515     3.99786e-05         0.885178        -0.36713
                        0.480109       -0.853756      0.000209872     6.23972e-05         0.121514         0.13062     -0.000344816     0.000318852
                    -0.000101058     0.000147876         0.885108       -0.366837     -0.000219542     0.000329904        -0.230144       0.0632667
281754                  0.178445       0.0351733      0.000304025    -0.000143586          0.48004       -0.853761     -0.000117473     0.000125164
                     0.000318678    -0.000148671         0.223509       -0.112919      0.000165774     4.00828e-05          0.88506       -0.367524
                        0.479857       -0.853895      0.000210022     6.24771e-05         0.121611        0.130549     -0.000334652     0.000313423
                    -0.000100816     0.000148273         0.884984       -0.367234     -0.000219904     0.000329945        -0.229971       0.0634939
281756                  0.178456       0.0351898      0.000304105    -0.000144024         0.479787         -0.8539      -0.00011959     0.000132541
                     0.000318733    -0.000149115         0.223428       -0.112821      0.000166033     4.01867e-05         0.884952       -0.367913
                        0.479605       -0.854034      0.000210173     6.25564e-05         0.121708        0.130479     -0.000319825     0.000305834
                    -0.000100573     0.000148669          0.88486        -0.36763     -0.000220266     0.000329988        -0.229807       0.0637217
281758                  0.178467       0.0352064      0.000304185    -0.000144461         0.479534       -0.854039     -0.000120882     0.000143355
                     0.000318788    -0.000149559         0.223347       -0.112724      0.000166291     4.02905e-05         0.884897       -0.368271
                        0.479352       -0.854173      0.000210322     6.26353e-05         0.121806        0.130409     -0.000301272     0.000296907
                    -0.000100331     0.000149065         0.884736       -0.368026     -0.000220629     0.000330031        -0.229731       0.0640007
281760                  0.178479        0.035223      0.000304265    -0.000144899         0.479282       -0.854178       -0.0001195     0.000156601
                     0.000318843    -0.000150003         0.223266       -0.112627       0.00016655      4.0394e-05         0.884451       -0.368765
                          0.4791       -0.854312      0.000210472     6.27139e-05         0.121903        0.130338     -0.000281659     0.000288144
                    -0.000100089      0.00014946         0.884611       -0.368422     -0.000220991     0.000330074        -0.229371       0.0641862
281762                   0.17849       0.0352396      0.000304344    -0.000145336         0.479029       -0.854317     -0.000114804     0.000169248
                     0.000318898    -0.000150447         0.223185        -0.11253      0.000166808     4.04973e-05         0.884473       -0.369139
                        0.478848        -0.85445      0.000210622     6.27923e-05            0.122        0.130268     -0.000264286     0.000280933
