! TOUCHSTONE file generated by CST MICROWAVE STUDIO
! Date and time: Wed Oct 15 17:34:42 2025
! Project name: Teste_Macro_Metasurface_Nanopilar.cst
! Parameters = {H=600; L_x=190; L_y=110; Lambda=1064; Max_L=200; Min_L=70; PathPara=1; Phi=0; Step_L=10; Theta=0; p=520; phaseX=180; phaseY=0}
! Header version: 2018
! Port assignment regex: !\s*Touchstone port\s*([0-9]+)\s*=\s*(CST MWS port|CST DS port)\s*([0-9]+|Zmin|Zmax)\s*\(\"(.*)\"\)(\s*mode\s*([0-9]+))?.*
! Touchstone port assignment:
! Touchstone port 1 = CST MWS port Zmax ("") mode 1
! Touchstone port 2 = CST MWS port Zmax ("") mode 2
! Touchstone port 3 = CST MWS port Zmin ("") mode 1
! Touchstone port 4 = CST MWS port Zmin ("") mode 2
! S-Parameters are not renormalized. Each port impedance will be approximated by the real part at minimum frequency. The values are described via the [Reference] keyword.
! Default impedance is overridden by [Reference]
[Version] 2.0
# GHz S RI R 376.73
[Number of Ports] 4
[Reference]
376.73 376.73 259.888 259.888 
[Number of Frequencies] 51
[Network Data]
281700                 0.0812226      0.00941697     -0.000266538    -0.000344792         0.679735        0.719015     -0.000170505    -3.04754e-05
                    -0.000115351    -0.000338756         0.195819       -0.209633       0.00017981    -0.000106441         0.818449       -0.483416
                        0.679428         0.71845      0.000119004    -3.59234e-05      -0.00433138      -0.0788779       0.00021262    -0.000299756
                    -0.000188934    -0.000120806         0.818919        -0.48282      0.000164529    -0.000228033        -0.273849       0.0592114
281702                 0.0812127      0.00943162     -0.000266809    -0.000344722         0.680001        0.718764     -0.000170448    -3.04368e-05
                    -0.000115555    -0.000338318         0.195766       -0.209563      0.000179846    -0.000106616         0.818293       -0.483736
                        0.679694        0.718199      0.000118915     -3.6006e-05      -0.00440515      -0.0788656      0.000212555    -0.000299636
                    -0.000188763    -0.000121051         0.818762       -0.483139      0.000164466    -0.000227979        -0.273717       0.0594078
281704                 0.0812028      0.00944628      -0.00026708    -0.000344652         0.680266        0.718513     -0.000170391    -3.03983e-05
                    -0.000115758    -0.000337881         0.195713       -0.209493      0.000179882    -0.000106791         0.818136       -0.484056
                         0.67996        0.717949      0.000118826    -3.60886e-05       -0.0044789      -0.0788533      0.000212491    -0.000299516
                    -0.000188591    -0.000121295         0.818605       -0.483459      0.000164402    -0.000227926        -0.273586       0.0596039
281706                 0.0811929      0.00946094     -0.000267352    -0.000344582         0.680532        0.718262     -0.000170334    -3.03598e-05
                     -0.00011596    -0.000337443          0.19566       -0.209423      0.000179918    -0.000106967          0.81798       -0.484375
                        0.680226        0.717698      0.000118736     -3.6171e-05      -0.00455264       -0.078841      0.000212426    -0.000299396
                    -0.000188418     -0.00012154         0.818448       -0.483778      0.000164337    -0.000227872        -0.273454          0.0598
281708                  0.081183       0.0094756     -0.000267623    -0.000344512         0.680798        0.718011     -0.000170276    -3.03214e-05
                    -0.000116161    -0.000337006         0.195607       -0.209353      0.000179953    -0.000107142         0.817823       -0.484694
                        0.680492        0.717448      0.000118645    -3.62535e-05      -0.00462637      -0.0788285      0.000212363    -0.000299277
                    -0.000188243    -0.000121784          0.81829       -0.484097      0.000164273    -0.000227818        -0.273322       0.0599958
281710                 0.0811731      0.00949027     -0.000267895    -0.000344443         0.681064         0.71776     -0.000170218    -3.02831e-05
                    -0.000116361    -0.000336568         0.195555       -0.209283      0.000179988    -0.000107318         0.817666       -0.485013
                        0.680758        0.717197      0.000118554    -3.63358e-05      -0.00470008       -0.078816      0.000212299    -0.000299158
                    -0.000188067    -0.000122028         0.818133       -0.484417      0.000164207    -0.000227765         -0.27319       0.0601915
281712                 0.0811632      0.00950494     -0.000268167    -0.000344374         0.681329        0.717509      -0.00017016    -3.02449e-05
                    -0.000116559    -0.000336131         0.195502       -0.209213      0.000180023    -0.000107493         0.817509       -0.485333
                        0.681023        0.716946      0.000118462    -3.64181e-05      -0.00477377      -0.0788035      0.000212236    -0.000299039
                     -0.00018789    -0.000122272         0.817975       -0.484736      0.000164142    -0.000227711        -0.273058       0.0603871
281714                 0.0811533      0.00951961      -0.00026844    -0.000344305         0.681594        0.717258     -0.000170102    -3.02069e-05
                    -0.000116757    -0.000335694         0.195449       -0.209143      0.000180058    -0.000107668         0.817352       -0.485652
                        0.681289        0.716695      0.000118369    -3.65004e-05      -0.00484745      -0.0787909      0.000212173    -0.000298921
                    -0.000187712    -0.000122515         0.817818       -0.485055      0.000164075    -0.000227657        -0.272926       0.0605825
281716                 0.0811434      0.00953429     -0.000268713    -0.000344236          0.68186        0.717006     -0.000170042    -3.01691e-05
                    -0.000116953    -0.000335257         0.195396       -0.209073      0.000180092    -0.000107844         0.817195       -0.485971
                        0.681554        0.716444      0.000118275    -3.65826e-05      -0.00492112      -0.0787782      0.000212111    -0.000298804
                    -0.000187532    -0.000122758          0.81766       -0.485374      0.000164009    -0.000227603        -0.272793       0.0607777
281718                 0.0811336      0.00954897     -0.000268986    -0.000344168         0.682125        0.716755     -0.000169983    -3.01316e-05
                    -0.000117149    -0.000334821         0.195344       -0.209003      0.000180127    -0.000108019         0.817038       -0.486289
                        0.681819        0.716193      0.000118181    -3.66648e-05      -0.00499477      -0.0787655      0.000212048    -0.000298688
                    -0.000187351    -0.000123001         0.817502       -0.485693      0.000163942     -0.00022755        -0.272661       0.0609727
281720                 0.0811237      0.00956365      -0.00026926      -0.0003441          0.68239        0.716503     -0.000169923    -3.00945e-05
                    -0.000117343    -0.000334384         0.195291       -0.208933      0.000180161    -0.000108194          0.81688       -0.486608
                        0.682085        0.715942      0.000118086     -3.6747e-05      -0.00506841      -0.0787527      0.000211985    -0.000298574
                    -0.000187169    -0.000123243         0.817344       -0.486011      0.000163874    -0.000227496        -0.272529       0.0611677
281722                 0.0811138      0.00957833     -0.000269534    -0.000344032         0.682655        0.716252     -0.000169862    -3.00581e-05
                    -0.000117537    -0.000333948         0.195239       -0.208863      0.000180195     -0.00010837         0.816722       -0.486927
                         0.68235         0.71569      0.000117991    -3.68292e-05      -0.00514204      -0.0787399      0.000211919    -0.000298464
                    -0.000186985    -0.000123486         0.817186        -0.48633      0.000163807    -0.000227442        -0.272396       0.0613625
281724                  0.081104      0.00959302     -0.000269808    -0.000343964          0.68292           0.716       -0.0001698    -3.00224e-05
                    -0.000117729    -0.000333511         0.195186       -0.208793      0.000180228    -0.000108545         0.816565       -0.487246
                        0.682615        0.715439      0.000117895    -3.69115e-05      -0.00521565      -0.0787269      0.000211848    -0.000298356
                      -0.0001868    -0.000123727         0.817027       -0.486649      0.000163738    -0.000227388        -0.272263       0.0615571
281726                 0.0810941      0.00960771     -0.000270082    -0.000343897         0.683185        0.715748     -0.000169739    -2.99879e-05
                    -0.000117921    -0.000333075         0.195134       -0.208723      0.000180262     -0.00010872         0.816407       -0.487564
                         0.68288        0.715188      0.000117798    -3.69938e-05      -0.00528924       -0.078714      0.000211765    -0.000298246
                    -0.000186614    -0.000123969         0.816869       -0.486967      0.000163669    -0.000227335         -0.27213       0.0617515
281728                 0.0810843      0.00962241     -0.000270357     -0.00034383         0.683449        0.715496     -0.000169677    -2.99546e-05
                    -0.000118112    -0.000332639         0.195081       -0.208654      0.000180295    -0.000108895         0.816249       -0.487882
                        0.683144        0.714936        0.0001177    -3.70761e-05      -0.00536282       -0.078701      0.000211673    -0.000298122
                    -0.000186426     -0.00012421          0.81671       -0.487285        0.0001636    -0.000227281        -0.271998       0.0619458
281730                 0.0810745       0.0096371     -0.000270632    -0.000343763         0.683714        0.715244     -0.000169617    -2.99227e-05
                    -0.000118302    -0.000332203         0.195029       -0.208584      0.000180328    -0.000109071         0.816091       -0.488201
                        0.683409        0.714684      0.000117601    -3.71585e-05      -0.00543638      -0.0786879      0.000211588    -0.000297978
                    -0.000186237    -0.000124451         0.816552       -0.487604      0.000163531    -0.000227227        -0.271865       0.0621399
281732                 0.0810646       0.0096518     -0.000270907    -0.000343697         0.683978        0.714992     -0.000169557    -2.98921e-05
                    -0.000118491    -0.000331767         0.194976       -0.208514      0.000180361    -0.000109246         0.815932       -0.488519
                        0.683674        0.714432      0.000117502    -3.72409e-05      -0.00550993      -0.0786747      0.000211523    -0.000297828
                    -0.000186047    -0.000124692         0.816393       -0.487922       0.00016346    -0.000227173        -0.271731       0.0623339
281734                 0.0810548      0.00966651     -0.000271182    -0.000343631         0.684243         0.71474       -0.0001695     -2.9862e-05
                     -0.00011868    -0.000331332         0.194924       -0.208444      0.000180393    -0.000109421         0.815774       -0.488837
                        0.683938        0.714181      0.000117402    -3.73235e-05      -0.00558347      -0.0786615      0.000211469    -0.000297687
                    -0.000185855    -0.000124932         0.816234        -0.48824       0.00016339    -0.000227119        -0.271598       0.0625277
281736                  0.081045      0.00968121     -0.000271458    -0.000343566         0.684507        0.714488     -0.000169445    -2.98314e-05
                    -0.000118868    -0.000330896         0.194872       -0.208374      0.000180426    -0.000109596         0.815616       -0.489155
                        0.684203        0.713929      0.000117302    -3.74061e-05      -0.00565698      -0.0786482      0.000211417    -0.000297553
                    -0.000185662    -0.000125172         0.816075       -0.488558      0.000163319    -0.000227066        -0.271465       0.0627213
281738                 0.0810352      0.00969592     -0.000271734      -0.0003435         0.684771        0.714236     -0.000169392    -2.97992e-05
                    -0.000119055    -0.000330461          0.19482       -0.208304      0.000180458    -0.000109771         0.815457       -0.489473
                        0.684467        0.713677        0.0001172    -3.74889e-05      -0.00573049      -0.0786349      0.000211364    -0.000297424
                    -0.000185467    -0.000125411         0.815916       -0.488876      0.000163247    -0.000227012        -0.271332       0.0629148
281740                 0.0810254      0.00971063      -0.00027201    -0.000343436         0.685035        0.713983     -0.000169341    -2.97645e-05
                    -0.000119242    -0.000330025         0.194767       -0.208235       0.00018049    -0.000109945         0.815298       -0.489791
                        0.684731        0.713424      0.000117098    -3.75718e-05      -0.00580398      -0.0786215      0.000211311    -0.000297297
                    -0.000185271     -0.00012565         0.815756       -0.489194      0.000163175    -0.000226958        -0.271198       0.0631081
281742                 0.0810156      0.00972535     -0.000272287    -0.000343371         0.685299         0.71373      -0.00016929    -2.97272e-05
                    -0.000119428     -0.00032959         0.194715       -0.208165      0.000180523     -0.00011012         0.815139       -0.490108
                        0.684995        0.713172      0.000116996    -3.76548e-05      -0.00587745      -0.0786081      0.000211256    -0.000297171
                    -0.000185074    -0.000125889         0.815597       -0.489511      0.000163103    -0.000226904        -0.271065       0.0633013
281744                 0.0810058      0.00974007     -0.000272564    -0.000343307         0.685563        0.713478     -0.000169239    -2.96873e-05
                    -0.000119614    -0.000329154         0.194663       -0.208095      0.000180557    -0.000110293          0.81498       -0.490426
                        0.685259         0.71292      0.000116892     -3.7738e-05      -0.00595091      -0.0785946      0.000211201    -0.000297046
                    -0.000184875    -0.000126128         0.815437       -0.489829      0.000163029     -0.00022685        -0.270931       0.0634943
281746                  0.080996      0.00975479     -0.000272841    -0.000343244         0.685827        0.713225     -0.000169187    -2.96455e-05
                    -0.000119799    -0.000328719         0.194611       -0.208025      0.000180612    -0.000110454         0.814821       -0.490744
                        0.685523        0.712667      0.000116788    -3.78214e-05      -0.00602435       -0.078581      0.000211145     -0.00029692
                    -0.000184675    -0.000126366         0.815278       -0.490146      0.000162953    -0.000226799        -0.270797       0.0636872
281748                 0.0809862      0.00976951     -0.000273118     -0.00034318         0.686091        0.712972     -0.000169134    -2.96022e-05
                    -0.000119983    -0.000328282         0.194559       -0.207956      0.000180604    -0.000110656         0.814662       -0.491061
                        0.685787        0.712415      0.000116683     -3.7905e-05      -0.00609778      -0.0785674       0.00021109    -0.000296794
                    -0.000184474    -0.000126604         0.815118       -0.490464      0.000162886    -0.000226745        -0.270663       0.0638799
281750                 0.0809764      0.00978424     -0.000273395    -0.000343118         0.686354        0.712719     -0.000169081    -2.95579e-05
                    -0.000120166    -0.000327846         0.194507       -0.207886       0.00018064    -0.000110826         0.814503       -0.491378
                        0.686051        0.712162      0.000116577    -3.79888e-05      -0.00617119      -0.0785537      0.000211033    -0.000296668
                    -0.000184271    -0.000126841         0.814958       -0.490781      0.000162812    -0.000226689        -0.270529       0.0640724
281752                 0.0809667      0.00979897     -0.000273673    -0.000343056         0.686618        0.712466     -0.000169026    -2.95128e-05
                    -0.000120347    -0.000327409         0.194455       -0.207816      0.000180672    -0.000110999         0.814343       -0.491696
                        0.686315         0.71191      0.000116471    -3.80729e-05      -0.00624459        -0.07854      0.000210977    -0.000296541
                    -0.000184068    -0.000127078         0.814798       -0.491098      0.000162737    -0.000226635        -0.270395       0.0642648
281754                 0.0809569       0.0098137     -0.000273951    -0.000342994         0.686881        0.712213     -0.000168972    -2.94672e-05
                    -0.000120525    -0.000326974         0.194403       -0.207747      0.000180703    -0.000111174         0.814184       -0.492013
                        0.686578        0.711657      0.000116363    -3.81572e-05      -0.00631797      -0.0785261      0.000210921    -0.000296414
                    -0.000183865    -0.000127316         0.814638       -0.491416      0.000162662     -0.00022658        -0.270261        0.064457
281756                 0.0809471      0.00982844     -0.000274229    -0.000342933         0.687145         0.71196     -0.000168918    -2.94213e-05
                    -0.000120701    -0.000326542         0.194351       -0.207677      0.000180733    -0.000111348         0.814024        -0.49233
                        0.686842        0.711404      0.000116256    -3.82417e-05      -0.00639134      -0.0785123      0.000210866    -0.000296286
                    -0.000183672    -0.000127555         0.814477       -0.491733      0.000162587    -0.000226526        -0.270127       0.0646491
281758                 0.0809374      0.00984318     -0.000274507    -0.000342872         0.687408        0.711707     -0.000168863    -2.93752e-05
                    -0.000120877    -0.000326113           0.1943       -0.207607      0.000180763    -0.000111522         0.813864       -0.492647
                        0.687105        0.711151      0.000116147    -3.83266e-05      -0.00646469      -0.0784984       0.00021081    -0.000296158
                    -0.000183407    -0.000127769         0.814317        -0.49205      0.000162511    -0.000226472        -0.269992        0.064841
281760                 0.0809276      0.00985792     -0.000274785    -0.000342812         0.687671        0.711453     -0.000168809    -2.93289e-05
                    -0.000121056    -0.000325686         0.194248       -0.207538      0.000180793    -0.000111697         0.813704       -0.492964
                        0.687368        0.710898      0.000116037    -3.84118e-05      -0.00653803      -0.0784844      0.000210754    -0.000296029
                    -0.000183219    -0.000128016         0.814156       -0.492366      0.000162435    -0.000226418        -0.269858       0.0650327
281762                 0.0809179      0.00987266     -0.000275063    -0.000342752         0.687934          0.7112     -0.000168755    -2.92827e-05
                    -0.000121235    -0.000325259         0.194196       -0.207468      0.000180823    -0.000111871         0.813544       -0.493281
                        0.687631        0.710645      0.000115927    -3.84974e-05      -0.00661135      -0.0784703      0.000210699    -0.000295899
