! TOUCHSTONE file generated by CST MICROWAVE STUDIO
! Date and time: Wed Oct 15 17:31:31 2025
! Project name: Teste_Macro_Metasurface_Nanopilar.cst
! Parameters = {H=600; L_x=135; L_y=85; Lambda=1064; Max_L=200; Min_L=70; PathPara=1; Phi=0; Step_L=10; Theta=0; p=520; phaseX=180; phaseY=0}
! Header version: 2018
! Port assignment regex: !\s*Touchstone port\s*([0-9]+)\s*=\s*(CST MWS port|CST DS port)\s*([0-9]+|Zmin|Zmax)\s*\(\"(.*)\"\)(\s*mode\s*([0-9]+))?.*
! Touchstone port assignment:
! Touchstone port 1 = CST MWS port Zmax ("") mode 1
! Touchstone port 2 = CST MWS port Zmax ("") mode 2
! Touchstone port 3 = CST MWS port Zmin ("") mode 1
! Touchstone port 4 = CST MWS port Zmin ("") mode 2
! S-Parameters are not renormalized. Each port impedance will be approximated by the real part at minimum frequency. The values are described via the [Reference] keyword.
! Default impedance is overridden by [Reference]
[Version] 2.0
# GHz S RI R 376.73
[Number of Ports] 4
[Reference]
376.73 376.73 259.888 259.888 
[Number of Frequencies] 51
[Network Data]
281700                -0.0178149       -0.048928      0.000398419    -9.35674e-05        -0.344858       -0.936236      5.22277e-05    -0.000725862
                     0.000376657    -0.000115036        0.0936833       -0.127628     -2.52834e-05     -0.00073293        -0.446965         0.87006
                        -0.34392       -0.935464     -9.62795e-05    -0.000722969        0.0180492       0.0491713     -0.000370123    -0.000302067
                     6.90435e-05    -0.000678009        -0.446271        0.869711     -0.000398596    -0.000273928       -0.0507964        0.149851
281702                -0.0178244      -0.0489183      0.000458816    -0.000119203          -0.3451       -0.936148      5.18112e-05    -0.000725882
                     0.000376637    -0.000115202        0.0936457       -0.127639      -2.5594e-05    -0.000732892        -0.446615        0.870243
                       -0.344162       -0.935376      -7.6304e-05    -0.000699529        0.0180611       0.0491608     -0.000370103    -0.000302028
                     6.85943e-05    -0.000678043        -0.446186        0.870219     -0.000398594    -0.000273942        -0.050701        0.149861
281704                -0.0178339      -0.0489087      0.000458588    -0.000119448        -0.345342       -0.936059      5.13941e-05    -0.000725902
                     0.000376616    -0.000115369        0.0936061       -0.127641     -2.59045e-05    -0.000732853        -0.446265        0.870425
                       -0.344403       -0.935287       -7.659e-05    -0.000699547         0.018073       0.0491502     -0.000370083    -0.000301988
                      6.8145e-05    -0.000678076        -0.445834        0.870401     -0.000398592    -0.000273957       -0.0506056        0.149871
281706                -0.0178433       -0.048899      0.000458494    -0.000119663        -0.345585        -0.93597      5.09764e-05    -0.000725922
                     0.000376595    -0.000115535        0.0935665       -0.127644     -2.62151e-05    -0.000732815        -0.445915        0.870608
                       -0.344644       -0.935198      -7.6827e-05    -0.000699582        0.0180849       0.0491397     -0.000370062    -0.000301948
                     6.76957e-05     -0.00067811        -0.445483        0.870583     -0.000398591    -0.000273972       -0.0505103         0.14988
281708                -0.0178528      -0.0488893      0.000458433     -0.00011987        -0.345827       -0.935881      5.05581e-05    -0.000725942
                     0.000376574    -0.000115701        0.0935267       -0.127646     -2.65257e-05    -0.000732776        -0.445565         0.87079
                       -0.344886       -0.935109     -7.70518e-05     -0.00069962        0.0180968       0.0491292      -0.00037004    -0.000301907
                     6.72464e-05    -0.000678144        -0.445133        0.870766     -0.000398589    -0.000273987       -0.0504149         0.14989
281710                -0.0178623      -0.0488796      0.000458385    -0.000120075        -0.346069       -0.935793      5.01392e-05    -0.000725962
                     0.000376552    -0.000115866         0.093487       -0.127649     -2.68362e-05    -0.000732737        -0.445215        0.870972
                       -0.345127       -0.935019     -7.72717e-05     -0.00069966        0.0181086       0.0491187     -0.000370018    -0.000301866
                     6.67971e-05    -0.000678178        -0.444782        0.870948     -0.000398588    -0.000274002       -0.0503196          0.1499
281712                -0.0178717        -0.04887      0.000458344    -0.000120279        -0.346311       -0.935704      4.97198e-05    -0.000725982
                      0.00037653    -0.000116032        0.0934473       -0.127651     -2.71468e-05    -0.000732697        -0.444865        0.871154
                       -0.345368        -0.93493     -7.74893e-05      -0.0006997        0.0181205       0.0491082     -0.000369995    -0.000301825
                     6.63477e-05    -0.000678211        -0.444432         0.87113     -0.000398586    -0.000274017       -0.0502242        0.149909
281714                -0.0178812      -0.0488603      0.000458306    -0.000120481        -0.346553       -0.935615      4.92999e-05    -0.000726002
                     0.000376508    -0.000116198        0.0934076       -0.127653     -2.74574e-05    -0.000732658        -0.444514        0.871336
                       -0.345609       -0.934841     -7.77055e-05    -0.000699741        0.0181323       0.0490977     -0.000369971    -0.000301784
                     6.58984e-05    -0.000678245        -0.444081        0.871312     -0.000398585    -0.000274033       -0.0501289        0.149919
281716                -0.0178906      -0.0488506      0.000458271    -0.000120683        -0.346795       -0.935526      4.88795e-05    -0.000726022
                     0.000376486    -0.000116363        0.0933678       -0.127656      -2.7768e-05    -0.000732618        -0.444164        0.871518
                        -0.34585       -0.934752     -7.79209e-05    -0.000699782        0.0181442       0.0490872     -0.000369948    -0.000301742
                      6.5449e-05    -0.000678279         -0.44373        0.871494     -0.000398584    -0.000274048       -0.0500336        0.149928
281718                -0.0179001      -0.0488409      0.000458237    -0.000120885        -0.347037       -0.935437      4.84587e-05    -0.000726041
                     0.000376464    -0.000116528        0.0933281       -0.127658     -2.80787e-05    -0.000732579        -0.443813          0.8717
                       -0.346091       -0.934662     -7.81358e-05    -0.000699823         0.018156       0.0490767     -0.000369923      -0.0003017
                     6.49996e-05    -0.000678312        -0.443379        0.871676     -0.000398583    -0.000274064       -0.0499383        0.149937
281720                -0.0179096      -0.0488313      0.000458203    -0.000121087        -0.347279       -0.935347      4.80374e-05    -0.000726061
                     0.000376441    -0.000116693        0.0932884       -0.127661     -2.83893e-05    -0.000732539        -0.443463        0.871881
                       -0.346333       -0.934573     -7.83504e-05    -0.000699864        0.0181679       0.0490662     -0.000369898    -0.000301658
                     6.45503e-05    -0.000678346        -0.443029        0.871858     -0.000398583     -0.00027408        -0.049843        0.149947
281722                 -0.017919      -0.0488216      0.000458171    -0.000121288        -0.347521       -0.935258      4.76158e-05    -0.000726081
                     0.000376418    -0.000116858        0.0932486       -0.127663        -2.87e-05    -0.000732499        -0.443112        0.872062
                       -0.346574       -0.934483     -7.85647e-05    -0.000699905        0.0181797       0.0490557     -0.000369873    -0.000301616
                      6.4101e-05     -0.00067838        -0.442678        0.872039     -0.000398582    -0.000274096       -0.0497477        0.149956
281724                -0.0179285      -0.0488119      0.000458139    -0.000121489        -0.347763       -0.935169      4.71938e-05      -0.0007261
                     0.000376395    -0.000117022        0.0932089       -0.127665     -2.90107e-05    -0.000732459        -0.442761        0.872243
                       -0.346815       -0.934394     -7.87789e-05    -0.000699945        0.0181916       0.0490452     -0.000369848    -0.000301574
                     6.36517e-05    -0.000678414        -0.442327        0.872221     -0.000398581    -0.000274112       -0.0496524        0.149965
281726                -0.0179379      -0.0488022      0.000458107     -0.00012169        -0.348005        -0.93508      4.67714e-05    -0.000726119
                     0.000376372    -0.000117187        0.0931691       -0.127668     -2.93215e-05    -0.000732418        -0.442411        0.872424
                       -0.347056       -0.934304      -7.8993e-05    -0.000699986        0.0182034       0.0490346     -0.000369822    -0.000301532
                     6.32025e-05    -0.000678448        -0.441976        0.872402     -0.000398581    -0.000274128       -0.0495571        0.149974
281728                -0.0179474      -0.0487925      0.000458076    -0.000121891        -0.348247        -0.93499      4.63486e-05    -0.000726138
                     0.000376348    -0.000117351        0.0931294        -0.12767     -2.96323e-05    -0.000732378         -0.44206        0.872605
                       -0.347297       -0.934214      -7.9207e-05    -0.000700027        0.0182152       0.0490241     -0.000369796     -0.00030149
                     6.27534e-05    -0.000678482        -0.441624        0.872583      -0.00039858    -0.000274144       -0.0494618        0.149983
281730                -0.0179568      -0.0487828      0.000458044    -0.000122092        -0.348489       -0.934901      4.59255e-05    -0.000726157
                     0.000376324    -0.000117516        0.0930896       -0.127672     -2.99432e-05    -0.000732337        -0.441709        0.872786
                       -0.347538       -0.934125      -7.9421e-05    -0.000700068         0.018227       0.0490136     -0.000369769    -0.000301447
                     6.23043e-05    -0.000678516        -0.441273        0.872764      -0.00039858    -0.000274161       -0.0493665        0.149992
281732                -0.0179663      -0.0487731      0.000458013    -0.000122293        -0.348731       -0.934811      4.55022e-05    -0.000726176
                       0.0003763     -0.00011768        0.0930498       -0.127675     -3.02541e-05    -0.000732296        -0.441358        0.872967
                       -0.347779       -0.934035     -7.96349e-05    -0.000700108        0.0182388       0.0490031     -0.000369742    -0.000301405
                     6.18553e-05     -0.00067855        -0.440922        0.872945      -0.00039858    -0.000274178       -0.0492713        0.150001
281734                -0.0179757      -0.0487635      0.000457981    -0.000122494        -0.348973       -0.934722      4.50785e-05    -0.000726194
                     0.000376276    -0.000117844        0.0930101       -0.127677     -3.05652e-05    -0.000732255        -0.441006        0.873147
                        -0.34802       -0.933945     -7.98489e-05    -0.000700149        0.0182506       0.0489926     -0.000369715    -0.000301363
                     6.14064e-05    -0.000678585        -0.440571        0.873126     -0.000398579    -0.000274195        -0.049176        0.150009
281736                -0.0179852      -0.0487538       0.00045795    -0.000122695        -0.349214       -0.934632      4.46545e-05    -0.000726213
                     0.000376251    -0.000118008        0.0929703       -0.127679     -3.08765e-05    -0.000732214        -0.440655        0.873327
                       -0.348261       -0.933855     -8.00628e-05    -0.000700189        0.0182624        0.048982     -0.000369687    -0.000301321
                     6.09576e-05    -0.000678619        -0.440219        0.873306     -0.000398579    -0.000274212       -0.0490808        0.150018
281738                -0.0179946      -0.0487441      0.000457918    -0.000122895        -0.349456       -0.934542      4.42302e-05    -0.000726231
                     0.000376226    -0.000118171        0.0929305       -0.127682     -3.11881e-05    -0.000732173        -0.440304        0.873507
                       -0.348502       -0.933765     -8.02768e-05    -0.000700229        0.0182742       0.0489715      -0.00036966    -0.000301278
                     6.05089e-05    -0.000678654        -0.439868        0.873487     -0.000398578    -0.000274229       -0.0489855        0.150027
281740                -0.0180041      -0.0487344      0.000457887    -0.000123096        -0.349698       -0.934452      4.38057e-05    -0.000726249
                     0.000376201    -0.000118335        0.0928908       -0.127684     -3.15004e-05    -0.000732131        -0.439952        0.873688
                       -0.348743       -0.933675     -8.04908e-05     -0.00070027         0.018286        0.048961     -0.000369632    -0.000301236
                     6.00604e-05    -0.000678688        -0.439516        0.873667     -0.000398577    -0.000274247       -0.0488903        0.150035
281742                -0.0180135      -0.0487247      0.000457855    -0.000123297         -0.34994       -0.934363      4.33808e-05    -0.000726266
                     0.000376176    -0.000118498         0.092851       -0.127686     -3.18148e-05     -0.00073209        -0.439601        0.873867
                       -0.348983       -0.933585     -8.07048e-05     -0.00070031        0.0182978       0.0489505     -0.000369603    -0.000301194
                     5.96119e-05    -0.000678723        -0.439164        0.873847     -0.000398574    -0.000274266        -0.048795        0.150044
281744                -0.0180229       -0.048715      0.000457823    -0.000123498        -0.350182       -0.934273      4.29558e-05    -0.000726284
                     0.000376151    -0.000118661        0.0928112       -0.127688     -3.21439e-05    -0.000732048        -0.439249        0.874047
                       -0.349224       -0.933494     -8.09189e-05     -0.00070035        0.0183096         0.04894     -0.000369575    -0.000301152
                     5.91637e-05    -0.000678758        -0.438812        0.874027     -0.000398561    -0.000274284       -0.0486998        0.150052
281746                -0.0180324      -0.0487053      0.000457791    -0.000123698        -0.350423       -0.934183      4.25305e-05    -0.000726301
                     0.000376125    -0.000118825        0.0927714       -0.127691     -3.24001e-05    -0.000732002        -0.438898        0.874227
                       -0.349465       -0.933404      -8.1133e-05     -0.00070039        0.0183213       0.0489294     -0.000369546     -0.00030111
                     5.87156e-05    -0.000678793        -0.438461        0.874207     -0.000398592    -0.000274253       -0.0486046        0.150061
281748                -0.0180418      -0.0486956      0.000457759    -0.000123899        -0.350665       -0.934093      4.21049e-05    -0.000726318
                     0.000376099    -0.000118988        0.0927317       -0.127693      -3.2729e-05    -0.000731963        -0.438546        0.874406
                       -0.349706       -0.933314     -8.13472e-05    -0.000700429        0.0183331       0.0489189     -0.000369517    -0.000301068
                     5.82676e-05    -0.000678828        -0.438109        0.874387     -0.000398595    -0.000274304       -0.0485094        0.150069
281750                -0.0180512      -0.0486859      0.000457727      -0.0001241        -0.350907       -0.934003      4.16792e-05    -0.000726335
                     0.000376073    -0.000119151        0.0926919       -0.127695     -3.30436e-05    -0.000731921        -0.438194        0.874586
                       -0.349947       -0.933223     -8.15615e-05    -0.000700469        0.0183449       0.0489084     -0.000369488    -0.000301026
                     5.78199e-05    -0.000678864        -0.437757        0.874566     -0.000398592    -0.000274327       -0.0484142        0.150077
281752                -0.0180607      -0.0486762      0.000457694      -0.0001243        -0.351148       -0.933912      4.12532e-05    -0.000726352
                     0.000376047    -0.000119313        0.0926521       -0.127697     -3.33561e-05    -0.000731878        -0.437842        0.874765
                       -0.350188       -0.933133     -8.17758e-05    -0.000700509        0.0183566       0.0488978     -0.000369459    -0.000300984
                     5.73723e-05    -0.000678899        -0.437405        0.874746     -0.000398592    -0.000274347        -0.048319        0.150086
281754                -0.0180701      -0.0486665      0.000457662      -0.0001245         -0.35139       -0.933822      4.08269e-05    -0.000726368
                      0.00037602    -0.000119476        0.0926123       -0.127699     -3.36679e-05    -0.000731836        -0.437491        0.874944
                       -0.350428       -0.933042     -8.19902e-05    -0.000700548        0.0183684       0.0488873      -0.00036943    -0.000300942
                      5.6925e-05    -0.000678935        -0.437052        0.874925     -0.000398592    -0.000274366       -0.0482238        0.150094
281756                -0.0180795      -0.0486568      0.000457629    -0.000124701        -0.351632       -0.933732      4.04005e-05    -0.000726384
                     0.000375993    -0.000119638        0.0925725       -0.127701     -3.39794e-05    -0.000731793        -0.437139        0.875123
                       -0.350669       -0.932952     -8.22046e-05    -0.000700588        0.0183801       0.0488768       -0.0003694      -0.0003009
                     5.64778e-05    -0.000678971          -0.4367        0.875104     -0.000398592    -0.000274385       -0.0481286        0.150102
281758                 -0.018089      -0.0486471      0.000457596    -0.000124901        -0.351873       -0.933642      3.99738e-05      -0.0007264
                     0.000375966    -0.000119801        0.0925327       -0.127704     -3.42908e-05     -0.00073175        -0.436786        0.875302
                        -0.35091       -0.932861     -8.24191e-05    -0.000700627        0.0183918       0.0488662      -0.00036937    -0.000300858
                     5.60309e-05    -0.000679007        -0.436348        0.875283     -0.000398593    -0.000274404       -0.0480335         0.15011
281760                -0.0180984      -0.0486374      0.000457562    -0.000125101        -0.352115       -0.933551      3.95469e-05    -0.000726416
                     0.000375939    -0.000119963        0.0924929       -0.127706     -3.46022e-05    -0.000731707        -0.436434         0.87548
                        -0.35115       -0.932771     -8.26338e-05    -0.000700666        0.0184036       0.0488557      -0.00036934    -0.000300817
                     5.55842e-05    -0.000679043        -0.435996        0.875462     -0.000398594    -0.000274423       -0.0479383        0.150118
281762                -0.0181078      -0.0486276      0.000457529    -0.000125301        -0.352356       -0.933461      3.91198e-05    -0.000726432
                     0.000375911    -0.000120125        0.0924531       -0.127708     -3.49135e-05    -0.000731664        -0.436082        0.875659
                       -0.351391        -0.93268     -8.28485e-05    -0.000700705        0.0184153       0.0488452      -0.00036931    -0.000300775
