! TOUCHSTONE file generated by CST MICROWAVE STUDIO
! Date and time: Wed Oct 15 17:32:14 2025
! Project name: Teste_Macro_Metasurface_Nanopilar.cst
! Parameters = {H=600; L_x=145; L_y=160; Lambda=1064; Max_L=200; Min_L=70; PathPara=1; Phi=0; Step_L=10; Theta=0; p=520; phaseX=180; phaseY=0}
! Header version: 2018
! Port assignment regex: !\s*Touchstone port\s*([0-9]+)\s*=\s*(CST MWS port|CST DS port)\s*([0-9]+|Zmin|Zmax)\s*\(\"(.*)\"\)(\s*mode\s*([0-9]+))?.*
! Touchstone port assignment:
! Touchstone port 1 = CST MWS port Zmax ("") mode 1
! Touchstone port 2 = CST MWS port Zmax ("") mode 2
! Touchstone port 3 = CST MWS port Zmin ("") mode 1
! Touchstone port 4 = CST MWS port Zmin ("") mode 2
! S-Parameters are not renormalized. Each port impedance will be approximated by the real part at minimum frequency. The values are described via the [Reference] keyword.
! Default impedance is overridden by [Reference]
[Version] 2.0
# GHz S RI R 376.73
[Number of Ports] 4
[Reference]
376.73 376.73 259.888 259.888 
[Number of Frequencies] 51
[Network Data]
281700                  0.189348      -0.0952851      -0.00188229     0.000840964         0.820689       -0.519017      0.000775334     -0.00250065
                     -0.00194966     0.000892059         0.602782       -0.275915      0.000265232      -0.0025678         0.686558        0.115456
                        0.820923       -0.519128      0.000378868     -0.00253032        -0.164498        0.121617       0.00151293      0.00271927
                     0.000969329     -0.00253971         0.686354        0.114916        0.0014133      0.00261069        -0.373899       -0.518299
281702                   0.18932      -0.0952341      -0.00187995     0.000842628         0.820519       -0.519308      0.000771357     -0.00249995
                     -0.00194686     0.000893718          0.60199       -0.276083       0.00026186     -0.00256638         0.687383        0.114793
                        0.820753       -0.519419      0.000375157     -0.00252939        -0.164355        0.121732       0.00151671      0.00271502
                     0.000965008     -0.00253906         0.687179        0.114254       0.00141605      0.00260655        -0.374498       -0.517086
281704                  0.189291      -0.0951831      -0.00187761     0.000844283          0.82035         -0.5196      0.000767389     -0.00249928
                     -0.00194407     0.000895368         0.601199        -0.27625      0.000258496     -0.00256496         0.688206        0.114128
                        0.820584        -0.51971      0.000371454     -0.00252845        -0.164213        0.121847       0.00152045      0.00271076
                     0.000960699     -0.00253841         0.688001         0.11359        0.0014188      0.00260242        -0.375093       -0.515873
281706                  0.189262      -0.0951321      -0.00187528     0.000845931          0.82018       -0.519891      0.000763434     -0.00249861
                     -0.00194128     0.000897011         0.600409       -0.276414      0.000255138     -0.00256354         0.689026        0.113463
                        0.820414       -0.520001      0.000367758      -0.0025275         -0.16407        0.121961       0.00152416      0.00270649
                     0.000956399     -0.00253775          0.68882        0.112926       0.00142153       0.0025983        -0.375685       -0.514661
281708                  0.189234      -0.0950812      -0.00187294      0.00084757          0.82001       -0.520182      0.000759493     -0.00249796
                     -0.00193849     0.000898645          0.59962       -0.276576      0.000251786     -0.00256212         0.689843        0.112796
                        0.820244       -0.520292       0.00036407     -0.00252655        -0.163927        0.122076       0.00152783      0.00270222
                     0.000952111     -0.00253708         0.689636         0.11226       0.00142426      0.00259417        -0.376273       -0.513449
281710                  0.189205      -0.0950303       -0.0018706     0.000849202          0.81984       -0.520473      0.000755567      -0.0024973
                     -0.00193571     0.000900272         0.598833       -0.276737      0.000248442      -0.0025607         0.690658        0.112128
                        0.820074       -0.520583      0.000360388     -0.00252559        -0.163784         0.12219       0.00153147      0.00269794
                     0.000947832     -0.00253641          0.69045        0.111592       0.00142698      0.00259005        -0.376857       -0.512239
281712                  0.189177      -0.0949794      -0.00186827     0.000850825         0.819669       -0.520764      0.000751656     -0.00249664
                     -0.00193293      0.00090189         0.598046       -0.276895      0.000245104     -0.00255927          0.69147        0.111459
                        0.819904       -0.520874      0.000356714     -0.00252463        -0.163641        0.122304       0.00153508      0.00269366
                     0.000943565     -0.00253573         0.691261        0.110924       0.00142969      0.00258593        -0.377437       -0.511029
281714                  0.189149      -0.0949285      -0.00186593      0.00085244         0.819499       -0.521055      0.000747757     -0.00249598
                     -0.00193015     0.000903501         0.597261       -0.277052      0.000241773     -0.00255784         0.692279        0.110788
                        0.819734       -0.521165      0.000353047     -0.00252366        -0.163498        0.122418       0.00153866      0.00268939
                     0.000939308     -0.00253505         0.692069        0.110255        0.0014324      0.00258181        -0.378013        -0.50982
281716                   0.18912      -0.0948777       -0.0018636     0.000854047         0.819329       -0.521346      0.000743871     -0.00249531
                     -0.00192738     0.000905103         0.596477       -0.277207      0.000238449     -0.00255641         0.693085        0.110117
                        0.819563       -0.521455      0.000349387     -0.00252268        -0.163355        0.122532       0.00154221      0.00268511
                     0.000935061     -0.00253436         0.692874        0.109584       0.00143509       0.0025777        -0.378586       -0.508611
281718                  0.189092      -0.0948269      -0.00186127     0.000855647         0.819158       -0.521637      0.000739998     -0.00249463
                     -0.00192461     0.000906698         0.595694        -0.27736      0.000235132     -0.00255498         0.693889        0.109444
                        0.819393       -0.521745      0.000345734      -0.0025217        -0.163212        0.122645       0.00154575      0.00268085
                     0.000930825     -0.00253367         0.693677        0.108913       0.00143778      0.00257359        -0.379155       -0.507404
281720                  0.189063      -0.0947761      -0.00185893     0.000857238         0.818988       -0.521927      0.000736135     -0.00249395
                     -0.00192185     0.000908285         0.594912       -0.277511      0.000231822     -0.00255355          0.69469        0.108771
                        0.819223       -0.522036      0.000342088     -0.00252071        -0.163069        0.122759       0.00154926      0.00267658
                       0.0009266     -0.00253297         0.694477         0.10824       0.00144045      0.00256948         -0.37972       -0.506197
281722                  0.189035      -0.0947253       -0.0018566     0.000858822         0.818817       -0.522218      0.000732284     -0.00249326
                     -0.00191908     0.000909864         0.594131        -0.27766      0.000228519     -0.00255211         0.695489        0.108096
                        0.819052       -0.522326      0.000338449     -0.00251971        -0.162926        0.122872       0.00155276      0.00267232
                     0.000922385     -0.00253226         0.695275        0.107566       0.00144312      0.00256537        -0.380281       -0.504991
281724                  0.189007      -0.0946746      -0.00185427     0.000860398         0.818646       -0.522508      0.000728443     -0.00249257
                     -0.00191633     0.000911435         0.593352       -0.277807      0.000225224     -0.00255067         0.696284         0.10742
                        0.818881       -0.522616      0.000334818     -0.00251871        -0.162783        0.122985       0.00155624      0.00266806
                     0.000918181     -0.00253156          0.69607        0.106891       0.00144578      0.00256126        -0.380839       -0.503786
281726                  0.188979      -0.0946239      -0.00185193     0.000861966         0.818476       -0.522799      0.000724612     -0.00249186
                     -0.00191357     0.000912998         0.592574       -0.277953      0.000221935     -0.00254923         0.697077        0.106743
                        0.818711       -0.522906      0.000331193      -0.0025177         -0.16264        0.123098        0.0015597      0.00266379
                     0.000913987     -0.00253084         0.696862        0.106215       0.00144843      0.00255716        -0.381393       -0.502581
281728                   0.18895      -0.0945732       -0.0018496     0.000863526         0.818305       -0.523089      0.000720792     -0.00249115
                     -0.00191082     0.000914553         0.591796       -0.278097      0.000218653     -0.00254779         0.697867        0.106065
                         0.81854       -0.523196      0.000327575     -0.00251669        -0.162497        0.123211       0.00156315      0.00265953
                     0.000909804     -0.00253012         0.697651        0.105538       0.00145107      0.00255306        -0.381944       -0.501378
281730                  0.188922      -0.0945225      -0.00184727     0.000865079         0.818134       -0.523379      0.000716981     -0.00249043
                     -0.00190807     0.000916101          0.59102       -0.278239      0.000215379     -0.00254634         0.698655        0.105386
                        0.818369       -0.523486      0.000323964     -0.00251567        -0.162354        0.123324       0.00156658      0.00265527
                     0.000905631      -0.0025294         0.698438         0.10486        0.0014537      0.00254896         -0.38249       -0.500175
281732                  0.188894      -0.0944719      -0.00184494     0.000866624         0.817962       -0.523669      0.000713179      -0.0024897
                     -0.00190533     0.000917641         0.590245       -0.278379      0.000212111      -0.0025449          0.69944        0.104706
                        0.818198       -0.523776       0.00032036     -0.00251465         -0.16221        0.123437          0.00157        0.002651
                     0.000901469     -0.00252867         0.699222        0.104181       0.00145632      0.00254487        -0.383033       -0.498974
281734                  0.188866      -0.0944213      -0.00184261     0.000868161         0.817791       -0.523959      0.000709387     -0.00248897
                     -0.00190259     0.000919173         0.589472       -0.278517      0.000208851     -0.00254345         0.700222        0.104025
                        0.818027       -0.524065      0.000316763     -0.00251362        -0.162067        0.123549        0.0015734      0.00264673
                     0.000897318     -0.00252793         0.700003        0.103501       0.00145893      0.00254077        -0.383573       -0.497773
281736                  0.188838      -0.0943707      -0.00184028     0.000869691          0.81762       -0.524249      0.000705605     -0.00248822
                     -0.00189985     0.000920697         0.588699       -0.278654      0.000205598       -0.002542         0.701002        0.103343
                        0.817856       -0.524355      0.000313173     -0.00251258        -0.161924        0.123662       0.00157679      0.00264246
                     0.000893177     -0.00252719         0.700782         0.10282       0.00146153      0.00253668        -0.384109       -0.496572
281738                   0.18881      -0.0943202      -0.00183795     0.000871213         0.817449       -0.524538      0.000701831     -0.00248747
                     -0.00189712     0.000922214         0.587928       -0.278789      0.000202353     -0.00254054         0.701778         0.10266
                        0.817685       -0.524644      0.000309589     -0.00251154        -0.161781        0.123774       0.00158016      0.00263819
                     0.000889047     -0.00252644         0.701558        0.102137       0.00146412       0.0025326        -0.384641       -0.495373
281740                  0.188781      -0.0942696      -0.00183562     0.000872727         0.817277       -0.524828      0.000698067     -0.00248671
                     -0.00189439     0.000923723         0.587158       -0.278922      0.000199115     -0.00253908         0.702553        0.101976
                        0.817513       -0.524934      0.000306013     -0.00251049        -0.161637        0.123886       0.00158351      0.00263391
                     0.000884927     -0.00252569         0.702331        0.101454        0.0014667      0.00252851        -0.385169       -0.494175
281742                  0.188753      -0.0942191      -0.00183329     0.000874234         0.817106       -0.525117      0.000694312     -0.00248594
                     -0.00189166     0.000925224         0.586389       -0.279053      0.000195884     -0.00253762         0.703324        0.101291
                        0.817342       -0.525223      0.000302443     -0.00250944        -0.161494        0.123998       0.00158685      0.00262963
                     0.000880815     -0.00252492         0.703102         0.10077       0.00146926      0.00252442        -0.385694       -0.492977
281744                  0.188725      -0.0941687      -0.00183096     0.000875733         0.816934       -0.525407      0.000690566     -0.00248516
                     -0.00188894     0.000926718         0.585621       -0.279183      0.000192661     -0.00253616         0.704093        0.100605
                         0.81717       -0.525512       0.00029888     -0.00250838        -0.161351        0.124109       0.00159017      0.00262535
                     0.000876705     -0.00252415          0.70387        0.100085        0.0014718      0.00252033        -0.386216       -0.491781
281746                  0.188697      -0.0941182      -0.00182863     0.000877225         0.816761       -0.525694      0.000686829     -0.00248438
                     -0.00188622     0.000928206         0.584854       -0.279311      0.000189445     -0.00253469         0.704859       0.0999182
                        0.816999       -0.525801      0.000295323     -0.00250732        -0.161207        0.124221       0.00159348      0.00262106
                     0.000872587     -0.00252338         0.704635        0.099399       0.00147431      0.00251623        -0.386733       -0.490585
281748                  0.188669      -0.0940678       -0.0018263      0.00087871          0.81659       -0.525985      0.000683101     -0.00248359
                     -0.00188351     0.000929687         0.584089       -0.279437      0.000186226     -0.00253319         0.705623       0.0992303
                        0.816827        -0.52609      0.000291774     -0.00250625        -0.161064        0.124333       0.00159677      0.00261677
                     0.000868491     -0.00252264         0.705398        0.098712       0.00147686      0.00251153        -0.387248        -0.48939
281750                  0.188642      -0.0940174      -0.00182397     0.000880186         0.816418       -0.526274      0.000679382     -0.00248279
                     -0.00188079     0.000931165         0.583324       -0.279561      0.000182997     -0.00253181         0.706384       0.0985414
                        0.816655       -0.526379      0.000288231     -0.00250517         -0.16092        0.124444       0.00160005      0.00261248
                     0.000864426     -0.00252188         0.706158       0.0980241       0.00147962      0.00250815        -0.387758       -0.488197
281752                  0.188614       -0.093967      -0.00182164     0.000881656         0.816246       -0.526563      0.000675673     -0.00248198
                     -0.00187809     0.000932639         0.582561       -0.279684      0.000179828     -0.00253032         0.707142       0.0978516
                        0.816483       -0.526668      0.000284694     -0.00250409        -0.160777        0.124555        0.0016033      0.00260818
                     0.000860373     -0.00252111         0.706915       0.0973352       0.00148207      0.00250407        -0.388266       -0.487004
281754                  0.188586      -0.0939167      -0.00181932     0.000883118         0.816074       -0.526852      0.000671972     -0.00248117
                      -0.0018754     0.000934096         0.581799       -0.279805      0.000176645     -0.00252884         0.707898       0.0971609
                        0.816311       -0.526956      0.000281163       -0.002503        -0.160633        0.124666       0.00160655      0.00260388
                     0.000856329     -0.00252033          0.70767       0.0966453       0.00148455          0.0025        -0.388769       -0.485812
281756                  0.188558      -0.0938663      -0.00181699     0.000884573         0.815902       -0.527141      0.000668282     -0.00248035
                     -0.00187271      0.00093554         0.581038       -0.279924      0.000173467     -0.00252736         0.708651       0.0964693
                        0.816139       -0.527245      0.000277639     -0.00250191        -0.160489        0.124777       0.00160977      0.00259958
                     0.000852294     -0.00251954         0.708422       0.0959545       0.00148704      0.00249594        -0.389269       -0.484621
281758                   0.18853       -0.093816      -0.00181466     0.000886022         0.815729        -0.52743        0.0006646     -0.00247952
                     -0.00187002     0.000936977         0.580279       -0.280041      0.000170295     -0.00252588         0.709402       0.0957767
                        0.815967       -0.527533      0.000274118     -0.00250081        -0.160346        0.124888       0.00161298      0.00259528
                     0.000848268     -0.00251875         0.709172       0.0952629       0.00148952      0.00249187        -0.389766       -0.483431
281760                  0.188502      -0.0937658      -0.00181233     0.000887469         0.815557       -0.527718      0.000660928     -0.00247869
                     -0.00186733     0.000938408         0.579521       -0.280157      0.000167131      -0.0025244         0.710149       0.0950833
                        0.815795       -0.527822      0.000270607     -0.00249972        -0.160202        0.124999       0.00161617      0.00259097
                     0.000844251     -0.00251796         0.709919       0.0945704         0.001492      0.00248781        -0.390259       -0.482242
281762                  0.188475      -0.0937155      -0.00181001     0.000888902         0.815385       -0.528007      0.000657266     -0.00247785
                     -0.00186464     0.000939832         0.578763       -0.280271      0.000163975     -0.00252291         0.710895        0.094389
                        0.815622        -0.52811       0.00026711     -0.00249861        -0.160058        0.125109       0.00161935      0.00258667
