! TOUCHSTONE file generated by CST MICROWAVE STUDIO
! Date and time: Wed Oct 15 17:31:47 2025
! Project name: Teste_Macro_Metasurface_Nanopilar.cst
! Parameters = {H=600; L_x=140; L_y=80; Lambda=1064; Max_L=200; Min_L=70; PathPara=1; Phi=0; Step_L=10; Theta=0; p=520; phaseX=180; phaseY=0}
! Header version: 2018
! Port assignment regex: !\s*Touchstone port\s*([0-9]+)\s*=\s*(CST MWS port|CST DS port)\s*([0-9]+|Zmin|Zmax)\s*\(\"(.*)\"\)(\s*mode\s*([0-9]+))?.*
! Touchstone port assignment:
! Touchstone port 1 = CST MWS port Zmax ("") mode 1
! Touchstone port 2 = CST MWS port Zmax ("") mode 2
! Touchstone port 3 = CST MWS port Zmin ("") mode 1
! Touchstone port 4 = CST MWS port Zmin ("") mode 2
! S-Parameters are not renormalized. Each port impedance will be approximated by the real part at minimum frequency. The values are described via the [Reference] keyword.
! Default impedance is overridden by [Reference]
[Version] 2.0
# GHz S RI R 376.73
[Number of Ports] 4
[Reference]
376.73 376.73 259.888 259.888 
[Number of Frequencies] 51
[Network Data]
281700               -0.00414159      -0.0804382      0.000404513    -0.000350417        -0.218164       -0.971884     -0.000227108    -0.000564098
                     0.000566393    -0.000314254        0.0759192       -0.145936      0.000400872    -0.000335179        -0.386755        0.897211
                       -0.218015       -0.972105      0.000487126    -0.000320643        0.0305662       0.0747345      -0.00033546    -0.000407279
                    -0.000316811     -0.00054527        -0.386995        0.896734     -0.000413317    -0.000440878       -0.0558931        0.154869
281702               -0.00415347      -0.0804332      0.000404407    -0.000350389        -0.218408        -0.97183     -0.000227358    -0.000564005
                     0.000566301    -0.000314389        0.0758768       -0.145934      0.000400735    -0.000335286        -0.386395        0.897369
                       -0.218259        -0.97205      0.000487184    -0.000320981        0.0305907       0.0747197     -0.000335684    -0.000407227
                    -0.000317009    -0.000545191        -0.386636        0.896893     -0.000413524    -0.000440706       -0.0557967        0.154882
281704               -0.00416536      -0.0804282      0.000404301    -0.000350361        -0.218652       -0.971775     -0.000227608    -0.000563912
                     0.000566209    -0.000314523        0.0758343       -0.145932      0.000400599    -0.000335393        -0.386035        0.897528
                       -0.218502       -0.971995      0.000487242     -0.00032132        0.0306153        0.074705     -0.000335908    -0.000407175
                    -0.000317208    -0.000545111        -0.386276        0.897052      -0.00041373    -0.000440533       -0.0557004        0.154894
281706               -0.00417724      -0.0804232      0.000404196    -0.000350333        -0.218896       -0.971721     -0.000227858    -0.000563819
                     0.000566118    -0.000314658        0.0757918       -0.145931      0.000400463      -0.0003355        -0.385675        0.897687
                       -0.218746        -0.97194      0.000487299    -0.000321659        0.0306398       0.0746902     -0.000336131    -0.000407123
                    -0.000317406     -0.00054503        -0.385916         0.89721     -0.000413936    -0.000440361       -0.0556041        0.154907
281708               -0.00418912      -0.0804182      0.000404091    -0.000350305         -0.21914       -0.971666     -0.000228108    -0.000563727
                     0.000566027    -0.000314792        0.0757494       -0.145929      0.000400328    -0.000335607        -0.385315        0.897845
                        -0.21899       -0.971885      0.000487355    -0.000321998        0.0306643       0.0746754     -0.000336354     -0.00040707
                    -0.000317605    -0.000544949        -0.385557        0.897369     -0.000414142    -0.000440189       -0.0555078        0.154919
281710               -0.00420101      -0.0804132      0.000403988    -0.000350278        -0.219384       -0.971612     -0.000228358    -0.000563634
                     0.000565936    -0.000314927        0.0757069       -0.145927      0.000400193    -0.000335713        -0.384954        0.898003
                       -0.219233       -0.971829      0.000487411    -0.000322337        0.0306888       0.0746606     -0.000336577    -0.000407017
                    -0.000317804    -0.000544867        -0.385197        0.897527     -0.000414347    -0.000440016       -0.0554115        0.154932
281712               -0.00421289      -0.0804082      0.000403884     -0.00035025        -0.219628       -0.971557     -0.000228609    -0.000563542
                     0.000565846    -0.000315061        0.0756644       -0.145926      0.000400059    -0.000335819        -0.384594        0.898161
                       -0.219477       -0.971774      0.000487466    -0.000322676        0.0307133       0.0746458     -0.000336799    -0.000406963
                    -0.000318004    -0.000544784        -0.384837        0.897685     -0.000414552    -0.000439844       -0.0553152        0.154944
281714               -0.00422477      -0.0804032      0.000403781    -0.000350222        -0.219871       -0.971502     -0.000228859    -0.000563449
                     0.000565757    -0.000315196        0.0756219       -0.145924      0.000399925    -0.000335926        -0.384233        0.898319
                       -0.219721       -0.971719       0.00048752    -0.000323015        0.0307378        0.074631     -0.000337021    -0.000406909
                    -0.000318203      -0.0005447        -0.384477        0.897843     -0.000414756    -0.000439671       -0.0552189        0.154957
281716               -0.00423665      -0.0803982      0.000403679    -0.000350194        -0.220115       -0.971447      -0.00022911    -0.000563357
                     0.000565668     -0.00031533        0.0755794       -0.145922      0.000399792    -0.000336031        -0.383873        0.898477
                       -0.219964       -0.971663      0.000487573    -0.000323354        0.0307623       0.0746162     -0.000337243    -0.000406854
                    -0.000318402    -0.000544616        -0.384117        0.898001      -0.00041496    -0.000439499       -0.0551226        0.154969
281718               -0.00424853      -0.0803932      0.000403577    -0.000350166        -0.220359       -0.971392      -0.00022936    -0.000563265
                     0.000565579    -0.000315464         0.075537        -0.14592      0.000399658    -0.000336137        -0.383512        0.898634
                       -0.220208       -0.971608      0.000487626    -0.000323693        0.0307868       0.0746014     -0.000337464    -0.000406799
                    -0.000318602    -0.000544531        -0.383757        0.898159     -0.000415164    -0.000439327       -0.0550263        0.154981
281720               -0.00426042      -0.0803882      0.000403476    -0.000350139        -0.220603       -0.971338     -0.000229611    -0.000563172
                     0.000565491    -0.000315598        0.0754945       -0.145919      0.000399525    -0.000336243        -0.383151        0.898792
                       -0.220452       -0.971552      0.000487678    -0.000324032        0.0308113       0.0745866     -0.000337685    -0.000406743
                    -0.000318802    -0.000544446        -0.383397        0.898317     -0.000415368    -0.000439155         -0.05493        0.154993
281722                -0.0042723      -0.0803832      0.000403376    -0.000350111        -0.220847       -0.971283     -0.000229862     -0.00056308
                     0.000565404    -0.000315732         0.075452       -0.145917      0.000399392    -0.000336348         -0.38279        0.898949
                       -0.220695       -0.971496      0.000487729    -0.000324371        0.0308358       0.0745718     -0.000337905    -0.000406687
                    -0.000319002     -0.00054436        -0.383037        0.898474     -0.000415571    -0.000438982       -0.0548338        0.155005
281724               -0.00428418      -0.0803781      0.000403276    -0.000350083        -0.221091       -0.971227     -0.000230113    -0.000562988
                     0.000565317    -0.000315867        0.0754095       -0.145915      0.000399259    -0.000336453         -0.38243        0.899106
                       -0.220939       -0.971441      0.000487779     -0.00032471        0.0308602        0.074557     -0.000338125    -0.000406631
                    -0.000319202    -0.000544273        -0.382676        0.898631     -0.000415773     -0.00043881       -0.0547375        0.155017
281726               -0.00429606      -0.0803731      0.000403176    -0.000350055        -0.221334       -0.971172     -0.000230365    -0.000562896
                      0.00056523    -0.000316001         0.075367       -0.145913      0.000399127    -0.000336558        -0.382069        0.899263
                       -0.221182       -0.971385      0.000487829    -0.000325049        0.0308847       0.0745421     -0.000338345    -0.000406574
                    -0.000319402    -0.000544185        -0.382316        0.898789     -0.000415976    -0.000438638       -0.0546413        0.155029
281728               -0.00430794      -0.0803681      0.000403077    -0.000350028        -0.221578       -0.971117     -0.000230616    -0.000562805
                     0.000565144    -0.000316135        0.0753245       -0.145912      0.000398994    -0.000336663        -0.381708         0.89942
                       -0.221426       -0.971329      0.000487878    -0.000325389        0.0309091       0.0745273     -0.000338564    -0.000406516
                    -0.000319603    -0.000544097        -0.381956        0.898946     -0.000416178    -0.000438467        -0.054545        0.155041
281730               -0.00431983      -0.0803631      0.000402979        -0.00035        -0.221822       -0.971062     -0.000230867    -0.000562713
                     0.000565058    -0.000316269         0.075282        -0.14591      0.000398861    -0.000336767        -0.381347        0.899577
                       -0.221669       -0.971273      0.000487926    -0.000325728        0.0309336       0.0745124     -0.000338783    -0.000406458
                    -0.000319803    -0.000544009        -0.381595        0.899103      -0.00041638    -0.000438295       -0.0544488        0.155053
281732               -0.00433171      -0.0803581      0.000402881    -0.000349972        -0.222066       -0.971007     -0.000231119    -0.000562621
                     0.000564973    -0.000316403        0.0752395       -0.145908      0.000398729    -0.000336872        -0.380986        0.899734
                       -0.221913       -0.971217      0.000487974    -0.000326067         0.030958       0.0744976     -0.000339002      -0.0004064
                    -0.000320004    -0.000543919        -0.381234        0.899259     -0.000416581    -0.000438123       -0.0543525        0.155065
281734               -0.00434359      -0.0803531      0.000402783    -0.000349944        -0.222309       -0.970951      -0.00023137     -0.00056253
                     0.000564888    -0.000316537         0.075197       -0.145906      0.000398597    -0.000336976        -0.380624         0.89989
                       -0.222157       -0.971161       0.00048802    -0.000326407        0.0309824       0.0744827     -0.000339221    -0.000406341
                    -0.000320204     -0.00054383        -0.380874        0.899416     -0.000416782    -0.000437952       -0.0542563        0.155076
281736               -0.00435547      -0.0803481      0.000402687    -0.000349917        -0.222553       -0.970896     -0.000231621    -0.000562438
                     0.000564804    -0.000316671        0.0751545       -0.145904      0.000398464     -0.00033708        -0.380263        0.900047
                         -0.2224       -0.971105      0.000488066    -0.000326746        0.0310068       0.0744678      -0.00033944    -0.000406281
                    -0.000320405    -0.000543739        -0.380513        0.899572     -0.000416983     -0.00043778       -0.0541601        0.155088
281738               -0.00436735       -0.080343       0.00040259    -0.000349889        -0.222797        -0.97084     -0.000231872    -0.000562347
                      0.00056472    -0.000316805         0.075112       -0.145902      0.000398332    -0.000337184        -0.379902        0.900203
                       -0.222644       -0.971049      0.000488112    -0.000327085        0.0310313       0.0744529      -0.00033966     -0.00040622
                    -0.000320606    -0.000543648        -0.380152        0.899729     -0.000417183    -0.000437609       -0.0540639          0.1551
281740               -0.00437923       -0.080338      0.000402495    -0.000349862        -0.223041       -0.970785     -0.000232121    -0.000562254
                     0.000564636    -0.000316939        0.0750695       -0.145901        0.0003982    -0.000337288        -0.379541        0.900359
                       -0.222887       -0.970993      0.000488156    -0.000327425        0.0310557        0.074438     -0.000339884    -0.000406159
                    -0.000320807    -0.000543557        -0.379792        0.899885     -0.000417384    -0.000437438       -0.0539677        0.155111
281742               -0.00439111       -0.080333      0.000402399    -0.000349834        -0.223284       -0.970729     -0.000232367    -0.000562157
                     0.000564554    -0.000317073         0.075027       -0.145899      0.000398068    -0.000337391        -0.379179        0.900514
                       -0.223131       -0.970937        0.0004882    -0.000327764        0.0310801       0.0744232     -0.000340119    -0.000406105
                    -0.000321008    -0.000543464        -0.379431        0.900041     -0.000417584    -0.000437267       -0.0538715        0.155122
281744               -0.00440299       -0.080328      0.000402305    -0.000349806        -0.223528       -0.970674     -0.000232632    -0.000562044
                     0.000564471    -0.000317208        0.0749845       -0.145897      0.000397935    -0.000337495        -0.378817         0.90067
                       -0.223374        -0.97088      0.000488243    -0.000328104        0.0311044       0.0744082     -0.000340334    -0.000406097
                    -0.000321209    -0.000543372         -0.37907        0.900197     -0.000417784    -0.000437096       -0.0537753        0.155134
281746               -0.00441487      -0.0803229      0.000402211    -0.000349779        -0.223772       -0.970618       -0.0002329    -0.000561968
                     0.000564389    -0.000317342         0.074942       -0.145895      0.000397803    -0.000337598        -0.378456        0.900826
                       -0.223617       -0.970824      0.000488285    -0.000328443        0.0311288       0.0743933     -0.000340502    -0.000406026
                     -0.00032141    -0.000543278        -0.378709        0.900353     -0.000417983    -0.000436926       -0.0536791        0.155145
281748               -0.00442675      -0.0803179      0.000402117    -0.000349751        -0.224015       -0.970562     -0.000233151    -0.000561884
                     0.000564307    -0.000317476        0.0748995       -0.145893      0.000397671    -0.000337701        -0.378094        0.900982
                       -0.223861       -0.970768      0.000488327    -0.000328783        0.0311532       0.0743784     -0.000340711    -0.000405949
                    -0.000321612    -0.000543184        -0.378347        0.900508     -0.000418183    -0.000436755       -0.0535829        0.155156
281750               -0.00443863      -0.0803129      0.000402024    -0.000349724        -0.224259       -0.970506     -0.000233403    -0.000561796
                     0.000564226     -0.00031761         0.074857       -0.145891      0.000397539    -0.000337804        -0.377732        0.901137
                       -0.224104       -0.970711      0.000488368    -0.000329123        0.0311776       0.0743635     -0.000340925    -0.000405881
                    -0.000321813     -0.00054309        -0.377986        0.900664     -0.000418382    -0.000436585       -0.0534867        0.155168
281752               -0.00445051      -0.0803079      0.000401932    -0.000349696        -0.224502        -0.97045     -0.000233656    -0.000561706
                     0.000564145    -0.000317745        0.0748145       -0.145889      0.000397407    -0.000337907        -0.377371        0.901292
                       -0.224348       -0.970655      0.000488408    -0.000329462        0.0312019       0.0743486     -0.000341139    -0.000405815
                    -0.000322014    -0.000542995        -0.377625        0.900819     -0.000418581    -0.000436415       -0.0533906        0.155179
281754               -0.00446239      -0.0803028       0.00040184    -0.000349669        -0.224746       -0.970394     -0.000233909    -0.000561616
                     0.000564065    -0.000317879         0.074772       -0.145887      0.000397274     -0.00033801        -0.377009        0.901447
                       -0.224591       -0.970598      0.000488447    -0.000329802        0.0312263       0.0743336     -0.000341351    -0.000405751
                    -0.000322216      -0.0005429        -0.377264        0.900974      -0.00041878    -0.000436245       -0.0532944         0.15519
281756               -0.00447427      -0.0802978      0.000401748    -0.000349641         -0.22499       -0.970338     -0.000234163    -0.000561526
                     0.000563985    -0.000318014        0.0747295       -0.145885      0.000397142    -0.000338113        -0.376647        0.901602
                       -0.224835       -0.970541      0.000488486    -0.000330141        0.0312506       0.0743187     -0.000341563    -0.000405687
                    -0.000322417    -0.000542804        -0.376902        0.901129     -0.000418978    -0.000436075       -0.0531982        0.155201
281758               -0.00448615      -0.0802928      0.000401657    -0.000349614        -0.225233       -0.970282     -0.000234417    -0.000561435
                     0.000563906    -0.000318149        0.0746869       -0.145883       0.00039701    -0.000338215        -0.376285        0.901757
                       -0.225078       -0.970485      0.000488524    -0.000330481         0.031275       0.0743037     -0.000341775    -0.000405623
                    -0.000322619    -0.000542707        -0.376541        0.901284     -0.000419177    -0.000435906       -0.0531021        0.155212
281760               -0.00449803      -0.0802877      0.000401567    -0.000349586        -0.225477       -0.970226     -0.000234672    -0.000561345
                     0.000563827    -0.000318283        0.0746444       -0.145881      0.000396877    -0.000338318        -0.375923        0.901912
                       -0.225321       -0.970428      0.000488562    -0.000330821        0.0312993       0.0742888     -0.000341985    -0.000405559
                     -0.00032282     -0.00054261        -0.376179        0.901439     -0.000419375    -0.000435736        -0.053006        0.155222
281762               -0.00450991      -0.0802827      0.000401477    -0.000349559         -0.22572        -0.97017     -0.000234927    -0.000561255
                     0.000563748    -0.000318418        0.0746019       -0.145879      0.000396745     -0.00033842        -0.375561        0.902066
                       -0.225565       -0.970371      0.000488598     -0.00033116        0.0313236       0.0742738     -0.000342195    -0.000405494
