! TOUCHSTONE file generated by CST MICROWAVE STUDIO
! Date and time: Wed Oct 15 17:27:57 2025
! Project name: Teste_Macro_Metasurface_Nanopilar.cst
! Parameters = {H=600; L_x=70; L_y=165; Lambda=1064; Max_L=200; Min_L=70; PathPara=1; Phi=0; Step_L=10; Theta=0; p=520; phaseX=180; phaseY=0}
! Header version: 2018
! Port assignment regex: !\s*Touchstone port\s*([0-9]+)\s*=\s*(CST MWS port|CST DS port)\s*([0-9]+|Zmin|Zmax)\s*\(\"(.*)\"\)(\s*mode\s*([0-9]+))?.*
! Touchstone port assignment:
! Touchstone port 1 = CST MWS port Zmax ("") mode 1
! Touchstone port 2 = CST MWS port Zmax ("") mode 2
! Touchstone port 3 = CST MWS port Zmin ("") mode 1
! Touchstone port 4 = CST MWS port Zmin ("") mode 2
! S-Parameters are not renormalized. Each port impedance will be approximated by the real part at minimum frequency. The values are described via the [Reference] keyword.
! Default impedance is overridden by [Reference]
[Version] 2.0
# GHz S RI R 376.73
[Number of Ports] 4
[Reference]
376.73 376.73 259.888 259.888 
[Number of Frequencies] 51
[Network Data]
281700                -0.0905191      -0.0277179      0.000247672      0.00029034         0.450047        0.878272      8.63189e-05    -8.03588e-05
                     0.000197015     0.000176261        0.0120739       -0.103393     -9.34116e-05      7.8311e-06       -0.0691102       -0.991738
                        0.450241        0.877883     -9.16184e-05     8.84702e-05       -0.0325219       0.0918438     -4.43849e-05     0.000315854
                      4.9506e-05     -4.9865e-05       -0.0693259       -0.991595     -6.42079e-05     0.000247529        0.0262635        0.100808
281702                -0.0905249      -0.0276667      0.000247605     0.000290314         0.450389        0.878098      8.62805e-05     -8.0375e-05
                     0.000197037     0.000176154        0.0120615        -0.10339     -9.34064e-05     7.84932e-06       -0.0693517       -0.991722
                        0.450582        0.877709     -9.15727e-05     8.84552e-05       -0.0324956       0.0918435      -4.4269e-05     0.000315784
                     4.94933e-05    -4.98581e-05       -0.0695673       -0.991579     -6.40917e-05      0.00024749        0.0262999        0.100794
281704                -0.0905306      -0.0276155      0.000247538     0.000290289          0.45073        0.877924      8.62421e-05    -8.03912e-05
                     0.000197059     0.000176047        0.0120491       -0.103387     -9.34013e-05     7.86753e-06       -0.0695932       -0.991705
                        0.450924        0.877535      -9.1527e-05     8.84404e-05       -0.0324694       0.0918432     -4.41533e-05     0.000315713
                     4.94807e-05    -4.98513e-05       -0.0698086       -0.991562     -6.39755e-05     0.000247452        0.0263362         0.10078
281706                -0.0905363      -0.0275643       0.00024747     0.000290263         0.451072        0.877749      8.62036e-05    -8.04073e-05
                     0.000197082      0.00017594        0.0120367       -0.103384     -9.33961e-05     7.88575e-06       -0.0698347       -0.991689
                        0.451266         0.87736     -9.14812e-05     8.84259e-05       -0.0324432       0.0918429     -4.40376e-05     0.000315643
                     4.94681e-05    -4.98444e-05       -0.0700501       -0.991546     -6.38593e-05     0.000247413        0.0263726        0.100766
281708                 -0.090542      -0.0275131      0.000247403     0.000290238         0.451413        0.877575      8.61651e-05    -8.04234e-05
                     0.000197104     0.000175834        0.0120244       -0.103381      -9.3391e-05     7.90396e-06       -0.0700762       -0.991672
                        0.451607        0.877185     -9.14352e-05     8.84115e-05        -0.032417       0.0918426      -4.3922e-05     0.000315572
                     4.94555e-05    -4.98376e-05       -0.0702913       -0.991529     -6.37432e-05     0.000247374         0.026409        0.100752
281710                -0.0905477      -0.0274619      0.000247336     0.000290213         0.451754          0.8774      8.61266e-05    -8.04394e-05
                     0.000197126     0.000175727         0.012012       -0.103378     -9.33859e-05     7.92217e-06       -0.0703176       -0.991655
                        0.451948        0.877011     -9.13891e-05     8.83974e-05       -0.0323908       0.0918424     -4.38064e-05     0.000315501
                      4.9443e-05    -4.98308e-05       -0.0705325       -0.991512     -6.36271e-05     0.000247334        0.0264453        0.100738
281712                -0.0905534      -0.0274107      0.000247268     0.000290188         0.452096        0.877225      8.60881e-05    -8.04554e-05
                     0.000197148      0.00017562        0.0119996       -0.103375     -9.33807e-05     7.94038e-06       -0.0705591       -0.991639
                         0.45229        0.876836     -9.13425e-05     8.83834e-05       -0.0323647       0.0918421      -4.3691e-05      0.00031543
                     4.94306e-05     -4.9824e-05       -0.0707738       -0.991495      -6.3511e-05     0.000247295        0.0264817        0.100723
281714                -0.0905591      -0.0273595      0.000247201     0.000290163         0.452437         0.87705      8.60496e-05    -8.04714e-05
                      0.00019717     0.000175513        0.0119872       -0.103372     -9.33756e-05     7.95858e-06       -0.0708006       -0.991622
                        0.452631        0.876661     -9.12956e-05     8.83695e-05       -0.0323385       0.0918418     -4.35756e-05     0.000315358
                     4.94182e-05    -4.98173e-05       -0.0710151       -0.991478      -6.3395e-05     0.000247256         0.026518        0.100709
281716                -0.0905647      -0.0273083      0.000247134     0.000290138         0.452778        0.876875      8.60111e-05    -8.04873e-05
                     0.000197191     0.000175406        0.0119748       -0.103368     -9.33705e-05     7.97679e-06       -0.0710421       -0.991605
                        0.452972        0.876486     -9.12481e-05     8.83553e-05       -0.0323124       0.0918415     -4.34603e-05     0.000315287
                     4.94059e-05    -4.98106e-05       -0.0712565       -0.991461      -6.3279e-05     0.000247216        0.0265544        0.100695
281718                -0.0905704      -0.0272571      0.000247066     0.000290112         0.453119          0.8767      8.59725e-05    -8.05032e-05
                     0.000197213       0.0001753        0.0119624       -0.103365     -9.33653e-05     7.99499e-06       -0.0712835       -0.991588
                        0.453313        0.876311     -9.12002e-05     8.83406e-05       -0.0322862       0.0918412     -4.33451e-05     0.000315216
                     4.93936e-05    -4.98038e-05       -0.0714978       -0.991444      -6.3163e-05     0.000247177        0.0265907        0.100681
281720                 -0.090576       -0.027206      0.000246997     0.000290087          0.45346        0.876525       8.5934e-05     -8.0519e-05
                     0.000197234     0.000175193          0.01195       -0.103362     -9.33602e-05      8.0132e-06        -0.071525       -0.991571
                        0.453654        0.876135     -9.11522e-05     8.83254e-05       -0.0322601        0.091841     -4.32299e-05     0.000315144
                     4.93814e-05    -4.97972e-05       -0.0717391       -0.991427     -6.30471e-05     0.000247137         0.026627        0.100667
281722                -0.0905816      -0.0271548      0.000246929     0.000290062         0.453801        0.876349      8.58954e-05    -8.05348e-05
                     0.000197256     0.000175086        0.0119376       -0.103359     -9.33551e-05     8.03141e-06       -0.0717664       -0.991554
                        0.453995         0.87596     -9.11045e-05     8.83095e-05        -0.032234       0.0918407     -4.31148e-05     0.000315072
                     4.93692e-05    -4.97905e-05       -0.0719804        -0.99141     -6.29312e-05     0.000247097        0.0266633        0.100652
281724                -0.0905872      -0.0271036       0.00024686     0.000290038         0.454142        0.876174      8.58569e-05    -8.05505e-05
                     0.000197277     0.000174979        0.0119253       -0.103356       -9.335e-05     8.04961e-06       -0.0720079       -0.991537
                        0.454336        0.875784     -9.10571e-05     8.82931e-05       -0.0322079       0.0918404     -4.29998e-05     0.000315001
                     4.93571e-05    -4.97838e-05       -0.0722217       -0.991393     -6.28154e-05     0.000247057        0.0266996        0.100638
281726                -0.0905928      -0.0270524      0.000246791     0.000290014         0.454483        0.875998      8.58183e-05    -8.05663e-05
                     0.000197298     0.000174873        0.0119129       -0.103353     -9.33449e-05     8.06782e-06       -0.0722493        -0.99152
                        0.454677        0.875608     -9.10103e-05     8.82766e-05       -0.0321818       0.0918402     -4.28849e-05     0.000314929
                     4.93451e-05    -4.97771e-05        -0.072463       -0.991376     -6.26995e-05     0.000247017        0.0267359        0.100624
281728                -0.0905983      -0.0270012      0.000246722     0.000289991         0.454823        0.875822      8.57797e-05    -8.05819e-05
                     0.000197319     0.000174766        0.0119005        -0.10335     -9.33398e-05     8.08602e-06       -0.0724908       -0.991502
                        0.455017        0.875432     -9.09639e-05       8.826e-05       -0.0321557       0.0918399     -4.27701e-05     0.000314857
                     4.93331e-05    -4.97705e-05       -0.0727043       -0.991359     -6.25837e-05     0.000246977        0.0267722        0.100609
281730                -0.0906039        -0.02695      0.000246653     0.000289968         0.455164        0.875646      8.57411e-05    -8.05976e-05
                      0.00019734     0.000174659        0.0118881       -0.103347     -9.33347e-05     8.10423e-06       -0.0727322       -0.991485
                        0.455358        0.875256      -9.0918e-05     8.82436e-05       -0.0321297       0.0918396     -4.26553e-05     0.000314784
                     4.93211e-05    -4.97639e-05       -0.0729456       -0.991341      -6.2468e-05     0.000246937        0.0268085        0.100595
281732                -0.0906094      -0.0268988      0.000246585     0.000289945         0.455505         0.87547      8.57025e-05    -8.06132e-05
                     0.000197361     0.000174552        0.0118758       -0.103344     -9.33296e-05     8.12245e-06       -0.0729737       -0.991468
                        0.455698         0.87508     -9.08724e-05     8.82273e-05       -0.0321036       0.0918394     -4.25406e-05     0.000314712
                     4.93092e-05    -4.97572e-05       -0.0731869       -0.991324     -6.23523e-05     0.000246897        0.0268448        0.100581
281734                 -0.090615      -0.0268476      0.000246516     0.000289922         0.455845        0.875294      8.56638e-05    -8.06287e-05
                     0.000197382     0.000174446        0.0118634        -0.10334     -9.33246e-05     8.14066e-06       -0.0732151        -0.99145
                        0.456039        0.874904      -9.0827e-05     8.82113e-05       -0.0320776       0.0918391      -4.2426e-05      0.00031464
                     4.92974e-05    -4.97506e-05       -0.0734282       -0.991306     -6.22366e-05     0.000246856        0.0268811        0.100567
281736                -0.0906205      -0.0267964      0.000246448     0.000289899         0.456186        0.875117      8.56252e-05    -8.06442e-05
                     0.000197402     0.000174339         0.011851       -0.103337     -9.33195e-05     8.15888e-06       -0.0734565       -0.991433
                        0.456379        0.874728     -9.07818e-05     8.81954e-05       -0.0320516       0.0918389     -4.23114e-05     0.000314567
                     4.92856e-05     -4.9744e-05       -0.0736694       -0.991289     -6.21209e-05     0.000246816        0.0269173        0.100552
281738                 -0.090626      -0.0267452      0.000246379     0.000289876         0.456526        0.874941      8.55866e-05    -8.06597e-05
                     0.000197423     0.000174232        0.0118386       -0.103334     -9.33145e-05      8.1771e-06        -0.073698       -0.991415
                         0.45672        0.874551     -9.07367e-05     8.81798e-05       -0.0320256       0.0918387     -4.21969e-05     0.000314495
                     4.92739e-05    -4.97374e-05       -0.0739107       -0.991271     -6.20053e-05     0.000246775        0.0269536        0.100538
281740                -0.0906314       -0.026694       0.00024631     0.000289854         0.456866        0.874764      8.55479e-05    -8.06752e-05
                     0.000197443     0.000174126        0.0118262       -0.103331     -9.33094e-05     8.19533e-06       -0.0739394       -0.991398
                         0.45706        0.874374     -9.06918e-05     8.81643e-05       -0.0319996       0.0918384     -4.20825e-05     0.000314422
                     4.92622e-05    -4.97308e-05        -0.074152       -0.991254     -6.18897e-05     0.000246734        0.0269898        0.100523
281742                -0.0906369      -0.0266428      0.000246242     0.000289832         0.457206        0.874588      8.55093e-05    -8.06906e-05
                     0.000197464     0.000174019        0.0118139       -0.103328     -9.33044e-05     8.21356e-06       -0.0741808        -0.99138
                          0.4574        0.874197     -9.06469e-05     8.81489e-05       -0.0319736       0.0918382     -4.19682e-05     0.000314349
                     4.92506e-05    -4.97242e-05       -0.0743933       -0.991236     -6.17741e-05     0.000246693        0.0270261        0.100509
281744                -0.0906424      -0.0265916      0.000246173     0.000289809         0.457546        0.874411      8.54706e-05    -8.07059e-05
                     0.000197484     0.000173912        0.0118015       -0.103325     -9.32994e-05      8.2318e-06       -0.0744222       -0.991362
                         0.45774        0.874021     -9.06021e-05     8.81336e-05       -0.0319476        0.091838     -4.18539e-05     0.000314276
                      4.9239e-05    -4.97176e-05       -0.0746345       -0.991218     -6.16586e-05     0.000246652        0.0270623        0.100495
281746                -0.0906478      -0.0265405      0.000246104     0.000289787         0.457887        0.874234      8.54319e-05    -8.07212e-05
                     0.000197504     0.000173805        0.0117891       -0.103322     -9.32943e-05     8.25005e-06       -0.0746636       -0.991345
                         0.45808        0.873843     -9.05574e-05     8.81185e-05       -0.0319216       0.0918377     -4.17397e-05     0.000314203
                     4.92275e-05     -4.9711e-05       -0.0748758         -0.9912     -6.15431e-05     0.000246611        0.0270986         0.10048
281748                -0.0906532      -0.0264893      0.000246035     0.000289766         0.458226        0.874057      8.53932e-05    -8.07365e-05
                     0.000197524     0.000173699        0.0117768       -0.103319     -9.32893e-05     8.26831e-06       -0.0749051       -0.991327
                         0.45842        0.873666     -9.05128e-05     8.81034e-05       -0.0318957       0.0918375     -4.16256e-05     0.000314129
                      4.9216e-05    -4.97044e-05        -0.075117       -0.991182     -6.14277e-05      0.00024657        0.0271348        0.100466
281750                -0.0906587      -0.0264381      0.000245966     0.000289744         0.458566        0.873879      8.53545e-05    -8.07518e-05
                     0.000197544     0.000173592        0.0117644       -0.103316     -9.32844e-05     8.28658e-06       -0.0751465       -0.991309
                         0.45876        0.873489     -9.04683e-05     8.80885e-05       -0.0318697       0.0918373     -4.15116e-05     0.000314056
                     4.92046e-05    -4.96978e-05       -0.0753583       -0.991164     -6.13123e-05     0.000246529         0.027171        0.100451
281752                -0.0906641      -0.0263869      0.000245897     0.000289722         0.458906        0.873702      8.53158e-05     -8.0767e-05
                     0.000197564     0.000173485         0.011752       -0.103312     -9.32794e-05     8.30486e-06       -0.0753879       -0.991291
                          0.4591        0.873311     -9.04239e-05     8.80736e-05       -0.0318438       0.0918371     -4.13976e-05     0.000313982
                     4.91932e-05    -4.96911e-05       -0.0755995       -0.991146     -6.11969e-05     0.000246487        0.0272072        0.100437
281754                -0.0906694      -0.0263357      0.000245828     0.000289701         0.459246        0.873524      8.52771e-05    -8.07821e-05
                     0.000197583     0.000173378        0.0117396       -0.103309     -9.32744e-05     8.32316e-06       -0.0756293       -0.991273
                         0.45944        0.873134     -9.03796e-05     8.80587e-05       -0.0318179       0.0918368     -4.12837e-05     0.000313909
                     4.91819e-05    -4.96845e-05       -0.0758408       -0.991128     -6.10815e-05     0.000246446        0.0272434        0.100423
281756                -0.0906748      -0.0262845      0.000245759      0.00028968         0.459586        0.873347      8.52384e-05    -8.07972e-05
                     0.000197603     0.000173271        0.0117273       -0.103306     -9.32695e-05     8.34147e-06       -0.0758707       -0.991255
                         0.45978        0.872956     -9.03353e-05     8.80439e-05        -0.031792       0.0918366     -4.11699e-05     0.000313835
                     4.91707e-05    -4.96777e-05        -0.076082        -0.99111     -6.09662e-05     0.000246404        0.0272796        0.100408
281758                -0.0906802      -0.0262333       0.00024569     0.000289659         0.459925        0.873169      8.51996e-05    -8.08123e-05
                     0.000197622     0.000173164        0.0117149       -0.103303     -9.32646e-05     8.35981e-06       -0.0761121       -0.991237
                        0.460119        0.872778     -9.02912e-05     8.80292e-05       -0.0317661       0.0918364     -4.10561e-05     0.000313761
                     4.91597e-05    -4.96708e-05       -0.0763232       -0.991092     -6.08509e-05     0.000246362        0.0273158        0.100394
281760                -0.0906855      -0.0261821       0.00024562     0.000289638         0.460265        0.872991      8.51609e-05    -8.08274e-05
                      0.00019764     0.000173058        0.0117025         -0.1033     -9.32597e-05     8.37817e-06       -0.0763534       -0.991219
                        0.460459          0.8726     -9.02472e-05     8.80145e-05       -0.0317402       0.0918362     -4.09424e-05     0.000313687
                     4.91507e-05    -4.96643e-05       -0.0765645       -0.991074     -6.07357e-05      0.00024632         0.027352        0.100379
281762                -0.0906908       -0.026131      0.000245551     0.000289617         0.460604        0.872813      8.51221e-05    -8.08423e-05
                     0.000197659     0.000172953        0.0116902       -0.103297     -9.32548e-05     8.39657e-06       -0.0765948       -0.991201
                        0.460798        0.872422     -9.02033e-05     8.79998e-05       -0.0317143        0.091836     -4.08288e-05     0.000313613
