! TOUCHSTONE file generated by CST MICROWAVE STUDIO
! Date and time: Wed Oct 15 17:30:04 2025
! Project name: Teste_Macro_Metasurface_Nanopilar.cst
! Parameters = {H=600; L_x=110; L_y=85; Lambda=1064; Max_L=200; Min_L=70; PathPara=1; Phi=0; Step_L=10; Theta=0; p=520; phaseX=180; phaseY=0}
! Header version: 2018
! Port assignment regex: !\s*Touchstone port\s*([0-9]+)\s*=\s*(CST MWS port|CST DS port)\s*([0-9]+|Zmin|Zmax)\s*\(\"(.*)\"\)(\s*mode\s*([0-9]+))?.*
! Touchstone port assignment:
! Touchstone port 1 = CST MWS port Zmax ("") mode 1
! Touchstone port 2 = CST MWS port Zmax ("") mode 2
! Touchstone port 3 = CST MWS port Zmin ("") mode 1
! Touchstone port 4 = CST MWS port Zmin ("") mode 2
! S-Parameters are not renormalized. Each port impedance will be approximated by the real part at minimum frequency. The values are described via the [Reference] keyword.
! Default impedance is overridden by [Reference]
[Version] 2.0
# GHz S RI R 376.73
[Number of Ports] 4
[Reference]
376.73 376.73 259.888 259.888 
[Number of Frequencies] 51
[Network Data]
281700                0.00282696      -0.0855908     -0.000423752     9.21975e-05        -0.166359       -0.981669      0.000258861    -6.12913e-05
                    -0.000537404      8.6093e-05        0.0171041       0.0214077      0.000249032    -0.000115037        -0.669677       -0.738829
                       -0.166542       -0.981354      0.000370563    -0.000225283        0.0307575       0.0800982     -0.000326469     0.000222926
                     0.000389804    -9.22636e-05        -0.669889       -0.738788     -0.000308624     0.000261483       -0.0198813      -0.0182405
281702                0.00281516      -0.0855854     -0.000423625      9.2307e-05        -0.166604       -0.981628      0.000258835    -6.14165e-05
                     -0.00053732     8.62539e-05        0.0171057       0.0214203      0.000249016    -0.000115123        -0.669887       -0.738638
                       -0.166787       -0.981313       0.00037049    -0.000225388        0.0307845       0.0800817     -0.000326303     0.000222959
                     0.000389824     -9.2365e-05        -0.670099       -0.738597      -0.00030851     0.000261501       -0.0199041       -0.018232
281704                0.00280336      -0.0855801     -0.000423497     9.24164e-05        -0.166849       -0.981587      0.000258809    -6.15418e-05
                    -0.000537236     8.64149e-05        0.0171074       0.0214328      0.000248999    -0.000115209        -0.670097       -0.738447
                       -0.167031       -0.981272      0.000370418    -0.000225493        0.0308115       0.0800652     -0.000326138     0.000222992
                     0.000389845    -9.24666e-05        -0.670309       -0.738406     -0.000308396      0.00026152       -0.0199269      -0.0182235
281706                0.00279156      -0.0855747     -0.000423369     9.25257e-05        -0.167094       -0.981546      0.000258784    -6.16669e-05
                    -0.000537152     8.65759e-05        0.0171091       0.0214454      0.000248982    -0.000115295        -0.670306       -0.738255
                       -0.167276        -0.98123      0.000370345    -0.000225598        0.0308385       0.0800487     -0.000325972     0.000223024
                     0.000389865    -9.25681e-05        -0.670518       -0.738215     -0.000308282     0.000261538       -0.0199496      -0.0182149
281708                0.00277977      -0.0855694     -0.000423241     9.26349e-05        -0.167339       -0.981504      0.000258758     -6.1792e-05
                    -0.000537068     8.67369e-05        0.0171107       0.0214579      0.000248966     -0.00011538        -0.670516       -0.738064
                       -0.167521       -0.981189      0.000370272    -0.000225703        0.0308654       0.0800322     -0.000325807     0.000223057
                     0.000389886    -9.26698e-05        -0.670728       -0.738024     -0.000308169     0.000261557       -0.0199724      -0.0182064
281710                0.00276797       -0.085564     -0.000423114      9.2744e-05        -0.167584       -0.981463      0.000258732     -6.1917e-05
                    -0.000536984      8.6898e-05        0.0171124       0.0214704       0.00024895    -0.000115466        -0.670725       -0.737873
                       -0.167766       -0.981148      0.000370199    -0.000225808        0.0308924       0.0800157     -0.000325641      0.00022309
                     0.000389906    -9.27715e-05        -0.670938       -0.737833     -0.000308055     0.000261575       -0.0199951      -0.0181978
281712                0.00275618      -0.0855586     -0.000422986     9.28531e-05        -0.167829       -0.981422      0.000258706    -6.20419e-05
                    -0.000536899      8.7059e-05        0.0171141        0.021483      0.000248934    -0.000115553        -0.670934       -0.737682
                       -0.168011       -0.981106      0.000370127    -0.000225913        0.0309194       0.0799992     -0.000325476     0.000223123
                     0.000389926    -9.28732e-05        -0.671148       -0.737642     -0.000307941     0.000261593       -0.0200179      -0.0181892
281714                0.00274439      -0.0855533     -0.000422858      9.2962e-05        -0.168074       -0.981381      0.000258681    -6.21667e-05
                    -0.000536814       8.722e-05        0.0171157       0.0214955      0.000248918    -0.000115639        -0.671144       -0.737491
                       -0.168255       -0.981065      0.000370054    -0.000226018        0.0309463       0.0799826     -0.000325311     0.000223156
                     0.000389946     -9.2975e-05        -0.671357       -0.737451     -0.000307827     0.000261612       -0.0200406      -0.0181806
281716                0.00273259      -0.0855479      -0.00042273     9.30708e-05        -0.168319       -0.981339      0.000258655    -6.22915e-05
                    -0.000536729     8.73811e-05        0.0171174       0.0215081      0.000248902    -0.000115725        -0.671353       -0.737299
                         -0.1685       -0.981023      0.000369981    -0.000226123        0.0309733       0.0799661     -0.000325145     0.000223189
                     0.000389966    -9.30769e-05        -0.671567       -0.737259     -0.000307713      0.00026163       -0.0200634       -0.018172
281718                 0.0027208      -0.0855426     -0.000422602     9.31796e-05        -0.168564       -0.981298       0.00025863    -6.24162e-05
                    -0.000536644     8.75421e-05        0.0171191       0.0215206      0.000248886    -0.000115811        -0.671562       -0.737108
                       -0.168745       -0.980982      0.000369908    -0.000226228        0.0310002       0.0799495      -0.00032498     0.000223221
                     0.000389986    -9.31788e-05        -0.671776       -0.737068     -0.000307599     0.000261648       -0.0200861      -0.0181633
281720                0.00270901      -0.0855372     -0.000422474     9.32883e-05        -0.168809       -0.981256      0.000258604    -6.25408e-05
                    -0.000536559     8.77031e-05        0.0171208       0.0215331       0.00024887    -0.000115897        -0.671772       -0.736916
                        -0.16899        -0.98094      0.000369836    -0.000226332        0.0310271        0.079933     -0.000324815     0.000223254
                     0.000390006    -9.32807e-05        -0.671986       -0.736877     -0.000307485     0.000261666       -0.0201088      -0.0181547
281722                0.00269722      -0.0855318     -0.000422346     9.33969e-05        -0.169054       -0.981214      0.000258578    -6.26654e-05
                    -0.000536473      8.7864e-05        0.0171224       0.0215457      0.000248854    -0.000115984        -0.671981       -0.736725
                       -0.169234       -0.980898      0.000369763    -0.000226437         0.031054       0.0799164      -0.00032465     0.000223287
                     0.000390025    -9.33826e-05        -0.672195       -0.736685      -0.00030737     0.000261684       -0.0201316       -0.018146
281724                0.00268543      -0.0855265     -0.000422218     9.35054e-05        -0.169299       -0.981173      0.000258553    -6.27898e-05
                    -0.000536387      8.8025e-05        0.0171241       0.0215582      0.000248839     -0.00011607         -0.67219       -0.736533
                       -0.169479       -0.980856       0.00036969    -0.000226542        0.0310809       0.0798998     -0.000324485     0.000223319
                     0.000390044    -9.34846e-05        -0.672404       -0.736494     -0.000307256     0.000261702       -0.0201543      -0.0181373
281726                0.00267364      -0.0855211     -0.000422089     9.36138e-05        -0.169544       -0.981131      0.000258527    -6.29142e-05
                    -0.000536302     8.81859e-05        0.0171258       0.0215708      0.000248823    -0.000116156        -0.672399       -0.736341
                       -0.169724       -0.980814      0.000369618    -0.000226646        0.0311078       0.0798832      -0.00032432     0.000223352
                     0.000390063    -9.35866e-05        -0.672614       -0.736302     -0.000307142      0.00026172        -0.020177      -0.0181286
281728                0.00266186      -0.0855157     -0.000421961     9.37221e-05        -0.169789       -0.981089      0.000258502    -6.30386e-05
                    -0.000536215     8.83468e-05        0.0171275       0.0215833      0.000248808    -0.000116243        -0.672608        -0.73615
                       -0.169969       -0.980772      0.000369545    -0.000226751        0.0311347       0.0798666     -0.000324155     0.000223385
                     0.000390082    -9.36886e-05        -0.672823        -0.73611     -0.000307028     0.000261738       -0.0201997      -0.0181198
281730                0.00265007      -0.0855104     -0.000421833     9.38303e-05        -0.170034       -0.981047      0.000258477    -6.31628e-05
                    -0.000536129     8.85076e-05        0.0171292       0.0215958      0.000248793    -0.000116329        -0.672817       -0.735958
                       -0.170213        -0.98073      0.000369472    -0.000226855        0.0311616         0.07985      -0.00032399     0.000223417
                     0.000390101    -9.37905e-05        -0.673032       -0.735919     -0.000306914     0.000261755       -0.0202224      -0.0181111
281732                0.00263828       -0.085505     -0.000421705     9.39385e-05        -0.170279       -0.981006      0.000258451     -6.3287e-05
                    -0.000536042     8.86684e-05        0.0171309       0.0216084      0.000248778    -0.000116416        -0.673026       -0.735766
                       -0.170458       -0.980688      0.000369399     -0.00022696        0.0311885       0.0798334     -0.000323825      0.00022345
                      0.00039012    -9.38925e-05        -0.673241       -0.735727       -0.0003068     0.000261773       -0.0202451      -0.0181023
281734                 0.0026265      -0.0854996     -0.000421576     9.40465e-05        -0.170524       -0.980964      0.000258426    -6.34111e-05
                    -0.000535956     8.88292e-05        0.0171326       0.0216209      0.000248763    -0.000116502        -0.673234       -0.735574
                       -0.170703       -0.980646      0.000369327    -0.000227064        0.0312154       0.0798168      -0.00032366     0.000223482
                     0.000390139    -9.39944e-05         -0.67345       -0.735535     -0.000306685     0.000261791       -0.0202678      -0.0180935
281736                0.00261472      -0.0854943     -0.000421448     9.41545e-05        -0.170769       -0.980922        0.0002584    -6.35351e-05
                    -0.000535869     8.89899e-05        0.0171343       0.0216335      0.000248748    -0.000116589        -0.673443       -0.735382
                       -0.170947       -0.980604      0.000369254    -0.000227169        0.0312422       0.0798001     -0.000323495     0.000223515
                     0.000390157    -9.40963e-05        -0.673659       -0.735343     -0.000306571     0.000261808       -0.0202905      -0.0180847
281738                0.00260293      -0.0854889      -0.00042132     9.42624e-05        -0.171014        -0.98088      0.000258375     -6.3659e-05
                    -0.000535781     8.91505e-05         0.017136        0.021646      0.000248733    -0.000116675        -0.673652        -0.73519
                       -0.171192       -0.980562      0.000369181    -0.000227273        0.0312691       0.0797835      -0.00032333     0.000223547
                     0.000390175    -9.41982e-05        -0.673868       -0.735151     -0.000306457     0.000261826       -0.0203132      -0.0180759
281740                0.00259115      -0.0854835     -0.000421191     9.43702e-05        -0.171259       -0.980837       0.00025835    -6.37829e-05
                    -0.000535694      8.9311e-05        0.0171377       0.0216585      0.000248718    -0.000116762        -0.673861       -0.734998
                       -0.171437        -0.98052      0.000369108    -0.000227377        0.0312959       0.0797669     -0.000323165      0.00022358
                     0.000390193       -9.43e-05        -0.674077       -0.734959     -0.000306343     0.000261843       -0.0203359      -0.0180671
281742                0.00257937      -0.0854781     -0.000421063      9.4478e-05        -0.171504       -0.980795      0.000258324    -6.39067e-05
                    -0.000535606     8.94715e-05        0.0171394       0.0216711      0.000248704    -0.000116849        -0.674069       -0.734805
                       -0.171681       -0.980477      0.000369036    -0.000227482        0.0313228       0.0797502        -0.000323     0.000223612
                     0.000390211    -9.44017e-05        -0.674286       -0.734767     -0.000306228      0.00026186       -0.0203586      -0.0180582
281744                0.00256759      -0.0854728     -0.000420934     9.45856e-05        -0.171748       -0.980753      0.000258299    -6.40304e-05
                    -0.000535518     8.96319e-05        0.0171411       0.0216836      0.000248689    -0.000116935        -0.674278       -0.734613
                       -0.171926       -0.980435      0.000368963    -0.000227586        0.0313496       0.0797335     -0.000322835     0.000223644
                     0.000390229    -9.45034e-05        -0.674495       -0.734575     -0.000306114     0.000261878       -0.0203813      -0.0180494
281746                0.00255581      -0.0854674     -0.000420806     9.46932e-05        -0.171993       -0.980711      0.000258273    -6.41541e-05
                     -0.00053543     8.97922e-05        0.0171429       0.0216962      0.000248674    -0.000117022        -0.674486       -0.734421
                       -0.172171       -0.980392       0.00036889     -0.00022769        0.0313764       0.0797169      -0.00032267     0.000223677
                     0.000390247     -9.4605e-05        -0.674704       -0.734382        -0.000306     0.000261895        -0.020404      -0.0180405
281748                0.00254403       -0.085462     -0.000420677     9.48006e-05        -0.172238       -0.980668      0.000258248    -6.42776e-05
                    -0.000535342     8.99525e-05        0.0171446       0.0217087       0.00024866    -0.000117109        -0.674695       -0.734228
                       -0.172415        -0.98035      0.000368818    -0.000227794        0.0314032       0.0797002     -0.000322505     0.000223709
                     0.000390264    -9.47066e-05        -0.674912        -0.73419     -0.000305885     0.000261912       -0.0204267      -0.0180316
281750                0.00253225      -0.0854566     -0.000420548      9.4908e-05        -0.172483       -0.980626      0.000258223    -6.44011e-05
                    -0.000535253     9.01126e-05        0.0171463       0.0217212      0.000248646    -0.000117196        -0.674903       -0.734036
                        -0.17266       -0.980307      0.000368745    -0.000227898          0.03143       0.0796835     -0.000322341     0.000223741
                     0.000390282    -9.48081e-05        -0.675121       -0.733998     -0.000305771     0.000261929       -0.0204494      -0.0180226
281752                0.00252048      -0.0854512      -0.00042042     9.50154e-05        -0.172728       -0.980583      0.000258198    -6.45245e-05
                    -0.000535165     9.02726e-05         0.017148       0.0217338      0.000248632    -0.000117282        -0.675111       -0.733844
                       -0.172904       -0.980264      0.000368672    -0.000228003        0.0314568       0.0796668     -0.000322176     0.000223773
                     0.000390299    -9.49095e-05         -0.67533       -0.733805     -0.000305657     0.000261946        -0.020472      -0.0180137
281754                 0.0025087      -0.0854458     -0.000420291     9.51226e-05        -0.172973       -0.980541      0.000258172    -6.46478e-05
                    -0.000535076     9.04325e-05        0.0171498       0.0217463      0.000248618    -0.000117369         -0.67532       -0.733651
                       -0.173149       -0.980222        0.0003686    -0.000228107        0.0314836       0.0796501     -0.000322011     0.000223805
                     0.000390317    -9.50108e-05        -0.675538       -0.733613     -0.000305542     0.000261963       -0.0204947      -0.0180048
281756                0.00249692      -0.0854405     -0.000420162     9.52297e-05        -0.173218       -0.980498      0.000258147    -6.47711e-05
                    -0.000534987     9.05924e-05        0.0171515       0.0217588      0.000248604    -0.000117456        -0.675528       -0.733458
                       -0.173393       -0.980179      0.000368527    -0.000228211        0.0315104       0.0796334     -0.000321846     0.000223837
                     0.000390334     -9.5112e-05        -0.675747        -0.73342     -0.000305428      0.00026198       -0.0205174      -0.0179958
281758                0.00248515      -0.0854351     -0.000420033     9.53368e-05        -0.173462       -0.980455      0.000258122    -6.48943e-05
                    -0.000534897     9.07521e-05        0.0171532       0.0217714       0.00024859    -0.000117543        -0.675736       -0.733266
                       -0.173638       -0.980136      0.000368454    -0.000228315        0.0315371       0.0796166     -0.000321682     0.000223869
                     0.000390351    -9.52132e-05        -0.675955       -0.733228     -0.000305314     0.000261996         -0.02054      -0.0179868
281760                0.00247338      -0.0854297     -0.000419904     9.54438e-05        -0.173707       -0.980413      0.000258096    -6.50174e-05
                    -0.000534808     9.09117e-05         0.017155       0.0217839      0.000248576     -0.00011763        -0.675944       -0.733073
                       -0.173883       -0.980093      0.000368382    -0.000228418        0.0315639       0.0795999     -0.000321517     0.000223901
                     0.000390368    -9.53143e-05        -0.676164       -0.733035     -0.000305199     0.000262013       -0.0205627      -0.0179778
281762                 0.0024616      -0.0854243     -0.000419776     9.55507e-05        -0.173952        -0.98037      0.000258071    -6.51404e-05
                    -0.000534718     9.10711e-05        0.0171567       0.0217965      0.000248562    -0.000117717        -0.676152        -0.73288
                       -0.174127        -0.98005      0.000368309    -0.000228522        0.0315906       0.0795832     -0.000321352     0.000223933
