! TOUCHSTONE file generated by CST MICROWAVE STUDIO
! Date and time: Wed Oct 15 17:30:43 2025
! Project name: Teste_Macro_Metasurface_Nanopilar.cst
! Parameters = {H=600; L_x=120; L_y=115; Lambda=1064; Max_L=200; Min_L=70; PathPara=1; Phi=0; Step_L=10; Theta=0; p=520; phaseX=180; phaseY=0}
! Header version: 2018
! Port assignment regex: !\s*Touchstone port\s*([0-9]+)\s*=\s*(CST MWS port|CST DS port)\s*([0-9]+|Zmin|Zmax)\s*\(\"(.*)\"\)(\s*mode\s*([0-9]+))?.*
! Touchstone port assignment:
! Touchstone port 1 = CST MWS port Zmax ("") mode 1
! Touchstone port 2 = CST MWS port Zmax ("") mode 2
! Touchstone port 3 = CST MWS port Zmin ("") mode 1
! Touchstone port 4 = CST MWS port Zmin ("") mode 2
! S-Parameters are not renormalized. Each port impedance will be approximated by the real part at minimum frequency. The values are described via the [Reference] keyword.
! Default impedance is overridden by [Reference]
[Version] 2.0
# GHz S RI R 376.73
[Number of Ports] 4
[Reference]
376.73 376.73 259.888 259.888 
[Number of Frequencies] 51
[Network Data]
281700                  0.158078       -0.035297     -0.000647268     0.000130303        -0.582676        0.784726     -6.02746e-06     0.000163329
                    -0.000631834      9.6455e-05          0.10138      -0.0733164      4.90337e-05     5.08741e-05        -0.233853        0.954364
                        -0.58278        0.785008     -3.86854e-05      1.0023e-05        0.0107257        0.160705     -0.000421689    -0.000568107
                    -1.81392e-05     0.000112547        -0.233867        0.953957     -0.000342502    -0.000509048        0.0535143        0.112047
281702                   0.15806      -0.0353182     -0.000647285     0.000130672        -0.582361        0.784962     -5.94995e-06     0.000163369
                    -0.000631916     9.68664e-05         0.101348      -0.0733165      4.90862e-05     5.08617e-05        -0.233462        0.954464
                       -0.582465        0.785244     -3.86687e-05     1.00993e-05        0.0108291        0.160685     -0.000421926    -0.000568132
                    -1.80794e-05     0.000112555        -0.233476        0.954056     -0.000342687    -0.000509055        0.0535779        0.111988
281704                  0.158042      -0.0353393     -0.000647303     0.000131041        -0.582046        0.785198     -5.87236e-06     0.000163408
                    -0.000631997     9.72778e-05         0.101317      -0.0733167      4.91386e-05     5.08493e-05         -0.23307        0.954563
                        -0.58215         0.78548     -3.86518e-05     1.01755e-05        0.0109324        0.160664     -0.000422163    -0.000568158
                    -1.80196e-05     0.000112563        -0.233085        0.954155     -0.000342871    -0.000509063        0.0536415         0.11193
281706                  0.158023      -0.0353605     -0.000647321      0.00013141        -0.581731        0.785434     -5.79471e-06     0.000163448
                    -0.000632079     9.76894e-05         0.101286      -0.0733168       4.9191e-05     5.08368e-05        -0.232679        0.954661
                       -0.581835        0.785715     -3.86346e-05     1.02516e-05        0.0110358        0.160644       -0.0004224    -0.000568183
                    -1.79599e-05     0.000112571        -0.232694        0.954253     -0.000343056     -0.00050907         0.053705        0.111871
281708                  0.158005      -0.0353816     -0.000647338      0.00013178        -0.581415         0.78567     -5.71699e-06     0.000163487
                     -0.00063216     9.81011e-05         0.101254      -0.0733169      4.92434e-05     5.08243e-05        -0.232288         0.95476
                       -0.581519        0.785951     -3.86172e-05     1.03276e-05        0.0111391        0.160623     -0.000422638    -0.000568209
                    -1.79001e-05     0.000112579        -0.232303        0.954352     -0.000343241    -0.000509077        0.0537684        0.111812
281710                  0.157987      -0.0354027     -0.000647356     0.000132149          -0.5811        0.785905      -5.6392e-06     0.000163526
                     -0.00063224     9.85129e-05         0.101223       -0.073317      4.92958e-05     5.08117e-05        -0.231896        0.954858
                       -0.581204        0.786186     -3.85997e-05     1.04034e-05        0.0112424        0.160603     -0.000422875    -0.000568234
                    -1.78403e-05     0.000112586        -0.231912         0.95445     -0.000343425    -0.000509085        0.0538318        0.111754
281712                  0.157969      -0.0354238     -0.000647373     0.000132518        -0.580784        0.786141     -5.56134e-06     0.000163565
                    -0.000632321     9.89247e-05         0.101191      -0.0733171      4.93481e-05     5.07991e-05        -0.231505        0.954957
                       -0.580888        0.786422     -3.85819e-05     1.04791e-05        0.0113457        0.160582     -0.000423113     -0.00056826
                    -1.77805e-05     0.000112594         -0.23152        0.954548      -0.00034361    -0.000509092        0.0538952        0.111695
281714                   0.15795      -0.0354449     -0.000647391     0.000132888        -0.580468        0.786376     -5.48341e-06     0.000163605
                    -0.000632401     9.93367e-05          0.10116      -0.0733172      4.94004e-05     5.07865e-05        -0.231114        0.955055
                       -0.580573        0.786657     -3.85639e-05     1.05548e-05         0.011449        0.160562     -0.000423351    -0.000568285
                    -1.77208e-05     0.000112602        -0.231129        0.954646     -0.000343794      -0.0005091        0.0539585        0.111636
281716                  0.157932       -0.035466     -0.000647408     0.000133257        -0.580152        0.786612     -5.40542e-06     0.000163644
                     -0.00063248     9.97488e-05         0.101129      -0.0733172      4.94527e-05     5.07738e-05        -0.230722        0.955153
                       -0.580257        0.786892     -3.85458e-05     1.06303e-05        0.0115522        0.160541     -0.000423589    -0.000568311
                     -1.7661e-05      0.00011261        -0.230738        0.954744     -0.000343978    -0.000509108        0.0540217        0.111577
281718                  0.157914      -0.0354871     -0.000647426     0.000133626        -0.579837        0.786847     -5.32735e-06     0.000163683
                     -0.00063256     0.000100161         0.101097      -0.0733173      4.95049e-05     5.07611e-05        -0.230331        0.955251
                       -0.579941        0.787127     -3.85275e-05     1.07058e-05        0.0116555         0.16052     -0.000423827    -0.000568336
                    -1.76012e-05     0.000112617        -0.230346        0.954841     -0.000344163    -0.000509116        0.0540849        0.111518
281720                  0.157895      -0.0355082     -0.000647443     0.000133996        -0.579521        0.787082     -5.24922e-06     0.000163722
                    -0.000632639     0.000100573         0.101066      -0.0733173      4.95571e-05     5.07484e-05        -0.229939        0.955348
                       -0.579625        0.787362      -3.8509e-05     1.07812e-05        0.0117587        0.160499     -0.000424065    -0.000568361
                    -1.75414e-05     0.000112625        -0.229955        0.954939     -0.000344347    -0.000509124         0.054148        0.111459
281722                  0.157877      -0.0355293      -0.00064746     0.000134365        -0.579204        0.787317     -5.17102e-06     0.000163761
                    -0.000632718     0.000100986         0.101034      -0.0733173      4.96093e-05     5.07356e-05        -0.229547        0.955446
                       -0.579309        0.787596     -3.84904e-05     1.08565e-05        0.0118619        0.160478     -0.000424304    -0.000568387
                    -1.74817e-05     0.000112632        -0.229564        0.955036     -0.000344531    -0.000509132        0.0542111          0.1114
281724                  0.157859      -0.0355504     -0.000647477     0.000134735        -0.578888        0.787551     -5.09276e-06     0.000163801
                    -0.000632796     0.000101398         0.101003      -0.0733174      4.96615e-05     5.07229e-05        -0.229156        0.955543
                       -0.578993        0.787831     -3.84716e-05     1.09317e-05         0.011965        0.160457     -0.000424542    -0.000568412
                    -1.74219e-05      0.00011264        -0.229172        0.955133     -0.000344716     -0.00050914        0.0542741        0.111341
281726                   0.15784      -0.0355715     -0.000647493     0.000135105        -0.578572        0.787786     -5.01442e-06      0.00016384
                    -0.000632875     0.000101811         0.100972      -0.0733174      4.97137e-05     5.07101e-05        -0.228764         0.95564
                       -0.578676        0.788065     -3.84527e-05     1.10069e-05        0.0120682        0.160436     -0.000424781    -0.000568437
                    -1.73621e-05     0.000112648        -0.228781         0.95523       -0.0003449    -0.000509149        0.0543371        0.111282
281728                  0.157822      -0.0355925      -0.00064751     0.000135474        -0.578256        0.788021     -4.93602e-06     0.000163879
                    -0.000632953     0.000102223          0.10094      -0.0733173      4.97658e-05     5.06973e-05        -0.228372        0.955737
                        -0.57836          0.7883     -3.84337e-05      1.1082e-05        0.0121713        0.160415     -0.000425019    -0.000568463
                    -1.73023e-05     0.000112655        -0.228389        0.955327     -0.000345084    -0.000509157           0.0544        0.111223
281730                  0.157803      -0.0356136     -0.000647527     0.000135844        -0.577939        0.788255     -4.85755e-06     0.000163918
                     -0.00063303     0.000102636         0.100909      -0.0733173      4.98179e-05     5.06845e-05        -0.227981        0.955834
                       -0.578044        0.788534     -3.84145e-05      1.1157e-05        0.0122744        0.160393     -0.000425258    -0.000568488
                    -1.72426e-05     0.000112662        -0.227998        0.955423     -0.000345269    -0.000509166        0.0544629        0.111164
281732                  0.157785      -0.0356346     -0.000647543     0.000136214        -0.577622        0.788489     -4.77901e-06     0.000163957
                    -0.000633108     0.000103049         0.100877      -0.0733173        4.987e-05     5.06716e-05        -0.227589        0.955931
                       -0.577727        0.788768     -3.83952e-05      1.1232e-05        0.0123775        0.160372     -0.000425497    -0.000568513
                    -1.71828e-05      0.00011267        -0.227606         0.95552     -0.000345453    -0.000509175        0.0545257        0.111105
281734                  0.157767      -0.0356557     -0.000647559     0.000136584        -0.577306        0.788724     -4.70041e-06     0.000163996
                    -0.000633185     0.000103462         0.100846      -0.0733172      4.99221e-05     5.06588e-05        -0.227197        0.956028
                        -0.57741        0.789002     -3.83757e-05      1.1307e-05        0.0124806         0.16035     -0.000425736    -0.000568539
                     -1.7123e-05     0.000112677        -0.227214        0.955616     -0.000345637    -0.000509183        0.0545884        0.111046
281736                  0.157748      -0.0356767     -0.000647575     0.000136954        -0.576989        0.788958     -4.62173e-06     0.000164034
                    -0.000633262     0.000103875         0.100815      -0.0733172      4.99742e-05      5.0646e-05        -0.226805        0.956124
                       -0.577094        0.789236     -3.83562e-05     1.13818e-05        0.0125836        0.160329     -0.000425976    -0.000568564
                    -1.70632e-05     0.000112685        -0.226823        0.955712     -0.000345822    -0.000509192        0.0546511        0.110986
281738                   0.15773      -0.0356978     -0.000647591     0.000137324        -0.576672        0.789192     -4.54299e-06     0.000164073
                    -0.000633338     0.000104288         0.100783      -0.0733171      5.00263e-05     5.06331e-05        -0.226413         0.95622
                       -0.576777         0.78947     -3.83365e-05     1.14567e-05        0.0126866        0.160307     -0.000426215    -0.000568589
                    -1.70034e-05     0.000112692        -0.226431        0.955808     -0.000346007    -0.000509201        0.0547137        0.110927
281740                  0.157711      -0.0357188     -0.000647607     0.000137694        -0.576355        0.789425     -4.46419e-06     0.000164112
                    -0.000633415     0.000104702         0.100752       -0.073317      5.00784e-05     5.06203e-05        -0.226021        0.956316
                        -0.57646        0.789703     -3.83167e-05     1.15314e-05        0.0127896        0.160286     -0.000426455    -0.000568614
                    -1.69437e-05       0.0001127        -0.226039        0.955904     -0.000346191     -0.00050921        0.0547763        0.110868
281742                  0.157693      -0.0357398     -0.000647622     0.000138064        -0.576038        0.789659     -4.38531e-06     0.000164151
                    -0.000633491     0.000105115          0.10072      -0.0733169      5.01305e-05     5.06074e-05        -0.225629        0.956412
                       -0.576143        0.789937     -3.82967e-05     1.16061e-05        0.0128926        0.160264     -0.000426694    -0.000568639
                    -1.68839e-05     0.000112707        -0.225647           0.956     -0.000346376     -0.00050922        0.0548388        0.110808
281744                  0.157675      -0.0357608     -0.000647638     0.000138434        -0.575721        0.789893     -4.30637e-06      0.00016419
                    -0.000633566     0.000105528         0.100689      -0.0733168      5.01825e-05     5.05946e-05        -0.225237        0.956508
                       -0.575825         0.79017     -3.82767e-05     1.16808e-05        0.0129956        0.160242     -0.000426934    -0.000568665
                    -1.68241e-05     0.000112714        -0.225255        0.956095     -0.000346561    -0.000509229        0.0549013        0.110749
281746                  0.157656      -0.0357818     -0.000647653     0.000138804        -0.575403        0.790126     -4.22736e-06     0.000164228
                    -0.000633642     0.000105942         0.100657      -0.0733167      5.02346e-05     5.05818e-05        -0.224845        0.956604
                       -0.575508        0.790403     -3.82566e-05     1.17554e-05        0.0130985         0.16022     -0.000427174     -0.00056869
                    -1.67643e-05     0.000112722        -0.224864         0.95619     -0.000346746    -0.000509238        0.0549637         0.11069
281748                  0.157638      -0.0358028     -0.000647668     0.000139174        -0.575086        0.790359     -4.14828e-06     0.000164267
                    -0.000633717     0.000106355         0.100626      -0.0733165      5.02867e-05     5.05689e-05        -0.224453        0.956699
                       -0.575191        0.790636     -3.82363e-05       1.183e-05        0.0132014        0.160198     -0.000427414    -0.000568715
                    -1.67045e-05     0.000112729        -0.224472        0.956285     -0.000346931    -0.000509248        0.0550261         0.11063
281750                  0.157619      -0.0358238     -0.000647683     0.000139544        -0.574769        0.790593     -4.06913e-06     0.000164306
                    -0.000633791     0.000106769         0.100595      -0.0733164      5.03389e-05     5.05561e-05         -0.22406        0.956794
                       -0.574873        0.790869      -3.8216e-05     1.19046e-05        0.0133044        0.160176     -0.000427654     -0.00056874
                    -1.66447e-05     0.000112736         -0.22408        0.956381     -0.000347116    -0.000509257        0.0550884        0.110571
281752                  0.157601      -0.0358448     -0.000647698     0.000139915        -0.574451        0.790826     -3.98992e-06     0.000164344
                    -0.000633866     0.000107183         0.100563      -0.0733162       5.0391e-05     5.05432e-05        -0.223668        0.956889
                       -0.574556        0.791102     -3.81955e-05      1.1979e-05        0.0134072        0.160154     -0.000427895    -0.000568765
                    -1.65848e-05     0.000112743        -0.223688        0.956475     -0.000347301    -0.000509266        0.0551507        0.110511
281754                  0.157582      -0.0358658     -0.000647713     0.000140285        -0.574133        0.791059     -3.91064e-06     0.000164383
                     -0.00063394     0.000107597         0.100532      -0.0733161      5.04432e-05     5.05304e-05        -0.223276        0.956984
                       -0.574238        0.791335     -3.81749e-05     1.20535e-05        0.0135101        0.160132     -0.000428135     -0.00056879
                     -1.6525e-05     0.000112751        -0.223295         0.95657     -0.000347486    -0.000509276        0.0552129        0.110451
281756                  0.157564      -0.0358867     -0.000647727     0.000140655        -0.573815        0.791291     -3.83129e-06     0.000164422
                    -0.000634014     0.000108011           0.1005      -0.0733159      5.04954e-05     5.05176e-05        -0.222884        0.957079
                        -0.57392        0.791567     -3.81542e-05     1.21279e-05        0.0136129         0.16011     -0.000428376    -0.000568815
                    -1.64652e-05     0.000112758        -0.222903        0.956665     -0.000347672    -0.000509286         0.055275        0.110392
281758                  0.157545      -0.0359077     -0.000647741     0.000141026        -0.573498        0.791524     -3.75188e-06      0.00016446
                    -0.000634087     0.000108425         0.100469      -0.0733157      5.05476e-05     5.05047e-05        -0.222491        0.957174
                       -0.573602          0.7918     -3.81335e-05     1.22023e-05        0.0137157        0.160088     -0.000428616     -0.00056884
                    -1.64054e-05     0.000112765        -0.222511        0.956759     -0.000347857    -0.000509295        0.0553371        0.110332
281760                  0.157527      -0.0359286     -0.000647755     0.000141396         -0.57318        0.791757     -3.67239e-06     0.000164499
                    -0.000634161     0.000108839         0.100438      -0.0733155      5.05998e-05     5.04919e-05        -0.222099        0.957268
                       -0.573284        0.792032     -3.81126e-05     1.22766e-05        0.0138185        0.160065     -0.000428857    -0.000568865
                    -1.63455e-05     0.000112773        -0.222119        0.956853     -0.000348043    -0.000509305        0.0553991        0.110272
281762                  0.157508      -0.0359496     -0.000647769     0.000141766        -0.572861        0.791989     -3.59284e-06     0.000164537
                    -0.000634234     0.000109253         0.100406      -0.0733153      5.06521e-05     5.04791e-05        -0.221706        0.957362
                       -0.572966        0.792265     -3.80916e-05     1.23509e-05        0.0139213        0.160043     -0.000429098     -0.00056889
