! TOUCHSTONE file generated by CST MICROWAVE STUDIO
! Date and time: Wed Oct 15 17:33:59 2025
! Project name: Teste_Macro_Metasurface_Nanopilar.cst
! Parameters = {H=600; L_x=175; L_y=175; Lambda=1064; Max_L=200; Min_L=70; PathPara=1; Phi=0; Step_L=10; Theta=0; p=520; phaseX=180; phaseY=0}
! Header version: 2018
! Port assignment regex: !\s*Touchstone port\s*([0-9]+)\s*=\s*(CST MWS port|CST DS port)\s*([0-9]+|Zmin|Zmax)\s*\(\"(.*)\"\)(\s*mode\s*([0-9]+))?.*
! Touchstone port assignment:
! Touchstone port 1 = CST MWS port Zmax ("") mode 1
! Touchstone port 2 = CST MWS port Zmax ("") mode 2
! Touchstone port 3 = CST MWS port Zmin ("") mode 1
! Touchstone port 4 = CST MWS port Zmin ("") mode 2
! S-Parameters are not renormalized. Each port impedance will be approximated by the real part at minimum frequency. The values are described via the [Reference] keyword.
! Default impedance is overridden by [Reference]
[Version] 2.0
# GHz S RI R 376.73
[Number of Ports] 4
[Reference]
376.73 376.73 259.888 259.888 
[Number of Frequencies] 51
[Network Data]
281700                  0.194813       0.0673805      0.000407007      0.00010967         0.326524       -0.918509      5.78425e-05     0.000297472
                     0.000392536     0.000110455         0.195483       0.0677234      7.97343e-05     8.43815e-06         0.326833        -0.91822
                        0.326312       -0.918877      0.000130415    -1.91208e-05         0.192048       0.0697811      0.000332729     4.54269e-05
                    -1.35952e-05     0.000314646         0.326823       -0.918452      0.000400313     0.000152825         0.192664       0.0701476
281702                  0.194817       0.0673787      0.000406503     0.000109153         0.326257       -0.918606      5.80263e-05     0.000297391
                     0.000392139     0.000110887         0.195487       0.0677212      8.02562e-05     8.21772e-06         0.326566       -0.918315
                        0.326043       -0.918969      0.000130105    -1.97544e-05         0.192091       0.0696749      0.000332931     4.58304e-05
                    -1.35611e-05     0.000314181         0.326557       -0.918543      0.000400296     0.000152087         0.192707       0.0700392
281704                  0.194821       0.0673768      0.000405999     0.000108683         0.325989       -0.918702      5.82031e-05     0.000297306
                     0.000391759      0.00011131          0.19549       0.0677191       8.0781e-05     7.98627e-06         0.326299        -0.91841
                        0.325774       -0.919061      0.000129788    -2.03386e-05         0.192133       0.0695685      0.000333131     4.62338e-05
                    -1.35221e-05     0.000313718         0.326291       -0.918633      0.000400285     0.000151407          0.19275       0.0699308
281706                  0.194824        0.067375      0.000405497     0.000108258         0.325721       -0.918799      5.83728e-05     0.000297217
                     0.000391396     0.000111722         0.195493       0.0677169      8.13084e-05     7.74315e-06         0.326032       -0.918505
                        0.325505       -0.919154      0.000129467    -2.08775e-05         0.192175       0.0694618      0.000333327     4.66371e-05
                    -1.34782e-05     0.000313257         0.326025       -0.918724       0.00040028     0.000150789         0.192792       0.0698223
281708                  0.194828       0.0673731      0.000404999     0.000107873         0.325453       -0.918895      5.85353e-05     0.000297125
                      0.00039105     0.000112125         0.195496       0.0677148       8.1838e-05     7.48765e-06         0.325764         -0.9186
                        0.325236       -0.919246      0.000129143    -2.13744e-05         0.192216       0.0693547      0.000333521     4.70399e-05
                    -1.34293e-05     0.000312797         0.325759       -0.918815      0.000400282     0.000150241         0.192834       0.0697139
281710                  0.194832       0.0673713      0.000404508     0.000107526         0.325185        -0.91899      5.86907e-05     0.000297029
                      0.00039072     0.000112518         0.195499       0.0677126      8.23694e-05     7.21901e-06         0.325497       -0.918694
                        0.324967       -0.919338      0.000128817    -2.18327e-05         0.192258       0.0692473      0.000333712     4.74424e-05
                    -1.33754e-05     0.000312339         0.325493       -0.918905      0.000400293     0.000149769         0.192877       0.0696054
281712                  0.194835       0.0673694      0.000404025     0.000107212         0.324917       -0.919086      5.88388e-05      0.00029693
                     0.000390406     0.000112901         0.195503       0.0677105      8.29021e-05     6.93641e-06          0.32523       -0.918789
                        0.324698        -0.91943       0.00012849    -2.22554e-05         0.192299       0.0691395      0.000333901     4.78442e-05
                    -1.33167e-05     0.000311884         0.325226       -0.918996      0.000400311      0.00014938         0.192919       0.0694968
281714                  0.194839       0.0673675       0.00040355     0.000106931         0.324649       -0.919181      5.89799e-05     0.000296829
                     0.000390107     0.000113274         0.195506       0.0677084      8.34357e-05       6.639e-06         0.324962       -0.918884
                        0.324429       -0.919522      0.000128162     -2.2645e-05          0.19234       0.0690314      0.000334087     4.82454e-05
                     -1.3253e-05     0.000311431          0.32496       -0.919087      0.000400339     0.000149085         0.192961       0.0693883
281716                  0.194843       0.0673656      0.000403085     0.000106677         0.324381       -0.919277      5.91137e-05     0.000296726
                     0.000389823     0.000113639         0.195509       0.0677062      8.39695e-05     6.32586e-06         0.324695       -0.918978
                         0.32416       -0.919614      0.000127835     -2.3004e-05         0.192382       0.0689228      0.000334271     4.86457e-05
                    -1.31845e-05     0.000310981         0.324693       -0.919178      0.000400375     0.000148894         0.193003       0.0692797
281718                  0.194846       0.0673637      0.000402631     0.000106451         0.324113       -0.919371      5.92405e-05      0.00029662
                     0.000389554     0.000113993         0.195512       0.0677041      8.45027e-05     5.99606e-06         0.324428       -0.919072
                        0.323891       -0.919705      0.000127509    -2.33348e-05         0.192423        0.068814      0.000334453      4.9045e-05
                    -1.31112e-05     0.000310534         0.324426        -0.91927       0.00040042     0.000148817         0.193045       0.0691711
281720                   0.19485       0.0673619      0.000402188     0.000106248         0.323845       -0.919466      5.93602e-05     0.000296513
                     0.000389299     0.000114338         0.195515        0.067702      8.50345e-05     5.64862e-06          0.32416       -0.919166
                        0.323622       -0.919797      0.000127184    -2.36394e-05         0.192465       0.0687049      0.000334632     4.94432e-05
                    -1.30333e-05      0.00031009          0.32416       -0.919361      0.000400472     0.000148869         0.193087       0.0690625
281722                  0.194853         0.06736      0.000401755     0.000106066         0.323576        -0.91956       5.9473e-05     0.000296404
                     0.000389057     0.000114674         0.195519       0.0676999       8.5564e-05     5.28258e-06         0.323893       -0.919261
                        0.323353       -0.919889      0.000126861    -2.39195e-05         0.192507       0.0685956       0.00033481     4.98401e-05
                    -1.29507e-05     0.000309649         0.323893       -0.919452      0.000400531     0.000149063         0.193129       0.0689538
281724                  0.194857       0.0673581      0.000401334     0.000105905         0.323308       -0.919654      5.95788e-05     0.000296293
                      0.00038883     0.000115001         0.195522       0.0676978      8.60898e-05       4.897e-06         0.323625       -0.919355
                        0.323084       -0.919981       0.00012654    -2.41771e-05         0.192548       0.0684863      0.000334986     5.02356e-05
                    -1.28636e-05     0.000309212         0.323626       -0.919543      0.000400593     0.000149417         0.193171       0.0688451
281726                  0.194861       0.0673562      0.000400924     0.000105762          0.32304       -0.919748      5.96777e-05     0.000296182
                     0.000388615     0.000115319         0.195525       0.0676957      8.66106e-05     4.49107e-06         0.323357       -0.919449
                        0.322815       -0.920072      0.000126222    -2.44136e-05         0.192591       0.0683769      0.000335161     5.06295e-05
                    -1.27721e-05     0.000308779         0.323359       -0.919634      0.000400654     0.000149947         0.193213       0.0687364
281728                  0.194864       0.0673542      0.000400525     0.000105635         0.322771       -0.919842      5.97699e-05      0.00029607
                     0.000388414     0.000115627         0.195528       0.0676936      8.71246e-05     4.06419e-06          0.32309       -0.919543
                        0.322546       -0.920164      0.000125906    -2.46305e-05         0.192633       0.0682675      0.000335334     5.10217e-05
                    -1.26763e-05      0.00030835         0.323091       -0.919726      0.000400708     0.000150672         0.193255       0.0686277
281730                  0.194868       0.0673523      0.000400136     0.000105524         0.322503       -0.919935      5.98554e-05     0.000295957
                     0.000388225     0.000115927         0.195532       0.0676915      8.76297e-05     3.61612e-06         0.322822       -0.919636
                        0.322277       -0.920255      0.000125593     -2.4829e-05         0.192675       0.0681582      0.000335506     5.14119e-05
                    -1.25764e-05     0.000307925         0.322824       -0.919817      0.000400746     0.000151608         0.193296       0.0685189
281732                  0.194871       0.0673504      0.000399759     0.000105426         0.322234       -0.920028      5.99343e-05     0.000295843
                     0.000388048     0.000116217         0.195535       0.0676894      8.81231e-05     3.14728e-06         0.322554        -0.91973
                        0.322008       -0.920347      0.000125284    -2.50103e-05         0.192717        0.068049      0.000335677     5.18001e-05
                    -1.24726e-05     0.000307505         0.322557       -0.919908      0.000400757     0.000152768         0.193338       0.0684101
281734                  0.194875       0.0673485      0.000399392      0.00010534         0.321966        -0.92012      6.00068e-05      0.00029573
                     0.000387883     0.000116499         0.195538       0.0676874      8.86013e-05     2.65912e-06         0.322286       -0.919824
                        0.321739       -0.920438      0.000124978    -2.51754e-05          0.19276       0.0679399      0.000335846     5.21861e-05
                    -1.23649e-05     0.000307089         0.322289       -0.919999      0.000400725     0.000154155         0.193379       0.0683013
281736                  0.194879       0.0673465      0.000399035     0.000105266         0.321697       -0.920213      6.00729e-05     0.000295616
                      0.00038773     0.000116772         0.195541       0.0676853      8.90599e-05     2.15481e-06         0.322018       -0.919917
                         0.32147       -0.920529      0.000124675    -2.53252e-05         0.192802       0.0678309      0.000336015     5.25697e-05
                    -1.22535e-05     0.000306678         0.322022       -0.920091      0.000400634     0.000155754         0.193421       0.0681925
281738                  0.194882       0.0673446      0.000398688     0.000105203         0.321428       -0.920305      6.01328e-05     0.000295503
                     0.000387588     0.000117037         0.195545       0.0676832      8.94927e-05      1.6403e-06          0.32175       -0.920011
                        0.321201       -0.920621      0.000124376    -2.54605e-05         0.192844        0.067722      0.000336183     5.29508e-05
                    -1.21387e-05     0.000306272         0.321754       -0.920182      0.000400467     0.000157514         0.193462       0.0680836
281740                  0.194886       0.0673426       0.00039835     0.000105149         0.321159       -0.920398      6.01866e-05      0.00029539
                     0.000387457     0.000117292         0.195548       0.0676811      8.98915e-05     1.12613e-06         0.321483       -0.920104
                        0.320932       -0.920712      0.000124081    -2.55817e-05         0.192886       0.0676132       0.00033635     5.33293e-05
                    -1.20206e-05     0.000305871         0.321486       -0.920273      0.000400219     0.000159319         0.193504       0.0679747
281742                  0.194889       0.0673407      0.000398022     0.000105103         0.320889        -0.92049      6.02345e-05     0.000295277
                     0.000387337      0.00011754         0.195551        0.067679      9.02446e-05     6.30387e-07         0.321215       -0.920198
                        0.320663       -0.920803       0.00012379    -2.56894e-05         0.192927       0.0675044      0.000336516     5.37049e-05
                    -1.18994e-05     0.000305475         0.321219       -0.920364      0.000399909     0.000160943         0.193545       0.0678658
281744                  0.194893       0.0673387      0.000397703     0.000105065          0.32062       -0.920584      6.02765e-05     0.000295166
                     0.000387227     0.000117779         0.195554       0.0676769      9.05354e-05     1.84074e-07         0.320947       -0.920291
                        0.320394       -0.920894      0.000123503    -2.57841e-05         0.192968       0.0673959      0.000336682     5.40775e-05
                    -1.17752e-05     0.000305084         0.320951       -0.920456      0.000399613      0.00016197         0.193586       0.0677568
281746                  0.194896       0.0673368      0.000397392     0.000105034         0.320351       -0.920678      6.03129e-05     0.000295054
                     0.000387127     0.000118009         0.195558       0.0676748        9.074e-05    -1.59405e-07         0.320678       -0.920384
                        0.320125       -0.920985      0.000123219    -2.58661e-05         0.193009       0.0672874      0.000336847     5.44471e-05
                    -1.16484e-05     0.000304699         0.320683       -0.920547      0.000399499     0.000161688         0.193627       0.0676479
281748                    0.1949       0.0673348      0.000397091     0.000105009         0.320083       -0.920773      6.03437e-05     0.000294944
                     0.000387038     0.000118231         0.195561       0.0676727      9.08243e-05    -3.06207e-07          0.32041       -0.920477
                        0.319856       -0.921077      0.000122937     -2.5936e-05         0.193048       0.0671794      0.000337012     5.48135e-05
                     -1.1519e-05      0.00030432         0.320415       -0.920638      0.000399822     0.000158935         0.193668       0.0675389
281750                  0.194903       0.0673328      0.000396799      0.00010499         0.319815       -0.920873       6.0369e-05     0.000294835
                     0.000386958     0.000118445         0.195564       0.0676706      9.07436e-05     -8.6434e-08         0.320142        -0.92057
                        0.319587       -0.921168      0.000122658    -2.59944e-05         0.193086       0.0670722      0.000337177     5.51765e-05
                    -1.13874e-05     0.000303946         0.320147       -0.920729      0.000400727     0.000152005         0.193709       0.0674298
281752                  0.194907       0.0673308      0.000396517     0.000104974         0.319547       -0.920979      6.03891e-05     0.000294727
                     0.000386887     0.000118651         0.195568       0.0676686      9.04544e-05     8.19567e-07         0.319874       -0.920663
                        0.319318       -0.921258      0.000122381    -2.60419e-05          0.19312       0.0669681      0.000337341     5.55362e-05
                    -1.12536e-05     0.000303578         0.319879       -0.920821      0.000401581     0.000138895          0.19375       0.0673208
281754                   0.19491       0.0673288      0.000396249     0.000104966          0.31927       -0.921097      6.04041e-05      0.00029462
                     0.000386825     0.000118849         0.195571       0.0676665      8.99909e-05     3.03663e-06         0.319606       -0.920756
                        0.319049       -0.921349      0.000122106    -2.60792e-05         0.193152       0.0668765      0.000337505     5.58923e-05
                    -1.11179e-05     0.000303215         0.319611       -0.920912      0.000399981     0.000118768         0.193791       0.0672117
281756                  0.194914       0.0673268      0.000395991     0.000104975         0.318966       -0.921217      6.04141e-05     0.000294514
                     0.000386773     0.000119039         0.195574       0.0676644      8.98116e-05     7.78602e-06         0.319337       -0.920849
                         0.31878        -0.92144      0.000121832    -2.61073e-05          0.19322       0.0668006      0.000337668     5.62448e-05
                    -1.09804e-05     0.000302859         0.319342       -0.921003      0.000392554     9.47755e-05         0.193832       0.0671026
281758                  0.194918       0.0673248      0.000395725     0.000104997         0.318645       -0.921298      6.04192e-05      0.00029441
                     0.000386729     0.000119221         0.195577       0.0676623      9.21727e-05     1.69724e-05         0.319069       -0.920941
                        0.318511       -0.921531      0.000121559    -2.61269e-05          0.19329       0.0666679      0.000337831     5.65937e-05
                    -1.08414e-05     0.000302508         0.319074       -0.921094      0.000379366     7.39127e-05         0.193872       0.0669935
281760                  0.194921       0.0673228      0.000395456     0.000105011         0.318358       -0.921359      6.04196e-05     0.000294307
                     0.000386693     0.000119395         0.195581       0.0676602      0.000103948     2.95803e-05         0.318801       -0.921034
                        0.318242       -0.921622      0.000121288    -2.61387e-05         0.193329       0.0665438      0.000337995     5.69388e-05
                    -1.07009e-05     0.000302164         0.318806       -0.921185      0.000365308     6.07175e-05         0.193913       0.0668844
281762                  0.194925       0.0673208      0.000395197     0.000105023         0.318089       -0.921432      6.04155e-05     0.000294206
                     0.000386665     0.000119561         0.195584       0.0676581      0.000127443     3.16044e-05         0.318532       -0.921126
                        0.317972       -0.921712      0.000121017    -2.61435e-05         0.193366       0.0664292      0.000338158     5.72801e-05
