! TOUCHSTONE file generated by CST MICROWAVE STUDIO
! Date and time: Wed Oct 15 17:29:17 2025
! Project name: Teste_Macro_Metasurface_Nanopilar.cst
! Parameters = {H=600; L_x=95; L_y=125; Lambda=1064; Max_L=200; Min_L=70; PathPara=1; Phi=0; Step_L=10; Theta=0; p=520; phaseX=180; phaseY=0}
! Header version: 2018
! Port assignment regex: !\s*Touchstone port\s*([0-9]+)\s*=\s*(CST MWS port|CST DS port)\s*([0-9]+|Zmin|Zmax)\s*\(\"(.*)\"\)(\s*mode\s*([0-9]+))?.*
! Touchstone port assignment:
! Touchstone port 1 = CST MWS port Zmax ("") mode 1
! Touchstone port 2 = CST MWS port Zmax ("") mode 2
! Touchstone port 3 = CST MWS port Zmin ("") mode 1
! Touchstone port 4 = CST MWS port Zmin ("") mode 2
! S-Parameters are not renormalized. Each port impedance will be approximated by the real part at minimum frequency. The values are described via the [Reference] keyword.
! Default impedance is overridden by [Reference]
[Version] 2.0
# GHz S RI R 376.73
[Number of Ports] 4
[Reference]
376.73 376.73 259.888 259.888 
[Number of Frequencies] 51
[Network Data]
281700                  0.159749      -0.0674446     -0.000810316     0.000394502        -0.688579        0.691657       0.00024756     0.000276504
                     -0.00086092     0.000179394       -0.0200499       0.0166972     -0.000361024     0.000264536        -0.653973       -0.753114
                       -0.688454         0.69122     -0.000419401     0.000235292       -0.0672401        0.159207      0.000857506      0.00042009
                     0.000191406     0.000309581        -0.654317       -0.753256      0.000908661     0.000388596        -0.019336       0.0183551
281702                   0.15973      -0.0674685     -0.000810204     0.000394614        -0.688304         0.69193      0.000247811     0.000276417
                    -0.000860765     0.000179452       -0.0200532       0.0167139     -0.000360763     0.000264751        -0.654186       -0.752928
                        -0.68818        0.691494      -0.00041937     0.000235377       -0.0671382        0.159241      0.000857805     0.000419726
                     0.000191449     0.000309613        -0.654529       -0.753071      0.000908641     0.000388232       -0.0193425       0.0183671
281704                   0.15971      -0.0674924     -0.000810093     0.000394725         -0.68803        0.692203      0.000248059     0.000276331
                    -0.000860609      0.00017951       -0.0200564       0.0167306     -0.000360514     0.000264962        -0.654399       -0.752743
                       -0.687906        0.691768      -0.00041934     0.000235462       -0.0670363        0.159275      0.000858104     0.000419359
                     0.000191491     0.000309644        -0.654741       -0.752886      0.000908636     0.000387861        -0.019349       0.0183791
281706                  0.159691      -0.0675163     -0.000809982     0.000394837        -0.687756        0.692476      0.000248304     0.000276245
                    -0.000860453     0.000179568       -0.0200597       0.0167472     -0.000360276     0.000265169        -0.654612       -0.752557
                       -0.687632        0.692041      -0.00041931     0.000235548       -0.0669343        0.159309      0.000858402     0.000418988
                     0.000191534     0.000309675        -0.654954         -0.7527      0.000908642     0.000387484       -0.0193555       0.0183912
281708                  0.159672      -0.0675402     -0.000809871     0.000394948        -0.687481         0.69275      0.000248547     0.000276159
                    -0.000860298     0.000179627       -0.0200629       0.0167639      -0.00036005     0.000265372        -0.654825       -0.752372
                       -0.687358        0.692315     -0.000419279     0.000235633       -0.0668324        0.159342      0.000858699     0.000418613
                     0.000191577     0.000309705        -0.655166       -0.752515       0.00090866       0.0003871        -0.019362       0.0184032
281710                  0.159652       -0.067564      -0.00080976     0.000395059        -0.687207        0.693023      0.000248787     0.000276074
                    -0.000860142     0.000179686       -0.0200662       0.0167806     -0.000359833     0.000265571        -0.655038       -0.752186
                       -0.687084        0.692588     -0.000419249     0.000235719       -0.0667304        0.159376      0.000858996     0.000418235
                      0.00019162     0.000309735        -0.655378        -0.75233      0.000908688     0.000386711       -0.0193685       0.0184152
281712                  0.159633      -0.0675879     -0.000809648      0.00039517        -0.686932        0.693296      0.000249025      0.00027599
                    -0.000859987     0.000179745       -0.0200694       0.0167972     -0.000359626     0.000265767         -0.65525       -0.752001
                       -0.686809        0.692861     -0.000419218     0.000235804       -0.0666284        0.159409      0.000859292     0.000417854
                     0.000191663     0.000309764         -0.65559       -0.752144      0.000908727     0.000386316        -0.019375       0.0184273
281714                  0.159614      -0.0676118     -0.000809537     0.000395281        -0.686657        0.693569       0.00024926     0.000275905
                    -0.000859831     0.000179805       -0.0200726       0.0168139     -0.000359427     0.000265959        -0.655463       -0.751815
                       -0.686535        0.693135     -0.000419187     0.000235889       -0.0665264        0.159443      0.000859588      0.00041747
                     0.000191707     0.000309793        -0.655803       -0.751959      0.000908774     0.000385917       -0.0193815       0.0184393
281716                  0.159594      -0.0676356     -0.000809426     0.000395392        -0.686383        0.693841      0.000249493     0.000275821
                    -0.000859676     0.000179865       -0.0200759       0.0168306     -0.000359236     0.000266148        -0.655676       -0.751629
                        -0.68626        0.693408     -0.000419156     0.000235975       -0.0664244        0.159476      0.000859883     0.000417082
                      0.00019175     0.000309821        -0.656015       -0.751773       0.00090883     0.000385513        -0.019388       0.0184514
281718                  0.159575      -0.0676595     -0.000809314     0.000395503        -0.686108        0.694114      0.000249724     0.000275737
                    -0.000859521     0.000179925       -0.0200791       0.0168473     -0.000359053     0.000266335        -0.655888       -0.751443
                       -0.685986        0.693681     -0.000419125      0.00023606       -0.0663224        0.159509      0.000860177     0.000416692
                     0.000191793     0.000309849        -0.656227       -0.751588      0.000908895     0.000385106       -0.0193944       0.0184635
281720                  0.159555      -0.0676833     -0.000809203     0.000395613        -0.685832        0.694387      0.000249952     0.000275653
                    -0.000859366     0.000179985       -0.0200823       0.0168639     -0.000358876     0.000266519          -0.6561       -0.751257
                       -0.685711        0.693953     -0.000419094     0.000236146       -0.0662203        0.159543      0.000860471     0.000416298
                     0.000191836     0.000309876        -0.656439       -0.751402      0.000908966     0.000384694       -0.0194009       0.0184756
281722                  0.159536      -0.0677072     -0.000809091     0.000395723        -0.685557        0.694659      0.000250179      0.00027557
                    -0.000859211     0.000180046       -0.0200855       0.0168806     -0.000358706       0.0002667        -0.656313       -0.751071
                       -0.685436        0.694226     -0.000419063     0.000236231       -0.0661182        0.159576      0.000860764     0.000415901
                     0.000191879     0.000309903        -0.656651       -0.751216      0.000909045     0.000384278       -0.0194074       0.0184876
281724                  0.159516       -0.067731      -0.00080898     0.000395834        -0.685282        0.694932      0.000250403     0.000275486
                    -0.000859056     0.000180107       -0.0200888       0.0168973     -0.000358543     0.000266879        -0.656525       -0.750885
                       -0.685161        0.694499     -0.000419031     0.000236317       -0.0660161        0.159609      0.000861057     0.000415502
                     0.000191923      0.00030993        -0.656862        -0.75103      0.000909131     0.000383859       -0.0194138       0.0184997
281726                  0.159497      -0.0677549     -0.000808868     0.000395944        -0.685007        0.695204      0.000250625     0.000275403
                    -0.000858901     0.000180169        -0.020092        0.016914     -0.000358384     0.000267056        -0.656737       -0.750699
                       -0.684886        0.694771        -0.000419     0.000236402        -0.065914        0.159642      0.000861349     0.000415099
                     0.000191966     0.000309956        -0.657074       -0.750844      0.000909222     0.000383437       -0.0194203       0.0185118
281728                  0.159477      -0.0677787     -0.000808757     0.000396054        -0.684731        0.695476      0.000250845      0.00027532
                    -0.000858746      0.00018023       -0.0200952       0.0169306     -0.000358231      0.00026723        -0.656949       -0.750513
                        -0.68461        0.695044     -0.000418968     0.000236488       -0.0658119        0.159675       0.00086164     0.000414694
                      0.00019201     0.000309981        -0.657286       -0.750659       0.00090932     0.000383011       -0.0194267        0.018524
281730                  0.159458      -0.0678025     -0.000808645     0.000396164        -0.684456        0.695748      0.000251064     0.000275237
                    -0.000858591     0.000180292       -0.0200984       0.0169473     -0.000358083     0.000267402        -0.657161       -0.750327
                       -0.684335        0.695316     -0.000418937     0.000236573       -0.0657097        0.159707       0.00086193     0.000414286
                     0.000192053     0.000310007        -0.657498       -0.750473      0.000909423     0.000382583       -0.0194332       0.0185361
281732                  0.159438      -0.0678264     -0.000808533     0.000396273         -0.68418        0.696021       0.00025128     0.000275154
                    -0.000858436     0.000180355       -0.0201016        0.016964      -0.00035794     0.000267573        -0.657373        -0.75014
                        -0.68406        0.695588     -0.000418905     0.000236659       -0.0656075         0.15974       0.00086222     0.000413876
                     0.000192097     0.000310031        -0.657709       -0.750286      0.000909531     0.000382152       -0.0194396       0.0185482
281734                  0.159419      -0.0678502     -0.000808422     0.000396383        -0.683904        0.696292      0.000251495     0.000275071
                    -0.000858281     0.000180417       -0.0201048       0.0169807     -0.000357801     0.000267742        -0.657585       -0.749954
                       -0.683784        0.695861     -0.000418873     0.000236744       -0.0655053        0.159773      0.000862509     0.000413462
                      0.00019214     0.000310055        -0.657921         -0.7501      0.000909644     0.000381718        -0.019446       0.0185603
281736                  0.159399       -0.067874      -0.00080831     0.000396492        -0.683628        0.696564      0.000251707     0.000274988
                    -0.000858127      0.00018048        -0.020108       0.0169974     -0.000357667     0.000267909        -0.657797       -0.749767
                       -0.683508        0.696133     -0.000418841      0.00023683       -0.0654031        0.159806      0.000862797     0.000413047
                     0.000192184     0.000310079        -0.658133       -0.749914      0.000909761     0.000381282       -0.0194525       0.0185725
281738                   0.15938      -0.0678978     -0.000808198     0.000396602        -0.683352        0.696836      0.000251918     0.000274905
                    -0.000857972     0.000180543       -0.0201112       0.0170141     -0.000357536     0.000268074        -0.658009       -0.749581
                       -0.683232        0.696405     -0.000418809     0.000236915       -0.0653009        0.159838      0.000863084     0.000412629
                     0.000192227     0.000310102        -0.658344       -0.749728      0.000909883     0.000380843       -0.0194589       0.0185846
281740                   0.15936      -0.0679216     -0.000808086     0.000396711        -0.683076        0.697108      0.000252127     0.000274822
                    -0.000857818     0.000180607       -0.0201144       0.0170308     -0.000357409     0.000268238        -0.658221       -0.749394
                       -0.682956        0.696676     -0.000418777     0.000237001       -0.0651987        0.159871      0.000863371     0.000412208
                     0.000192271     0.000310125        -0.658556       -0.749542      0.000910009     0.000380402       -0.0194653       0.0185968
281742                  0.159341      -0.0679454     -0.000807974      0.00039682          -0.6828        0.697379      0.000252335     0.000274739
                    -0.000857663     0.000180671       -0.0201176       0.0170475     -0.000357286     0.000268401        -0.658432       -0.749208
                        -0.68268        0.696948     -0.000418745     0.000237087       -0.0650964        0.159903      0.000863657     0.000411785
                     0.000192315     0.000310147        -0.658767       -0.749355      0.000910139     0.000379959       -0.0194717        0.018609
281744                  0.159321      -0.0679692     -0.000807863     0.000396929        -0.682524        0.697651      0.000252541     0.000274656
                    -0.000857509     0.000180735       -0.0201208       0.0170641     -0.000357166     0.000268562        -0.658644       -0.749021
                       -0.682404         0.69722     -0.000418713     0.000237172       -0.0649941        0.159935      0.000863942      0.00041136
                     0.000192359     0.000310168        -0.658979       -0.749169      0.000910273     0.000379514       -0.0194781       0.0186211
281746                  0.159302       -0.067993     -0.000807751     0.000397038        -0.682247        0.697922      0.000252745     0.000274573
                    -0.000857355     0.000180799       -0.0201239       0.0170808     -0.000357049     0.000268721        -0.658855       -0.748834
                       -0.682128        0.697491      -0.00041868     0.000237258       -0.0648918        0.159968      0.000864227     0.000410932
                     0.000192403      0.00031019         -0.65919       -0.748982       0.00091041     0.000379067       -0.0194845       0.0186333
281748                  0.159282      -0.0680168     -0.000807639     0.000397147        -0.681971        0.698194      0.000252948      0.00027449
                    -0.000857201     0.000180864       -0.0201271       0.0170975     -0.000356936      0.00026888        -0.659067       -0.748648
                       -0.681851        0.697763     -0.000418648     0.000237343       -0.0647895            0.16       0.00086451     0.000410503
                     0.000192446      0.00031021        -0.659401       -0.748796       0.00091055     0.000378618       -0.0194909       0.0186455
281750                  0.159262      -0.0680406     -0.000807527     0.000397255        -0.681694        0.698465      0.000253149     0.000274407
                    -0.000857047     0.000180929       -0.0201303       0.0171142     -0.000356825     0.000269037        -0.659278       -0.748461
                       -0.681575        0.698034     -0.000418615     0.000237429       -0.0646872        0.160032      0.000864793     0.000410071
                      0.00019249      0.00031023        -0.659612       -0.748609      0.000910693     0.000378168       -0.0194973       0.0186577
281752                  0.159243      -0.0680643     -0.000807415     0.000397364        -0.681417        0.698736      0.000253349     0.000274324
                    -0.000856893     0.000180994       -0.0201335       0.0171309     -0.000356716     0.000269193         -0.65949       -0.748274
                       -0.681298        0.698305     -0.000418583     0.000237515       -0.0645849        0.160064      0.000865075     0.000409637
                     0.000192534      0.00031025        -0.659824       -0.748422       0.00091084     0.000377715       -0.0195037       0.0186699
281754                  0.159223      -0.0680881     -0.000807303     0.000397472         -0.68114        0.699007      0.000253547      0.00027424
                    -0.000856739      0.00018106       -0.0201366       0.0171476     -0.000356611     0.000269348        -0.659701       -0.748087
                       -0.681022        0.698576      -0.00041855       0.0002376       -0.0644825        0.160096      0.000865356     0.000409201
                     0.000192578     0.000310269        -0.660035       -0.748236      0.000910989     0.000377261       -0.0195101       0.0186822
281756                  0.159204      -0.0681119     -0.000807191      0.00039758        -0.680863        0.699278      0.000253744     0.000274157
                    -0.000856585     0.000181126       -0.0201398       0.0171643     -0.000356507     0.000269502        -0.659912         -0.7479
                       -0.680745        0.698847     -0.000418517     0.000237686       -0.0643801        0.160128      0.000865637     0.000408763
                     0.000192623     0.000310288        -0.660246       -0.748049       0.00091114     0.000376806       -0.0195165       0.0186944
281758                  0.159184      -0.0681357     -0.000807079     0.000397688        -0.680586        0.699549       0.00025394     0.000274073
                    -0.000856431     0.000181192        -0.020143        0.017181     -0.000356407     0.000269655        -0.660123       -0.747713
                       -0.680468        0.699118     -0.000418484     0.000237772       -0.0642777         0.16016      0.000865916     0.000408323
                     0.000192667     0.000310306        -0.660457       -0.747862      0.000911295     0.000376349       -0.0195229       0.0187066
281760                  0.159164      -0.0681594     -0.000806966     0.000397796        -0.680309         0.69982      0.000254134     0.000273989
                    -0.000856278     0.000181259       -0.0201461       0.0171977     -0.000356308     0.000269807        -0.660334       -0.747525
                       -0.680191        0.699389     -0.000418451     0.000237857       -0.0641753        0.160192      0.000866195     0.000407881
                     0.000192711     0.000310324        -0.660668       -0.747675      0.000911451      0.00037589       -0.0195292       0.0187189
281762                  0.159145      -0.0681832     -0.000806854     0.000397904        -0.680032         0.70009      0.000254327     0.000273905
                    -0.000856124     0.000181326       -0.0201493       0.0172144     -0.000356211     0.000269958        -0.660545       -0.747338
                       -0.679913         0.69966     -0.000418418     0.000237943       -0.0640729        0.160224      0.000866473     0.000407437
