! TOUCHSTONE file generated by CST MICROWAVE STUDIO
! Date and time: Wed Oct 15 17:29:36 2025
! Project name: Teste_Macro_Metasurface_Nanopilar.cst
! Parameters = {H=600; L_x=100; L_y=135; Lambda=1064; Max_L=200; Min_L=70; PathPara=1; Phi=0; Step_L=10; Theta=0; p=520; phaseX=180; phaseY=0}
! Header version: 2018
! Port assignment regex: !\s*Touchstone port\s*([0-9]+)\s*=\s*(CST MWS port|CST DS port)\s*([0-9]+|Zmin|Zmax)\s*\(\"(.*)\"\)(\s*mode\s*([0-9]+))?.*
! Touchstone port assignment:
! Touchstone port 1 = CST MWS port Zmax ("") mode 1
! Touchstone port 2 = CST MWS port Zmax ("") mode 2
! Touchstone port 3 = CST MWS port Zmin ("") mode 1
! Touchstone port 4 = CST MWS port Zmin ("") mode 2
! S-Parameters are not renormalized. Each port impedance will be approximated by the real part at minimum frequency. The values are described via the [Reference] keyword.
! Default impedance is overridden by [Reference]
[Version] 2.0
# GHz S RI R 376.73
[Number of Ports] 4
[Reference]
376.73 376.73 259.888 259.888 
[Number of Frequencies] 51
[Network Data]
281700                -0.0196884     -0.00517878      -0.00056735    -0.000929233         0.511601          0.8485      7.84322e-05    -0.000562136
                    -0.000599561    -0.000923458        0.0453523       0.0990047     -0.000443062     0.000379623        -0.944503       -0.295062
                        0.511356        0.849106      -0.00043849     0.000307874      -0.00625616       0.0223769     -0.000977545    -0.000310219
                     5.41556e-05    -0.000418686        -0.945362       -0.295015      -0.00102032    -0.000462967       -0.0927129       0.0566084
281702                 -0.019691     -0.00514247      -0.00056773    -0.000929375         0.511934          0.8483      7.82371e-05    -0.000562187
                    -0.000600069    -0.000923479        0.0453681       0.0990159     -0.000442855     0.000379742        -0.944596       -0.294755
                        0.511689        0.848906     -0.000438344     0.000308054      -0.00627222       0.0223667      -0.00097784     -0.00030995
                     5.40487e-05    -0.000418727        -0.945456       -0.294707      -0.00102072    -0.000462459       -0.0926956       0.0566688
281704                -0.0196935     -0.00510616      -0.00056811    -0.000929517         0.512267        0.848099       7.8042e-05    -0.000562237
                    -0.000600576    -0.000923501        0.0453838       0.0990271     -0.000442648     0.000379861        -0.944689       -0.294449
                        0.512021        0.848706     -0.000438198     0.000308233      -0.00628829       0.0223566     -0.000978134     -0.00030968
                     5.39418e-05    -0.000418769        -0.945551         -0.2944      -0.00102112     -0.00046195       -0.0926782       0.0567292
281706                -0.0196961     -0.00506985     -0.000568491    -0.000929658           0.5126        0.847899      7.78468e-05    -0.000562287
                    -0.000601084    -0.000923521        0.0453996       0.0990383     -0.000442442      0.00037998        -0.944782       -0.294142
                        0.512354        0.848506     -0.000438052     0.000308413      -0.00630437       0.0223466     -0.000978429     -0.00030941
                     5.38348e-05     -0.00041881        -0.945645       -0.294092      -0.00102152     -0.00046144       -0.0926608       0.0567896
281708                -0.0196987     -0.00503354     -0.000568872    -0.000929799         0.512933        0.847698      7.76515e-05    -0.000562337
                    -0.000601591    -0.000923542        0.0454153       0.0990495     -0.000442237     0.000380099        -0.944875       -0.293835
                        0.512686        0.848306     -0.000437906     0.000308593      -0.00632047       0.0223366     -0.000978723     -0.00030914
                     5.37278e-05    -0.000418852        -0.945739       -0.293785      -0.00102192     -0.00046093       -0.0926433       0.0568501
281710                -0.0197012     -0.00499724     -0.000569253     -0.00092994         0.513266        0.847497      7.74562e-05    -0.000562387
                    -0.000602099    -0.000923562        0.0454311       0.0990607     -0.000442033     0.000380218        -0.944968       -0.293528
                        0.513018        0.848106     -0.000437759     0.000308772      -0.00633658       0.0223265     -0.000979018    -0.000308869
                     5.36207e-05    -0.000418893        -0.945833       -0.293477      -0.00102232    -0.000460418       -0.0926259       0.0569105
281712                -0.0197038     -0.00496094     -0.000569634     -0.00093008         0.513599        0.847297      7.72608e-05    -0.000562437
                    -0.000602607    -0.000923582        0.0454469       0.0990719      -0.00044183     0.000380336        -0.945061       -0.293222
                         0.51335        0.847906     -0.000437613     0.000308952       -0.0063527       0.0223166     -0.000979312    -0.000308599
                     5.35135e-05    -0.000418934        -0.945927       -0.293169      -0.00102271    -0.000459906       -0.0926083       0.0569709
281714                -0.0197063     -0.00492463     -0.000570016     -0.00093022         0.513931        0.847096      7.70654e-05    -0.000562486
                    -0.000603114    -0.000923602        0.0454626        0.099083     -0.000441627     0.000380454        -0.945154       -0.292915
                        0.513682        0.847705     -0.000437465     0.000309131      -0.00636883       0.0223066     -0.000979606    -0.000308328
                     5.34063e-05    -0.000418975        -0.946021       -0.292862      -0.00102311    -0.000459393       -0.0925907       0.0570313
281716                -0.0197088     -0.00488833     -0.000570398    -0.000930359         0.514264        0.846894      7.68699e-05    -0.000562536
                    -0.000603622    -0.000923622        0.0454784       0.0990942     -0.000441424     0.000380571        -0.945247       -0.292608
                        0.514014        0.847505     -0.000437318     0.000309311      -0.00638498       0.0222967     -0.000979899    -0.000308058
                      5.3299e-05    -0.000419015        -0.946115       -0.292554       -0.0010235    -0.000458879       -0.0925731       0.0570917
281718                -0.0197113     -0.00485203      -0.00057078    -0.000930498         0.514596        0.846693      7.66744e-05    -0.000562586
                    -0.000604129    -0.000923641        0.0454942       0.0991054     -0.000441222     0.000380688        -0.945339       -0.292301
                        0.514346        0.847304      -0.00043717     0.000309491      -0.00640114       0.0222868     -0.000980193    -0.000307787
                     5.31917e-05    -0.000419056        -0.946208       -0.292246       -0.0010239    -0.000458364       -0.0925555       0.0571521
281720                -0.0197138     -0.00481574     -0.000571163    -0.000930637         0.514929        0.846492      7.64789e-05    -0.000562635
                    -0.000604637     -0.00092366        0.0455099       0.0991166     -0.000441021     0.000380804        -0.945432       -0.291994
                        0.514678        0.847103     -0.000437022      0.00030967      -0.00641732        0.022277     -0.000980486    -0.000307516
                     5.30842e-05    -0.000419097        -0.946302       -0.291938      -0.00102429    -0.000457848       -0.0925378       0.0572125
281722                -0.0197163     -0.00477944     -0.000571546    -0.000930775         0.515261         0.84629      7.62834e-05    -0.000562684
                    -0.000605145    -0.000923678        0.0455257       0.0991277     -0.000440819     0.000380919        -0.945524       -0.291687
                         0.51501        0.846902     -0.000436874      0.00030985       -0.0064335       0.0222671     -0.000980779    -0.000307245
                     5.29768e-05    -0.000419137        -0.946396       -0.291631      -0.00102469    -0.000457331       -0.0925201       0.0572729
281724                -0.0197187     -0.00474314     -0.000571929    -0.000930913         0.515593        0.846089      7.60878e-05    -0.000562734
                    -0.000605652    -0.000923697        0.0455415       0.0991389     -0.000440618     0.000381034        -0.945617        -0.29138
                        0.515341        0.846701     -0.000436725     0.000310029       -0.0064497       0.0222573     -0.000981072    -0.000306974
                     5.28692e-05    -0.000419177        -0.946489       -0.291323      -0.00102508    -0.000456813       -0.0925023       0.0573333
281726                -0.0197212     -0.00470685     -0.000572313    -0.000931051         0.515925        0.845887      7.58923e-05    -0.000562783
                     -0.00060616    -0.000923715        0.0455573       0.0991501     -0.000440417     0.000381148        -0.945709       -0.291073
                        0.515673          0.8465     -0.000436577     0.000310209      -0.00646592       0.0222476     -0.000981365    -0.000306702
                     5.27616e-05    -0.000419217        -0.946582       -0.291015      -0.00102547    -0.000456295       -0.0924845       0.0573937
281728                -0.0197236     -0.00467056     -0.000572696    -0.000931188         0.516257        0.845685      7.56967e-05    -0.000562832
                    -0.000606667    -0.000923733        0.0455731       0.0991612     -0.000440216     0.000381261        -0.945801       -0.290766
                        0.516004        0.846298     -0.000436427     0.000310388      -0.00648214       0.0222378     -0.000981658    -0.000306431
                     5.26539e-05    -0.000419257        -0.946675       -0.290707      -0.00102587    -0.000455775       -0.0924666       0.0574541
281730                -0.0197261     -0.00463427      -0.00057308    -0.000931324         0.516589        0.845483      7.55012e-05    -0.000562881
                    -0.000607175     -0.00092375        0.0455888       0.0991724     -0.000440015     0.000381374        -0.945893       -0.290459
                        0.516336        0.846097     -0.000436278     0.000310568      -0.00649838       0.0222281      -0.00098195    -0.000306159
                     5.25462e-05    -0.000419297        -0.946768       -0.290399      -0.00102626    -0.000455254       -0.0924488       0.0575145
281732                -0.0197285     -0.00459798     -0.000573465    -0.000931461         0.516921        0.845281      7.53057e-05     -0.00056293
                    -0.000607682    -0.000923768        0.0456046       0.0991835     -0.000439813     0.000381486        -0.945985       -0.290152
                        0.516667        0.845895     -0.000436128     0.000310747      -0.00651463       0.0222185     -0.000982243    -0.000305887
                     5.24384e-05    -0.000419337        -0.946861       -0.290091      -0.00102665    -0.000454732       -0.0924308       0.0575749
281734                -0.0197309     -0.00456169     -0.000573849    -0.000931597         0.517253        0.845079      7.51102e-05    -0.000562978
                     -0.00060819    -0.000923785        0.0456204       0.0991947     -0.000439612     0.000381598        -0.946077       -0.289845
                        0.516998        0.845693     -0.000435978     0.000310927       -0.0065309       0.0222088     -0.000982535    -0.000305615
                     5.23306e-05    -0.000419377        -0.946954       -0.289783      -0.00102704    -0.000454209       -0.0924129       0.0576353
281736                -0.0197333     -0.00452541     -0.000574234    -0.000931732         0.517585        0.844876      7.49147e-05    -0.000563027
                    -0.000608698    -0.000923801        0.0456362       0.0992058     -0.000439411     0.000381709        -0.946168       -0.289538
                        0.517329        0.845491     -0.000435828     0.000311106      -0.00654718       0.0221992     -0.000982827    -0.000305343
                     5.22226e-05    -0.000419416        -0.947047       -0.289474      -0.00102743    -0.000453684       -0.0923949       0.0576957
281738                -0.0197357     -0.00448913     -0.000574619    -0.000931867         0.517916        0.844674      7.47192e-05    -0.000563075
                    -0.000609205    -0.000923818         0.045652        0.099217     -0.000439209      0.00038182         -0.94626        -0.28923
                         0.51766        0.845289     -0.000435677     0.000311285      -0.00656347       0.0221896     -0.000983119    -0.000305071
                     5.21146e-05    -0.000419455         -0.94714       -0.289166      -0.00102782    -0.000453159       -0.0923768       0.0577561
281740                -0.0197381     -0.00445284     -0.000575005    -0.000932002         0.518248        0.844471      7.45237e-05    -0.000563123
                    -0.000609713    -0.000923834        0.0456679       0.0992281     -0.000439008     0.000381931        -0.946351       -0.288923
                        0.517991        0.845087     -0.000435526     0.000311465      -0.00657977       0.0221801      -0.00098341    -0.000304798
                     5.20066e-05    -0.000419495        -0.947232       -0.288858      -0.00102821    -0.000452633       -0.0923588       0.0578165
281742                -0.0197405     -0.00441656      -0.00057539    -0.000932136         0.518579        0.844268      7.43282e-05    -0.000563171
                     -0.00061022     -0.00092385        0.0456837       0.0992393     -0.000438806     0.000382041        -0.946443       -0.288616
                        0.518322        0.844885     -0.000435375     0.000311644      -0.00659609       0.0221705     -0.000983701    -0.000304525
                     5.18985e-05    -0.000419534        -0.947325        -0.28855       -0.0010286    -0.000452105       -0.0923406       0.0578769
281744                -0.0197428     -0.00438028     -0.000575776     -0.00093227         0.518911        0.844066      7.41326e-05    -0.000563219
                    -0.000610728    -0.000923866        0.0456995       0.0992504     -0.000438604      0.00038215        -0.946534       -0.288308
                        0.518653        0.844683     -0.000435224     0.000311823      -0.00661242        0.022161     -0.000983993    -0.000304253
                     5.17903e-05    -0.000419572        -0.947417       -0.288242      -0.00102899    -0.000451576       -0.0923225       0.0579373
281746                -0.0197452     -0.00434401     -0.000576163    -0.000932403         0.519242        0.843863       7.3937e-05    -0.000563266
                    -0.000611235    -0.000923881        0.0457153       0.0992615     -0.000438402      0.00038226        -0.946625       -0.288001
                        0.518983         0.84448     -0.000435072     0.000312002      -0.00662876       0.0221516     -0.000984283     -0.00030398
                      5.1682e-05    -0.000419611         -0.94751       -0.287933      -0.00102938    -0.000451047       -0.0923043       0.0579976
281748                -0.0197475     -0.00430773     -0.000576549    -0.000932536         0.519573        0.843659      7.37413e-05    -0.000563314
                    -0.000611743    -0.000923896        0.0457311       0.0992727       -0.0004382     0.000382369        -0.946716       -0.287694
                        0.519314        0.844278      -0.00043492     0.000312182      -0.00664511       0.0221421     -0.000984574    -0.000303707
                     5.15737e-05     -0.00041965        -0.947602       -0.287625      -0.00102976    -0.000450516        -0.092286        0.058058
281750                -0.0197498     -0.00427146     -0.000576936    -0.000932668         0.519904        0.843456      7.35456e-05    -0.000563361
                     -0.00061225    -0.000923911        0.0457469       0.0992838     -0.000437997     0.000382477        -0.946807       -0.287386
                        0.519644        0.844075     -0.000434767     0.000312361      -0.00666148       0.0221327     -0.000984865    -0.000303433
                     5.14654e-05    -0.000419688        -0.947694       -0.287316      -0.00103015    -0.000449984       -0.0922678       0.0581184
281752                -0.0197522     -0.00423518     -0.000577323    -0.000932801         0.520236        0.843253      7.33499e-05    -0.000563408
                    -0.000612757    -0.000923926        0.0457628       0.0992949     -0.000437795     0.000382585        -0.946898       -0.287079
                        0.519975        0.843872     -0.000434615      0.00031254      -0.00667786       0.0221233     -0.000985155     -0.00030316
                     5.13569e-05    -0.000419727        -0.947786       -0.287008      -0.00103054    -0.000449451       -0.0922495       0.0581788
281754                -0.0197545     -0.00419891     -0.000577711    -0.000932932         0.520566        0.843049       7.3154e-05    -0.000563455
                    -0.000613265     -0.00092394        0.0457786       0.0993061     -0.000437592     0.000382693        -0.946989       -0.286771
                        0.520305        0.843669     -0.000434461     0.000312719      -0.00669425        0.022114     -0.000985445    -0.000302886
                     5.12484e-05    -0.000419765        -0.947878         -0.2867      -0.00103093    -0.000448917       -0.0922311       0.0582391
281756                -0.0197568     -0.00416264     -0.000578098    -0.000933063         0.520897        0.842846      7.29581e-05    -0.000563502
                    -0.000613772    -0.000923954        0.0457944       0.0993172     -0.000437389     0.000382801         -0.94708       -0.286464
                        0.520635        0.843466     -0.000434308     0.000312898      -0.00671066       0.0221047     -0.000985735    -0.000302613
                     5.11398e-05    -0.000419803         -0.94797       -0.286391      -0.00103132    -0.000448382       -0.0922127       0.0582995
281758                 -0.019759     -0.00412638     -0.000578486    -0.000933194         0.521228        0.842642      7.27621e-05    -0.000563548
                    -0.000614279    -0.000923968        0.0458103       0.0993283     -0.000437186     0.000382908        -0.947171       -0.286156
                        0.520965        0.843262     -0.000434155     0.000313077      -0.00672707       0.0220954     -0.000986025    -0.000302339
                     5.10312e-05    -0.000419841        -0.948061       -0.286082       -0.0010317    -0.000447846       -0.0921943       0.0583599
281760                -0.0197613     -0.00409011     -0.000578874    -0.000933324         0.521559        0.842438      7.25661e-05    -0.000563595
                    -0.000614787    -0.000923982        0.0458261       0.0993394     -0.000436983     0.000383015        -0.947261       -0.285848
                        0.521295        0.843059     -0.000434001     0.000313256       -0.0067435       0.0220861     -0.000986314    -0.000302064
                     5.09224e-05    -0.000419878        -0.948153       -0.285774      -0.00103209    -0.000447308       -0.0921758       0.0584202
281762                -0.0197636     -0.00405384     -0.000579263    -0.000933454          0.52189        0.842234      7.23699e-05    -0.000563641
                    -0.000615294    -0.000923995         0.045842       0.0993505      -0.00043678     0.000383122        -0.947352       -0.285541
                        0.521625        0.842855     -0.000433846     0.000313435      -0.00675995       0.0220769     -0.000986603     -0.00030179
