! TOUCHSTONE file generated by CST MICROWAVE STUDIO
! Date and time: Wed Oct 15 17:31:11 2025
! Project name: Teste_Macro_Metasurface_Nanopilar.cst
! Parameters = {H=600; L_x=125; L_y=200; Lambda=1064; Max_L=200; Min_L=70; PathPara=1; Phi=0; Step_L=10; Theta=0; p=520; phaseX=180; phaseY=0}
! Header version: 2018
! Port assignment regex: !\s*Touchstone port\s*([0-9]+)\s*=\s*(CST MWS port|CST DS port)\s*([0-9]+|Zmin|Zmax)\s*\(\"(.*)\"\)(\s*mode\s*([0-9]+))?.*
! Touchstone port assignment:
! Touchstone port 1 = CST MWS port Zmax ("") mode 1
! Touchstone port 2 = CST MWS port Zmax ("") mode 2
! Touchstone port 3 = CST MWS port Zmin ("") mode 1
! Touchstone port 4 = CST MWS port Zmin ("") mode 2
! S-Parameters are not renormalized. Each port impedance will be approximated by the real part at minimum frequency. The values are described via the [Reference] keyword.
! Default impedance is overridden by [Reference]
[Version] 2.0
# GHz S RI R 376.73
[Number of Ports] 4
[Reference]
376.73 376.73 259.888 259.888 
[Number of Frequencies] 51
[Network Data]
281700                  0.174566       0.0138501       3.8817e-05     0.000332415         0.451363       -0.870341     -0.000119286    -0.000392844
                     7.87244e-05     0.000367025         0.115689        0.168858     -0.000400145    -0.000200001         0.905475       -0.359623
                        0.451331       -0.869891     -0.000289617    -0.000142629          0.11038        0.130068      0.000504368      0.00013836
                    -0.000241309    -0.000321984         0.905857       -0.359874      0.000531234     7.32417e-05        0.0331206        0.200163
281702                  0.174579       0.0138735      3.89485e-05     0.000332355         0.451097       -0.870476     -0.000120182    -0.000393234
                      7.8867e-05      0.00036701         0.115704        0.168886     -0.000400086    -0.000199756          0.90535       -0.359917
                        0.451065       -0.870025     -0.000289663    -0.000142248         0.110487        0.129998      0.000504856     0.000138498
                    -0.000241481    -0.000321837         0.905733       -0.360168      0.000531199     7.30231e-05         0.033261        0.200171
281704                  0.174592       0.0138968      3.90798e-05     0.000332295         0.450831        -0.87061     -0.000121081    -0.000393615
                     7.90097e-05     0.000366995         0.115719        0.168915     -0.000400027     -0.00019951         0.905225       -0.360211
                        0.450799        -0.87016     -0.000289708    -0.000141862         0.110593        0.129929      0.000505342      0.00013863
                    -0.000241652    -0.000321689         0.905609       -0.360463      0.000531163     7.28041e-05        0.0334014        0.200179
281706                  0.174606       0.0139202      3.92109e-05     0.000332233         0.450565       -0.870745     -0.000121983    -0.000393985
                     7.91524e-05      0.00036698         0.115735        0.168943     -0.000399969    -0.000199264           0.9051       -0.360504
                        0.450534       -0.870295     -0.000289751    -0.000141471           0.1107        0.129859      0.000505827     0.000138755
                    -0.000241823    -0.000321541         0.905485       -0.360757      0.000531126     7.25846e-05        0.0335419        0.200187
281708                  0.174619       0.0139436      3.93418e-05     0.000332171         0.450299       -0.870879     -0.000122888    -0.000394345
                     7.92953e-05     0.000366965          0.11575        0.168972     -0.000399911    -0.000199018         0.904975       -0.360798
                        0.450268       -0.870429     -0.000289792    -0.000141076         0.110806         0.12979      0.000506309     0.000138875
                    -0.000241994    -0.000321393          0.90536       -0.361051      0.000531089     7.23647e-05        0.0336824        0.200195
281710                  0.174632       0.0139669      3.94725e-05     0.000332107         0.450033       -0.871014     -0.000123795    -0.000394696
                     7.94382e-05      0.00036695         0.115765           0.169     -0.000399853    -0.000198772         0.904849       -0.361092
                        0.450002       -0.870564     -0.000289832    -0.000140675         0.110913         0.12972       0.00050679     0.000138988
                    -0.000242165    -0.000321245         0.905236       -0.361346      0.000531051     7.21444e-05         0.033823        0.200203
281712                  0.174646       0.0139903      3.96031e-05     0.000332042         0.449767       -0.871148     -0.000124704    -0.000395036
                     7.95812e-05     0.000366936         0.115781        0.169028     -0.000399795    -0.000198526         0.904724       -0.361385
                        0.449737       -0.870698     -0.000289871    -0.000140269         0.111019        0.129651      0.000507269     0.000139096
                    -0.000242336    -0.000321097         0.905112        -0.36164      0.000531012     7.19236e-05        0.0339636        0.200211
281714                  0.174659       0.0140136      3.97335e-05     0.000331976         0.449501       -0.871282     -0.000125615    -0.000395366
                     7.97243e-05     0.000366921         0.115796        0.169057     -0.000399738     -0.00019828         0.904598       -0.361679
                        0.449471       -0.870832     -0.000289908    -0.000139857         0.111125        0.129581      0.000507746     0.000139198
                    -0.000242507    -0.000320948         0.904987       -0.361934      0.000530973     7.17024e-05        0.0341042        0.200219
281716                  0.174672       0.0140369      3.98639e-05     0.000331908         0.449234       -0.871416     -0.000126527    -0.000395686
                     7.98675e-05     0.000366907         0.115811        0.169086     -0.000399681    -0.000198033         0.904473       -0.361972
                        0.449205       -0.870967     -0.000289944    -0.000139441         0.111231        0.129511      0.000508221     0.000139293
                    -0.000242677      -0.0003208         0.904863       -0.362229      0.000530934     7.14807e-05        0.0342449        0.200227
281718                  0.174685       0.0140603      3.99941e-05     0.000331839         0.448968       -0.871551     -0.000127442    -0.000395996
                     8.00108e-05     0.000366892         0.115827        0.169114     -0.000399624    -0.000197786         0.904347       -0.362266
                        0.448939       -0.871101     -0.000289978    -0.000139018         0.111338        0.129441      0.000508694     0.000139383
                    -0.000242848    -0.000320651         0.904738       -0.362523      0.000530893     7.12585e-05        0.0343856        0.200235
281720                  0.174699       0.0140836      4.01242e-05     0.000331769         0.448702       -0.871685     -0.000128357    -0.000396296
                     8.01541e-05     0.000366878         0.115842        0.169143     -0.000399568    -0.000197539         0.904221       -0.362559
                        0.448673       -0.871235     -0.000290012     -0.00013859         0.111444        0.129371      0.000509165     0.000139467
                    -0.000243018    -0.000320502         0.904613       -0.362817      0.000530853     7.10359e-05        0.0345264        0.200242
281722                  0.174712       0.0141069      4.02543e-05     0.000331698         0.448435       -0.871818     -0.000129274    -0.000396586
                     8.02975e-05     0.000366863         0.115857        0.169171     -0.000399512    -0.000197292         0.904095       -0.362853
                        0.448407       -0.871369     -0.000290044    -0.000138156          0.11155        0.129301      0.000509633     0.000139545
                    -0.000243188    -0.000320353         0.904488       -0.363111      0.000530811     7.08128e-05        0.0346671         0.20025
281724                  0.174725       0.0141302      4.03843e-05     0.000331626         0.448169       -0.871952     -0.000130192    -0.000396866
                      8.0441e-05     0.000366849         0.115873          0.1692     -0.000399456    -0.000197044         0.903969       -0.363146
                        0.448141       -0.871503     -0.000290075    -0.000137716         0.111656        0.129231        0.0005101     0.000139617
                    -0.000243358    -0.000320203         0.904363       -0.363405      0.000530769     7.05892e-05         0.034808        0.200257
281726                  0.174739       0.0141535      4.05142e-05     0.000331552         0.447903       -0.872086     -0.000131111    -0.000397136
                     8.05846e-05     0.000366834         0.115888        0.169228       -0.0003994    -0.000196797         0.903842        -0.36344
                        0.447875       -0.871636     -0.000290105    -0.000137269         0.111762        0.129161      0.000510565     0.000139683
                    -0.000243528    -0.000320054         0.904238       -0.363699      0.000530727     7.03652e-05        0.0349488        0.200264
281728                  0.174752       0.0141768      4.06442e-05     0.000331476         0.447636        -0.87222      -0.00013203    -0.000397396
                     8.07283e-05      0.00036682         0.115903        0.169257     -0.000399345    -0.000196549         0.903716       -0.363733
                        0.447609        -0.87177     -0.000290135    -0.000136817         0.111868        0.129091      0.000511028     0.000139743
                    -0.000243698    -0.000319904         0.904113       -0.363994      0.000530684     7.01406e-05        0.0350897        0.200272
281730                  0.174765       0.0142001      4.07741e-05       0.0003314          0.44737       -0.872353      -0.00013295    -0.000397646
                      8.0872e-05     0.000366806         0.115919        0.169286      -0.00039929    -0.000196301          0.90359       -0.364026
                        0.447343       -0.871904     -0.000290163    -0.000136358         0.111973         0.12902      0.000511489     0.000139797
                    -0.000243868    -0.000319754         0.903988       -0.364288       0.00053064     6.99156e-05        0.0352307        0.200279
281732                  0.174779       0.0142234      4.09041e-05     0.000331322         0.447103       -0.872487      -0.00013387    -0.000397886
                     8.10157e-05     0.000366792         0.115934        0.169314     -0.000399235    -0.000196053         0.903463       -0.364319
                        0.447077       -0.872037      -0.00029019    -0.000135893         0.112079         0.12895      0.000511948     0.000139845
                    -0.000244037    -0.000319604         0.903862       -0.364582      0.000530596     6.96901e-05        0.0353717        0.200286
281734                  0.174792       0.0142467      4.10341e-05     0.000331242         0.446837        -0.87262      -0.00013479    -0.000398117
                     8.11595e-05     0.000366778          0.11595        0.169343      -0.00039918    -0.000195805         0.903336       -0.364613
                        0.446811       -0.872171     -0.000290217    -0.000135421         0.112185        0.128879      0.000512404     0.000139887
                    -0.000244207    -0.000319454         0.903737       -0.364876      0.000530551      6.9464e-05        0.0355127        0.200293
281736                  0.174805       0.0142699      4.11642e-05     0.000331161          0.44657       -0.872753      -0.00013571    -0.000398337
                     8.13033e-05     0.000366764         0.115965        0.169372     -0.000399126    -0.000195556          0.90321       -0.364906
                        0.446545       -0.872304     -0.000290244    -0.000134943         0.112291        0.128809      0.000512859     0.000139924
                    -0.000244376    -0.000319304         0.903611        -0.36517      0.000530505     6.92375e-05        0.0356537          0.2003
281738                  0.174819       0.0142932      4.12944e-05     0.000331079         0.446303       -0.872886      -0.00013663    -0.000398548
                      8.1447e-05     0.000366749          0.11598          0.1694     -0.000399072    -0.000195308         0.903083       -0.365199
                        0.446279       -0.872437     -0.000290269    -0.000134457         0.112396        0.128738      0.000513311     0.000139955
                    -0.000244545    -0.000319153         0.903486       -0.365464      0.000530459     6.90105e-05        0.0357948        0.200307
281740                  0.174832       0.0143165      4.14247e-05     0.000330995         0.446037        -0.87302      -0.00013755    -0.000398749
                     8.15902e-05     0.000366735         0.115996        0.169429     -0.000399019    -0.000195059         0.902956       -0.365492
                        0.446012        -0.87257     -0.000290294    -0.000133965         0.112502        0.128668      0.000513761      0.00013998
                    -0.000244714    -0.000319003          0.90336       -0.365758      0.000530413     6.87829e-05         0.035936        0.200313
281742                  0.174845       0.0143397      4.15551e-05      0.00033091          0.44577       -0.873153     -0.000138469     -0.00039894
                     8.17323e-05     0.000366722         0.116011        0.169458     -0.000398965     -0.00019481         0.902829       -0.365785
                        0.445746       -0.872703     -0.000290319    -0.000133466         0.112607        0.128597      0.000514209     0.000139999
                    -0.000244883    -0.000318852         0.903234       -0.366052      0.000530366     6.85548e-05        0.0360771         0.20032
281744                  0.174859        0.014363      4.16857e-05     0.000330823         0.445503       -0.873286     -0.000139387    -0.000399121
                     8.18748e-05     0.000366712         0.116027        0.169486     -0.000398913    -0.000194561         0.902702       -0.366078
                         0.44548       -0.872836     -0.000290344    -0.000132959         0.112713        0.128526      0.000514655     0.000140012
                    -0.000245052    -0.000318701         0.903108       -0.366345      0.000530318     6.83262e-05        0.0362183        0.200326
281746                  0.174872       0.0143862      4.18165e-05     0.000330735         0.445236       -0.873418     -0.000140304    -0.000399293
                     8.20225e-05     0.000366702         0.116042        0.169515      -0.00039886    -0.000194311         0.902575       -0.366371
                        0.445213       -0.872969     -0.000290368    -0.000132445         0.112818        0.128455      0.000515099      0.00014002
                    -0.000245221     -0.00031855         0.902982       -0.366639       0.00053027     6.80971e-05        0.0363596        0.200333
281748                  0.174885       0.0144094      4.19475e-05     0.000330645         0.444969       -0.873551      -0.00014122    -0.000399456
                     8.21692e-05     0.000366688         0.116057        0.169544     -0.000398808    -0.000194062         0.902447       -0.366665
                        0.444947       -0.873102     -0.000290393    -0.000131924         0.112924        0.128384      0.000515541     0.000140022
                     -0.00024539    -0.000318399         0.902856       -0.366933      0.000530221     6.78674e-05        0.0365009        0.200339
281750                  0.174899       0.0144326      4.20787e-05     0.000330554         0.444703       -0.873684     -0.000142135    -0.000399609
                     8.23145e-05     0.000366674         0.116073        0.169573     -0.000398756    -0.000193812          0.90232       -0.366957
                        0.444681       -0.873235     -0.000290417    -0.000131395         0.113029        0.128313      0.000515981     0.000140018
                    -0.000245558    -0.000318248          0.90273       -0.367227      0.000530171     6.76372e-05        0.0366422        0.200346
281752                  0.174912       0.0144559      4.22102e-05     0.000330461         0.444436       -0.873817     -0.000143049    -0.000399753
                     8.24595e-05      0.00036666         0.116088        0.169602     -0.000398704    -0.000193562         0.902192        -0.36725
                        0.444414       -0.873368     -0.000290442    -0.000130858         0.113134        0.128242      0.000516419     0.000140008
                    -0.000245727    -0.000318097         0.902603       -0.367521      0.000530121     6.74064e-05        0.0367836        0.200352
281754                  0.174926       0.0144791       4.2342e-05     0.000330366         0.444169       -0.873949     -0.000143961    -0.000399887
                     8.26044e-05     0.000366647         0.116104         0.16963     -0.000398653    -0.000193312         0.902065       -0.367543
                        0.444148         -0.8735     -0.000290467    -0.000130313          0.11324        0.128171      0.000516856     0.000139992
                    -0.000245896    -0.000317945         0.902477       -0.367814       0.00053007     6.71751e-05         0.036925        0.200358
281756                  0.174939       0.0145023      4.24741e-05      0.00033027         0.443902       -0.874082     -0.000144871    -0.000400013
                     8.27493e-05     0.000366633         0.116119        0.169659     -0.000398601    -0.000193062         0.901937       -0.367836
                        0.443881       -0.873633     -0.000290492     -0.00012976         0.113345          0.1281      0.000517291     0.000139969
                    -0.000246065    -0.000317793          0.90235       -0.368108      0.000530019     6.69432e-05        0.0370664        0.200364
281758                  0.174952       0.0145255      4.26066e-05     0.000330173         0.443635       -0.874214      -0.00014578    -0.000400129
                     8.28943e-05     0.000366621         0.116135        0.169688     -0.000398551    -0.000192812         0.901809       -0.368129
                        0.443614       -0.873765     -0.000290518    -0.000129199          0.11345        0.128028      0.000517724     0.000139939
                    -0.000246234    -0.000317641         0.902224       -0.368402      0.000529967     6.67107e-05        0.0372079         0.20037
281760                  0.174966       0.0145487      4.27394e-05     0.000330073         0.443368       -0.874346     -0.000146686    -0.000400236
                     8.30393e-05     0.000366608          0.11615        0.169717       -0.0003985    -0.000192561         0.901681       -0.368422
                        0.443348       -0.873897     -0.000290545     -0.00012863         0.113555        0.127957      0.000518155     0.000139902
                    -0.000246402    -0.000317487         0.902097       -0.368696      0.000529915     6.64777e-05        0.0373494        0.200376
281762                  0.174979       0.0145719      4.28726e-05     0.000329972         0.443101       -0.874478     -0.000147591    -0.000400334
                     8.31844e-05     0.000366595         0.116166        0.169746      -0.00039845     -0.00019231         0.901553       -0.368715
                        0.443081        -0.87403     -0.000290572    -0.000128053          0.11366        0.127885      0.000518582     0.000139858
