! TOUCHSTONE file generated by CST MICROWAVE STUDIO
! Date and time: Wed Oct 15 17:31:12 2025
! Project name: Teste_Macro_Metasurface_Nanopilar.cst
! Parameters = {H=600; L_x=130; L_y=75; Lambda=1064; Max_L=200; Min_L=70; PathPara=1; Phi=0; Step_L=10; Theta=0; p=520; phaseX=180; phaseY=0}
! Header version: 2018
! Port assignment regex: !\s*Touchstone port\s*([0-9]+)\s*=\s*(CST MWS port|CST DS port)\s*([0-9]+|Zmin|Zmax)\s*\(\"(.*)\"\)(\s*mode\s*([0-9]+))?.*
! Touchstone port assignment:
! Touchstone port 1 = CST MWS port Zmax ("") mode 1
! Touchstone port 2 = CST MWS port Zmax ("") mode 2
! Touchstone port 3 = CST MWS port Zmin ("") mode 1
! Touchstone port 4 = CST MWS port Zmin ("") mode 2
! S-Parameters are not renormalized. Each port impedance will be approximated by the real part at minimum frequency. The values are described via the [Reference] keyword.
! Default impedance is overridden by [Reference]
[Version] 2.0
# GHz S RI R 376.73
[Number of Ports] 4
[Reference]
376.73 376.73 259.888 259.888 
[Number of Frequencies] 51
[Network Data]
281700                 0.0181664       -0.104104      3.66938e-05     -0.00011502       -0.0428565       -0.992987      0.000136682    -0.000202163
                     6.36275e-06    -0.000142919         0.164132        0.014526      0.000178045    -0.000162856        -0.980115      -0.0321303
                      -0.0426277       -0.992991      0.000198589    -0.000213327        0.0269535        0.102282      0.000234987    -4.86432e-05
                     0.000162463    -0.000267425         -0.98007      -0.0320007      0.000183095    -6.28911e-05        -0.164197      0.00483401
281702                 0.0181544       -0.104101      3.66333e-05    -0.000115049       -0.0430982       -0.992977      0.000136616    -0.000202226
                     6.35157e-06    -0.000142966         0.164143       0.0145105      0.000178012    -0.000162855        -0.980124      -0.0317959
                      -0.0428695       -0.992981       0.00019858    -0.000213373        0.0269911        0.102268      0.000235021    -4.87544e-05
                     0.000162361    -0.000267488        -0.980079      -0.0316663      0.000183163    -6.29296e-05        -0.164203      0.00492983
281704                 0.0181424       -0.104099      3.65735e-05    -0.000115079       -0.0433399       -0.992967      0.000136549    -0.000202289
                     6.34032e-06    -0.000143012         0.164153        0.014495      0.000177979    -0.000162854        -0.980133      -0.0314615
                      -0.0431112       -0.992971      0.000198571    -0.000213418        0.0270287        0.102254      0.000235054    -4.88656e-05
                     0.000162259    -0.000267551        -0.980088       -0.031332      0.000183232    -6.29633e-05        -0.164209      0.00502565
281706                 0.0181304       -0.104097      3.65146e-05    -0.000115107       -0.0435815       -0.992957      0.000136483    -0.000202351
                       6.329e-06    -0.000143059         0.164164       0.0144795      0.000177945    -0.000162853        -0.980142      -0.0311271
                      -0.0433529        -0.99296      0.000198562    -0.000213465        0.0270663        0.102239      0.000235087    -4.89768e-05
                     0.000162157    -0.000267614        -0.980096      -0.0309977      0.000183305    -6.29935e-05        -0.164215      0.00512149
281708                 0.0181184       -0.104095      3.64553e-05    -0.000115132       -0.0438232       -0.992947      0.000136416    -0.000202414
                     6.31762e-06    -0.000143105         0.164174       0.0144639      0.000177912    -0.000162852         -0.98015      -0.0307927
                      -0.0435947        -0.99295      0.000198553    -0.000213512        0.0271039        0.102225       0.00023512     -4.9088e-05
                     0.000162055    -0.000267678        -0.980105      -0.0306633      0.000183385    -6.30243e-05        -0.164222      0.00521733
281710                 0.0181063       -0.104092      3.63915e-05    -0.000115155       -0.0440649       -0.992936      0.000136349    -0.000202476
                     6.30617e-06    -0.000143151         0.164185       0.0144484      0.000177878    -0.000162851        -0.980159      -0.0304582
                      -0.0438364        -0.99294      0.000198542     -0.00021356        0.0271414         0.10221      0.000235152    -4.91992e-05
                     0.000161953    -0.000267741        -0.980113       -0.030329      0.000183469     -6.3059e-05        -0.164228      0.00531318
281712                 0.0180943        -0.10409      3.63243e-05    -0.000115182       -0.0443065       -0.992926      0.000136283    -0.000202539
                     6.29465e-06    -0.000143198         0.164195       0.0144329      0.000177844    -0.000162851        -0.980167      -0.0301238
                      -0.0440782        -0.99293       0.00019853    -0.000213607         0.027179        0.102196      0.000235184    -4.93104e-05
                     0.000161851    -0.000267804        -0.980121      -0.0299946      0.000183553    -6.30976e-05        -0.164234      0.00540904
281714                 0.0180823       -0.104088      3.62587e-05    -0.000115212       -0.0445482       -0.992916      0.000136216    -0.000202601
                     6.28307e-06    -0.000143244         0.164205       0.0144173      0.000177811    -0.000162851        -0.980175      -0.0297893
                      -0.0443199       -0.992919      0.000198516    -0.000213653        0.0272165        0.102182      0.000235215    -4.94215e-05
                     0.000161748    -0.000267867         -0.98013      -0.0296602      0.000183636    -6.31389e-05        -0.164239      0.00550491
281716                 0.0180703       -0.104085       3.6195e-05    -0.000115243       -0.0447898       -0.992905      0.000136149    -0.000202664
                     6.27142e-06     -0.00014329         0.164216       0.0144018      0.000177777    -0.000162851        -0.980183      -0.0294549
                      -0.0445616       -0.992909      0.000198503    -0.000213696        0.0272541        0.102167      0.000235246    -4.95325e-05
                     0.000161646     -0.00026793        -0.980138      -0.0293258      0.000183719    -6.31817e-05        -0.164245      0.00560079
281718                 0.0180583       -0.104083      3.61322e-05    -0.000115273       -0.0450315       -0.992895      0.000136082    -0.000202727
                     6.25971e-06    -0.000143337         0.164226       0.0143862      0.000177743    -0.000162851        -0.980191      -0.0291204
                      -0.0448033       -0.992899      0.000198492    -0.000213739        0.0272916        0.102153      0.000235276    -4.96436e-05
                     0.000161544    -0.000267993        -0.980145      -0.0289914        0.0001838    -6.32252e-05        -0.164251      0.00569668
281720                 0.0180463       -0.104081      3.60697e-05    -0.000115303       -0.0452731       -0.992884      0.000136015    -0.000202789
                     6.24794e-06    -0.000143383         0.164237       0.0143707       0.00017771    -0.000162852        -0.980199      -0.0287859
                      -0.0450451       -0.992888      0.000198481    -0.000213782        0.0273292        0.102138      0.000235305    -4.97549e-05
                     0.000161441    -0.000268056        -0.980153       -0.028657       0.00018388    -6.32691e-05        -0.164257      0.00579257
281722                 0.0180343       -0.104079      3.60074e-05    -0.000115332       -0.0455148       -0.992874      0.000135948    -0.000202852
                      6.2361e-06    -0.000143429         0.164247       0.0143551      0.000177676    -0.000162852        -0.980207      -0.0284514
                      -0.0452868       -0.992877      0.000198471    -0.000213825        0.0273667        0.102124      0.000235331     -4.9867e-05
                     0.000161339    -0.000268119        -0.980161      -0.0283226      0.000183959     -6.3313e-05        -0.164263      0.00588848
281724                 0.0180223       -0.104076      3.59452e-05    -0.000115361       -0.0457564       -0.992863       0.00013588    -0.000202915
                      6.2242e-06    -0.000143475         0.164258       0.0143396      0.000177643    -0.000162853        -0.980215      -0.0281169
                      -0.0455285       -0.992867      0.000198462    -0.000213868        0.0274042        0.102109      0.000235355    -4.99818e-05
                     0.000161236    -0.000268182        -0.980168      -0.0279881      0.000184039    -6.33569e-05        -0.164268      0.00598439
281726                 0.0180103       -0.104074      3.58829e-05     -0.00011539       -0.0459981       -0.992852      0.000135812    -0.000202978
                     6.21224e-06    -0.000143522         0.164268        0.014324       0.00017761    -0.000162854        -0.980222      -0.0277823
                      -0.0457702       -0.992856      0.000198452    -0.000213912        0.0274417        0.102095      0.000235378    -5.01038e-05
                     0.000161133    -0.000268245        -0.980176      -0.0276537      0.000184117    -6.34008e-05        -0.164274      0.00608032
281728                 0.0179983       -0.104072      3.58207e-05    -0.000115419       -0.0462397       -0.992842      0.000135741    -0.000203043
                     6.20022e-06    -0.000143568         0.164278       0.0143084      0.000177578    -0.000162856        -0.980229      -0.0274477
                       -0.046012       -0.992845      0.000198443    -0.000213956        0.0274792         0.10208      0.000235409    -5.02358e-05
                     0.000161031    -0.000268307        -0.980183      -0.0273192      0.000184196    -6.34447e-05        -0.164279      0.00617628
281730                 0.0179863       -0.104069      3.57584e-05    -0.000115448       -0.0464814       -0.992831       0.00013565    -0.000203103
                     6.18814e-06    -0.000143614         0.164289       0.0142928      0.000177546    -0.000162857        -0.980237      -0.0271122
                      -0.0462537       -0.992835      0.000198434    -0.000214001        0.0275167        0.102066      0.000235458    -5.03613e-05
                     0.000160928     -0.00026837         -0.98019      -0.0269848      0.000184274    -6.34885e-05        -0.164285      0.00627247
281732                 0.0179743       -0.104067      3.56961e-05    -0.000115477        -0.046723        -0.99282      0.000135623     -0.00020314
                     6.17601e-06     -0.00014366         0.164299       0.0142772      0.000177514    -0.000162858        -0.980244      -0.0267792
                      -0.0464954       -0.992824      0.000198424    -0.000214045        0.0275542        0.102051      0.000235506    -5.04708e-05
                     0.000160825    -0.000268433        -0.980197      -0.0266503      0.000184353    -6.35323e-05         -0.16429      0.00636799
281734                 0.0179623       -0.104065      3.56337e-05    -0.000115505       -0.0469646       -0.992809      0.000135554    -0.000203215
                     6.16381e-06    -0.000143706          0.16431       0.0142616      0.000177482    -0.000162859        -0.980251      -0.0264444
                      -0.0467371       -0.992813      0.000198415     -0.00021409        0.0275917        0.102036      0.000235545    -5.05758e-05
                     0.000160722    -0.000268495        -0.980204      -0.0263158      0.000184431     -6.3576e-05        -0.164295        0.006464
281736                 0.0179503       -0.104063      3.55713e-05    -0.000115533       -0.0472063       -0.992798      0.000135486     -0.00020328
                     6.15156e-06    -0.000143752          0.16432        0.014246       0.00017745     -0.00016286        -0.980258      -0.0261098
                      -0.0469788       -0.992802      0.000198405    -0.000214134        0.0276291        0.102022       0.00023558    -5.06819e-05
                     0.000160619    -0.000268558        -0.980211      -0.0259813      0.000184509    -6.36198e-05        -0.164301      0.00655997
281738                 0.0179383        -0.10406      3.55089e-05    -0.000115562       -0.0474479       -0.992787      0.000135418    -0.000203343
                     6.13925e-06    -0.000143799          0.16433       0.0142304      0.000177419     -0.00016286        -0.980265      -0.0257752
                      -0.0472205       -0.992791      0.000198396    -0.000214179        0.0276666        0.102007      0.000235612    -5.07895e-05
                     0.000160516    -0.000268621        -0.980218      -0.0256468      0.000184587    -6.36635e-05        -0.164306      0.00665595
281740                 0.0179263       -0.104058      3.54464e-05     -0.00011559       -0.0476895       -0.992776      0.000135351    -0.000203406
                     6.12688e-06    -0.000143845         0.164341       0.0142148      0.000177388    -0.000162861        -0.980271      -0.0254406
                      -0.0474622        -0.99278      0.000198386    -0.000214224         0.027704        0.101993      0.000235644    -5.08983e-05
                     0.000160413    -0.000268683        -0.980225      -0.0253123      0.000184665    -6.37072e-05        -0.164311      0.00675193
281742                 0.0179143       -0.104056      3.53839e-05    -0.000115618       -0.0479311       -0.992764      0.000135283    -0.000203469
                     6.11446e-06    -0.000143891         0.164351       0.0141992      0.000177357    -0.000162861        -0.980278       -0.025106
                      -0.0477039       -0.992768      0.000198376    -0.000214268        0.0277415        0.101978      0.000235675    -5.10079e-05
                      0.00016031    -0.000268746        -0.980231      -0.0249777      0.000184744    -6.37509e-05        -0.164316      0.00684792
281744                 0.0179023       -0.104053      3.53213e-05    -0.000115646       -0.0481728       -0.992753      0.000135216    -0.000203531
                     6.10199e-06    -0.000143937         0.164362       0.0141836      0.000177326    -0.000162861        -0.980284      -0.0247713
                      -0.0479457       -0.992757      0.000198367    -0.000214313        0.0277789        0.101963      0.000235706     -5.1118e-05
                     0.000160207    -0.000268808        -0.980238      -0.0246432      0.000184822    -6.37945e-05        -0.164321      0.00694391
281746                 0.0178903       -0.104051      3.52587e-05    -0.000115674       -0.0484144       -0.992742      0.000135149    -0.000203593
                     6.08946e-06    -0.000143983         0.164372        0.014168      0.000177295    -0.000162861        -0.980291      -0.0244367
                      -0.0481874       -0.992746      0.000198357    -0.000214358        0.0278164        0.101949      0.000235737    -5.12285e-05
                     0.000160104     -0.00026887        -0.980244      -0.0243087        0.0001849    -6.38382e-05        -0.164326      0.00703991
281748                 0.0178783       -0.104049      3.51961e-05    -0.000115702        -0.048656        -0.99273      0.000135082    -0.000203655
                     6.07688e-06    -0.000144029         0.164382       0.0141524      0.000177265    -0.000162861        -0.980297      -0.0241021
                      -0.0484291       -0.992735      0.000198347    -0.000214403        0.0278538        0.101934      0.000235768    -5.13393e-05
                     0.000160001    -0.000268933         -0.98025      -0.0239741      0.000184978    -6.38818e-05        -0.164331      0.00713592
281750                 0.0178663       -0.104047      3.51335e-05     -0.00011573       -0.0488976       -0.992719      0.000135014    -0.000203717
                     6.06424e-06    -0.000144075         0.164393       0.0141367      0.000177234    -0.000162861        -0.980303      -0.0237674
                      -0.0486707       -0.992723      0.000198338    -0.000214448        0.0278912        0.101919      0.000235799    -5.14503e-05
                     0.000159898    -0.000268995        -0.980256      -0.0236395      0.000185055    -6.39255e-05        -0.164336      0.00723193
281752                 0.0178543       -0.104044      3.50708e-05    -0.000115757       -0.0491392       -0.992708      0.000134947    -0.000203779
                     6.05155e-06     -0.00014412         0.164403       0.0141211      0.000177204     -0.00016286        -0.980309      -0.0234328
                      -0.0489124       -0.992712      0.000198328    -0.000214493        0.0279286        0.101905      0.000235829    -5.15615e-05
                     0.000159794    -0.000269057        -0.980262       -0.023305      0.000185133     -6.3969e-05        -0.164341      0.00732796
281754                 0.0178423       -0.104042       3.5008e-05    -0.000115785       -0.0493808       -0.992696       0.00013488    -0.000203841
                     6.03882e-06    -0.000144166         0.164413       0.0141054      0.000177173     -0.00016286        -0.980315      -0.0230981
                      -0.0491541         -0.9927      0.000198318    -0.000214538         0.027966         0.10189       0.00023586    -5.16728e-05
                     0.000159691    -0.000269119        -0.980268      -0.0229704       0.00018521    -6.40124e-05        -0.164346      0.00742399
281756                 0.0178303        -0.10404      3.49453e-05    -0.000115812       -0.0496224       -0.992684      0.000134813    -0.000203903
                     6.02603e-06    -0.000144212         0.164424       0.0140898      0.000177144     -0.00016286        -0.980321      -0.0227635
                      -0.0493958       -0.992689      0.000198309    -0.000214583        0.0280034        0.101875      0.000235891    -5.17843e-05
                     0.000159587    -0.000269181        -0.980274      -0.0226358      0.000185286    -6.40557e-05         -0.16435      0.00752003
281758                 0.0178183       -0.104037      3.48825e-05    -0.000115839       -0.0498641       -0.992673      0.000134745    -0.000203964
                     6.01319e-06    -0.000144258         0.164434       0.0140741      0.000177115    -0.000162862        -0.980327      -0.0224288
                      -0.0496375       -0.992677      0.000198299    -0.000214628        0.0280408        0.101861      0.000235921    -5.18958e-05
                     0.000159484    -0.000269243        -0.980279      -0.0223012       0.00018536    -6.40988e-05        -0.164355      0.00761607
281760                 0.0178063       -0.104035      3.48197e-05    -0.000115867       -0.0501057       -0.992661      0.000134678    -0.000204026
                      6.0003e-06    -0.000144304         0.164445       0.0140585      0.000177085    -0.000162866        -0.980332      -0.0220941
                      -0.0498792       -0.992665      0.000198289    -0.000214674        0.0280782        0.101846      0.000235952    -5.20075e-05
                      0.00015938    -0.000269305        -0.980285      -0.0219666      0.000185419     -6.4147e-05         -0.16436      0.00771213
281762                 0.0177943       -0.104033      3.47569e-05    -0.000115894       -0.0503473       -0.992649      0.000134611    -0.000204088
                     5.98735e-06     -0.00014435         0.164455       0.0140428      0.000177049     -0.00016287        -0.980338      -0.0217594
                      -0.0501209       -0.992654      0.000198279    -0.000214719        0.0281156        0.101831      0.000235982    -5.21192e-05
