! TOUCHSTONE file generated by CST MICROWAVE STUDIO
! Date and time: Wed Oct 15 17:33:35 2025
! Project name: Teste_Macro_Metasurface_Nanopilar.cst
! Parameters = {H=600; L_x=170; L_y=120; Lambda=1064; Max_L=200; Min_L=70; PathPara=1; Phi=0; Step_L=10; Theta=0; p=520; phaseX=180; phaseY=0}
! Header version: 2018
! Port assignment regex: !\s*Touchstone port\s*([0-9]+)\s*=\s*(CST MWS port|CST DS port)\s*([0-9]+|Zmin|Zmax)\s*\(\"(.*)\"\)(\s*mode\s*([0-9]+))?.*
! Touchstone port assignment:
! Touchstone port 1 = CST MWS port Zmax ("") mode 1
! Touchstone port 2 = CST MWS port Zmax ("") mode 2
! Touchstone port 3 = CST MWS port Zmin ("") mode 1
! Touchstone port 4 = CST MWS port Zmin ("") mode 2
! S-Parameters are not renormalized. Each port impedance will be approximated by the real part at minimum frequency. The values are described via the [Reference] keyword.
! Default impedance is overridden by [Reference]
[Version] 2.0
# GHz S RI R 376.73
[Number of Ports] 4
[Reference]
376.73 376.73 259.888 259.888 
[Number of Frequencies] 51
[Network Data]
281700                 0.0739099       0.0791719      0.000314621     -9.1472e-05         0.960588        0.232756     -0.000140958     0.000500278
                     0.000384656    -0.000243124          0.39385       -0.324764     -0.000143607      0.00053761          0.83432       -0.107736
                        0.960739        0.232985     -0.000200926       0.0006515        -0.100542       0.0375229     -0.000136532    -0.000633194
                    -0.000185273     0.000510399         0.834239       -0.107479     -0.000118176    -0.000507209        -0.436933        -0.24124
281702                 0.0739189       0.0791848      0.000314463    -9.13322e-05         0.960665        0.232433     -0.000140618     0.000500004
                     0.000384187    -0.000243114          0.39357       -0.324672     -0.000142919     0.000537405         0.834433       -0.108262
                        0.960816        0.232662     -0.000200085     0.000651441        -0.100531       0.0375977     -0.000137056    -0.000632506
                    -0.000184826     0.000510183         0.834353       -0.108005     -0.000118801    -0.000506565        -0.436946       -0.240656
281704                  0.073928       0.0791977      0.000314305    -9.11928e-05         0.960742         0.23211     -0.000140278      0.00049973
                     0.000383719    -0.000243103         0.393289       -0.324579     -0.000142233     0.000537199         0.834547       -0.108788
                        0.960893        0.232339     -0.000199245      0.00065138         -0.10052       0.0376725     -0.000137578    -0.000631818
                    -0.000184381     0.000509968         0.834466       -0.108531     -0.000119424    -0.000505922        -0.436957       -0.240072
281706                  0.073937       0.0792106      0.000314148     -9.1054e-05         0.960818        0.231787     -0.000139939     0.000499456
                     0.000383253    -0.000243092         0.393009       -0.324487     -0.000141548     0.000536993         0.834659       -0.109314
                        0.960969        0.232016     -0.000198405     0.000651318        -0.100509       0.0377473     -0.000138099    -0.000631129
                    -0.000183937     0.000509753         0.834579       -0.109057     -0.000120044     -0.00050528        -0.436969       -0.239488
281708                 0.0739461       0.0792235      0.000313991    -9.09156e-05         0.960895        0.231464     -0.000139601     0.000499183
                     0.000382787    -0.000243081          0.39273       -0.324395     -0.000140866     0.000536786         0.834771        -0.10984
                        0.961046        0.231693     -0.000197567     0.000651255        -0.100498       0.0378221     -0.000138618     -0.00063044
                    -0.000183493     0.000509539         0.834691       -0.109583     -0.000120662    -0.000504638        -0.436979       -0.238905
281710                 0.0739551       0.0792364      0.000313834    -9.07778e-05         0.960971        0.231141     -0.000139264     0.000498909
                     0.000382321     -0.00024307         0.392451       -0.324302     -0.000140185     0.000536579         0.834883       -0.110366
                        0.961122         0.23137     -0.000196729      0.00065119        -0.100486       0.0378969     -0.000139136     -0.00062975
                    -0.000183051     0.000509325         0.834802       -0.110108     -0.000121278    -0.000503997        -0.436989       -0.238323
281712                 0.0739642       0.0792493      0.000313678    -9.06404e-05         0.961048        0.230818     -0.000138927     0.000498636
                     0.000381857    -0.000243059         0.392172       -0.324209     -0.000139506     0.000536371         0.834993       -0.110892
                        0.961199        0.231047     -0.000195892     0.000651124        -0.100475       0.0379717     -0.000139652     -0.00062906
                    -0.000182609     0.000509112         0.834913       -0.110634     -0.000121892    -0.000503356        -0.436998       -0.237741
281714                 0.0739733       0.0792621      0.000313522    -9.05036e-05         0.961124        0.230495     -0.000138591     0.000498363
                     0.000381394    -0.000243047         0.391893       -0.324116     -0.000138829     0.000536163         0.835104       -0.111418
                        0.961275        0.230723     -0.000195056     0.000651057        -0.100463       0.0380465     -0.000140167    -0.000628369
                    -0.000182168       0.0005089         0.835024       -0.111159     -0.000122504    -0.000502716        -0.437006        -0.23716
281716                 0.0739823        0.079275      0.000313366    -9.03672e-05           0.9612        0.230172     -0.000138256     0.000498091
                     0.000380931    -0.000243036         0.391615       -0.324024     -0.000138154     0.000535955         0.835213       -0.111943
                        0.961351          0.2304     -0.000194221     0.000650988        -0.100452       0.0381213      -0.00014068    -0.000627678
                    -0.000181728     0.000508688         0.835133       -0.111685     -0.000123113    -0.000502077        -0.437014       -0.236579
281718                 0.0739914       0.0792879      0.000313211    -9.02314e-05         0.961276        0.229849     -0.000137922     0.000497818
                     0.000380469    -0.000243025         0.391337       -0.323931      -0.00013748     0.000535746         0.835323       -0.112469
                        0.961427        0.230077     -0.000193387     0.000650919         -0.10044       0.0381961     -0.000141192    -0.000626987
                    -0.000181289     0.000508477         0.835243        -0.11221      -0.00012372    -0.000501438        -0.437022       -0.235998
281720                 0.0740004       0.0793008      0.000313056     -9.0096e-05         0.961351        0.229526     -0.000137588     0.000497546
                     0.000380008    -0.000243013         0.391059       -0.323837     -0.000136808     0.000535537         0.835431       -0.112994
                        0.961503        0.229754     -0.000192554     0.000650848        -0.100429       0.0382709     -0.000141702    -0.000626295
                     -0.00018085     0.000508266         0.835351       -0.112735     -0.000124325      -0.0005008        -0.437028       -0.235418
281722                 0.0740095       0.0793137      0.000312902    -8.99611e-05         0.961427        0.229203     -0.000137255     0.000497274
                     0.000379547    -0.000243001         0.390782       -0.323744     -0.000136138     0.000535328         0.835539        -0.11352
                        0.961579        0.229431     -0.000191722     0.000650776        -0.100417       0.0383457     -0.000142211    -0.000625603
                    -0.000180412     0.000508056         0.835459        -0.11326     -0.000124928    -0.000500162        -0.437034       -0.234838
281724                 0.0740186       0.0793266      0.000312747    -8.98268e-05         0.961503         0.22888     -0.000136923     0.000497002
                     0.000379088     -0.00024299         0.390505       -0.323651      -0.00013547     0.000535118         0.835647       -0.114045
                        0.961654        0.229107      -0.00019089     0.000650702        -0.100405       0.0384205     -0.000142718    -0.000624911
                    -0.000179976     0.000507846         0.835567       -0.113785     -0.000125528    -0.000499525         -0.43704       -0.234259
281726                 0.0740277       0.0793394      0.000312593    -8.96929e-05         0.961578        0.228557     -0.000136591      0.00049673
                     0.000378629    -0.000242978         0.390229       -0.323557     -0.000134803     0.000534907         0.835754        -0.11457
                         0.96173        0.228784      -0.00019006     0.000650627        -0.100394       0.0384953     -0.000143224    -0.000624218
                     -0.00017954     0.000507637         0.835674       -0.114309     -0.000126126    -0.000498889        -0.437045        -0.23368
281728                 0.0740367       0.0793523       0.00031244    -8.95595e-05         0.961654        0.228234     -0.000136261     0.000496458
                     0.000378171    -0.000242966         0.389952       -0.323464     -0.000134139     0.000534696          0.83586       -0.115095
                        0.961805        0.228461      -0.00018923     0.000650551        -0.100382         0.03857     -0.000143728    -0.000623525
                    -0.000179104     0.000507428          0.83578       -0.114834     -0.000126722    -0.000498253        -0.437049       -0.233102
281730                 0.0740458       0.0793652      0.000312286    -8.94266e-05         0.961729         0.22791     -0.000135931     0.000496187
                     0.000377713    -0.000242954         0.389676        -0.32337     -0.000133476     0.000534485         0.835966       -0.115619
                        0.961881        0.228138     -0.000188401     0.000650474         -0.10037       0.0386448     -0.000144231    -0.000622831
                     -0.00017867      0.00050722         0.835886       -0.115358     -0.000127316    -0.000497618        -0.437053       -0.232524
281732                 0.0740549        0.079378      0.000312133    -8.92942e-05         0.961804        0.227587     -0.000135602     0.000495916
                     0.000377257    -0.000242942         0.389401       -0.323277     -0.000132814     0.000534274         0.836071       -0.116144
                        0.961956        0.227814     -0.000187573     0.000650396        -0.100358       0.0387196     -0.000144732    -0.000622138
                    -0.000178236     0.000507013         0.835991       -0.115883     -0.000127908    -0.000496983        -0.437056       -0.231947
281734                  0.074064       0.0793909       0.00031198    -8.91623e-05         0.961879        0.227264     -0.000135273     0.000495645
                     0.000376801    -0.000242929         0.389126       -0.323183     -0.000132155     0.000534062         0.836176       -0.116669
                        0.962031        0.227491     -0.000186746     0.000650316        -0.100346       0.0387944     -0.000145231    -0.000621444
                    -0.000177803     0.000506806         0.836096       -0.116407     -0.000128498    -0.000496349        -0.437058        -0.23137
281736                  0.074073       0.0794038      0.000311828    -8.90309e-05         0.961954        0.226941     -0.000134945     0.000495374
                     0.000376346    -0.000242917         0.388851       -0.323089     -0.000131497     0.000533849          0.83628       -0.117193
                        0.962106        0.227168      -0.00018592     0.000650235        -0.100334       0.0388691      -0.00014573    -0.000620749
                    -0.000177371     0.000506599           0.8362       -0.116931     -0.000129085    -0.000495716         -0.43706       -0.230794
281738                 0.0740821       0.0794166      0.000311676    -8.88999e-05         0.962029        0.226618     -0.000134618     0.000495103
                     0.000375892    -0.000242905         0.388576       -0.322995     -0.000130841     0.000533636         0.836383       -0.117718
                        0.962181        0.226844     -0.000185095     0.000650153        -0.100322       0.0389439     -0.000146226    -0.000620055
                     -0.00017694     0.000506393         0.836304       -0.117455      -0.00012967    -0.000495083        -0.437061       -0.230218
281740                 0.0740912       0.0794295      0.000311524    -8.87695e-05         0.962103        0.226294     -0.000134292     0.000494833
                     0.000375438    -0.000242892         0.388302         -0.3229     -0.000130187     0.000533423         0.836486       -0.118242
                        0.962256        0.226521     -0.000184271      0.00065007         -0.10031       0.0390187     -0.000146721     -0.00061936
                    -0.000176509     0.000506188         0.836407       -0.117979     -0.000130253     -0.00049445        -0.437062       -0.229642
281742                 0.0741003       0.0794424      0.000311372    -8.86395e-05         0.962178        0.225971     -0.000133967     0.000494563
                     0.000374985     -0.00024288         0.388028       -0.322806     -0.000129534     0.000533209         0.836589       -0.118766
                         0.96233        0.226198     -0.000183448     0.000649986        -0.100298       0.0390934     -0.000147214    -0.000618665
                    -0.000176079     0.000505983         0.836509       -0.118503     -0.000130834    -0.000493819        -0.437062       -0.229067
281744                 0.0741094       0.0794552      0.000311221      -8.851e-05         0.962253        0.225648     -0.000133642     0.000494293
                     0.000374533    -0.000242867         0.387754       -0.322712     -0.000128884     0.000532995         0.836691        -0.11929
                        0.962405        0.225874     -0.000182625       0.0006499        -0.100285       0.0391682     -0.000147706    -0.000617969
                     -0.00017565     0.000505779         0.836611       -0.119026     -0.000131413    -0.000493188        -0.437061       -0.228493
281746                 0.0741185       0.0794681       0.00031107     -8.8381e-05         0.962327        0.225324     -0.000133318     0.000494023
                     0.000374082    -0.000242854         0.387481       -0.322617     -0.000128235     0.000532781         0.836792       -0.119814
                        0.962479        0.225551     -0.000181804     0.000649813        -0.100273        0.039243     -0.000148197    -0.000617273
                    -0.000175222     0.000505575         0.836713        -0.11955      -0.00013199    -0.000492557         -0.43706       -0.227918
281748                 0.0741276       0.0794809       0.00031092    -8.82525e-05         0.962401        0.225001     -0.000132994     0.000493754
                     0.000373632    -0.000242842         0.387208       -0.322523     -0.000127587     0.000532566         0.836893       -0.120337
                        0.962554        0.225227     -0.000180983     0.000649725        -0.100261       0.0393177     -0.000148685    -0.000616577
                    -0.000174795     0.000505372         0.836813       -0.120073     -0.000132564    -0.000491927        -0.437058       -0.227345
281750                 0.0741367       0.0794938      0.000310769    -8.81245e-05         0.962475        0.224678     -0.000132672     0.000493484
                     0.000373182    -0.000242829         0.386935       -0.322428     -0.000126942     0.000532351         0.836993       -0.120861
                        0.962628        0.224904     -0.000180163     0.000649635        -0.100248       0.0393925     -0.000149172    -0.000615881
                    -0.000174368     0.000505169         0.836914       -0.120597     -0.000133136    -0.000491298        -0.437056       -0.226772
281752                 0.0741458       0.0795067      0.000310619    -8.79969e-05         0.962549        0.224354      -0.00013235     0.000493215
                     0.000372733    -0.000242816         0.386663       -0.322333     -0.000126298     0.000532136         0.837093       -0.121385
                        0.962702         0.22458     -0.000179344     0.000649545        -0.100236       0.0394672     -0.000149658    -0.000615185
                    -0.000173942     0.000504968         0.837014        -0.12112     -0.000133707    -0.000490669        -0.437052       -0.226199
281754                 0.0741549       0.0795195      0.000310469    -8.78698e-05         0.962623        0.224031     -0.000132028     0.000492946
                     0.000372285    -0.000242804         0.386391       -0.322238     -0.000125656      0.00053192         0.837192       -0.121908
                        0.962776        0.224257     -0.000178526     0.000649453        -0.100223        0.039542     -0.000150142    -0.000614488
                    -0.000173517     0.000504767         0.837113       -0.121643     -0.000134275    -0.000490041        -0.437049       -0.225627
281756                  0.074164       0.0795324       0.00031032    -8.77432e-05         0.962697        0.223708     -0.000131707     0.000492678
                     0.000371839    -0.000242793          0.38612       -0.322143     -0.000125015     0.000531704         0.837291       -0.122431
                         0.96285        0.223933     -0.000177709      0.00064936        -0.100211       0.0396167     -0.000150624    -0.000613791
                    -0.000173094     0.000504569         0.837211       -0.122166     -0.000134841    -0.000489414        -0.437045       -0.225055
281758                 0.0741731       0.0795452       0.00031017    -8.76171e-05         0.962771        0.223384     -0.000131387      0.00049241
                     0.000371395    -0.000242784         0.385848       -0.322048     -0.000124377     0.000531487         0.837389       -0.122954
                        0.962924         0.22361     -0.000176893     0.000649266        -0.100198       0.0396915     -0.000151105    -0.000613094
                    -0.000172672     0.000504376         0.837309       -0.122689     -0.000135406    -0.000488787         -0.43704       -0.224484
281760                 0.0741822        0.079558      0.000310021    -8.74915e-05         0.962844        0.223061     -0.000131069     0.000492142
                     0.000370958    -0.000242792         0.385577       -0.321953      -0.00012374     0.000531271         0.837486       -0.123477
                        0.962997        0.223286     -0.000176078     0.000649171        -0.100185       0.0397662     -0.000151585    -0.000612396
                    -0.000172258     0.000504211         0.837407       -0.123212     -0.000135968    -0.000488161        -0.437034       -0.223913
281762                 0.0741913       0.0795709      0.000309873    -8.73663e-05         0.962918        0.222737     -0.000130751     0.000491874
                     0.000370426    -0.000242732         0.385307       -0.321858     -0.000123104     0.000531054         0.837583          -0.124
                        0.963071        0.222963     -0.000175264     0.000649075        -0.100173       0.0398409     -0.000152062    -0.000611699
