! TOUCHSTONE file generated by CST MICROWAVE STUDIO
! Date and time: Wed Oct 15 17:29:42 2025
! Project name: Teste_Macro_Metasurface_Nanopilar.cst
! Parameters = {H=600; L_x=100; L_y=185; Lambda=1064; Max_L=200; Min_L=70; PathPara=1; Phi=0; Step_L=10; Theta=0; p=520; phaseX=180; phaseY=0}
! Header version: 2018
! Port assignment regex: !\s*Touchstone port\s*([0-9]+)\s*=\s*(CST MWS port|CST DS port)\s*([0-9]+|Zmin|Zmax)\s*\(\"(.*)\"\)(\s*mode\s*([0-9]+))?.*
! Touchstone port assignment:
! Touchstone port 1 = CST MWS port Zmax ("") mode 1
! Touchstone port 2 = CST MWS port Zmax ("") mode 2
! Touchstone port 3 = CST MWS port Zmin ("") mode 1
! Touchstone port 4 = CST MWS port Zmin ("") mode 2
! S-Parameters are not renormalized. Each port impedance will be approximated by the real part at minimum frequency. The values are described via the [Reference] keyword.
! Default impedance is overridden by [Reference]
[Version] 2.0
# GHz S RI R 376.73
[Number of Ports] 4
[Reference]
376.73 376.73 259.888 259.888 
[Number of Frequencies] 51
[Network Data]
281700                  0.943319       -0.109968      2.41117e-05    -0.000343222         0.176213        0.127949      2.78406e-05    -0.000226948
                     4.48902e-05    -0.000307411         0.193879       0.0841097      8.80161e-06     0.000784852        -0.637406        0.730226
                        0.175705        0.127581      0.000181784     0.000964523        0.0625033        -0.93657     -0.000138535     0.000734227
                     0.000168772    -0.000157355        -0.637358        0.729913     -0.000356745     0.000658312         0.108931        0.179833
281702                  0.943106       -0.110547      2.30453e-05    -0.000342465         0.176812        0.128215      2.71688e-05    -0.000226838
                     4.44688e-05    -0.000306669         0.193893        0.084081      7.86326e-06     0.000781978        -0.637125        0.730471
                        0.176302        0.127872      0.000182334      0.00096261        0.0613082       -0.936502     -0.000137705     0.000733315
                     0.000168744    -0.000157646        -0.637079         0.73016      -0.00035647     0.000660399         0.109044        0.179765
281704                  0.942891       -0.111126      2.19841e-05      -0.0003417         0.177411        0.128481      2.65025e-05    -0.000226724
                     4.40524e-05    -0.000305932         0.193906       0.0840529      6.96629e-06     0.000779185        -0.636844        0.730717
                        0.176899         0.12816      0.000182876     0.000960691        0.0601139       -0.936433     -0.000136883     0.000732411
                     0.000168714    -0.000157937        -0.636799        0.730407     -0.000356176     0.000662492         0.109157        0.179696
281706                  0.942676       -0.111704      2.09274e-05    -0.000340925         0.178012        0.128746      2.58422e-05    -0.000226607
                      4.3641e-05    -0.000305199         0.193919       0.0840251       6.1107e-06     0.000776473        -0.636562        0.730963
                        0.177496        0.128446      0.000183408     0.000958765        0.0589201       -0.936362     -0.000136071     0.000731515
                     0.000168684    -0.000158231         -0.63652        0.730654     -0.000355862     0.000664591          0.10927        0.179628
281708                  0.942461       -0.112281      1.98744e-05    -0.000340138         0.178612         0.12901      2.51882e-05    -0.000226485
                     4.32347e-05     -0.00030447         0.193931       0.0839974      5.29656e-06     0.000773845        -0.636281        0.731208
                        0.178093        0.128729      0.000183929     0.000956827        0.0577271       -0.936289     -0.000135269      0.00073063
                     0.000168653    -0.000158525         -0.63624        0.730901     -0.000355527     0.000666697         0.109382         0.17956
281710                  0.942244       -0.112858      1.88242e-05    -0.000339339         0.179213        0.129274      2.45414e-05    -0.000226359
                     4.28337e-05    -0.000303746         0.193943       0.0839699      4.52406e-06     0.000771299        -0.635999        0.731453
                         0.17869        0.129009      0.000184439     0.000954876        0.0565346       -0.936215     -0.000134477     0.000729755
                     0.000168622    -0.000158821         -0.63596        0.731147     -0.000355169     0.000668807         0.109495        0.179491
281712                  0.942027       -0.113435      1.77753e-05    -0.000338525         0.179815        0.129537      2.39022e-05     -0.00022623
                     4.24379e-05    -0.000303027         0.193955       0.0839424      3.79344e-06     0.000768837        -0.635717        0.731698
                        0.179287        0.129286      0.000184936     0.000952906        0.0553428       -0.936138     -0.000133695     0.000728893
                     0.000168589    -0.000159118         -0.63568        0.731394     -0.000354787     0.000670923         0.109608        0.179422
281714                   0.94181       -0.114011      1.67262e-05    -0.000337693         0.180417        0.129799      2.32717e-05    -0.000226098
                     4.20476e-05    -0.000302312         0.193967        0.083915      3.10504e-06     0.000766459        -0.635435        0.731942
                        0.179884        0.129561      0.000185418     0.000950912        0.0541516        -0.93606     -0.000132924     0.000728045
                     0.000168557    -0.000159416        -0.635399         0.73164      -0.00035438     0.000673044          0.10972        0.179354
281716                  0.941591       -0.114587      1.56745e-05     -0.00033684         0.181019        0.130061      2.26506e-05    -0.000225962
                     4.16628e-05    -0.000301602         0.193979       0.0838876      2.45931e-06     0.000764166        -0.635153        0.732187
                        0.180481        0.129834      0.000185884     0.000948888        0.0529611        -0.93598     -0.000132166     0.000727213
                     0.000168524    -0.000159715        -0.635119        0.731886     -0.000353944     0.000675169         0.109833        0.179285
281718                  0.941372       -0.115163       1.4617e-05    -0.000335959         0.181621        0.130322        2.204e-05    -0.000225824
                     4.12837e-05    -0.000300897         0.193991       0.0838602       1.8568e-06      0.00076196         -0.63487        0.732431
                        0.181078        0.130105      0.000186329     0.000946821        0.0517712       -0.935899      -0.00013142     0.000726398
                      0.00016849    -0.000160013        -0.634838        0.732131     -0.000353478     0.000677298         0.109945        0.179216
281720                  0.941153       -0.115738      1.35494e-05    -0.000335043         0.182224        0.130582      2.14413e-05    -0.000225684
                     4.09106e-05    -0.000300197         0.194003       0.0838328      1.29818e-06      0.00075984        -0.634588        0.732675
                        0.181676        0.130374       0.00018675     0.000944698        0.0505819       -0.935815     -0.000130688     0.000725603
                     0.000168457    -0.000160312        -0.634557        0.732377     -0.000352979      0.00067943         0.110057        0.179147
281722                  0.940932       -0.116313       1.2465e-05    -0.000334081         0.182827        0.130841      2.08558e-05    -0.000225542
                     4.05438e-05    -0.000299502         0.194015       0.0838055       7.8423e-07     0.000757808        -0.634305        0.732918
                        0.182273         0.13064      0.000187141     0.000942498        0.0493932        -0.93573      -0.00012997     0.000724832
                     0.000168425    -0.000160609        -0.634276        0.732622     -0.000352444     0.000681564          0.11017        0.179078
281724                  0.940711       -0.116887      1.13541e-05    -0.000333056         0.183431          0.1311      2.02854e-05    -0.000225399
                     4.01836e-05    -0.000298813         0.194027       0.0837782      3.15887e-07     0.000755865        -0.634022        0.733162
                        0.182871        0.130905      0.000187493     0.000940187        0.0482051       -0.935643     -0.000129269     0.000724087
                     0.000168393    -0.000160904        -0.633995        0.732867     -0.000351868       0.0006837         0.110282        0.179009
281726                  0.940489       -0.117461      1.02005e-05     -0.00033194         0.184035        0.131358      1.97322e-05    -0.000225256
                     3.98305e-05    -0.000298128         0.194039       0.0837508     -1.05781e-07     0.000754013        -0.633739        0.733405
                        0.183469        0.131168      0.000187794     0.000937712        0.0470176       -0.935554     -0.000128586     0.000723374
                     0.000168364    -0.000161196        -0.633714        0.733112     -0.000351248     0.000685836         0.110394         0.17894
281728                  0.940266       -0.118034      8.97685e-06     -0.00033069         0.184638        0.131616      1.91986e-05    -0.000225114
                     3.94852e-05    -0.000297448          0.19405       0.0837235      -4.7954e-07     0.000752251        -0.633456        0.733649
                        0.184067        0.131429      0.000188024     0.000934985        0.0458307       -0.935463     -0.000127922     0.000722696
                     0.000168337    -0.000161481        -0.633432        0.733356     -0.000350578     0.000687971         0.110506        0.178871
281730                  0.940043       -0.118607      7.63136e-06     -0.00032922         0.185242        0.131872      1.86877e-05    -0.000224974
                     3.91485e-05    -0.000296773         0.194062       0.0836963     -8.03971e-07     0.000750581        -0.633172        0.733892
                        0.184665        0.131688      0.000188152     0.000931839        0.0446444        -0.93537     -0.000127279     0.000722061
                     0.000168315    -0.000161756        -0.633151          0.7336     -0.000349851     0.000690103         0.110618        0.178802
281732                  0.939819        -0.11918      6.05418e-06    -0.000327364         0.185847        0.132128      1.82032e-05    -0.000224838
                     3.88216e-05    -0.000296103         0.194074        0.083669     -1.07745e-06     0.000749005        -0.632889        0.734135
                        0.185264        0.131946      0.000188135     0.000927927        0.0434587       -0.935276     -0.000126661     0.000721475
                     0.000168299    -0.000162017        -0.632869        0.733844      -0.00034906     0.000692229          0.11073        0.178732
281734                  0.939595       -0.119752       3.9642e-06    -0.000324717         0.186451        0.132384      1.77497e-05    -0.000224707
                     3.85064e-05    -0.000295435         0.194086       0.0836417     -1.29813e-06     0.000747523        -0.632605        0.734377
                        0.185862        0.132202      0.000187929     0.000922393        0.0422735       -0.935179     -0.000126069     0.000720949
                     0.000168292    -0.000162255        -0.632588        0.734088     -0.000348194     0.000694347         0.110842        0.178663
281736                  0.939369       -0.120324      3.73129e-07    -0.000320023         0.187055        0.132638      1.73328e-05    -0.000224585
                     3.82056e-05    -0.000294769         0.194097       0.0836145     -1.46389e-06     0.000746137        -0.632322         0.73462
                        0.186461        0.132457      0.000187787     0.000912457         0.041089       -0.935081     -0.000125509     0.000720495
                     0.000168299    -0.000162457        -0.632306        0.734331     -0.000347242     0.000696451         0.110954        0.178593
281738                  0.939143       -0.120895     -1.18757e-05    -0.000306705          0.18766        0.132892      1.69596e-05    -0.000224475
                     3.79238e-05    -0.000294101         0.194109       0.0835873     -1.57228e-06     0.000744846        -0.632038        0.734863
                        0.187061         0.13271      0.000195234     0.000883591         0.039905        -0.93498     -0.000124983     0.000720126
                     0.000168323    -0.000162601        -0.632025        0.734573     -0.000346188     0.000698534         0.111066        0.178524
281740                  0.938916       -0.121466     -4.95155e-06    -0.000415496         0.188264        0.133145      1.66389e-05    -0.000224382
                     3.76695e-05    -0.000293421          0.19412       0.0835601     -1.62049e-06     0.000743652        -0.631755        0.735105
                        0.187661        0.132962      0.000279008     0.000951661        0.0387215       -0.934878     -0.000124497     0.000719863
                      0.00016837    -0.000162646        -0.631744        0.734814     -0.000345012     0.000700587         0.111178        0.178454
281742                  0.938689       -0.122036      1.08557e-05    -0.000347275         0.188868        0.133398      1.63823e-05    -0.000224311
                     3.74598e-05     -0.00029271         0.194132       0.0835329     -1.60522e-06     0.000742554        -0.631471        0.735347
                        0.188261        0.133213       0.00021338      0.00095261        0.0375386       -0.934774     -0.000124058      0.00071973
                     0.000168437    -0.000162514        -0.631462        0.735053     -0.000343689     0.000702594          0.11129        0.178384
281744                  0.938461       -0.122606      7.71864e-06    -0.000338323         0.189473         0.13365      1.62045e-05    -0.000224272
                     3.73362e-05    -0.000291914         0.194144       0.0835059     -1.52254e-06     0.000741551        -0.631188         0.73559
                        0.188862        0.133462      0.000204087      0.00094232        0.0363563       -0.934668     -0.000123674     0.000719758
                      0.00016848    -0.000162038        -0.631178         0.73529     -0.000342184     0.000704532         0.111401        0.178314
281746                  0.938232       -0.123176      5.75168e-06    -0.000334525         0.190077        0.133901      1.61248e-05    -0.000224274
                      3.7429e-05    -0.000290811         0.194155       0.0834788     -1.36771e-06     0.000740641        -0.630905        0.735832
                        0.189463        0.133711      0.000201285     0.000936575        0.0351745        -0.93456     -0.000123354      0.00071999
                     0.000168243    -0.000160868        -0.630888        0.735526     -0.000340456     0.000706362         0.111513        0.178244
281748                  0.938002       -0.123745      4.25992e-06    -0.000332202         0.190681        0.134151      1.61692e-05    -0.000224334
                     3.81096e-05    -0.000287172         0.194167       0.0834519     -1.13474e-06      0.00073982        -0.630622        0.736075
                        0.190065        0.133958      0.000200187     0.000932595        0.0339932        -0.93445     -0.000123112     0.000720482
                     0.000166457    -0.000158634        -0.630594        0.735769     -0.000338448     0.000708021         0.111625        0.178174
281750                  0.937772       -0.124314      2.99876e-06    -0.000330502         0.191285          0.1344      1.63723e-05    -0.000224475
                     3.16798e-05    -0.000292526         0.194179       0.0834251     -8.15772e-07     0.000739079        -0.630339        0.736317
                        0.190667        0.134205      0.000199761     0.000929454        0.0328124       -0.934338     -0.000122962     0.000721312
                     0.000160727    -0.000158655        -0.630304        0.736018     -0.000336097     0.000709403         0.111736        0.178104
281752                  0.937541       -0.124882      1.86727e-06    -0.000329127         0.191888        0.134649      1.67823e-05    -0.000224727
                     3.41526e-05    -0.000291409          0.19419       0.0833983     -3.99754e-07     0.000738406        -0.630057        0.736561
                         0.19127         0.13445      0.000199668     0.000926775        0.0316321       -0.934224     -0.000122925     0.000722587
                     0.000158364    -0.000164266        -0.630019        0.736265     -0.000333336     0.000710321         0.111848        0.178034
281754                  0.937309        -0.12545      8.16739e-07    -0.000327942         0.192492        0.134897      1.74665e-05    -0.000225137
                      3.4434e-05    -0.000290642         0.194202       0.0833715      1.30318e-07     0.000737774        -0.629776        0.736804
                        0.191874        0.134695      0.000199763     0.000924381        0.0304523       -0.934108     -0.000123026     0.000724459
                     0.000159832    -0.000167351        -0.629736        0.736511     -0.000330148     0.000710456          0.11196        0.177964
281756                  0.937077       -0.126017     -1.79199e-07    -0.000326881         0.193095        0.135144      1.85215e-05    -0.000225778
                     3.44035e-05    -0.000290071         0.194214       0.0833447      8.03919e-07     0.000737137        -0.629496        0.737048
                        0.192479        0.134939      0.000199978     0.000922178         0.029273       -0.933991     -0.000123294     0.000727147
                     0.000160951     -0.00016854        -0.629453        0.736755     -0.000326696      0.00070929         0.112071        0.177894
281758                  0.936844       -0.126584     -1.13608e-06    -0.000325908         0.193698        0.135391      2.00888e-05    -0.000226759
                     3.42774e-05    -0.000289611         0.194226       0.0833178      1.68083e-06     0.000736404        -0.629218        0.737293
                        0.193084        0.135182      0.000200276     0.000920113        0.0280941       -0.933871     -0.000123765      0.00073098
                     0.000161482    -0.000169187        -0.629169        0.736997     -0.000323655     0.000706159         0.112183        0.177823
281760                   0.93661       -0.127151     -2.06368e-06    -0.000325001           0.1943        0.135636      2.23816e-05    -0.000228258
                     3.41123e-05    -0.000289241         0.194239       0.0832908      2.91051e-06      0.00073537         -0.62894         0.73754
                         0.19369        0.135425      0.000200638     0.000918154        0.0269156        -0.93375     -0.000124477     0.000736456
                     0.000161638    -0.000169677        -0.628885         0.73724     -0.000322652     0.000700844         0.112294        0.177752
281762                  0.936376       -0.127717     -2.96839e-06     -0.00032415         0.194902        0.135881      2.57287e-05    -0.000230575
                     3.39274e-05    -0.000288967         0.194251       0.0832636      4.99733e-06     0.000733519        -0.628665        0.737788
                        0.194296        0.135667      0.000201051     0.000916285        0.0257377       -0.933626     -0.000125452     0.000744363
