! TOUCHSTONE file generated by CST MICROWAVE STUDIO
! Date and time: Wed Oct 15 17:28:58 2025
! Project name: Teste_Macro_Metasurface_Nanopilar.cst
! Parameters = {H=600; L_x=90; L_y=110; Lambda=1064; Max_L=200; Min_L=70; PathPara=1; Phi=0; Step_L=10; Theta=0; p=520; phaseX=180; phaseY=0}
! Header version: 2018
! Port assignment regex: !\s*Touchstone port\s*([0-9]+)\s*=\s*(CST MWS port|CST DS port)\s*([0-9]+|Zmin|Zmax)\s*\(\"(.*)\"\)(\s*mode\s*([0-9]+))?.*
! Touchstone port assignment:
! Touchstone port 1 = CST MWS port Zmax ("") mode 1
! Touchstone port 2 = CST MWS port Zmax ("") mode 2
! Touchstone port 3 = CST MWS port Zmin ("") mode 1
! Touchstone port 4 = CST MWS port Zmin ("") mode 2
! S-Parameters are not renormalized. Each port impedance will be approximated by the real part at minimum frequency. The values are described via the [Reference] keyword.
! Default impedance is overridden by [Reference]
[Version] 2.0
# GHz S RI R 376.73
[Number of Ports] 4
[Reference]
376.73 376.73 259.888 259.888 
[Number of Frequencies] 51
[Network Data]
281700                 0.0265724       0.0389967     -4.50388e-05    -0.000235259        -0.762413       -0.640477      0.000500849    -0.000284043
                    -0.000154454    -0.000108624      -0.00888423      -0.0590319      0.000469802    -0.000319609        -0.311568       -0.947415
                       -0.762843       -0.640453      0.000518596    -0.000300472       -0.0430686       -0.018394      0.000126967     0.000178117
                     0.000447425    -0.000428745        -0.311651       -0.947311      0.000146176     0.000190858         0.027748       0.0531128
281702                 0.0265769       0.0390092     -4.52095e-05    -0.000235308        -0.762601       -0.640252        0.0005008    -0.000284184
                    -0.000154652    -0.000108626       -0.0088947      -0.0590239      0.000469719    -0.000319745        -0.311811       -0.947335
                       -0.763031       -0.640228      0.000518617    -0.000300591       -0.0430927      -0.0183708      0.000126979     0.000178171
                     0.000447395     -0.00042889        -0.311895       -0.947231      0.000146196     0.000190875        0.0277621       0.0530983
281704                 0.0265814       0.0390217     -4.53804e-05    -0.000235356        -0.762789       -0.640026      0.000500752    -0.000284324
                     -0.00015485    -0.000108628      -0.00890517      -0.0590159      0.000469636    -0.000319881        -0.312055       -0.947256
                       -0.763219       -0.640003      0.000518638    -0.000300711       -0.0431167      -0.0183476      0.000126991     0.000178226
                     0.000447365    -0.000429035        -0.312138       -0.947151      0.000146216     0.000190892        0.0277762       0.0530838
281706                 0.0265859       0.0390342     -4.55514e-05    -0.000235405        -0.762976       -0.639801      0.000500703    -0.000284465
                    -0.000155048     -0.00010863      -0.00891563      -0.0590078      0.000469554    -0.000320017        -0.312299       -0.947176
                       -0.763407       -0.639777       0.00051866     -0.00030083       -0.0431407      -0.0183244      0.000127003     0.000178281
                     0.000447335     -0.00042918        -0.312382       -0.947072      0.000146236     0.000190909        0.0277903       0.0530693
281708                 0.0265904       0.0390467     -4.57227e-05    -0.000235454        -0.763164       -0.639575      0.000500655    -0.000284605
                    -0.000155245    -0.000108632       -0.0089261      -0.0589998      0.000469471    -0.000320153        -0.312543       -0.947096
                       -0.763595       -0.639552      0.000518681     -0.00030095       -0.0431647      -0.0183011      0.000127015     0.000178336
                     0.000447304    -0.000429324        -0.312625       -0.946992      0.000146255     0.000190926        0.0278043       0.0530548
281710                 0.0265949       0.0390592     -4.58942e-05    -0.000235502        -0.763352        -0.63935      0.000500606    -0.000284746
                    -0.000155443    -0.000108634      -0.00893657      -0.0589917      0.000469388    -0.000320289        -0.312786       -0.947016
                       -0.763783       -0.639326      0.000518703    -0.000301069       -0.0431887      -0.0182779      0.000127027     0.000178391
                     0.000447273    -0.000429468        -0.312868       -0.946911      0.000146275     0.000190943        0.0278184       0.0530403
281712                 0.0265994       0.0390717     -4.60659e-05    -0.000235551         -0.76354       -0.639124      0.000500558    -0.000284887
                    -0.000155639    -0.000108637      -0.00894704      -0.0589837      0.000469305    -0.000320425         -0.31303       -0.946936
                       -0.763971       -0.639101      0.000518725    -0.000301189       -0.0432127      -0.0182546      0.000127039     0.000178447
                     0.000447241    -0.000429612        -0.313112       -0.946831      0.000146295     0.000190959        0.0278324       0.0530258
281714                 0.0266039       0.0390842     -4.62377e-05      -0.0002356        -0.763727       -0.638898      0.000500509    -0.000285027
                    -0.000155836     -0.00010864       -0.0089575      -0.0589757      0.000469222    -0.000320561        -0.313274       -0.946856
                       -0.764159       -0.638875      0.000518748    -0.000301308       -0.0432366      -0.0182313      0.000127051     0.000178502
                      0.00044721    -0.000429755        -0.313355       -0.946751      0.000146314     0.000190976        0.0278465       0.0530113
281716                 0.0266084       0.0390967     -4.64098e-05    -0.000235649        -0.763915       -0.638673      0.000500461    -0.000285168
                    -0.000156032    -0.000108642      -0.00896796      -0.0589676      0.000469139    -0.000320697        -0.313517       -0.946775
                       -0.764346        -0.63865      0.000518771    -0.000301428       -0.0432606      -0.0182079      0.000127063     0.000178558
                     0.000447178    -0.000429898        -0.313598       -0.946671      0.000146334     0.000190993        0.0278605       0.0529968
281718                 0.0266129       0.0391092      -4.6582e-05    -0.000235698        -0.764102       -0.638447      0.000500412    -0.000285309
                    -0.000156228    -0.000108646      -0.00897843      -0.0589596      0.000469056    -0.000320833        -0.313761       -0.946695
                       -0.764534       -0.638424      0.000518793    -0.000301547       -0.0432845      -0.0181846      0.000127075     0.000178614
                     0.000447146    -0.000430041        -0.313842       -0.946591      0.000146354      0.00019101        0.0278746       0.0529823
281720                 0.0266174       0.0391217     -4.67545e-05    -0.000235747         -0.76429       -0.638221      0.000500364     -0.00028545
                    -0.000156424    -0.000108649      -0.00898889      -0.0589515      0.000468973    -0.000320969        -0.314004       -0.946615
                       -0.764721       -0.638199      0.000518817    -0.000301667       -0.0433084      -0.0181612      0.000127087      0.00017867
                     0.000447113    -0.000430184        -0.314085        -0.94651      0.000146373     0.000191027        0.0278886       0.0529677
281722                 0.0266219       0.0391342     -4.69271e-05    -0.000235796        -0.764477       -0.637995      0.000500315    -0.000285591
                     -0.00015662    -0.000108652      -0.00899935      -0.0589435       0.00046889    -0.000321105        -0.314248       -0.946534
                       -0.764909       -0.637973       0.00051884    -0.000301786       -0.0433323      -0.0181379      0.000127099     0.000178727
                      0.00044708    -0.000430326        -0.314328        -0.94643      0.000146393     0.000191044        0.0279026       0.0529532
281724                 0.0266264       0.0391467     -4.70999e-05    -0.000235845        -0.764665       -0.637769      0.000500267    -0.000285732
                    -0.000156815    -0.000108656      -0.00900981      -0.0589354      0.000468806    -0.000321241        -0.314492       -0.946454
                       -0.765096       -0.637747      0.000518864    -0.000301905       -0.0433562      -0.0181145      0.000127111     0.000178783
                     0.000447047    -0.000430468        -0.314571       -0.946349      0.000146413     0.000191061        0.0279166       0.0529387
281726                 0.0266309       0.0391592      -4.7273e-05    -0.000235894        -0.764852       -0.637543      0.000500218    -0.000285873
                     -0.00015701     -0.00010866      -0.00902027      -0.0589274      0.000468723    -0.000321377        -0.314735       -0.946373
                       -0.765283       -0.637521      0.000518888    -0.000302025       -0.0433801       -0.018091      0.000127123      0.00017884
                     0.000447014     -0.00043061        -0.314815       -0.946269      0.000146432     0.000191078        0.0279306       0.0529242
281728                 0.0266355       0.0391717     -4.74462e-05    -0.000235943        -0.765039       -0.637317      0.000500169    -0.000286014
                    -0.000157205    -0.000108663      -0.00903073      -0.0589193       0.00046864    -0.000321513        -0.314979       -0.946293
                       -0.765471       -0.637295      0.000518912    -0.000302144        -0.043404      -0.0180676      0.000127136     0.000178896
                     0.000446981    -0.000430752        -0.315058       -0.946188      0.000146452     0.000191095        0.0279446       0.0529097
281730                   0.02664       0.0391842     -4.76197e-05    -0.000235992        -0.765226       -0.637091      0.000500121    -0.000286155
                      -0.0001574    -0.000108667      -0.00904118      -0.0589113      0.000468557    -0.000321649        -0.315222       -0.946212
                       -0.765658       -0.637069      0.000518936    -0.000302264       -0.0434279      -0.0180441      0.000127148     0.000178953
                     0.000446947    -0.000430893        -0.315301       -0.946108      0.000146471     0.000191112        0.0279586       0.0528951
281732                 0.0266445       0.0391967     -4.77933e-05    -0.000236042        -0.765413       -0.636864      0.000500072    -0.000286296
                    -0.000157594    -0.000108671      -0.00905164      -0.0589032      0.000468473    -0.000321785        -0.315466       -0.946131
                       -0.765845       -0.636843      0.000518961    -0.000302383       -0.0434517      -0.0180207       0.00012716      0.00017901
                     0.000446913    -0.000431035        -0.315544       -0.946027      0.000146491     0.000191129        0.0279726       0.0528806
281734                 0.0266491       0.0392092     -4.79671e-05    -0.000236091          -0.7656       -0.636638      0.000500024    -0.000286438
                    -0.000157788    -0.000108676       -0.0090621      -0.0588952       0.00046839    -0.000321921        -0.315709       -0.946051
                       -0.766032       -0.636617      0.000518986    -0.000302503       -0.0434756      -0.0179972      0.000127173     0.000179067
                     0.000446879    -0.000431176        -0.315787       -0.945946      0.000146511     0.000191146        0.0279865       0.0528661
281736                 0.0266536       0.0392217     -4.81412e-05     -0.00023614        -0.765787       -0.636412      0.000499975    -0.000286579
                    -0.000157983     -0.00010868      -0.00907255      -0.0588871      0.000468306    -0.000322057        -0.315952        -0.94597
                       -0.766219       -0.636391      0.000519011    -0.000302622       -0.0434994      -0.0179737      0.000127185     0.000179124
                     0.000446845    -0.000431316        -0.316031       -0.945865       0.00014653     0.000191164        0.0280005       0.0528516
281738                 0.0266581       0.0392341     -4.83154e-05     -0.00023619        -0.765974       -0.636185      0.000499926     -0.00028672
                    -0.000158176    -0.000108684        -0.009083       -0.058879      0.000468223    -0.000322192        -0.316196       -0.945889
                       -0.766406       -0.636165      0.000519037    -0.000302742       -0.0435232      -0.0179501      0.000127198     0.000179182
                      0.00044681    -0.000431457        -0.316274       -0.945784       0.00014655     0.000191181        0.0280145        0.052837
281740                 0.0266627       0.0392466     -4.84899e-05    -0.000236239        -0.766161       -0.635959      0.000499878    -0.000286862
                     -0.00015837    -0.000108689      -0.00909346       -0.058871      0.000468139    -0.000322328        -0.316439       -0.945808
                       -0.766593       -0.635938      0.000519062    -0.000302861        -0.043547      -0.0179266       0.00012721      0.00017924
                     0.000446776    -0.000431597        -0.316517       -0.945703      0.000146569     0.000191198        0.0280284       0.0528225
281742                 0.0266672       0.0392591     -4.86645e-05    -0.000236288        -0.766348       -0.635732      0.000499829    -0.000287003
                    -0.000158564    -0.000108693      -0.00910391      -0.0588629      0.000468055    -0.000322464        -0.316683       -0.945727
                        -0.76678       -0.635712      0.000519088     -0.00030298       -0.0435708       -0.017903      0.000127223     0.000179297
                     0.000446741    -0.000431737         -0.31676       -0.945622      0.000146589     0.000191215        0.0280424       0.0528079
281744                 0.0266718       0.0392716     -4.88394e-05    -0.000236338        -0.766534       -0.635506       0.00049978    -0.000287145
                    -0.000158757    -0.000108698      -0.00911436      -0.0588549      0.000467972      -0.0003226        -0.316926       -0.945646
                       -0.766966       -0.635485      0.000519115      -0.0003031       -0.0435946      -0.0178794      0.000127236     0.000179355
                     0.000446706    -0.000431877        -0.317003       -0.945541      0.000146608     0.000191232        0.0280563       0.0527934
281746                 0.0266763       0.0392841     -4.90144e-05    -0.000236387        -0.766721       -0.635279      0.000499731    -0.000287286
                    -0.000158951    -0.000108703      -0.00912481      -0.0588468      0.000467888    -0.000322736        -0.317169       -0.945565
                       -0.767153       -0.635259      0.000519141    -0.000303219       -0.0436183      -0.0178558      0.000127248     0.000179413
                     0.000446671    -0.000432016        -0.317246        -0.94546      0.000146628     0.000191249        0.0280702       0.0527789
281748                 0.0266809       0.0392966     -4.91897e-05    -0.000236437        -0.766908       -0.635052      0.000499683    -0.000287428
                    -0.000159144    -0.000108707      -0.00913526      -0.0588387      0.000467804    -0.000322871        -0.317413       -0.945483
                        -0.76734       -0.635032      0.000519168    -0.000303339       -0.0436421      -0.0178322      0.000127261     0.000179471
                     0.000446635    -0.000432155        -0.317489       -0.945379      0.000146647     0.000191267        0.0280841       0.0527643
281750                 0.0266854       0.0393091     -4.93652e-05    -0.000236487        -0.767094       -0.634825      0.000499634     -0.00028757
                    -0.000159337    -0.000108712       -0.0091457      -0.0588307       0.00046772    -0.000323007        -0.317656       -0.945402
                       -0.767526       -0.634806      0.000519195    -0.000303458       -0.0436658      -0.0178085      0.000127274      0.00017953
                       0.0004466    -0.000432294        -0.317732       -0.945298      0.000146667     0.000191284         0.028098       0.0527498
281752                   0.02669       0.0393216      -4.9541e-05    -0.000236536         -0.76728       -0.634599      0.000499585    -0.000287712
                     -0.00015953    -0.000108717      -0.00915615      -0.0588226      0.000467636    -0.000323143        -0.317899       -0.945321
                       -0.767713       -0.634579      0.000519222    -0.000303578       -0.0436896      -0.0177849      0.000127287     0.000179588
                     0.000446564    -0.000432433        -0.317975       -0.945216      0.000146686     0.000191301         0.028112       0.0527352
281754                 0.0266946       0.0393341      -4.9717e-05    -0.000236586        -0.767467       -0.634372      0.000499536    -0.000287854
                    -0.000159723    -0.000108722      -0.00916659      -0.0588145      0.000467553    -0.000323278        -0.318143       -0.945239
                       -0.767899       -0.634352       0.00051925    -0.000303697       -0.0437133      -0.0177612        0.0001273     0.000179647
                     0.000446529    -0.000432572        -0.318218       -0.945135      0.000146706     0.000191319        0.0281258       0.0527207
281756                 0.0266991       0.0393466     -4.98932e-05    -0.000236636        -0.767653       -0.634145      0.000499488    -0.000287996
                    -0.000159917    -0.000108726      -0.00917704      -0.0588064      0.000467468    -0.000323414        -0.318386       -0.945158
                       -0.768085       -0.634126      0.000519278    -0.000303816        -0.043737      -0.0177375      0.000127313     0.000179706
                     0.000446494     -0.00043271        -0.318461       -0.945053      0.000146726     0.000191337        0.0281397       0.0527061
281758                 0.0267037       0.0393591     -5.00698e-05    -0.000236686        -0.767839       -0.633918      0.000499439    -0.000288138
                    -0.000160114    -0.000108728      -0.00918748      -0.0587984      0.000467384     -0.00032355        -0.318629       -0.945076
                       -0.768272       -0.633899      0.000519307    -0.000303935       -0.0437607      -0.0177138      0.000127326     0.000179765
                     0.000446461    -0.000432849        -0.318704       -0.944972      0.000146745     0.000191353        0.0281536       0.0526916
281760                 0.0267083       0.0393715     -5.02469e-05    -0.000236737        -0.768026       -0.633691       0.00049939     -0.00028828
                    -0.000160292     -0.00010875      -0.00919792      -0.0587903        0.0004673    -0.000323685        -0.318872       -0.944995
                       -0.768458       -0.633672      0.000519336    -0.000304054       -0.0437844        -0.01769      0.000127339     0.000179824
                     0.000446412    -0.000432995        -0.318946        -0.94489      0.000146764      0.00019137        0.0281675        0.052677
281762                 0.0267128        0.039384     -5.04249e-05    -0.000236788        -0.768212       -0.633464      0.000499341    -0.000288422
                    -0.000160489    -0.000108747      -0.00920837      -0.0587822      0.000467216    -0.000323821        -0.319116       -0.944913
                       -0.768644       -0.633445      0.000519366    -0.000304171        -0.043808      -0.0176663      0.000127352     0.000179883
