! TOUCHSTONE file generated by CST MICROWAVE STUDIO
! Date and time: Wed Oct 15 17:34:12 2025
! Project name: Teste_Macro_Metasurface_Nanopilar.cst
! Parameters = {H=600; L_x=180; L_y=140; Lambda=1064; Max_L=200; Min_L=70; PathPara=1; Phi=0; Step_L=10; Theta=0; p=520; phaseX=180; phaseY=0}
! Header version: 2018
! Port assignment regex: !\s*Touchstone port\s*([0-9]+)\s*=\s*(CST MWS port|CST DS port)\s*([0-9]+|Zmin|Zmax)\s*\(\"(.*)\"\)(\s*mode\s*([0-9]+))?.*
! Touchstone port assignment:
! Touchstone port 1 = CST MWS port Zmax ("") mode 1
! Touchstone port 2 = CST MWS port Zmax ("") mode 2
! Touchstone port 3 = CST MWS port Zmin ("") mode 1
! Touchstone port 4 = CST MWS port Zmin ("") mode 2
! S-Parameters are not renormalized. Each port impedance will be approximated by the real part at minimum frequency. The values are described via the [Reference] keyword.
! Default impedance is overridden by [Reference]
[Version] 2.0
# GHz S RI R 376.73
[Number of Ports] 4
[Reference]
376.73 376.73 259.888 259.888 
[Number of Frequencies] 51
[Network Data]
281700                  0.298842       -0.184262     -0.000588819     0.000848914         0.895588       -0.209147      9.99965e-08     -0.00106178
                    -0.000504478     0.000896196         0.171981       0.0107303     -0.000553513    -0.000495441         0.566907        -0.80062
                        0.895383       -0.209406     -0.000539044    -0.000471666        -0.329305      -0.0594928       0.00109142     5.75169e-05
                     8.74312e-05     -0.00120893         0.567215       -0.801218       0.00102174     4.19953e-05        0.0665326        0.154642
281702                  0.298625       -0.184114      -0.00058861     0.000849095         0.895582       -0.209701     -5.63369e-07     -0.00106138
                    -0.000504207      0.00089623         0.171987       0.0107488     -0.000553674    -0.000495208         0.566669       -0.800788
                        0.895376       -0.209959     -0.000539201    -0.000471329        -0.329134      -0.0590201       0.00109158     5.65056e-05
                      8.6521e-05     -0.00120847         0.566976       -0.801386       0.00102198     4.12183e-05        0.0666439        0.154602
281704                  0.298408       -0.183966     -0.000588402     0.000849276         0.895575       -0.210255     -1.22676e-06     -0.00106098
                    -0.000503937     0.000896265         0.171992       0.0107673     -0.000553836    -0.000494975         0.566431       -0.800955
                        0.895369       -0.210513     -0.000539357    -0.000470992        -0.328964      -0.0585482       0.00109175     5.54942e-05
                     8.56167e-05     -0.00120801         0.566738       -0.801553       0.00102221      4.0442e-05        0.0667552        0.154562
281706                  0.298192       -0.183819     -0.000588193     0.000849457         0.895568       -0.210808     -1.89019e-06     -0.00106057
                    -0.000503667     0.000896299         0.171997       0.0107858     -0.000553998    -0.000494742         0.566193       -0.801122
                        0.895362       -0.211066     -0.000539512    -0.000470654        -0.328793      -0.0580771       0.00109191     5.44826e-05
                     8.47181e-05     -0.00120755         0.566499        -0.80172       0.00102244     3.96663e-05        0.0668665        0.154522
281708                  0.297977       -0.183671     -0.000587985     0.000849638         0.895559        -0.21136     -2.55366e-06     -0.00106017
                    -0.000503397     0.000896332         0.172003       0.0108043      -0.00055416    -0.000494509         0.565955        -0.80129
                        0.895353       -0.211618     -0.000539667    -0.000470315        -0.328622      -0.0576068       0.00109207      5.3471e-05
                     8.38252e-05     -0.00120709         0.566261       -0.801887       0.00102267     3.88912e-05        0.0669778        0.154481
281710                  0.297762       -0.183523     -0.000587777     0.000849818         0.895551       -0.211912      -3.2172e-06     -0.00105977
                    -0.000503129     0.000896365         0.172008       0.0108228     -0.000554322    -0.000494277         0.565716       -0.801457
                        0.895345        -0.21217     -0.000539822    -0.000469976        -0.328451      -0.0571373       0.00109223     5.24593e-05
                     8.29373e-05     -0.00120663         0.566022       -0.802054        0.0010229     3.81168e-05         0.067089        0.154441
281712                  0.297547       -0.183376     -0.000587569     0.000849999         0.895542       -0.212464      -3.8808e-06     -0.00105937
                     -0.00050286     0.000896398         0.172013       0.0108412     -0.000554484    -0.000494044         0.565478       -0.801624
                        0.895335       -0.212722     -0.000539976    -0.000469637        -0.328279      -0.0566686       0.00109238     5.14477e-05
                     8.20537e-05     -0.00120617         0.565783       -0.802221       0.00102313     3.73429e-05        0.0672002          0.1544
281714                  0.297332       -0.183229     -0.000587362     0.000850179         0.895532       -0.213015     -4.54447e-06     -0.00105896
                    -0.000502593      0.00089643         0.172019       0.0108597     -0.000554646    -0.000493811          0.56524       -0.801791
                        0.895326       -0.213273     -0.000540129    -0.000469297        -0.328107      -0.0562006       0.00109254     5.04361e-05
                     8.11736e-05     -0.00120572         0.565545       -0.802387       0.00102336     3.65697e-05        0.0673113         0.15436
281716                  0.297119       -0.183081     -0.000587154      0.00085036         0.895522       -0.213566     -5.20821e-06     -0.00105856
                    -0.000502326     0.000896463         0.172024       0.0108782     -0.000554808    -0.000493579         0.565002       -0.801958
                        0.895315       -0.213824     -0.000540281    -0.000468956        -0.327935      -0.0557335       0.00109269     4.94246e-05
                     8.02964e-05     -0.00120526         0.565306       -0.802554       0.00102359     3.57971e-05        0.0674224        0.154319
281718                  0.296905       -0.182934     -0.000586947      0.00085054         0.895512       -0.214117     -5.87203e-06     -0.00105816
                    -0.000502061     0.000896495         0.172029       0.0108967      -0.00055497    -0.000493346         0.564763       -0.802125
                        0.895305       -0.214374     -0.000540433    -0.000468615        -0.327763      -0.0552671       0.00109285     4.84133e-05
                     7.94214e-05     -0.00120481         0.565067       -0.802721       0.00102381     3.50251e-05        0.0675335        0.154278
281720                  0.296692       -0.182787      -0.00058674      0.00085072           0.8955       -0.214667     -6.53592e-06     -0.00105776
                    -0.000501796     0.000896527         0.172035       0.0109151     -0.000555133    -0.000493114         0.564525       -0.802292
                        0.895293       -0.214924     -0.000540585    -0.000468274         -0.32759      -0.0548015         0.001093     4.74021e-05
                      7.8548e-05     -0.00120436         0.564828       -0.802887       0.00102404     3.42537e-05        0.0676446        0.154238
281722                   0.29648        -0.18264     -0.000586534       0.0008509         0.895489       -0.215216     -7.19987e-06     -0.00105736
                    -0.000501532     0.000896559          0.17204       0.0109336     -0.000555295    -0.000492882         0.564286       -0.802458
                        0.895282       -0.215474     -0.000540736    -0.000467932        -0.327417      -0.0543367       0.00109315     4.63913e-05
                     7.76759e-05     -0.00120391         0.564589       -0.803054       0.00102426      3.3483e-05        0.0677556        0.154197
281724                  0.296267       -0.182493     -0.000586327     0.000851079         0.895477       -0.215766     -7.86387e-06     -0.00105696
                    -0.000501269     0.000896592         0.172046        0.010952     -0.000555458     -0.00049265         0.564048       -0.802625
                        0.895269       -0.216023     -0.000540886    -0.000467589        -0.327244      -0.0538727        0.0010933     4.53808e-05
                     7.68049e-05     -0.00120346          0.56435        -0.80322       0.00102449     3.27128e-05        0.0678666        0.154156
281726                  0.296056       -0.182346     -0.000586121     0.000851259         0.895464       -0.216314      -8.5279e-06     -0.00105655
                    -0.000501007     0.000896624         0.172051       0.0109705     -0.000555621    -0.000492418         0.563809       -0.802792
                        0.895256       -0.216571     -0.000541036    -0.000467246         -0.32707      -0.0534095       0.00109345     4.43708e-05
                     7.59347e-05     -0.00120302         0.564111       -0.803387       0.00102471     3.19433e-05        0.0679776        0.154115
281728                  0.295844       -0.182199     -0.000585916     0.000851438         0.895451       -0.216863     -9.19194e-06     -0.00105616
                    -0.000500745     0.000896658         0.172056       0.0109889     -0.000555784    -0.000492186         0.563571       -0.802958
                        0.895243        -0.21712     -0.000541185    -0.000466903        -0.326896       -0.052947       0.00109359     4.33612e-05
                     7.50651e-05     -0.00120257         0.563872       -0.803553       0.00102494     3.11743e-05        0.0680885        0.154074
281730                  0.295634       -0.182053      -0.00058571     0.000851617         0.895437       -0.217411     -9.85596e-06     -0.00105576
                    -0.000500485     0.000896692         0.172062       0.0110073     -0.000555946    -0.000491954         0.563332       -0.803125
                        0.895229       -0.217668     -0.000541333    -0.000466559        -0.326722      -0.0524853       0.00109374     4.23523e-05
                     7.41963e-05     -0.00120212         0.563633       -0.803719       0.00102516      3.0406e-05        0.0681994        0.154033
281732                  0.295423       -0.181906     -0.000585505     0.000851796         0.895423       -0.217958     -1.05199e-05     -0.00105536
                    -0.000500225     0.000896727         0.172067       0.0110258     -0.000556109    -0.000491722         0.563093       -0.803291
                        0.895215       -0.218215     -0.000541481    -0.000466214        -0.326547      -0.0520244       0.00109388     4.13441e-05
                      7.3328e-05     -0.00120167         0.563394       -0.803885       0.00102538     2.96382e-05        0.0683103        0.153991
281734                  0.295213        -0.18176       -0.0005853     0.000851975         0.895408       -0.218505     -1.11838e-05     -0.00105496
                    -0.000499965     0.000896762         0.172073       0.0110442     -0.000556273     -0.00049149         0.562855       -0.803457
                          0.8952       -0.218762     -0.000541628    -0.000465869        -0.326373      -0.0515642       0.00109403     4.03367e-05
                     7.24604e-05     -0.00120123         0.563155       -0.804051        0.0010256     2.88711e-05        0.0684212         0.15395
281736                  0.295004       -0.181613     -0.000585095     0.000852153         0.895393       -0.219052     -1.18475e-05     -0.00105456
                    -0.000499706     0.000896799         0.172078       0.0110626     -0.000556436    -0.000491258         0.562616       -0.803623
                        0.895185       -0.219309     -0.000541775    -0.000465524        -0.326198      -0.0511049       0.00109417     3.93302e-05
                     7.15934e-05     -0.00120078         0.562916       -0.804217       0.00102582     2.81045e-05         0.068532        0.153909
281738                  0.294795       -0.181467     -0.000584891     0.000852331         0.895377       -0.219598      -1.2511e-05     -0.00105417
                    -0.000499447     0.000896836         0.172083        0.011081     -0.000556599    -0.000491026         0.562377        -0.80379
                        0.895169       -0.219855     -0.000541921    -0.000465178        -0.326023      -0.0506463       0.00109431     3.83249e-05
                     7.07271e-05     -0.00120033         0.562676       -0.804383       0.00102604     2.73386e-05        0.0686428        0.153867
281740                  0.294586       -0.181321     -0.000584687     0.000852509         0.895361       -0.220144     -1.31742e-05     -0.00105377
                    -0.000499188     0.000896875         0.172089       0.0110994     -0.000556762    -0.000490795         0.562138       -0.803956
                        0.895153       -0.220401     -0.000542066    -0.000464831        -0.325847      -0.0501884       0.00109445     3.73208e-05
                     6.98615e-05     -0.00119988         0.562437       -0.804549       0.00102626     2.65733e-05        0.0687535        0.153826
281742                  0.294378       -0.181174     -0.000584483     0.000852687         0.895344       -0.220689     -1.38369e-05     -0.00105338
                     -0.00049893     0.000896914         0.172094       0.0111178     -0.000556926    -0.000490563         0.561899       -0.804122
                        0.895136       -0.220946     -0.000542211    -0.000464484        -0.325671      -0.0497314       0.00109458     3.63181e-05
                     6.89966e-05     -0.00119944         0.562198       -0.804714       0.00102647     2.58085e-05        0.0688642        0.153784
281744                   0.29417       -0.181028      -0.00058428     0.000852864         0.895327       -0.221234     -1.44993e-05     -0.00105299
                     -0.00049867     0.000896955           0.1721       0.0111362     -0.000557089    -0.000490331          0.56166       -0.804288
                        0.895118       -0.221491     -0.000542356    -0.000464137        -0.325495      -0.0492751       0.00109472      3.5317e-05
                     6.81326e-05     -0.00119899         0.561958        -0.80488       0.00102669     2.50444e-05        0.0689749        0.153743
281746                  0.293963       -0.180882     -0.000584077      0.00085304         0.895309       -0.221779      -1.5161e-05      -0.0010526
                    -0.000498411     0.000896996         0.172105       0.0111546     -0.000557252      -0.0004901         0.561421       -0.804454
                        0.895101       -0.222036     -0.000542499    -0.000463789        -0.325319      -0.0488196       0.00109485     3.43178e-05
                     6.72693e-05     -0.00119854         0.561719       -0.805046       0.00102691     2.42808e-05        0.0690856        0.153701
281748                  0.293756       -0.180736     -0.000583874     0.000853217         0.895291       -0.222323      -1.5822e-05     -0.00105221
                    -0.000498151     0.000897038          0.17211        0.011173     -0.000557416    -0.000489869         0.561182       -0.804619
                        0.895082        -0.22258     -0.000542642    -0.000463441        -0.325142      -0.0483648       0.00109498     3.33206e-05
                      6.6407e-05     -0.00119809         0.561479       -0.805211       0.00102712     2.35179e-05        0.0691962        0.153659
281750                  0.293549       -0.180591     -0.000583671     0.000853393         0.895272       -0.222867     -1.64821e-05     -0.00105182
                     -0.00049789      0.00089708         0.172116       0.0111914      -0.00055758    -0.000489637         0.560943       -0.804785
                        0.895063       -0.223123     -0.000542785    -0.000463092        -0.324965      -0.0479108       0.00109512     3.23257e-05
                     6.55455e-05     -0.00119763          0.56124       -0.805377       0.00102734     2.27555e-05        0.0693068        0.153617
281752                  0.293343       -0.180445     -0.000583469     0.000853568         0.895253        -0.22341     -1.71412e-05     -0.00105144
                    -0.000497628     0.000897124         0.172121       0.0112097     -0.000557743    -0.000489406         0.560704       -0.804951
                        0.895044       -0.223667     -0.000542927    -0.000462742        -0.324788      -0.0474575       0.00109524     3.13334e-05
                      6.4685e-05     -0.00119718            0.561       -0.805542       0.00102755     2.19937e-05        0.0694174        0.153576
281754                  0.293137       -0.180299     -0.000583267     0.000853743         0.895233       -0.223953     -1.77991e-05     -0.00105105
                    -0.000497365     0.000897167         0.172127       0.0112281     -0.000557907    -0.000489175         0.560465       -0.805116
                        0.895024        -0.22421     -0.000543068    -0.000462393        -0.324611      -0.0470051       0.00109537      3.0344e-05
                     6.38254e-05     -0.00119673         0.560761       -0.805707       0.00102776     2.12326e-05        0.0695279        0.153534
281756                  0.292932       -0.180154     -0.000583065     0.000853917         0.895213       -0.224495     -1.84557e-05     -0.00105067
                    -0.000497102     0.000897211         0.172132       0.0112465     -0.000558071    -0.000488944         0.560226       -0.805282
                        0.895004       -0.224752     -0.000543209    -0.000462042        -0.324433      -0.0465533        0.0010955     2.93579e-05
                     6.29667e-05     -0.00119628         0.560521       -0.805872       0.00102798      2.0472e-05        0.0696384        0.153491
281758                  0.292727       -0.180008     -0.000582864     0.000854091         0.895192       -0.225038     -1.91109e-05      -0.0010503
                    -0.000496838     0.000897255         0.172138       0.0112648     -0.000558234    -0.000488713         0.559986       -0.805447
                        0.894983       -0.225294     -0.000543349    -0.000461692        -0.324256      -0.0461024       0.00109562     2.83753e-05
                      6.2109e-05     -0.00119582         0.560281       -0.806037       0.00102819      1.9712e-05        0.0697489        0.153449
281760                  0.292523       -0.179863     -0.000582662     0.000854264         0.895171       -0.225579     -1.97645e-05     -0.00104992
                    -0.000496572     0.000897299         0.172143       0.0112832     -0.000558398    -0.000488482         0.559747       -0.805613
                        0.894962       -0.225836     -0.000543488     -0.00046134        -0.324077      -0.0456522       0.00109575     2.73966e-05
                     6.12523e-05     -0.00119536         0.560042       -0.806202        0.0010284     1.89526e-05        0.0698593        0.153407
281762                  0.292319       -0.179718     -0.000582461     0.000854437         0.895149        -0.22612     -2.04163e-05     -0.00104955
                    -0.000496305     0.000897342         0.172149       0.0113015     -0.000558561    -0.000488252         0.559508       -0.805778
                         0.89494       -0.226377     -0.000543627    -0.000460989        -0.323899      -0.0452027       0.00109587     2.64223e-05
