! TOUCHSTONE file generated by CST MICROWAVE STUDIO
! Date and time: Wed Oct 15 17:32:09 2025
! Project name: Teste_Macro_Metasurface_Nanopilar.cst
! Parameters = {H=600; L_x=145; L_y=120; Lambda=1064; Max_L=200; Min_L=70; PathPara=1; Phi=0; Step_L=10; Theta=0; p=520; phaseX=180; phaseY=0}
! Header version: 2018
! Port assignment regex: !\s*Touchstone port\s*([0-9]+)\s*=\s*(CST MWS port|CST DS port)\s*([0-9]+|Zmin|Zmax)\s*\(\"(.*)\"\)(\s*mode\s*([0-9]+))?.*
! Touchstone port assignment:
! Touchstone port 1 = CST MWS port Zmax ("") mode 1
! Touchstone port 2 = CST MWS port Zmax ("") mode 2
! Touchstone port 3 = CST MWS port Zmin ("") mode 1
! Touchstone port 4 = CST MWS port Zmin ("") mode 2
! S-Parameters are not renormalized. Each port impedance will be approximated by the real part at minimum frequency. The values are described via the [Reference] keyword.
! Default impedance is overridden by [Reference]
[Version] 2.0
# GHz S RI R 376.73
[Number of Ports] 4
[Reference]
376.73 376.73 259.888 259.888 
[Number of Frequencies] 51
[Network Data]
281700                 0.0406527       0.0373393      0.000927729     2.33526e-05         0.753538        0.643576     -0.000411627     0.000957398
                     0.000918761     2.28576e-06         0.100797        0.161561     -2.77395e-05     0.000721066         0.950467       -0.225886
                        0.753338         0.64357     -6.73561e-05     0.000799857       -0.0429342      -0.0318248     -0.000999296    -0.000452877
                    -0.000434191     0.000842977         0.950586       -0.225888     -0.000997596    -0.000518866       -0.0161517        0.188928
281702                 0.0406568       0.0373607      0.000927987      2.2969e-05         0.753776        0.643298     -0.000411297     0.000957675
                     0.000918997     1.91812e-06         0.100814        0.161576     -2.75571e-05     0.000721215          0.95039       -0.226193
                        0.753575        0.643291     -6.71287e-05     0.000799947       -0.0429798      -0.0317938     -0.000999749    -0.000452732
                    -0.000433924     0.000843302         0.950509       -0.226195     -0.000998144    -0.000518621       -0.0160378        0.188959
281704                 0.0406608       0.0373822      0.000928246     2.25851e-05         0.754013        0.643019     -0.000410966     0.000957953
                     0.000919233     1.55104e-06         0.100831         0.16159     -2.73755e-05     0.000721363         0.950313         -0.2265
                        0.753812        0.643012     -6.69013e-05     0.000800037       -0.0430253      -0.0317629       -0.0010002    -0.000452584
                    -0.000433658     0.000843627         0.950431       -0.226502     -0.000998691    -0.000518378       -0.0159238         0.18899
281706                 0.0406648       0.0374037      0.000928503      2.2201e-05          0.75425         0.64274     -0.000410635     0.000958232
                     0.000919468     1.18449e-06         0.100848        0.161605     -2.71951e-05     0.000721511         0.950236       -0.226807
                         0.75405        0.642733      -6.6674e-05     0.000800127       -0.0430708      -0.0317319      -0.00100065    -0.000452433
                    -0.000433392     0.000843952         0.950354       -0.226809     -0.000999236    -0.000518135       -0.0158098         0.18902
281708                 0.0406689       0.0374251      0.000928761     2.18166e-05         0.754487        0.642461     -0.000410303     0.000958513
                     0.000919703     8.18457e-07         0.100865         0.16162     -2.70159e-05     0.000721659         0.950158       -0.227114
                        0.754287        0.642454     -6.64467e-05     0.000800218       -0.0431162      -0.0317009       -0.0010011    -0.000452279
                    -0.000433126     0.000844277         0.950277       -0.227116     -0.000999781    -0.000517894       -0.0156958        0.189051
281710                 0.0406729       0.0374466      0.000929018     2.14319e-05         0.754723        0.642182      -0.00040997     0.000958797
                     0.000919938     4.52907e-07         0.100882        0.161634     -2.68385e-05     0.000721806         0.950081        -0.22742
                        0.754524        0.642175     -6.62194e-05     0.000800308       -0.0431617      -0.0316698      -0.00100155    -0.000452121
                     -0.00043286     0.000844602         0.950199       -0.227422      -0.00100032    -0.000517654       -0.0155817        0.189081
281712                  0.040677       0.0374681      0.000929275      2.1047e-05         0.754959        0.641903     -0.000409636     0.000959084
                     0.000920173     8.78167e-08           0.1009        0.161649     -2.66632e-05     0.000721952         0.950003       -0.227727
                         0.75476        0.641896     -6.59921e-05     0.000800398        -0.043207      -0.0316388        -0.001002    -0.000451957
                    -0.000432593     0.000844927         0.950122       -0.227729      -0.00100086    -0.000517417       -0.0154676        0.189112
281714                 0.0406811       0.0374895      0.000929532     2.06618e-05         0.755195        0.641624     -0.000409302     0.000959374
                     0.000920407    -2.76839e-07         0.100917        0.161663     -2.64907e-05     0.000722097         0.949925       -0.228034
                        0.754997        0.641617     -6.57649e-05     0.000800488       -0.0432524      -0.0316077      -0.00100245    -0.000451787
                    -0.000432327     0.000845252         0.950044       -0.228036       -0.0010014    -0.000517183       -0.0153534        0.189142
281716                 0.0406851        0.037511      0.000929788     2.02764e-05         0.755431        0.641345     -0.000408966      0.00095967
                     0.000920642    -6.41085e-07         0.100934        0.161678     -2.63218e-05     0.000722241         0.949847       -0.228341
                        0.755234        0.641338     -6.55377e-05     0.000800577       -0.0432977      -0.0315766       -0.0010029    -0.000451609
                    -0.000432061     0.000845577         0.949966       -0.228343      -0.00100194    -0.000516953       -0.0152392        0.189172
281718                 0.0406892       0.0375324      0.000930045     1.98907e-05         0.755666        0.641066     -0.000408629     0.000959973
                     0.000920876    -1.00495e-06         0.100951        0.161692     -2.61577e-05     0.000722384         0.949769       -0.228648
                         0.75547        0.641059     -6.53105e-05     0.000800667        -0.043343      -0.0315455      -0.00100334     -0.00045142
                    -0.000431795     0.000845902         0.949888       -0.228649      -0.00100247    -0.000516728       -0.0151249        0.189203
281720                 0.0406933       0.0375539      0.000930301     1.95048e-05         0.755901        0.640786      -0.00040829     0.000960286
                      0.00092111    -1.36845e-06         0.100968        0.161707     -2.60004e-05     0.000722524         0.949691       -0.228954
                        0.755706        0.640779     -6.50834e-05     0.000800757       -0.0433883      -0.0315143      -0.00100378    -0.000451217
                    -0.000431529     0.000846228          0.94981       -0.228956      -0.00100299    -0.000516512       -0.0150106        0.189233
281722                 0.0406974       0.0375753      0.000930556     1.91186e-05         0.756136        0.640507     -0.000407949     0.000960612
                     0.000921344    -1.73161e-06         0.100985        0.161721     -2.58525e-05      0.00072266         0.949613       -0.229261
                        0.755943          0.6405     -6.48563e-05     0.000800847       -0.0434335      -0.0314831      -0.00100422    -0.000450993
                    -0.000431263     0.000846553         0.949732       -0.229262       -0.0010035    -0.000516306       -0.0148963        0.189263
281724                 0.0407015       0.0375968      0.000930811     1.87321e-05         0.756371        0.640227     -0.000407606     0.000960959
                     0.000921577    -2.09446e-06         0.101002        0.161736     -2.57186e-05      0.00072279         0.949535       -0.229568
                        0.756179         0.64022     -6.46292e-05     0.000800936       -0.0434787      -0.0314518      -0.00100465    -0.000450738
                    -0.000430996     0.000846878         0.949654       -0.229569        -0.001004    -0.000516116       -0.0147819        0.189293
281726                 0.0407056       0.0376182      0.000931066     1.83454e-05         0.756605        0.639948     -0.000407257     0.000961338
                     0.000921811    -2.45702e-06         0.101019         0.16175     -2.56065e-05     0.000722911         0.949456       -0.229874
                        0.756415        0.639941     -6.44022e-05     0.000801026       -0.0435239      -0.0314206      -0.00100508    -0.000450435
                     -0.00043073     0.000847203         0.949575       -0.229876      -0.00100448     -0.00051595       -0.0146675        0.189323
281728                 0.0407097       0.0376396      0.000931321     1.79584e-05         0.756839        0.639669     -0.000406903     0.000961771
                     0.000922045    -2.81931e-06         0.101036        0.161765     -2.55305e-05     0.000723012         0.949378       -0.230181
                        0.756651        0.639661     -6.41752e-05     0.000801115        -0.043569      -0.0313893      -0.00100549    -0.000450051
                    -0.000430464     0.000847529         0.949497       -0.230182      -0.00100493    -0.000515824        -0.014553        0.189353
281730                 0.0407138       0.0376611      0.000931576     1.75712e-05         0.757073        0.639389      -0.00040654     0.000962307
                     0.000922278    -3.18136e-06         0.101053        0.161779     -2.55205e-05      0.00072307         0.949299       -0.230488
                        0.756887        0.639381     -6.39483e-05     0.000801205       -0.0436141      -0.0313579      -0.00100591    -0.000449512
                    -0.000430197     0.000847854         0.949418       -0.230489      -0.00100533    -0.000515767       -0.0144385        0.189383
281732                 0.0407179       0.0376825       0.00093183     1.71837e-05         0.757307         0.63911     -0.000406165     0.000963079
                     0.000922512    -3.54318e-06          0.10107        0.161794     -2.56461e-05     0.000723008          0.94922       -0.230794
                        0.757122        0.639101     -6.37214e-05     0.000801294       -0.0436592      -0.0313265      -0.00100636    -0.000448624
                     -0.00042993      0.00084818          0.94934       -0.230795      -0.00100561    -0.000515848        -0.014324        0.189413
281734                  0.040722       0.0377039      0.000932084     1.67959e-05         0.757541         0.63883      -0.00040581       0.0009646
                     0.000922745    -3.90479e-06         0.101087        0.161809      -2.6062e-05     0.000722454         0.949141       -0.231101
                        0.757358        0.638822     -6.34945e-05     0.000801383       -0.0437043      -0.0312951      -0.00100718    -0.000446716
                    -0.000429663     0.000848505         0.949261       -0.231102      -0.00100564     -0.00051627       -0.0142094        0.189442
281736                 0.0407262       0.0377253      0.000932337     1.64079e-05         0.757775        0.638551     -0.000407804     0.000972012
                     0.000922979    -4.26621e-06         0.101104        0.161823     -2.50064e-05     0.000719321         0.949062       -0.231407
                        0.757593        0.638542     -6.32677e-05     0.000801473       -0.0437493      -0.0312636      -0.00101381    -0.000442723
                    -0.000429396     0.000848831         0.949182       -0.231408      -0.00100467    -0.000518005       -0.0140948        0.189472
281738                 0.0407303       0.0377468      0.000932591     1.60197e-05         0.758008        0.638271     -0.000408068     0.000956376
                     0.000923212    -4.62746e-06         0.101121        0.161838      -2.1364e-05     0.000722535         0.948983       -0.231714
                        0.757829        0.638261     -6.30409e-05     0.000801562       -0.0437944      -0.0312321      -0.00101409    -0.000454413
                    -0.000429129     0.000849157         0.949103       -0.231714     -0.000977347    -0.000582248       -0.0139802        0.189502
281740                 0.0407344       0.0377682      0.000932843     1.56312e-05         0.758242        0.637991     -0.000405785     0.000959965
                     0.000923446    -4.98853e-06         0.101138        0.161852     -2.22045e-05     0.000723814         0.948904        -0.23202
                        0.758064        0.637981     -6.28142e-05     0.000801651       -0.0438394      -0.0312005      -0.00101077    -0.000453245
                    -0.000428862     0.000849482         0.949024       -0.232021      -0.00101291    -0.000508676       -0.0138655        0.189531
281742                 0.0407386       0.0377896      0.000933096     1.52424e-05         0.758475        0.637712     -0.000405127     0.000961115
                     0.000923679    -5.34944e-06         0.101155        0.161867     -2.24964e-05     0.000724168         0.948825       -0.232327
                        0.758299        0.637701     -6.25875e-05      0.00080174       -0.0438844      -0.0311689      -0.00101031    -0.000452316
                    -0.000428595     0.000849808         0.948945       -0.232327      -0.00101144    -0.000510781       -0.0137508        0.189561
281744                 0.0407427        0.037811      0.000933349     1.48534e-05         0.758709        0.637432     -0.000404669     0.000961778
                     0.000923913    -5.71015e-06         0.101172        0.161881     -2.25508e-05     0.000724376         0.948746       -0.232633
                        0.758534        0.637421      -6.2361e-05     0.000801829       -0.0439293      -0.0311372       -0.0010104    -0.000451748
                    -0.000428327     0.000850134         0.948866       -0.232633      -0.00101137    -0.000511263       -0.0136361         0.18959
281746                 0.0407469       0.0378324      0.000933601     1.44641e-05         0.758942        0.637152     -0.000404272     0.000962264
                     0.000924146    -6.07061e-06         0.101189        0.161896     -2.25021e-05     0.000724547         0.948666        -0.23294
                        0.758769         0.63714     -6.21345e-05     0.000801918       -0.0439743      -0.0311055      -0.00101067     -0.00045135
                     -0.00042806      0.00085046         0.948786        -0.23294      -0.00101163    -0.000511354       -0.0135214        0.189619
281748                  0.040751       0.0378538      0.000933852     1.40745e-05         0.759176        0.636872       -0.0004039     0.000962664
                      0.00092438    -6.43064e-06         0.101206        0.161911     -2.24004e-05     0.000724705         0.948587       -0.233246
                        0.759004         0.63686     -6.19081e-05     0.000802006       -0.0440192      -0.0310737      -0.00101102    -0.000451043
                    -0.000427792     0.000850787         0.948707       -0.233246      -0.00101203    -0.000511289       -0.0134066        0.189649
281750                 0.0407552       0.0378752      0.000934104     1.36846e-05          0.75941        0.636592     -0.000403543     0.000963016
                     0.000924615    -6.79002e-06         0.101223        0.161925     -2.22673e-05     0.000724858         0.948507       -0.233552
                        0.759239        0.636579      -6.1682e-05     0.000802095       -0.0440641      -0.0310419      -0.00101142    -0.000450791
                    -0.000427524     0.000851114         0.948627       -0.233552      -0.00101248    -0.000511144       -0.0132918        0.189678
281752                 0.0407594       0.0378966      0.000934355     1.32941e-05         0.759643        0.636311     -0.000403193     0.000963338
                     0.000924851    -7.15089e-06          0.10124         0.16194     -2.21136e-05     0.000725008         0.948427       -0.233859
                        0.759473        0.636298     -6.14566e-05     0.000802183        -0.044109        -0.03101      -0.00101184    -0.000450575
                    -0.000427254     0.000851441         0.948548       -0.233858      -0.00101298     -0.00051095        -0.013177        0.189707
281754                 0.0407636        0.037918      0.000934604      1.2902e-05         0.759877        0.636031     -0.000402849     0.000963636
                     0.000925086    -7.51468e-06         0.101257        0.161954     -2.19446e-05     0.000725156         0.948348       -0.234165
                        0.759708        0.636018     -6.12348e-05     0.000802268       -0.0441538      -0.0309781      -0.00101227    -0.000450386
                    -0.000426984     0.000851766         0.948468       -0.234164       -0.0010135    -0.000510723       -0.0130621        0.189736
281756                 0.0407677       0.0379394      0.000934864     1.25204e-05         0.760111         0.63575     -0.000402509     0.000963917
                     0.000925318    -7.87652e-06         0.101274        0.161969      -2.1763e-05     0.000725303         0.948268       -0.234471
                        0.759942        0.635737     -6.09849e-05     0.000802375       -0.0441987      -0.0309461      -0.00101273    -0.000450218
                    -0.000426715     0.000852092         0.948388       -0.234471      -0.00101405    -0.000510468       -0.0129473        0.189765
281758                 0.0407719       0.0379608       0.00093511     1.21255e-05         0.760345        0.635469     -0.000402174      0.00096418
                     0.000925551    -8.23748e-06         0.101291        0.161984     -2.15695e-05      0.00072545         0.948188       -0.234777
                        0.760177        0.635456       -6.077e-05     0.000802455       -0.0442435       -0.030914      -0.00101319    -0.000450071
                    -0.000426446     0.000852418         0.948308       -0.234777      -0.00101462    -0.000510187       -0.0128324        0.189794
281760                 0.0407761       0.0379822      0.000935359     1.17339e-05         0.760578        0.635188     -0.000401843     0.000964425
                     0.000925784    -8.59828e-06         0.101308        0.161998     -2.13629e-05     0.000725595         0.948108       -0.235083
                        0.760411        0.635175     -6.05453e-05     0.000802542       -0.0442883      -0.0308819      -0.00101368    -0.000449944
                    -0.000426176     0.000852744         0.948228       -0.235083      -0.00101521    -0.000509877       -0.0127175        0.189823
281762                 0.0407803       0.0380036      0.000935609     1.13425e-05         0.760813        0.634906     -0.000401518     0.000964647
                     0.000926018    -8.95908e-06         0.101325        0.162013     -2.11396e-05     0.000725737         0.948028       -0.235389
                        0.760645        0.634894     -6.03195e-05      0.00080263       -0.0443331      -0.0308497      -0.00101418    -0.000449844
