! TOUCHSTONE file generated by CST MICROWAVE STUDIO
! Date and time: Wed Oct 15 17:32:27 2025
! Project name: Teste_Macro_Metasurface_Nanopilar.cst
! Parameters = {H=600; L_x=150; L_y=120; Lambda=1064; Max_L=200; Min_L=70; PathPara=1; Phi=0; Step_L=10; Theta=0; p=520; phaseX=180; phaseY=0}
! Header version: 2018
! Port assignment regex: !\s*Touchstone port\s*([0-9]+)\s*=\s*(CST MWS port|CST DS port)\s*([0-9]+|Zmin|Zmax)\s*\(\"(.*)\"\)(\s*mode\s*([0-9]+))?.*
! Touchstone port assignment:
! Touchstone port 1 = CST MWS port Zmax ("") mode 1
! Touchstone port 2 = CST MWS port Zmax ("") mode 2
! Touchstone port 3 = CST MWS port Zmin ("") mode 1
! Touchstone port 4 = CST MWS port Zmin ("") mode 2
! S-Parameters are not renormalized. Each port impedance will be approximated by the real part at minimum frequency. The values are described via the [Reference] keyword.
! Default impedance is overridden by [Reference]
[Version] 2.0
# GHz S RI R 376.73
[Number of Ports] 4
[Reference]
376.73 376.73 259.888 259.888 
[Number of Frequencies] 51
[Network Data]
281700                 0.0491462       0.0487636     -0.000163704     0.000264997         0.820306        0.554742     -0.000412757     0.000862157
                    -0.000282274     0.000201675         0.123693        0.204937      0.000160433     0.000943267         0.875507       -0.408767
                        0.820289        0.554934      0.000352862      0.00100473       -0.0628591      -0.0252582      9.39273e-05     0.000232619
                    -0.000324543     0.000882682          0.87557       -0.408746      4.81608e-05     0.000153826        0.0790154        0.224207
281702                 0.0491513        0.048782     -0.000163428     0.000265085         0.820506        0.554445     -0.000412503     0.000862345
                    -0.000282078     0.000201705         0.123716        0.204967      0.000160807     0.000943199         0.875361       -0.409055
                        0.820489        0.554637      0.000353314      0.00100458       -0.0628966      -0.0252108      9.38805e-05     0.000232605
                    -0.000324378     0.000882853         0.875424       -0.409034       4.8066e-05     0.000153838        0.0791735        0.224191
281704                 0.0491565       0.0488004     -0.000163152     0.000265173         0.820706        0.554149      -0.00041225     0.000862534
                    -0.000281882     0.000201734          0.12374        0.204996       0.00016118     0.000943131         0.875216       -0.409344
                        0.820688        0.554341      0.000353767      0.00100444       -0.0629341      -0.0251635      9.38338e-05     0.000232592
                    -0.000324214     0.000883023         0.875279       -0.409322      4.79712e-05     0.000153851        0.0793316        0.224174
281706                 0.0491617       0.0488189     -0.000162876     0.000265262         0.820905        0.553852     -0.000411996     0.000862722
                    -0.000281686     0.000201764         0.123764        0.205026      0.000161554     0.000943063         0.875071       -0.409632
                        0.820887        0.554044       0.00035422      0.00100429       -0.0629716      -0.0251161      9.37872e-05     0.000232579
                    -0.000324049     0.000883194         0.875133       -0.409611      4.78763e-05     0.000153863        0.0794897        0.224157
281708                 0.0491669       0.0488373       -0.0001626      0.00026535         0.821105        0.553555     -0.000411742      0.00086291
                     -0.00028149     0.000201794         0.123787        0.205055      0.000161927     0.000942994         0.874925        -0.40992
                        0.821086        0.553747      0.000354673      0.00100415        -0.063009      -0.0250687      9.37408e-05     0.000232565
                    -0.000323884     0.000883365         0.874987       -0.409899      4.77812e-05     0.000153876        0.0796478         0.22414
281710                 0.0491721       0.0488558     -0.000162322     0.000265438         0.821304        0.553258     -0.000411488     0.000863098
                    -0.000281295     0.000201823         0.123811        0.205085      0.000162301     0.000942926          0.87478       -0.410208
                        0.821285        0.553451      0.000355127        0.001004       -0.0630463      -0.0250213      9.36946e-05     0.000232552
                     -0.00032372     0.000883536         0.874841       -0.410187      4.76861e-05     0.000153889        0.0798059        0.224123
281712                 0.0491773       0.0488742     -0.000162045     0.000265526         0.821504        0.552962     -0.000411234     0.000863286
                    -0.000281099     0.000201853         0.123834        0.205115      0.000162675     0.000942857         0.874634       -0.410496
                        0.821484        0.553154      0.000355581      0.00100386       -0.0630837      -0.0249738      9.36486e-05     0.000232539
                    -0.000323555     0.000883707         0.874695       -0.410475      4.75909e-05     0.000153902        0.0799641        0.224106
281714                 0.0491825       0.0488926     -0.000161767     0.000265615         0.821703        0.552665      -0.00041098     0.000863474
                    -0.000280904     0.000201882         0.123858        0.205144      0.000163048     0.000942788         0.874488       -0.410784
                        0.821683        0.552857      0.000356035      0.00100371        -0.063121      -0.0249263      9.36029e-05     0.000232526
                     -0.00032339     0.000883878         0.874549       -0.410763      4.74956e-05     0.000153916        0.0801223        0.224089
281716                 0.0491877       0.0489111     -0.000161488     0.000265703         0.821902        0.552368     -0.000410726     0.000863662
                    -0.000280709     0.000201911         0.123882        0.205174      0.000163422     0.000942719         0.874342       -0.411072
                        0.821882         0.55256       0.00035649      0.00100357       -0.0631582      -0.0248787      9.35573e-05     0.000232513
                    -0.000323225      0.00088405         0.874403       -0.411051      4.74002e-05     0.000153929        0.0802805        0.224071
281718                 0.0491929       0.0489295      -0.00016121     0.000265791         0.822101         0.55207     -0.000410472      0.00086385
                    -0.000280515     0.000201941         0.123905        0.205204      0.000163796      0.00094265         0.874196        -0.41136
                         0.82208        0.552263      0.000356945      0.00100342       -0.0631954      -0.0248311      9.35121e-05       0.0002325
                     -0.00032306     0.000884221         0.874257       -0.411339      4.73048e-05     0.000153943        0.0804388        0.224054
281720                 0.0491981       0.0489479      -0.00016093      0.00026588           0.8223        0.551773     -0.000410218     0.000864037
                     -0.00028032      0.00020197         0.123929        0.205234       0.00016417      0.00094258          0.87405       -0.411648
                        0.822279        0.551966      0.000357401      0.00100328       -0.0632326      -0.0247835      9.34671e-05     0.000232487
                    -0.000322894     0.000884393          0.87411       -0.411627      4.72092e-05     0.000153956         0.080597        0.224036
281722                 0.0492033       0.0489664      -0.00016065     0.000265968         0.822499        0.551476     -0.000409964     0.000864225
                    -0.000280126        0.000202         0.123953        0.205263      0.000164544     0.000942511         0.873904       -0.411936
                        0.822477        0.551668      0.000357857      0.00100313       -0.0632698      -0.0247358      9.34223e-05     0.000232475
                    -0.000322729     0.000884565         0.873964       -0.411915      4.71136e-05      0.00015397        0.0807553        0.224019
281724                 0.0492085       0.0489848      -0.00016037     0.000266057         0.822698        0.551179      -0.00040971     0.000864412
                    -0.000279932     0.000202029         0.123976        0.205293      0.000164918     0.000942441         0.873757       -0.412224
                        0.822675        0.551371      0.000358314      0.00100299       -0.0633069      -0.0246881      9.33779e-05     0.000232463
                    -0.000322563     0.000884737         0.873817       -0.412203      4.70178e-05     0.000153985        0.0809136        0.224001
281726                 0.0492138       0.0490032     -0.000160089     0.000266145         0.822897        0.550881     -0.000409456       0.0008646
                    -0.000279738     0.000202058            0.124        0.205323      0.000165292     0.000942371         0.873611       -0.412512
                        0.822873        0.551074       0.00035877      0.00100284       -0.0633439      -0.0246404      9.33337e-05     0.000232452
                    -0.000322398     0.000884909          0.87367       -0.412491       4.6922e-05     0.000153999        0.0810719        0.223983
281728                  0.049219       0.0490216     -0.000159808     0.000266234         0.823095        0.550584     -0.000409202     0.000864787
                    -0.000279544     0.000202088         0.124024        0.205353      0.000165666     0.000942301         0.873464       -0.412799
                        0.823071        0.550777      0.000359228       0.0010027        -0.063381      -0.0245926      9.32897e-05     0.000232441
                    -0.000322232     0.000885081         0.873524       -0.412779      4.68261e-05     0.000154013        0.0812303        0.223965
281730                 0.0492242         0.04904     -0.000159524     0.000266324         0.823293        0.550287     -0.000408947     0.000864974
                    -0.000279351     0.000202117         0.124047        0.205382       0.00016604     0.000942231         0.873318       -0.413087
                        0.823269        0.550479      0.000359686      0.00100255        -0.063418      -0.0245449       9.3246e-05     0.000232431
                    -0.000322066     0.000885254         0.873377       -0.413067        4.673e-05     0.000154028        0.0813887        0.223947
281732                 0.0492295       0.0490584     -0.000159243     0.000266406         0.823492        0.549989     -0.000408693     0.000865162
                    -0.000279158     0.000202147         0.124071        0.205412      0.000166414      0.00094216         0.873171       -0.413375
                        0.823467        0.550182      0.000360145       0.0010024       -0.0634549       -0.024497      9.32024e-05     0.000232422
                      -0.0003219     0.000885427          0.87323       -0.413354      4.66339e-05     0.000154043        0.0815471        0.223929
281734                 0.0492347       0.0490769     -0.000158962     0.000266497          0.82369        0.549691     -0.000408439     0.000865349
                    -0.000278965     0.000202176         0.124095        0.205442      0.000166788      0.00094209         0.873024       -0.413662
                        0.823665        0.549884      0.000360603      0.00100226       -0.0634919      -0.0244492      9.31591e-05     0.000232413
                    -0.000321734     0.000885599         0.873083       -0.413642      4.65377e-05     0.000154058        0.0817055         0.22391
281736                   0.04924       0.0490953      -0.00015868     0.000266586         0.823888        0.549394     -0.000408185     0.000865536
                    -0.000278772     0.000202206         0.124118        0.205472      0.000167163     0.000942019         0.872877        -0.41395
                        0.823862        0.549586      0.000361062      0.00100212       -0.0635288      -0.0244013       9.3116e-05     0.000232405
                    -0.000321568     0.000885772         0.872935        -0.41393      4.64414e-05     0.000154073        0.0818639        0.223892
281738                 0.0492452       0.0491137     -0.000158397     0.000266675         0.824086        0.549096     -0.000407931     0.000865723
                    -0.000278581     0.000202235         0.124142        0.205502      0.000167537     0.000941948          0.87273       -0.414237
                         0.82406        0.549289      0.000361521      0.00100197       -0.0635656      -0.0243533      9.30734e-05     0.000232397
                    -0.000321402     0.000885946         0.872788       -0.414217       4.6345e-05     0.000154089        0.0820224        0.223874
281740                 0.0492505       0.0491321     -0.000158113     0.000266763         0.824284        0.548798     -0.000407676      0.00086591
                     -0.00027839     0.000202264         0.124166        0.205531      0.000167911     0.000941877         0.872583       -0.414525
                        0.824257        0.548991       0.00036198      0.00100183       -0.0636024      -0.0243054      9.30318e-05      0.00023239
                    -0.000321236     0.000886121          0.87264       -0.414505      4.62485e-05     0.000154104        0.0821809        0.223855
281742                 0.0492558       0.0491504     -0.000157829     0.000266852         0.824481          0.5485     -0.000407422     0.000866096
                    -0.000278204      0.00020229          0.12419        0.205561      0.000168286     0.000941806         0.872435       -0.414812
                        0.824454        0.548693      0.000362441      0.00100168       -0.0636392      -0.0242573      9.29916e-05     0.000232381
                    -0.000321075     0.000886302         0.872493       -0.414792      4.61519e-05      0.00015412        0.0823394        0.223836
281744                 0.0492605       0.0491689     -0.000157544     0.000266941         0.824679        0.548203     -0.000407167     0.000866283
                    -0.000278009     0.000202302         0.124213        0.205591       0.00016866     0.000941734         0.872288         -0.4151
                        0.824651        0.548395      0.000362901      0.00100154       -0.0636759      -0.0242093      9.29527e-05     0.000232368
                    -0.000320891      0.00088643         0.872345        -0.41508      4.60552e-05     0.000154136        0.0824979        0.223817
281746                 0.0492663       0.0491873     -0.000157259     0.000267029         0.824876        0.547905     -0.000406912     0.000866469
                      -0.0002778     0.000202334         0.124237        0.205621      0.000169035     0.000941663          0.87214       -0.415387
                        0.824848        0.548097      0.000363362      0.00100139       -0.0637127      -0.0241612      9.29115e-05     0.000232348
                    -0.000320729     0.000886626         0.872198       -0.415367      4.59584e-05     0.000154152        0.0826565        0.223799
281748                 0.0492715       0.0492057     -0.000156973     0.000267118         0.825074        0.547606     -0.000406654     0.000866655
                    -0.000277605     0.000202369         0.124261        0.205651      0.000169409     0.000941591         0.871993       -0.415674
                        0.825045        0.547799      0.000363823      0.00100125       -0.0637493      -0.0241131      9.28605e-05     0.000232324
                    -0.000320562     0.000886802          0.87205       -0.415654      4.58614e-05     0.000154168        0.0828151         0.22378
281750                 0.0492768       0.0492241     -0.000156687     0.000267207         0.825271        0.547308     -0.000406402     0.000866851
                    -0.000277413     0.000202401         0.124285        0.205681      0.000169785     0.000941519         0.871845       -0.415962
                        0.825242        0.547501      0.000364285       0.0010011        -0.063786       -0.024065      9.28005e-05     0.000232306
                    -0.000320395     0.000886977         0.871902       -0.415942      4.57623e-05     0.000154185        0.0829736        0.223761
281752                 0.0492821       0.0492425     -0.000156401     0.000267295         0.825468         0.54701     -0.000406151     0.000867035
                    -0.000277221     0.000202431         0.124309        0.205711      0.000170159     0.000941447         0.871697       -0.416249
                        0.825438        0.547203      0.000364747      0.00100096       -0.0638225      -0.0240168      9.27402e-05     0.000232294
                    -0.000320228      0.00088715         0.871754       -0.416229      4.56675e-05     0.000154201        0.0831322        0.223741
281754                 0.0492874       0.0492608     -0.000156114     0.000267384         0.825665        0.546712     -0.000405896     0.000867221
                    -0.000277028     0.000202461         0.124332         0.20574      0.000170533     0.000941375         0.871549       -0.416536
                        0.825635        0.546905       0.00036521      0.00100081       -0.0638591      -0.0239686      9.26829e-05     0.000232286
                     -0.00032006     0.000887324         0.871605       -0.416516      4.55703e-05     0.000154218        0.0832909        0.223722
281756                 0.0492927       0.0492792     -0.000155826     0.000267473         0.825862        0.546414     -0.000405642     0.000867407
                    -0.000276836     0.000202491         0.124356         0.20577      0.000170908     0.000941303         0.871401       -0.416823
                        0.825831        0.546607      0.000365672      0.00100067       -0.0638956      -0.0239204      9.26281e-05     0.000232278
                    -0.000319892     0.000887498         0.871457       -0.416803       4.5473e-05     0.000154235        0.0834495        0.223703
281758                  0.049298       0.0492976     -0.000155538     0.000267562         0.826059        0.546115     -0.000405388     0.000867593
                    -0.000276644      0.00020252          0.12438          0.2058      0.000171283      0.00094123         0.871253        -0.41711
                        0.826028        0.546308      0.000366136      0.00100052       -0.0639321      -0.0238721       9.2575e-05     0.000232269
                    -0.000319724     0.000887671         0.871309       -0.417091      4.53756e-05     0.000154252        0.0836082        0.223683
281760                 0.0493033        0.049316      -0.00015525      0.00026765         0.826256        0.545817     -0.000405133      0.00086778
                    -0.000276451     0.000202549         0.124404         0.20583      0.000171658     0.000941157         0.871105       -0.417397
                        0.826224         0.54601        0.0003666      0.00100037       -0.0639685      -0.0238238      9.25227e-05     0.000232259
                    -0.000319556     0.000887845          0.87116       -0.417378      4.52781e-05     0.000154269        0.0837669        0.223664
281762                 0.0493086       0.0493344     -0.000154961     0.000267739         0.826452        0.545518     -0.000404878     0.000867967
                    -0.000276259     0.000202578         0.124428         0.20586      0.000172033     0.000941085         0.870956       -0.417684
                         0.82642        0.545712      0.000367064      0.00100023       -0.0640049      -0.0237754      9.24712e-05     0.000232249
