! TOUCHSTONE file generated by CST MICROWAVE STUDIO
! Date and time: Wed Oct 15 17:33:53 2025
! Project name: Teste_Macro_Metasurface_Nanopilar.cst
! Parameters = {H=600; L_x=175; L_y=130; Lambda=1064; Max_L=200; Min_L=70; PathPara=1; Phi=0; Step_L=10; Theta=0; p=520; phaseX=180; phaseY=0}
! Header version: 2018
! Port assignment regex: !\s*Touchstone port\s*([0-9]+)\s*=\s*(CST MWS port|CST DS port)\s*([0-9]+|Zmin|Zmax)\s*\(\"(.*)\"\)(\s*mode\s*([0-9]+))?.*
! Touchstone port assignment:
! Touchstone port 1 = CST MWS port Zmax ("") mode 1
! Touchstone port 2 = CST MWS port Zmax ("") mode 2
! Touchstone port 3 = CST MWS port Zmin ("") mode 1
! Touchstone port 4 = CST MWS port Zmin ("") mode 2
! S-Parameters are not renormalized. Each port impedance will be approximated by the real part at minimum frequency. The values are described via the [Reference] keyword.
! Default impedance is overridden by [Reference]
[Version] 2.0
# GHz S RI R 376.73
[Number of Ports] 4
[Reference]
376.73 376.73 259.888 259.888 
[Number of Frequencies] 51
[Network Data]
281700                  0.116468        0.170671     -0.000148374    -0.000140186         0.901612       -0.368157      0.000466715     0.000367302
                    -0.000140698    -0.000129992         0.168349      -0.0823517      0.000205426     0.000509108         0.744562       -0.632541
                         0.90099       -0.368442      0.000109446     0.000703565        0.0376683        0.201399     -0.000140011    -0.000242093
                      0.00039988     0.000430818         0.744643       -0.633004     -0.000184142    -0.000188341        -0.107417        0.145801
281702                  0.116484        0.170699     -0.000148829    -0.000140335         0.901484        -0.36845      0.000466919     0.000367212
                    -0.000140673    -0.000130119         0.168335      -0.0823096      0.000205639     0.000509279         0.744361       -0.632789
                        0.900864       -0.368736      0.000110203     0.000703624         0.037809        0.201404     -0.000140316     -0.00024195
                     0.000399941     0.000430783         0.744441       -0.633252       -0.0001844    -0.000188332        -0.107277        0.145866
281704                    0.1165        0.170726     -0.000149285     -0.00014048         0.901357       -0.368743      0.000467124     0.000367123
                    -0.000140648    -0.000130244         0.168322      -0.0822675      0.000205853     0.000509451         0.744159       -0.633037
                        0.900738       -0.369029      0.000110961      0.00070368        0.0379497        0.201409      -0.00014062    -0.000241806
                     0.000400002     0.000430748          0.74424         -0.6335     -0.000184659    -0.000188323        -0.107137        0.145932
281706                  0.116516        0.170754     -0.000149741    -0.000140622         0.901229       -0.369035      0.000467329     0.000367033
                    -0.000140622     -0.00013037         0.168308      -0.0822255      0.000206067     0.000509622         0.743957       -0.633285
                        0.900612       -0.369323       0.00011172     0.000703731        0.0380905        0.201414     -0.000140924    -0.000241662
                     0.000400064     0.000430713         0.744039       -0.633747     -0.000184917    -0.000188313        -0.106998        0.145998
281708                  0.116531        0.170782     -0.000150199    -0.000140761         0.901102       -0.369328      0.000467533     0.000366943
                    -0.000140596    -0.000130495         0.168294      -0.0821834      0.000206281     0.000509794         0.743755       -0.633533
                        0.900486       -0.369616       0.00011248     0.000703779        0.0382313        0.201419     -0.000141229    -0.000241518
                     0.000400125     0.000430677         0.743837       -0.633995     -0.000185177    -0.000188303        -0.106858        0.146063
281710                  0.116547        0.170809     -0.000150657    -0.000140895         0.900974       -0.369621      0.000467738     0.000366853
                     -0.00014057     -0.00013062         0.168281      -0.0821414      0.000206495     0.000509966         0.743553       -0.633781
                        0.900359        -0.36991       0.00011324     0.000703822        0.0383721        0.201424     -0.000141533    -0.000241373
                     0.000400187      0.00043064         0.743636       -0.634242     -0.000185436    -0.000188294        -0.106718        0.146128
281712                  0.116563        0.170837     -0.000151116    -0.000141026         0.900846       -0.369914      0.000467943     0.000366763
                    -0.000140544    -0.000130744         0.168267      -0.0820994      0.000206709     0.000510139         0.743351       -0.634028
                        0.900233       -0.370203      0.000114001     0.000703861        0.0385129        0.201428     -0.000141836    -0.000241227
                     0.000400248     0.000430603         0.743434        -0.63449     -0.000185695    -0.000188284        -0.106578        0.146194
281714                  0.116579        0.170864     -0.000151576    -0.000141153         0.900718       -0.370207      0.000468148     0.000366673
                    -0.000140518    -0.000130867         0.168253      -0.0820574      0.000206923     0.000510312         0.743148       -0.634276
                        0.900106       -0.370496      0.000114763     0.000703895        0.0386538        0.201433      -0.00014214    -0.000241082
                      0.00040031     0.000430566         0.743232       -0.634737     -0.000185955    -0.000188274        -0.106438        0.146259
281716                  0.116595        0.170892     -0.000152036    -0.000141277          0.90059       -0.370499      0.000468352     0.000366582
                    -0.000140491     -0.00013099          0.16824      -0.0820154      0.000207138     0.000510485         0.742946       -0.634523
                         0.89998        -0.37079      0.000115525     0.000703926        0.0387947        0.201438     -0.000142443    -0.000240935
                     0.000400372     0.000430528          0.74303       -0.634984     -0.000186215    -0.000188263        -0.106299        0.146324
281718                  0.116611         0.17092     -0.000152497    -0.000141397         0.900462       -0.370792      0.000468557     0.000366492
                    -0.000140465    -0.000131113         0.168226      -0.0819734      0.000207353     0.000510658         0.742743        -0.63477
                        0.899853       -0.371083      0.000116288     0.000703952        0.0389357        0.201442     -0.000142746    -0.000240789
                     0.000400435     0.000430489         0.742828       -0.635231     -0.000186475    -0.000188253        -0.106159        0.146388
281720                  0.116627        0.170947     -0.000152958    -0.000141513         0.900334       -0.371085      0.000468762     0.000366401
                    -0.000140438    -0.000131234         0.168213      -0.0819314      0.000207568     0.000510832         0.742541       -0.635017
                        0.899726       -0.371376      0.000117051     0.000703974        0.0390767        0.201447     -0.000143049    -0.000240641
                     0.000400497      0.00043045         0.742626       -0.635478     -0.000186735    -0.000188243        -0.106019        0.146453
281722                  0.116643        0.170975      -0.00015342    -0.000141626         0.900206       -0.371377      0.000468967     0.000366311
                    -0.000140411    -0.000131356         0.168199      -0.0818895      0.000207783     0.000511006         0.742338       -0.635264
                        0.899599       -0.371669      0.000117814     0.000703992        0.0392177        0.201451     -0.000143352    -0.000240494
                      0.00040056     0.000430409         0.742424       -0.635725     -0.000186995    -0.000188232        -0.105879        0.146518
281724                  0.116659        0.171003     -0.000153883    -0.000141734         0.900077        -0.37167      0.000469172      0.00036622
                    -0.000140384    -0.000131476         0.168186      -0.0818476      0.000207998      0.00051118         0.742135       -0.635511
                        0.899472       -0.371962      0.000118578     0.000704006        0.0393588        0.201455     -0.000143654    -0.000240346
                     0.000400622     0.000430368         0.742222       -0.635972     -0.000187256    -0.000188222        -0.105739        0.146582
281726                  0.116675        0.171031     -0.000154346     -0.00014184         0.899949       -0.371963      0.000469377     0.000366129
                    -0.000140356    -0.000131596         0.168172      -0.0818057      0.000208214     0.000511355         0.741932       -0.635757
                        0.899345       -0.372256      0.000119343     0.000704015        0.0394999        0.201459     -0.000143957    -0.000240198
                     0.000400685     0.000430327          0.74202       -0.636219     -0.000187517    -0.000188211        -0.105599        0.146647
281728                  0.116691        0.171058      -0.00015481    -0.000141941          0.89982       -0.372255      0.000469582     0.000366038
                    -0.000140329    -0.000131715         0.168159      -0.0817638      0.000208429      0.00051153         0.741729       -0.636004
                        0.899217       -0.372549      0.000120108     0.000704021         0.039641        0.201463     -0.000144259     -0.00024005
                     0.000400749     0.000430284         0.741818       -0.636466     -0.000187778      -0.0001882         -0.10546        0.146711
281730                  0.116707        0.171086     -0.000155274    -0.000142039         0.899691       -0.372548      0.000469787     0.000365947
                    -0.000140301    -0.000131833         0.168145      -0.0817219      0.000208645     0.000511705         0.741526       -0.636251
                         0.89909       -0.372842      0.000120873     0.000704022        0.0397822        0.201467     -0.000144561    -0.000239901
                     0.000400812     0.000430241         0.741616       -0.636712     -0.000188039    -0.000188189         -0.10532        0.146775
281732                  0.116723        0.171114     -0.000155738    -0.000142133         0.899562        -0.37284      0.000469992     0.000365856
                    -0.000140273     -0.00013195         0.168132        -0.08168      0.000208861     0.000511881         0.741323       -0.636497
                        0.898962       -0.373135      0.000121638     0.000704019        0.0399234        0.201471     -0.000144863    -0.000239752
                     0.000400876     0.000430196         0.741413       -0.636959       -0.0001883    -0.000188178         -0.10518        0.146839
281734                   0.11674        0.171142     -0.000156203    -0.000142223         0.899433       -0.373132      0.000470197     0.000365765
                    -0.000140245    -0.000132066         0.168118      -0.0816381      0.000209077     0.000512057          0.74112       -0.636743
                        0.898835       -0.373428      0.000122403     0.000704012        0.0400646        0.201475     -0.000145164    -0.000239603
                      0.00040094      0.00043015         0.741211       -0.637205     -0.000188562    -0.000188167         -0.10504        0.146903
281736                  0.116756        0.171169     -0.000156668     -0.00014231         0.899304       -0.373425      0.000470402     0.000365674
                    -0.000140217    -0.000132181         0.168105      -0.0815963      0.000209294     0.000512233         0.740917        -0.63699
                        0.898707       -0.373721      0.000123169     0.000704001        0.0402059        0.201479     -0.000145466    -0.000239454
                     0.000401004     0.000430104         0.741008       -0.637452     -0.000188823    -0.000188156          -0.1049        0.146967
281738                  0.116772        0.171197     -0.000157133    -0.000142393         0.899175       -0.373717      0.000470607     0.000365582
                    -0.000140189    -0.000132294         0.168091      -0.0815545       0.00020951      0.00051241         0.740714       -0.637236
                        0.898579       -0.374014      0.000123935     0.000703986        0.0403472        0.201482     -0.000145767    -0.000239305
                     0.000401068     0.000430056         0.740805       -0.637698     -0.000189085    -0.000188144         -0.10476         0.14703
281740                  0.116788        0.171225     -0.000157599    -0.000142472         0.899046       -0.374009      0.000470812     0.000365491
                     -0.00014016    -0.000132407         0.168078      -0.0815127      0.000209727     0.000512587         0.740511       -0.637482
                        0.898451       -0.374306      0.000124701     0.000703967        0.0404885        0.201486     -0.000146069    -0.000239155
                     0.000401133     0.000430006         0.740603       -0.637944     -0.000189347    -0.000188133         -0.10462        0.147094
281742                  0.116804        0.171253     -0.000158065    -0.000142548         0.898916       -0.374302      0.000471017     0.000365399
                    -0.000140132    -0.000132518         0.168065      -0.0814709      0.000209944     0.000512764         0.740308       -0.637729
                        0.898323       -0.374599      0.000125467     0.000703944        0.0406299        0.201489      -0.00014637    -0.000239006
                     0.000401198     0.000429956           0.7404        -0.63819     -0.000189609    -0.000188122         -0.10448        0.147158
281744                   0.11682        0.171281     -0.000158531     -0.00014262         0.898787       -0.374594      0.000471222     0.000365308
                    -0.000140103    -0.000132628         0.168051      -0.0814291      0.000210161     0.000512941         0.740104       -0.637975
                        0.898195       -0.374892      0.000126233     0.000703916        0.0407713        0.201493     -0.000146671    -0.000238857
                     0.000401264     0.000429903         0.740197       -0.638436     -0.000189871     -0.00018811         -0.10434        0.147221
281746                  0.116836        0.171308     -0.000158997    -0.000142688         0.898657       -0.374886      0.000471428     0.000365217
                    -0.000140075    -0.000132737         0.168038      -0.0813873      0.000210378     0.000513119         0.739901       -0.638221
                        0.898067       -0.375185      0.000126999     0.000703885        0.0409127        0.201496     -0.000146972    -0.000238708
                      0.00040133     0.000429849         0.739994       -0.638682     -0.000190133    -0.000188099          -0.1042        0.147284
281748                  0.116852        0.171336     -0.000159464    -0.000142753         0.898528       -0.375178      0.000471633     0.000365125
                    -0.000140046    -0.000132843         0.168025      -0.0813455      0.000210595     0.000513297         0.739697       -0.638468
                        0.897939       -0.375478      0.000127765      0.00070385        0.0410542        0.201499     -0.000147273    -0.000238559
                     0.000401396     0.000429793         0.739791       -0.638928     -0.000190395    -0.000188087        -0.104059        0.147348
281750                  0.116868        0.171364      -0.00015993    -0.000142814         0.898398       -0.375471      0.000471838     0.000365034
                    -0.000140017    -0.000132948         0.168011      -0.0813038      0.000210812     0.000513476         0.739494       -0.638715
                        0.897811       -0.375771      0.000128531      0.00070381        0.0411957        0.201502     -0.000147575     -0.00023841
                     0.000401463     0.000429735         0.739588       -0.639174     -0.000190658    -0.000188075        -0.103919        0.147411
281752                  0.116884        0.171392     -0.000160397    -0.000142871         0.898268       -0.375763      0.000472044     0.000364942
                    -0.000139988    -0.000133052         0.167998      -0.0812621       0.00021103     0.000513654          0.73929       -0.638961
                        0.897682       -0.376064      0.000129297     0.000703767        0.0413373        0.201505     -0.000147876    -0.000238262
                      0.00040153     0.000429675         0.739385        -0.63942      -0.00019092    -0.000188063        -0.103779        0.147474
281754                    0.1169         0.17142     -0.000160863    -0.000142925         0.898138       -0.376055      0.000472249     0.000364851
                    -0.000139959    -0.000133153         0.167985      -0.0812204      0.000211247     0.000513833         0.739085       -0.639208
                        0.897554       -0.376357      0.000130063     0.000703719        0.0414788        0.201508     -0.000148177    -0.000238114
                     0.000401598     0.000429613         0.739181       -0.639665     -0.000191183    -0.000188051        -0.103639        0.147537
281756                  0.116916        0.171448      -0.00016133    -0.000142974         0.898008       -0.376347      0.000472455     0.000364759
                     -0.00013993    -0.000133252         0.167971      -0.0811787      0.000211465     0.000514013         0.738881       -0.639455
                        0.897425        -0.37665      0.000130829     0.000703668        0.0416205        0.201511     -0.000148478    -0.000237967
                     0.000401666     0.000429548         0.738978       -0.639911     -0.000191445     -0.00018804        -0.103498        0.147599
281758                  0.116932        0.171476     -0.000161796    -0.000143021         0.897877       -0.376639       0.00047266     0.000364668
                      -0.0001399    -0.000133349         0.167958       -0.081137      0.000211683     0.000514192         0.738676       -0.639702
                        0.897297       -0.376943      0.000131595     0.000703613        0.0417621        0.201514      -0.00014878     -0.00023782
                     0.000401735      0.00042948         0.738775       -0.640156     -0.000191708    -0.000188028        -0.103358        0.147662
281760                  0.116949        0.171504     -0.000162263    -0.000143063         0.897747       -0.376931      0.000472866     0.000364576
                    -0.000139871    -0.000133443         0.167945      -0.0810953      0.000211901     0.000514372         0.738471       -0.639949
                        0.897168       -0.377236       0.00013236     0.000703553        0.0419038        0.201517     -0.000149082    -0.000237674
                     0.000401804      0.00042941         0.738571       -0.640402     -0.000191971    -0.000188015        -0.103218        0.147725
281762                  0.116965        0.171532     -0.000162729    -0.000143102         0.897617       -0.377223      0.000473072     0.000364485
                    -0.000139842    -0.000133535         0.167932      -0.0810537       0.00021212     0.000514553         0.738265       -0.640196
                        0.897039       -0.377529      0.000133125      0.00070349        0.0420455        0.201519     -0.000149383    -0.000237529
