! TOUCHSTONE file generated by CST MICROWAVE STUDIO
! Date and time: Wed Oct 15 17:30:13 2025
! Project name: Teste_Macro_Metasurface_Nanopilar.cst
! Parameters = {H=600; L_x=110; L_y=155; Lambda=1064; Max_L=200; Min_L=70; PathPara=1; Phi=0; Step_L=10; Theta=0; p=520; phaseX=180; phaseY=0}
! Header version: 2018
! Port assignment regex: !\s*Touchstone port\s*([0-9]+)\s*=\s*(CST MWS port|CST DS port)\s*([0-9]+|Zmin|Zmax)\s*\(\"(.*)\"\)(\s*mode\s*([0-9]+))?.*
! Touchstone port assignment:
! Touchstone port 1 = CST MWS port Zmax ("") mode 1
! Touchstone port 2 = CST MWS port Zmax ("") mode 2
! Touchstone port 3 = CST MWS port Zmin ("") mode 1
! Touchstone port 4 = CST MWS port Zmin ("") mode 2
! S-Parameters are not renormalized. Each port impedance will be approximated by the real part at minimum frequency. The values are described via the [Reference] keyword.
! Default impedance is overridden by [Reference]
[Version] 2.0
# GHz S RI R 376.73
[Number of Ports] 4
[Reference]
376.73 376.73 259.888 259.888 
[Number of Frequencies] 51
[Network Data]
281700                   0.11365        0.208436     -0.000294914     0.000314763         0.889534       -0.378372     -2.92578e-05    -0.000216447
                    -0.000264705     0.000216298         0.128059      -0.0285025      0.000171986    -9.78405e-05       -0.0182112        0.982233
                        0.889497       -0.378721      0.000254243    -0.000100163        0.0729264        0.224381     -9.04009e-05     0.000359787
                    -7.54596e-05    -0.000244036       -0.0190011        0.982269     -7.57891e-05     0.000242317         0.124709       0.0345033
281702                  0.113674        0.208464     -0.000294891     0.000314798         0.889399       -0.378667     -2.92698e-05    -0.000216534
                    -0.000264585     0.000216445         0.128038      -0.0285074      0.000171857     -9.8108e-05       -0.0178157        0.982243
                        0.889362       -0.379014      0.000254311    -0.000100488        0.0730805        0.224369     -9.03273e-05     0.000359842
                    -7.54759e-05    -0.000244068       -0.0186048        0.982279     -7.62213e-05     0.000242475         0.124715        0.034407
281704                  0.113698        0.208492     -0.000294866     0.000314832         0.889263       -0.378962     -2.92822e-05     -0.00021662
                    -0.000264465     0.000216592         0.128016      -0.0285123      0.000171723    -9.83825e-05       -0.0174202        0.982253
                        0.889227       -0.379307      0.000254378    -0.000100812        0.0732345        0.224355     -9.02536e-05     0.000359897
                    -7.54925e-05    -0.000244101       -0.0182085        0.982288     -7.66629e-05     0.000242636          0.12472       0.0343107
281706                  0.113722        0.208519     -0.000294839     0.000314865         0.889128       -0.379256     -2.92951e-05    -0.000216706
                    -0.000264345     0.000216738         0.127995      -0.0285172      0.000171585    -9.86643e-05       -0.0170247        0.982262
                        0.889092       -0.379599      0.000254443    -0.000101136        0.0733886        0.224342     -9.01798e-05     0.000359952
                    -7.55096e-05    -0.000244134       -0.0178122        0.982297      -7.7114e-05     0.000242801         0.124726       0.0342144
281708                  0.113745        0.208547     -0.000294809     0.000314898         0.888992       -0.379551     -2.93082e-05    -0.000216793
                    -0.000264224     0.000216885         0.127973      -0.0285221      0.000171442    -9.89537e-05       -0.0166292        0.982272
                        0.888957       -0.379892      0.000254508    -0.000101459        0.0735427        0.224329     -9.01059e-05     0.000360007
                     -7.5527e-05    -0.000244167       -0.0174159        0.982306     -7.75751e-05      0.00024297         0.124731       0.0341182
281710                  0.113769        0.208575     -0.000294777      0.00031493         0.888857       -0.379845     -2.93217e-05    -0.000216879
                    -0.000264104     0.000217033         0.127952       -0.028527      0.000171295    -9.92511e-05       -0.0162336        0.982281
                        0.888822       -0.380185      0.000254572    -0.000101783        0.0736968        0.224316     -9.00317e-05     0.000360062
                    -7.55449e-05      -0.0002442       -0.0170196        0.982315     -7.80464e-05     0.000243142         0.124736       0.0340219
281712                  0.113793        0.208603     -0.000294743     0.000314962         0.888721        -0.38014     -2.93354e-05    -0.000216965
                    -0.000263983      0.00021718          0.12793      -0.0285319      0.000171143    -9.95568e-05       -0.0158381         0.98229
                        0.888686       -0.380478      0.000254634    -0.000102106        0.0738509        0.224302     -8.99574e-05     0.000360116
                    -7.55632e-05    -0.000244232       -0.0166232        0.982323     -7.85281e-05     0.000243319         0.124741       0.0339256
281714                  0.113817        0.208631     -0.000294706     0.000314993         0.888585       -0.380434     -2.93493e-05    -0.000217052
                    -0.000263863     0.000217327         0.127908      -0.0285368      0.000170985    -9.98711e-05       -0.0154426        0.982299
                        0.888551       -0.380771      0.000254695    -0.000102428         0.074005        0.224289     -8.98829e-05     0.000360171
                     -7.5582e-05    -0.000244265       -0.0162269        0.982332     -7.90207e-05     0.000243499         0.124747       0.0338294
281716                  0.113841        0.208659     -0.000294667     0.000315024         0.888449       -0.380729     -2.93634e-05    -0.000217139
                    -0.000263743     0.000217474         0.127887      -0.0285417      0.000170822    -0.000100194        -0.015047        0.982308
                        0.888415       -0.381063      0.000254754     -0.00010275        0.0741592        0.224275     -8.98082e-05     0.000360225
                    -7.56011e-05    -0.000244298       -0.0158305         0.98234     -7.95244e-05     0.000243683         0.124752       0.0337331
281718                  0.113865        0.208687     -0.000294626     0.000315055         0.888313       -0.381023     -2.93776e-05    -0.000217225
                    -0.000263622     0.000217622         0.127865      -0.0285466      0.000170652    -0.000100527       -0.0146515        0.982317
                        0.888279       -0.381356      0.000254813    -0.000103072        0.0743134        0.224262     -8.97333e-05     0.000360279
                    -7.56207e-05    -0.000244332       -0.0154341        0.982348     -8.00395e-05     0.000243871         0.124757       0.0336369
281720                  0.113889        0.208715     -0.000294583     0.000315086         0.888176       -0.381318      -2.9392e-05    -0.000217312
                    -0.000263502      0.00021777         0.127843      -0.0285514      0.000170477    -0.000100869        -0.014256        0.982325
                        0.888144       -0.381649       0.00025487    -0.000103393        0.0744676        0.224248     -8.96582e-05     0.000360333
                    -7.56407e-05    -0.000244365       -0.0150378        0.982356     -8.05665e-05     0.000244063         0.124762       0.0335406
281722                  0.113913        0.208742     -0.000294537     0.000315116          0.88804       -0.381612     -2.94065e-05    -0.000217399
                    -0.000263381     0.000217917         0.127822      -0.0285563      0.000170294    -0.000101222       -0.0138604        0.982334
                        0.888008       -0.381941      0.000254925    -0.000103714        0.0746218        0.224234     -8.95828e-05     0.000360387
                    -7.56611e-05    -0.000244398       -0.0146414        0.982364     -8.11056e-05     0.000244259         0.124766       0.0334444
281724                  0.113937         0.20877     -0.000294489     0.000315146         0.887903       -0.381906     -2.94211e-05    -0.000217486
                    -0.000263261     0.000218065           0.1278      -0.0285611      0.000170105    -0.000101585       -0.0134649        0.982342
                        0.887871       -0.382234      0.000254979    -0.000104035         0.074776         0.22422     -8.95073e-05     0.000360441
                    -7.56819e-05    -0.000244431       -0.0142449        0.982372     -8.16573e-05     0.000244459         0.124771       0.0333481
281726                  0.113961        0.208798     -0.000294439     0.000315176         0.887766       -0.382201     -2.94358e-05    -0.000217574
                     -0.00026314     0.000218213         0.127779      -0.0285659      0.000169909    -0.000101959       -0.0130693         0.98235
                        0.887735       -0.382526      0.000255031    -0.000104355        0.0749303        0.224206     -8.94315e-05     0.000360495
                    -7.57032e-05    -0.000244464       -0.0138485        0.982379      -8.2222e-05     0.000244663         0.124776       0.0332519
281728                  0.113985        0.208826     -0.000294386     0.000315206         0.887629       -0.382495     -2.94506e-05    -0.000217661
                     -0.00026302     0.000218361         0.127757      -0.0285708      0.000169705    -0.000102345       -0.0126738        0.982358
                        0.887599       -0.382819      0.000255081    -0.000104674        0.0750846        0.224192     -8.93555e-05     0.000360549
                    -7.57249e-05    -0.000244497       -0.0134521        0.982387     -8.27999e-05     0.000244871          0.12478       0.0331557
281730                  0.114009        0.208854     -0.000294331     0.000315236         0.887492       -0.382789     -2.94654e-05    -0.000217748
                    -0.000262899     0.000218509         0.127735      -0.0285756      0.000169492    -0.000102742       -0.0122782        0.982366
                        0.887463       -0.383111       0.00025513    -0.000104993        0.0752389        0.224178     -8.92792e-05     0.000360603
                    -7.57471e-05     -0.00024453       -0.0130556        0.982394     -8.33917e-05     0.000245083         0.124785       0.0330595
281732                  0.114033        0.208882     -0.000294274     0.000315266         0.887354       -0.383084     -2.94804e-05    -0.000217836
                    -0.000262779     0.000218657         0.127714      -0.0285804      0.000169272    -0.000103152       -0.0118826        0.982373
                        0.887326       -0.383404      0.000255178    -0.000105311        0.0753932        0.224163     -8.92028e-05     0.000360657
                    -7.57698e-05    -0.000244563       -0.0126592        0.982401     -8.39977e-05     0.000245298         0.124789       0.0329633
281734                  0.114056         0.20891     -0.000294215     0.000315296         0.887217       -0.383378     -2.94953e-05    -0.000217924
                    -0.000262658     0.000218805         0.127692      -0.0285852      0.000169042    -0.000103575       -0.0114871        0.982381
                        0.887189       -0.383696      0.000255223    -0.000105629        0.0755475        0.224149     -8.91261e-05     0.000360711
                    -7.57933e-05    -0.000244595       -0.0122627        0.982408     -8.46183e-05     0.000245518         0.124794       0.0328671
281736                   0.11408        0.208938     -0.000294153     0.000315326         0.887079       -0.383672     -2.95104e-05    -0.000218011
                    -0.000262537     0.000218953         0.127671        -0.02859      0.000168803    -0.000104011       -0.0110915        0.982388
                        0.887053       -0.383988      0.000255267    -0.000105947        0.0757018        0.224134     -8.90492e-05     0.000360765
                    -7.58185e-05    -0.000244626       -0.0118662        0.982415     -8.52541e-05     0.000245742         0.124798       0.0327709
281738                  0.114104        0.208966     -0.000294089     0.000315356         0.886941       -0.383966     -2.95255e-05    -0.000218099
                    -0.000262417     0.000219102         0.127649      -0.0285948      0.000168554    -0.000104462        -0.010696        0.982395
                        0.886916        -0.38428      0.000255308    -0.000106264        0.0758562         0.22412     -8.89721e-05     0.000360819
                    -7.58502e-05    -0.000244656       -0.0114698        0.982421     -8.59054e-05     0.000245969         0.124802       0.0326747
281740                  0.114128        0.208994     -0.000294023     0.000315387         0.886803       -0.384261     -2.95406e-05    -0.000218187
                    -0.000262296      0.00021925         0.127627      -0.0285996      0.000168294    -0.000104926       -0.0103004        0.982402
                        0.886779       -0.384572      0.000255348     -0.00010658        0.0760106        0.224105     -8.88947e-05     0.000360874
                    -7.58857e-05    -0.000244705       -0.0110733        0.982428      -8.6573e-05       0.0002462         0.124806       0.0325785
281742                  0.114152        0.209022     -0.000293954     0.000315418         0.886665       -0.384555     -2.95559e-05    -0.000218275
                    -0.000262176     0.000219398         0.127606      -0.0286044      0.000168024    -0.000105406      -0.00990482        0.982409
                        0.886642       -0.384864      0.000255386    -0.000106896         0.076165         0.22409     -8.88172e-05     0.000360928
                    -7.58986e-05    -0.000244747       -0.0106768        0.982434     -8.72572e-05     0.000246435          0.12481       0.0324823
281744                  0.114176         0.20905     -0.000293883     0.000315449         0.886527       -0.384849     -2.95711e-05    -0.000218363
                    -0.000262055     0.000219547         0.127584      -0.0286092      0.000167742    -0.000105902      -0.00950925        0.982415
                        0.886505       -0.385157      0.000255422    -0.000107212        0.0763194        0.224075     -8.87395e-05     0.000360982
                    -7.59187e-05    -0.000244779       -0.0102802         0.98244     -8.79586e-05     0.000246674         0.124814       0.0323861
281746                    0.1142        0.209078      -0.00029381     0.000315481         0.886388       -0.385143     -2.95864e-05    -0.000218452
                    -0.000261934     0.000219695         0.127562      -0.0286139      0.000167449    -0.000106413      -0.00911367        0.982422
                        0.886368       -0.385449      0.000255456    -0.000107526        0.0764738         0.22406     -8.86616e-05     0.000361036
                    -7.59424e-05    -0.000244812      -0.00988371        0.982446     -8.86778e-05     0.000246916         0.124818       0.0322899
281748                  0.114224        0.209106     -0.000293735     0.000315513          0.88625       -0.385437     -2.96018e-05     -0.00021854
                    -0.000261814     0.000219844         0.127541      -0.0286187      0.000167142    -0.000106942       -0.0087181        0.982428
                         0.88623       -0.385741      0.000255487    -0.000107841        0.0766283        0.224045     -8.85836e-05     0.000361091
                    -7.59675e-05    -0.000244846      -0.00948718        0.982452     -8.94154e-05     0.000247162         0.124822       0.0321938
281750                  0.114248        0.209134     -0.000293657     0.000315545         0.886111       -0.385731     -2.96172e-05    -0.000218628
                    -0.000261693     0.000219993         0.127519      -0.0286234      0.000166823    -0.000107488      -0.00832252        0.982434
                        0.886093       -0.386033      0.000255517    -0.000108155        0.0767828         0.22403     -8.85054e-05     0.000361145
                    -7.59933e-05     -0.00024488      -0.00909064        0.982458     -9.01721e-05     0.000247411         0.124826       0.0320976
281752                  0.114273        0.209162     -0.000293577     0.000315578         0.885972       -0.386025     -2.96326e-05    -0.000218717
                    -0.000261572     0.000220141         0.127498      -0.0286282      0.000166489    -0.000108053      -0.00792694         0.98244
                        0.885955       -0.386324      0.000255544    -0.000108468        0.0769372        0.224014      -8.8427e-05       0.0003612
                    -7.60198e-05    -0.000244914      -0.00869408        0.982463     -9.09484e-05     0.000247664          0.12483       0.0320015
281754                  0.114297         0.20919     -0.000293495     0.000315611         0.885833       -0.386319     -2.96481e-05    -0.000218805
                    -0.000261452      0.00022029         0.127476      -0.0286329      0.000166141    -0.000108637      -0.00753136        0.982446
                        0.885818       -0.386616      0.000255569    -0.000108781        0.0770917        0.223999     -8.83484e-05     0.000361255
                    -7.60468e-05    -0.000244949      -0.00829752        0.982469     -9.17451e-05      0.00024792         0.124833       0.0319053
281756                  0.114321        0.209218     -0.000293411     0.000315645         0.885693       -0.386613     -2.96637e-05    -0.000218894
                    -0.000261331     0.000220439         0.127454      -0.0286376      0.000165777     -0.00010924      -0.00713578        0.982452
                         0.88568       -0.386908      0.000255592    -0.000109093        0.0772463        0.223983     -8.82697e-05      0.00036131
                    -7.60743e-05    -0.000244983      -0.00790095        0.982474     -9.25628e-05     0.000248179         0.124837       0.0318092
281758                  0.114345        0.209246     -0.000293325      0.00031568         0.885554       -0.386907     -2.96793e-05    -0.000218983
                     -0.00026121     0.000220588         0.127433      -0.0286423      0.000165398    -0.000109864       -0.0067402        0.982457
                        0.885542         -0.3872      0.000255613    -0.000109405        0.0774008        0.223968     -8.81908e-05     0.000361365
                    -7.61023e-05    -0.000245018      -0.00750437        0.982479     -9.34023e-05     0.000248442          0.12484       0.0317131
281760                  0.114369        0.209275     -0.000293236     0.000315715         0.885414       -0.387201     -2.96949e-05    -0.000219072
                     -0.00026109     0.000220737         0.127411       -0.028647      0.000165001     -0.00011051      -0.00634461        0.982462
                        0.885404       -0.387492      0.000255631    -0.000109716        0.0775553        0.223952     -8.81118e-05      0.00036142
                    -7.61307e-05    -0.000245054      -0.00710778        0.982484     -9.42644e-05     0.000248707         0.124844       0.0316169
281762                  0.114393        0.209303     -0.000293145      0.00031575         0.885274       -0.387495     -2.97107e-05    -0.000219161
                    -0.000260969     0.000220886         0.127389      -0.0286517      0.000164587    -0.000111177      -0.00594903        0.982468
                        0.885266       -0.387783      0.000255647    -0.000110026        0.0777099        0.223936     -8.80327e-05     0.000361475
