! TOUCHSTONE file generated by CST MICROWAVE STUDIO
! Date and time: Wed Oct 15 17:31:29 2025
! Project name: Teste_Macro_Metasurface_Nanopilar.cst
! Parameters = {H=600; L_x=135; L_y=75; Lambda=1064; Max_L=200; Min_L=70; PathPara=1; Phi=0; Step_L=10; Theta=0; p=520; phaseX=180; phaseY=0}
! Header version: 2018
! Port assignment regex: !\s*Touchstone port\s*([0-9]+)\s*=\s*(CST MWS port|CST DS port)\s*([0-9]+|Zmin|Zmax)\s*\(\"(.*)\"\)(\s*mode\s*([0-9]+))?.*
! Touchstone port assignment:
! Touchstone port 1 = CST MWS port Zmax ("") mode 1
! Touchstone port 2 = CST MWS port Zmax ("") mode 2
! Touchstone port 3 = CST MWS port Zmin ("") mode 1
! Touchstone port 4 = CST MWS port Zmin ("") mode 2
! S-Parameters are not renormalized. Each port impedance will be approximated by the real part at minimum frequency. The values are described via the [Reference] keyword.
! Default impedance is overridden by [Reference]
[Version] 2.0
# GHz S RI R 376.73
[Number of Ports] 4
[Reference]
376.73 376.73 259.888 259.888 
[Number of Frequencies] 51
[Network Data]
281700                 0.0141488        -0.10294      0.000484944       0.0002875       -0.0633649       -0.992001      0.000122661    -0.000196634
                     0.000441791     0.000182856         0.188671       -0.053843      0.000105118     -9.1144e-05        -0.917951        0.323513
                      -0.0635324       -0.991989      0.000115027    -0.000128131        0.0270422        0.100427     -0.000364968    -0.000329406
                     0.000135201    -0.000106471        -0.918054        0.323569     -0.000350599    -0.000340011        -0.180183       0.0766087
281702                 0.0141364       -0.102937      0.000485022     0.000287428        -0.063607       -0.991986      0.000122601    -0.000196724
                     0.000441861     0.000182791         0.188665      -0.0538708       0.00010511    -9.11782e-05        -0.917832        0.323848
                      -0.0637745       -0.991974      0.000115031    -0.000128184        0.0270785        0.100412     -0.000365104    -0.000329282
                     0.000135236    -0.000106567        -0.917935        0.323904     -0.000350763     -0.00033989         -0.18014       0.0767151
281704                 0.0141239       -0.102934      0.000485101     0.000287357       -0.0638492       -0.991971      0.000122541    -0.000196813
                     0.000441931     0.000182727          0.18866      -0.0538987      0.000105102    -9.12125e-05        -0.917712        0.324183
                      -0.0640166       -0.991959      0.000115036    -0.000128237        0.0271147        0.100398      -0.00036524    -0.000329158
                     0.000135272    -0.000106664        -0.917816        0.324239     -0.000350926    -0.000339769        -0.180098       0.0768214
281706                 0.0141114       -0.102932       0.00048518     0.000287286       -0.0640913       -0.991956      0.000122481    -0.000196903
                     0.000442002     0.000182662         0.188655      -0.0539265      0.000105095    -9.12467e-05        -0.917593        0.324518
                      -0.0642587       -0.991944       0.00011504     -0.00012829         0.027151        0.100384     -0.000365377    -0.000329035
                     0.000135308     -0.00010676        -0.917696        0.324574     -0.000351089    -0.000339648        -0.180055       0.0769278
281708                  0.014099       -0.102929      0.000485258     0.000287215       -0.0643335       -0.991941      0.000122421    -0.000196993
                     0.000442072     0.000182597         0.188649      -0.0539543      0.000105087    -9.12809e-05        -0.917473        0.324853
                      -0.0645008       -0.991928      0.000115044    -0.000128343        0.0271873         0.10037     -0.000365513     -0.00032891
                     0.000135343    -0.000106857        -0.917576        0.324909     -0.000351252    -0.000339526        -0.180013       0.0770341
281710                 0.0140865       -0.102926      0.000485337     0.000287143       -0.0645756       -0.991926       0.00012236    -0.000197083
                     0.000442142     0.000182532         0.188644      -0.0539822      0.000105079     -9.1315e-05        -0.917353        0.325187
                       -0.064743       -0.991913      0.000115049    -0.000128396        0.0272235        0.100355     -0.000365649    -0.000328786
                     0.000135379    -0.000106953        -0.917457        0.325244     -0.000351415    -0.000339405         -0.17997       0.0771404
281712                  0.014074       -0.102924      0.000485415     0.000287072       -0.0648178        -0.99191        0.0001223    -0.000197173
                     0.000442212     0.000182467         0.188638      -0.0540101      0.000105071    -9.13491e-05        -0.917233        0.325522
                      -0.0649851       -0.991898      0.000115053    -0.000128449        0.0272598        0.100341     -0.000365785    -0.000328662
                     0.000135414    -0.000107049        -0.917337        0.325579     -0.000351578    -0.000339283        -0.179927       0.0772467
281714                 0.0140616       -0.102921      0.000485494        0.000287       -0.0650599       -0.991895       0.00012224    -0.000197263
                     0.000442283     0.000182402         0.188633      -0.0540379      0.000105064    -9.13832e-05        -0.917113        0.325857
                      -0.0652272       -0.991882      0.000115058    -0.000128502         0.027296        0.100327     -0.000365921    -0.000328538
                      0.00013545    -0.000107145        -0.917217        0.325914     -0.000351742    -0.000339161        -0.179884       0.0773529
281716                 0.0140491       -0.102918      0.000485572     0.000286928       -0.0653021       -0.991879      0.000122179    -0.000197352
                     0.000442353     0.000182337         0.188627      -0.0540658      0.000105056    -9.14171e-05        -0.916993        0.326192
                      -0.0654693       -0.991867      0.000115063    -0.000128555        0.0273322        0.100312     -0.000366057    -0.000328413
                     0.000135485    -0.000107241        -0.917096        0.326249     -0.000351905    -0.000339039        -0.179841       0.0774591
281718                 0.0140366       -0.102916      0.000485651     0.000286856       -0.0655442       -0.991864      0.000122118    -0.000197442
                     0.000442423     0.000182272         0.188622      -0.0540936      0.000105048     -9.1451e-05        -0.916873        0.326527
                      -0.0657114       -0.991851      0.000115068    -0.000128609        0.0273685        0.100298     -0.000366192    -0.000328289
                      0.00013552    -0.000107337        -0.916976        0.326584     -0.000352068    -0.000338916        -0.179798       0.0775653
281720                 0.0140242       -0.102913      0.000485729     0.000286783       -0.0657864       -0.991848      0.000122058    -0.000197532
                     0.000442494     0.000182206         0.188616      -0.0541215       0.00010504    -9.14847e-05        -0.916752        0.326861
                      -0.0659535       -0.991836      0.000115074    -0.000128663        0.0274047        0.100283     -0.000366328    -0.000328164
                     0.000135556    -0.000107433        -0.916856        0.326918     -0.000352231    -0.000338794        -0.179755       0.0776715
281722                 0.0140117        -0.10291      0.000485808     0.000286711       -0.0660285       -0.991832      0.000121997    -0.000197621
                     0.000442564      0.00018214         0.188611      -0.0541494      0.000105031    -9.15183e-05        -0.916632        0.327196
                      -0.0661955        -0.99182      0.000115078    -0.000128718        0.0274409        0.100269     -0.000366464    -0.000328039
                     0.000135591    -0.000107528        -0.916735        0.327253     -0.000352394    -0.000338671        -0.179712       0.0777776
281724                 0.0139992       -0.102908      0.000485888     0.000286638       -0.0662707       -0.991817      0.000121936    -0.000197711
                     0.000442634     0.000182075         0.188605      -0.0541772      0.000105023    -9.15518e-05        -0.916511        0.327531
                      -0.0664376       -0.991804      0.000115082    -0.000128774        0.0274771        0.100255     -0.000366599    -0.000327914
                     0.000135626    -0.000107624        -0.916614        0.327588     -0.000352557    -0.000338549        -0.179668       0.0778837
281726                 0.0139868       -0.102905      0.000485967     0.000286566       -0.0665128       -0.991801      0.000121875    -0.000197801
                     0.000442705     0.000182009           0.1886      -0.0542051      0.000105013    -9.15854e-05        -0.916391        0.327865
                      -0.0666797       -0.991789      0.000115084    -0.000128829        0.0275133         0.10024     -0.000366735    -0.000327789
                     0.000135661    -0.000107719        -0.916494        0.327923      -0.00035272    -0.000338426        -0.179625       0.0779898
281728                 0.0139743       -0.102902      0.000486047     0.000286494       -0.0667549       -0.991785      0.000121814     -0.00019789
                     0.000442775     0.000181943         0.188594       -0.054233      0.000105003    -9.16194e-05         -0.91627          0.3282
                      -0.0669218       -0.991773      0.000115087    -0.000128883        0.0275495        0.100226      -0.00036687    -0.000327664
                     0.000135696    -0.000107814        -0.916373        0.328257     -0.000352883    -0.000338303        -0.179582       0.0780959
281730                 0.0139618       -0.102899      0.000486127     0.000286422       -0.0669971       -0.991769      0.000121753     -0.00019798
                     0.000442846     0.000181876         0.188588      -0.0542608      0.000104993    -9.16542e-05        -0.916149        0.328535
                      -0.0671639       -0.991757      0.000115089    -0.000128936        0.0275857        0.100211     -0.000367005    -0.000327539
                     0.000135731    -0.000107909        -0.916252        0.328592     -0.000353046     -0.00033818        -0.179538       0.0782019
281732                 0.0139494       -0.102897      0.000486207      0.00028635       -0.0672392       -0.991753      0.000121692     -0.00019807
                     0.000442916      0.00018181         0.188583      -0.0542887      0.000104983    -9.16903e-05        -0.916027        0.328869
                      -0.0674059       -0.991741      0.000115092    -0.000128989        0.0276219        0.100197      -0.00036714    -0.000327414
                     0.000135766    -0.000108004         -0.91613        0.328927     -0.000353209    -0.000338057        -0.179495       0.0783079
281734                 0.0139369       -0.102894      0.000486286     0.000286279       -0.0674813       -0.991737      0.000121631    -0.000198159
                     0.000442987     0.000181744         0.188577      -0.0543166      0.000104973    -9.17273e-05        -0.915906        0.329203
                       -0.067648       -0.991725      0.000115096    -0.000129043         0.027658        0.100182     -0.000367276    -0.000327289
                     0.000135801    -0.000108099        -0.916009        0.329261     -0.000353372    -0.000337934        -0.179451       0.0784139
281736                 0.0139244       -0.102891      0.000486366     0.000286207       -0.0677234       -0.991721       0.00012157    -0.000198249
                     0.000443057     0.000181677         0.188572      -0.0543445      0.000104965    -9.17645e-05        -0.915785        0.329538
                      -0.0678901       -0.991709      0.000115099    -0.000129096        0.0276942        0.100168     -0.000367411    -0.000327163
                     0.000135835    -0.000108194        -0.915888        0.329596     -0.000353535    -0.000337811        -0.179407       0.0785199
281738                  0.013912       -0.102889      0.000486445     0.000286136       -0.0679656       -0.991705      0.000121509    -0.000198338
                     0.000443128      0.00018161         0.188566      -0.0543723      0.000104958    -9.18011e-05        -0.915663        0.329872
                      -0.0681322       -0.991693      0.000115102    -0.000129149        0.0277303        0.100154     -0.000367546    -0.000327038
                      0.00013587    -0.000108288        -0.915766         0.32993     -0.000353698    -0.000337687        -0.179364       0.0786258
281740                 0.0138995       -0.102886      0.000486524     0.000286064       -0.0682077       -0.991689      0.000121448    -0.000198428
                     0.000443198     0.000181544         0.188561      -0.0544002      0.000104951     -9.1837e-05        -0.915542        0.330207
                      -0.0683742       -0.991676      0.000115106    -0.000129203        0.0277665        0.100139     -0.000367681    -0.000326912
                     0.000135905    -0.000108383        -0.915645        0.330265      -0.00035386    -0.000337564         -0.17932       0.0787317
281742                  0.013887       -0.102883      0.000486603     0.000285993       -0.0684498       -0.991673      0.000121386    -0.000198517
                     0.000443269     0.000181477         0.188555      -0.0544281      0.000104944    -9.18724e-05         -0.91542        0.330541
                      -0.0686163        -0.99166      0.000115109    -0.000129256        0.0278026        0.100124     -0.000367815    -0.000326786
                     0.000135939    -0.000108477        -0.915523        0.330599     -0.000354023     -0.00033744        -0.179276       0.0788376
281744                 0.0138746       -0.102881      0.000486682     0.000285921       -0.0686919       -0.991656      0.000121325    -0.000198607
                     0.000443339      0.00018141         0.188549       -0.054456      0.000104937    -9.19074e-05        -0.915298        0.330875
                      -0.0688583       -0.991644      0.000115113     -0.00012931        0.0278388         0.10011      -0.00036795    -0.000326661
                     0.000135974    -0.000108572        -0.915401        0.330934     -0.000354186    -0.000337317        -0.179232       0.0789434
281746                 0.0138621       -0.102878      0.000486761      0.00028585        -0.068934        -0.99164      0.000121264    -0.000198696
                      0.00044341     0.000181342         0.188544      -0.0544839       0.00010493    -9.19422e-05        -0.915176         0.33121
                      -0.0691004       -0.991627      0.000115116    -0.000129363        0.0278749        0.100095     -0.000368085    -0.000326535
                     0.000136008    -0.000108666        -0.915279        0.331268     -0.000354348    -0.000337193        -0.179188       0.0790493
281748                 0.0138497       -0.102875       0.00048684     0.000285778       -0.0691761       -0.991624      0.000121202    -0.000198786
                     0.000443481     0.000181275         0.188538      -0.0545118      0.000104923    -9.19769e-05        -0.915054        0.331544
                      -0.0693424       -0.991611       0.00011512    -0.000129417         0.027911        0.100081     -0.000368219    -0.000326409
                     0.000136042     -0.00010876        -0.915157        0.331602     -0.000354511    -0.000337069        -0.179144       0.0791551
281750                 0.0138372       -0.102873      0.000486919     0.000285706       -0.0694182       -0.991607      0.000121141    -0.000198875
                     0.000443551     0.000181208         0.188532      -0.0545397      0.000104915    -9.20115e-05        -0.914931        0.331878
                      -0.0695845       -0.991594      0.000115123     -0.00012947        0.0279471        0.100066     -0.000368354    -0.000326283
                     0.000136077    -0.000108854        -0.915034        0.331937     -0.000354673    -0.000336945          -0.1791       0.0792608
281752                 0.0138247        -0.10287      0.000486997     0.000285635       -0.0696603       -0.991591      0.000121079    -0.000198964
                     0.000443622      0.00018114         0.188527      -0.0545676      0.000104908    -9.20461e-05        -0.914809        0.332212
                      -0.0698265       -0.991578      0.000115127    -0.000129524        0.0279832        0.100052     -0.000368488    -0.000326157
                     0.000136111    -0.000108948        -0.914912        0.332271     -0.000354836    -0.000336821        -0.179056       0.0793666
281754                 0.0138123       -0.102867      0.000487076     0.000285563       -0.0699023       -0.991574      0.000121018    -0.000199054
                     0.000443693     0.000181072         0.188521      -0.0545955        0.0001049    -9.20807e-05        -0.914687        0.332546
                      -0.0700686       -0.991561       0.00011513    -0.000129578        0.0280193        0.100037     -0.000368623    -0.000326031
                     0.000136145    -0.000109042        -0.914789        0.332605     -0.000354998    -0.000336697        -0.179012       0.0794723
281756                 0.0137998       -0.102864      0.000487155     0.000285491       -0.0701444       -0.991557      0.000120956    -0.000199143
                     0.000443763     0.000181004         0.188515      -0.0546233      0.000104892    -9.21152e-05        -0.914564         0.33288
                      -0.0703106       -0.991545      0.000115134    -0.000129632        0.0280554        0.100023     -0.000368757    -0.000325904
                     0.000136179    -0.000109136        -0.914667        0.332939      -0.00035516    -0.000336573        -0.178967        0.079578
281758                 0.0137874       -0.102862      0.000487234     0.000285419       -0.0703865       -0.991541      0.000120894    -0.000199232
                     0.000443834     0.000180936          0.18851      -0.0546512      0.000104885    -9.21497e-05        -0.914441        0.333214
                      -0.0705526       -0.991528      0.000115137    -0.000129685        0.0280915        0.100008     -0.000368891    -0.000325778
                     0.000136213    -0.000109229        -0.914544        0.333273     -0.000355323    -0.000336448        -0.178923       0.0796837
281760                 0.0137749       -0.102859      0.000487312     0.000285347       -0.0706286       -0.991524      0.000120832    -0.000199322
                     0.000443905     0.000180868         0.188504      -0.0546792      0.000104877    -9.21843e-05        -0.914318        0.333548
                      -0.0707947       -0.991511      0.000115141    -0.000129739        0.0281276       0.0999933     -0.000369026    -0.000325652
                     0.000136247    -0.000109323        -0.914421        0.333607     -0.000355485    -0.000336324        -0.178879       0.0797893
281762                 0.0137624       -0.102856      0.000487391     0.000285275       -0.0708706       -0.991507      0.000120771    -0.000199411
                     0.000443975       0.0001808         0.188498      -0.0547071      0.000104869    -9.22188e-05        -0.914195        0.333882
                      -0.0710367       -0.991494      0.000115144    -0.000129793        0.0281636       0.0999786      -0.00036916    -0.000325525
