! TOUCHSTONE file generated by CST MICROWAVE STUDIO
! Date and time: Wed Oct 15 17:32:58 2025
! Project name: Teste_Macro_Metasurface_Nanopilar.cst
! Parameters = {H=600; L_x=160; L_y=95; Lambda=1064; Max_L=200; Min_L=70; PathPara=1; Phi=0; Step_L=10; Theta=0; p=520; phaseX=180; phaseY=0}
! Header version: 2018
! Port assignment regex: !\s*Touchstone port\s*([0-9]+)\s*=\s*(CST MWS port|CST DS port)\s*([0-9]+|Zmin|Zmax)\s*\(\"(.*)\"\)(\s*mode\s*([0-9]+))?.*
! Touchstone port assignment:
! Touchstone port 1 = CST MWS port Zmax ("") mode 1
! Touchstone port 2 = CST MWS port Zmax ("") mode 2
! Touchstone port 3 = CST MWS port Zmin ("") mode 1
! Touchstone port 4 = CST MWS port Zmin ("") mode 2
! S-Parameters are not renormalized. Each port impedance will be approximated by the real part at minimum frequency. The values are described via the [Reference] keyword.
! Default impedance is overridden by [Reference]
[Version] 2.0
# GHz S RI R 376.73
[Number of Ports] 4
[Reference]
376.73 376.73 259.888 259.888 
[Number of Frequencies] 51
[Network Data]
281700                 0.0275289        0.113391     -0.000187794    -0.000940962        -0.949644       -0.275646     -0.000198259     0.000516838
                    -0.000285329    -0.000940304        0.0730114        0.178911     -0.000271571    -0.000594422         0.966377       -0.134406
                       -0.949577       -0.275882     -0.000325562    -0.000554276       -0.0828673       0.0819175     -0.000107639     0.000926456
                    -0.000152387     0.000565808         0.966752       -0.134121     -0.000169398     0.000904259       -0.0201102        0.191603
281702                  0.027545        0.113407     -0.000187985    -0.000940999         -0.94973        -0.27534     -0.000198025     0.000516989
                    -0.000285477    -0.000940241        0.0730327         0.17893     -0.000271767    -0.000594377         0.966327       -0.134728
                       -0.949663       -0.275576     -0.000325736    -0.000554171       -0.0828365       0.0819753     -0.000107276     0.000926461
                    -0.000152162     0.000565887         0.966702       -0.134442     -0.000168928     0.000904318       -0.0199975         0.19164
281704                  0.027561        0.113422     -0.000188175    -0.000941035        -0.949815       -0.275034     -0.000197789     0.000517139
                    -0.000285625    -0.000940177        0.0730539        0.178949     -0.000271962    -0.000594333         0.966277        -0.13505
                       -0.949749        -0.27527      -0.00032591    -0.000554067       -0.0828056       0.0820331     -0.000106866     0.000926459
                    -0.000151937     0.000565966         0.966652       -0.134764     -0.000168458     0.000904376       -0.0198847        0.191677
281706                  0.027577        0.113438     -0.000188366    -0.000941071        -0.949901       -0.274728     -0.000197553     0.000517289
                    -0.000285773    -0.000940114        0.0730752        0.178967     -0.000272158     -0.00059429         0.966227       -0.135372
                       -0.949835       -0.274964     -0.000326084    -0.000553962       -0.0827747       0.0820909     -0.000106466     0.000926272
                    -0.000151712     0.000566044         0.966602       -0.135086     -0.000167989     0.000904434       -0.0197719        0.191714
281708                 0.0275931        0.113453     -0.000188558    -0.000941107        -0.949987       -0.274422     -0.000197317     0.000517438
                    -0.000285921     -0.00094005        0.0730965        0.178986     -0.000272354    -0.000594248         0.966178       -0.135694
                       -0.949921       -0.274658     -0.000326257    -0.000553858       -0.0827438       0.0821487     -0.000106282     0.000926258
                    -0.000151487     0.000566123         0.966552       -0.135408      -0.00016752     0.000904492       -0.0196591        0.191751
281710                 0.0276091        0.113468     -0.000188749    -0.000941143        -0.950072       -0.274116     -0.000197081     0.000517587
                    -0.000286069    -0.000939986        0.0731177        0.179005      -0.00027255    -0.000594207         0.966128       -0.136015
                       -0.950007       -0.274352      -0.00032643    -0.000553754       -0.0827128       0.0822065     -0.000105967     0.000926292
                    -0.000151261     0.000566201         0.966502       -0.135729     -0.000167052     0.000904549       -0.0195462        0.191788
281712                 0.0276252        0.113484     -0.000188941    -0.000941179        -0.950158        -0.27381     -0.000196844     0.000517734
                    -0.000286217    -0.000939922         0.073139        0.179024     -0.000272747    -0.000594167         0.966077       -0.136337
                       -0.950092       -0.274046     -0.000326603    -0.000553649       -0.0826817       0.0822643      -0.00010563     0.000926303
                    -0.000151036      0.00056628         0.966452       -0.136051     -0.000166583     0.000904606       -0.0194333        0.191824
281714                 0.0276412        0.113499     -0.000189134    -0.000941214        -0.950243       -0.273503     -0.000196607     0.000517882
                    -0.000286365    -0.000939858        0.0731603        0.179042     -0.000272944    -0.000594127         0.966027       -0.136659
                       -0.950178        -0.27374     -0.000326776    -0.000553545       -0.0826507       0.0823221     -0.000105289     0.000926303
                     -0.00015081     0.000566358         0.966401       -0.136373     -0.000166115     0.000904663       -0.0193204        0.191861
281716                 0.0276573        0.113515     -0.000189327     -0.00094125        -0.950329       -0.273197     -0.000196371     0.000518028
                    -0.000286512    -0.000939793        0.0731816        0.179061     -0.000273141    -0.000594087         0.965977        -0.13698
                       -0.950263       -0.273434     -0.000326948    -0.000553441       -0.0826196       0.0823798     -0.000104947     0.000926299
                    -0.000150585     0.000566436         0.966351       -0.136695     -0.000165648     0.000904719       -0.0192074        0.191898
281718                 0.0276734         0.11353      -0.00018952    -0.000941286        -0.950414       -0.272891     -0.000196134     0.000518174
                     -0.00028666    -0.000939729        0.0732028         0.17908     -0.000273338    -0.000594048         0.965926       -0.137302
                       -0.950349       -0.273128      -0.00032712    -0.000553337       -0.0825885       0.0824376     -0.000104605     0.000926292
                    -0.000150359     0.000566514           0.9663       -0.137016      -0.00016518     0.000904776       -0.0190944        0.191934
281720                 0.0276895        0.113546     -0.000189713    -0.000941321        -0.950499       -0.272585     -0.000195898      0.00051832
                    -0.000286808    -0.000939665        0.0732241        0.179099     -0.000273536    -0.000594009         0.965876       -0.137624
                       -0.950434       -0.272822     -0.000327292    -0.000553233       -0.0825573       0.0824953     -0.000104264     0.000926284
                    -0.000150133     0.000566592         0.966249       -0.137338     -0.000164713     0.000904832       -0.0189813        0.191971
281722                 0.0277055        0.113561     -0.000189907    -0.000941357        -0.950584       -0.272279     -0.000195661     0.000518465
                    -0.000286955      -0.0009396        0.0732454        0.179118     -0.000273734     -0.00059397         0.965825       -0.137945
                       -0.950519       -0.272516     -0.000327464    -0.000553129       -0.0825261       0.0825531     -0.000103922     0.000926274
                    -0.000149907     0.000566671         0.966198       -0.137659     -0.000164246     0.000904888       -0.0188682        0.192007
281724                 0.0277216        0.113576     -0.000190101    -0.000941393        -0.950669       -0.271972     -0.000195425      0.00051861
                    -0.000287103    -0.000939536        0.0732667        0.179136     -0.000273932    -0.000593932         0.965774       -0.138267
                       -0.950604        -0.27221     -0.000327636    -0.000553025       -0.0824948       0.0826108     -0.000103581     0.000926264
                     -0.00014968     0.000566748         0.966147       -0.137981     -0.000163779     0.000904943       -0.0187551        0.192043
281726                 0.0277377        0.113592     -0.000190295    -0.000941428        -0.950753       -0.271666     -0.000195188     0.000518755
                     -0.00028725    -0.000939471         0.073288        0.179155      -0.00027413    -0.000593893         0.965723       -0.138589
                       -0.950689       -0.271903     -0.000327807    -0.000552921       -0.0824635       0.0826685      -0.00010324     0.000926253
                    -0.000149454     0.000566826         0.966096       -0.138303     -0.000163313     0.000904998       -0.0186419         0.19208
281728                 0.0277538        0.113607      -0.00019049    -0.000941464        -0.950838        -0.27136     -0.000194952     0.000518899
                    -0.000287398    -0.000939406        0.0733093        0.179174     -0.000274329    -0.000593855         0.965672        -0.13891
                       -0.950774       -0.271597     -0.000327978    -0.000552817       -0.0824322       0.0827262     -0.000102898     0.000926241
                    -0.000149228     0.000566904         0.966045       -0.138624     -0.000162847     0.000905054       -0.0185287        0.192116
281730                 0.0277699        0.113623     -0.000190685    -0.000941499        -0.950923       -0.271053     -0.000194715     0.000519043
                    -0.000287545    -0.000939342        0.0733306        0.179193     -0.000274528    -0.000593817         0.965621       -0.139232
                       -0.950859       -0.271291     -0.000328149    -0.000552713       -0.0824008       0.0827839     -0.000102557     0.000926229
                    -0.000149001     0.000566982         0.965994       -0.138946      -0.00016238     0.000905109       -0.0184154        0.192152
281732                  0.027786        0.113638      -0.00019088    -0.000941535        -0.951007       -0.270747     -0.000194479     0.000519187
                    -0.000287692    -0.000939277        0.0733519        0.179211     -0.000274727    -0.000593779          0.96557       -0.139553
                       -0.950944       -0.270984     -0.000328319    -0.000552609       -0.0823694       0.0828416     -0.000102216     0.000926217
                    -0.000148775      0.00056706         0.965943       -0.139267     -0.000161915     0.000905163       -0.0183021        0.192188
281734                 0.0278021        0.113653     -0.000191076     -0.00094157        -0.951092        -0.27044     -0.000194242     0.000519331
                     -0.00028784    -0.000939212        0.0733732         0.17923     -0.000274926    -0.000593741         0.965519       -0.139875
                       -0.951028       -0.270678      -0.00032849    -0.000552505        -0.082338       0.0828993     -0.000101875     0.000926204
                    -0.000148548     0.000567137         0.965891       -0.139589     -0.000161449     0.000905218       -0.0181888        0.192224
281736                 0.0278182        0.113669     -0.000191271    -0.000941605        -0.951176       -0.270134     -0.000194006     0.000519474
                    -0.000287987    -0.000939147        0.0733945        0.179249     -0.000275126    -0.000593703         0.965467       -0.140196
                       -0.951113       -0.270372      -0.00032866    -0.000552401       -0.0823065       0.0829569     -0.000101534     0.000926191
                    -0.000148321     0.000567215          0.96584        -0.13991     -0.000160983     0.000905272       -0.0180754         0.19226
281738                 0.0278343        0.113684     -0.000191468    -0.000941641         -0.95126       -0.269827     -0.000193769     0.000519617
                    -0.000288134    -0.000939081        0.0734158        0.179268     -0.000275325    -0.000593665         0.965416       -0.140518
                       -0.951197       -0.270065      -0.00032883    -0.000552297       -0.0822749       0.0830146     -0.000101193     0.000926177
                    -0.000148094     0.000567292         0.965788       -0.140232     -0.000160518     0.000905326        -0.017962        0.192296
281740                 0.0278504          0.1137     -0.000191664    -0.000941676        -0.951344       -0.269521     -0.000193532     0.000519761
                    -0.000288281    -0.000939016        0.0734371        0.179286     -0.000275525    -0.000593627         0.965364       -0.140839
                       -0.951281       -0.269759     -0.000328999    -0.000552193       -0.0822434       0.0830722     -0.000100853     0.000926163
                    -0.000147867      0.00056737         0.965736       -0.140553     -0.000160052     0.000905381       -0.0178486        0.192332
281742                 0.0278666        0.113715     -0.000191861    -0.000941712        -0.951428       -0.269214     -0.000193296     0.000519904
                    -0.000288428    -0.000938951        0.0734584        0.179305     -0.000275725    -0.000593589         0.965312       -0.141161
                       -0.951365       -0.269452     -0.000329169     -0.00055209       -0.0822118       0.0831299     -0.000100512     0.000926149
                     -0.00014764     0.000567447         0.965684       -0.140875     -0.000159587     0.000905434       -0.0177351        0.192368
281744                 0.0278827         0.11373     -0.000192058    -0.000941747        -0.951512       -0.268908     -0.000193059     0.000520046
                    -0.000288575    -0.000938885        0.0734797        0.179324     -0.000275925    -0.000593551          0.96526       -0.141482
                        -0.95145       -0.269146     -0.000329338    -0.000551986       -0.0821801       0.0831875     -0.000100171     0.000926135
                    -0.000147413     0.000567525         0.965632       -0.141196     -0.000159121     0.000905488       -0.0176216        0.192403
281746                 0.0278988        0.113746     -0.000192255    -0.000941782        -0.951596       -0.268601     -0.000192822     0.000520189
                    -0.000288722     -0.00093882         0.073501        0.179343     -0.000276125    -0.000593513         0.965208       -0.141803
                       -0.951534       -0.268839     -0.000329507    -0.000551882       -0.0821485       0.0832451     -9.98304e-05      0.00092612
                    -0.000147185     0.000567602          0.96558       -0.141517     -0.000158656     0.000905542        -0.017508        0.192439
281748                  0.027915        0.113761     -0.000192453    -0.000941818         -0.95168       -0.268294     -0.000192585     0.000520331
                    -0.000288869    -0.000938754        0.0735223        0.179362     -0.000276325    -0.000593475         0.965156       -0.142125
                       -0.951617       -0.268532     -0.000329676    -0.000551778       -0.0821167       0.0833027     -9.94898e-05     0.000926105
                    -0.000146958     0.000567679         0.965528       -0.141839     -0.000158191     0.000905595       -0.0173944        0.192475
281750                 0.0279311        0.113776     -0.000192651    -0.000941853        -0.951763       -0.267988     -0.000192348     0.000520474
                    -0.000289016    -0.000938688        0.0735436         0.17938     -0.000276526    -0.000593437         0.965104       -0.142446
                       -0.951701       -0.268226     -0.000329844    -0.000551674        -0.082085       0.0833603     -9.91492e-05      0.00092609
                     -0.00014673     0.000567756         0.965475        -0.14216     -0.000157726     0.000905648       -0.0172808         0.19251
281752                 0.0279473        0.113792     -0.000192849    -0.000941888        -0.951847       -0.267681      -0.00019211     0.000520616
                    -0.000289162    -0.000938622        0.0735649        0.179399     -0.000276726    -0.000593399         0.965052       -0.142767
                       -0.951785       -0.267919     -0.000330012     -0.00055157       -0.0820532       0.0834179     -9.88087e-05     0.000926075
                    -0.000146502     0.000567833         0.965423       -0.142481     -0.000157261     0.000905701       -0.0171671        0.192546
281754                 0.0279634        0.113807     -0.000193047    -0.000941924         -0.95193       -0.267374     -0.000191873     0.000520758
                    -0.000289309    -0.000938557        0.0735863        0.179418     -0.000276927    -0.000593361         0.964999       -0.143089
                       -0.951869       -0.267612      -0.00033018    -0.000551467       -0.0820214       0.0834755     -9.84682e-05     0.000926059
                    -0.000146275      0.00056791          0.96537       -0.142803     -0.000156796     0.000905754       -0.0170534        0.192581
281756                 0.0279796        0.113823     -0.000193246    -0.000941959        -0.952014       -0.267067     -0.000191635       0.0005209
                    -0.000289456    -0.000938491        0.0736076        0.179437     -0.000277128    -0.000593323         0.964947        -0.14341
                       -0.951952       -0.267306     -0.000330348    -0.000551363       -0.0819895       0.0835331     -9.81278e-05     0.000926043
                    -0.000146047     0.000567987         0.965318       -0.143124     -0.000156331     0.000905806       -0.0169396        0.192616
281758                 0.0279957        0.113838     -0.000193445    -0.000941994        -0.952097        -0.26676     -0.000191398     0.000521041
                    -0.000289602    -0.000938424        0.0736289        0.179456     -0.000277328    -0.000593284         0.964894       -0.143731
                       -0.952036       -0.266999     -0.000330515    -0.000551259       -0.0819576       0.0835906     -9.77874e-05     0.000926027
                    -0.000145819     0.000568064         0.965265       -0.143445     -0.000155866     0.000905859       -0.0168258        0.192652
281760                 0.0280119        0.113853     -0.000193644     -0.00094203         -0.95218       -0.266453      -0.00019116     0.000521183
                    -0.000289749    -0.000938358        0.0736502        0.179474     -0.000277529    -0.000593246         0.964841       -0.144053
                       -0.952119       -0.266692     -0.000330683    -0.000551155       -0.0819256       0.0836482      -9.7447e-05     0.000926011
                     -0.00014559      0.00056814         0.965212       -0.143766     -0.000155401     0.000905911        -0.016712        0.192687
281762                 0.0280281        0.113869     -0.000193844    -0.000942065        -0.952263       -0.266147     -0.000190922     0.000521324
                    -0.000289895    -0.000938292        0.0736715        0.179493      -0.00027773    -0.000593207         0.964788       -0.144374
                       -0.952202       -0.266385      -0.00033085    -0.000551051       -0.0818937       0.0837057     -9.71067e-05     0.000925994
