! TOUCHSTONE file generated by CST MICROWAVE STUDIO
! Date and time: Wed Oct 15 17:32:05 2025
! Project name: Teste_Macro_Metasurface_Nanopilar.cst
! Parameters = {H=600; L_x=145; L_y=90; Lambda=1064; Max_L=200; Min_L=70; PathPara=1; Phi=0; Step_L=10; Theta=0; p=520; phaseX=180; phaseY=0}
! Header version: 2018
! Port assignment regex: !\s*Touchstone port\s*([0-9]+)\s*=\s*(CST MWS port|CST DS port)\s*([0-9]+|Zmin|Zmax)\s*\(\"(.*)\"\)(\s*mode\s*([0-9]+))?.*
! Touchstone port assignment:
! Touchstone port 1 = CST MWS port Zmax ("") mode 1
! Touchstone port 2 = CST MWS port Zmax ("") mode 2
! Touchstone port 3 = CST MWS port Zmin ("") mode 1
! Touchstone port 4 = CST MWS port Zmin ("") mode 2
! S-Parameters are not renormalized. Each port impedance will be approximated by the real part at minimum frequency. The values are described via the [Reference] keyword.
! Default impedance is overridden by [Reference]
[Version] 2.0
# GHz S RI R 376.73
[Number of Ports] 4
[Reference]
376.73 376.73 259.888 259.888 
[Number of Frequencies] 51
[Network Data]
281700                -0.0234413       0.0149662      8.27194e-05     0.000783981        -0.634544        -0.76983      0.000359555    -0.000146537
                     9.84054e-05     0.000705436       -0.0364859       0.0357498     -9.81001e-05     0.000368207         0.668265        0.731362
                       -0.634105       -0.769935     -0.000191453      0.00036234       -0.0191569        0.020947      0.000774048     0.000132188
                     0.000331023    -0.000179471         0.668444        0.731169      0.000728024    -5.36512e-06       -0.0398692       0.0356798
281702                -0.0234442        0.014981      8.29211e-05       0.0007839        -0.634758       -0.769653      0.000359418     -0.00014667
                     9.87232e-05     0.000705344       -0.0364762       0.0357864     -9.80413e-05     0.000368267         0.668543        0.731107
                       -0.634319       -0.769758     -0.000191313     0.000362404       -0.0191604       0.0209577       0.00077415     0.000131839
                     0.000331044    -0.000179675         0.668722        0.730914      0.000727989    -5.58936e-06       -0.0398779       0.0356969
281704                -0.0234471       0.0149959      8.31227e-05     0.000783818        -0.634972       -0.769476      0.000359282    -0.000146802
                     9.90427e-05      0.00070525       -0.0364665        0.035823     -9.79825e-05     0.000368327         0.668821        0.730852
                       -0.634533       -0.769581     -0.000191173     0.000362468       -0.0191639       0.0209685      0.000774253      0.00013149
                     0.000331067    -0.000179878            0.669        0.730659      0.000727954    -5.81356e-06       -0.0398865       0.0357139
281706                  -0.02345       0.0150107      8.33243e-05     0.000783737        -0.635186       -0.769299      0.000359145    -0.000146934
                     9.93634e-05     0.000705155       -0.0364567       0.0358596     -9.79236e-05     0.000368386         0.669098        0.730598
                       -0.634747       -0.769404     -0.000191033     0.000362531       -0.0191673       0.0209793      0.000774356     0.000131141
                     0.000331089    -0.000180082         0.669278        0.730404      0.000727919     -6.0377e-06       -0.0398952        0.035731
281708                -0.0234529       0.0150256      8.35259e-05     0.000783655          -0.6354       -0.769122      0.000359009    -0.000147066
                     9.96852e-05      0.00070506       -0.0364469       0.0358962     -9.78647e-05     0.000368446         0.669376        0.730343
                        -0.63496       -0.769226     -0.000190893     0.000362594       -0.0191708       0.0209901      0.000774458     0.000130792
                     0.000331111    -0.000180286         0.669555        0.730149      0.000727885    -6.26179e-06       -0.0399038       0.0357481
281710                -0.0234558       0.0150404      8.37273e-05     0.000783573        -0.635614       -0.768945      0.000358872    -0.000147198
                     0.000100008     0.000704964       -0.0364372       0.0359328     -9.78057e-05     0.000368506         0.669654        0.730087
                       -0.635174       -0.769049     -0.000190754     0.000362658       -0.0191742       0.0210008       0.00077456     0.000130443
                     0.000331133     -0.00018049         0.669833        0.729894       0.00072785    -6.48584e-06       -0.0399124       0.0357652
281712                -0.0234587       0.0150553      8.39287e-05     0.000783491        -0.635827       -0.768767      0.000358736     -0.00014733
                     0.000100331     0.000704867       -0.0364274       0.0359694     -9.77466e-05     0.000368566         0.669931        0.729832
                       -0.635388       -0.768871     -0.000190614     0.000362721       -0.0191777       0.0210116      0.000774662     0.000130093
                     0.000331156    -0.000180694          0.67011        0.729638      0.000727815    -6.70983e-06        -0.039921       0.0357824
281714                -0.0234616       0.0150701        8.413e-05     0.000783409        -0.636041        -0.76859      0.000358599    -0.000147461
                     0.000100655     0.000704771       -0.0364176        0.036006     -9.76874e-05     0.000368625         0.670208        0.729577
                       -0.635602       -0.768694     -0.000190474     0.000362784       -0.0191811       0.0210225      0.000774763     0.000129743
                     0.000331178    -0.000180899         0.670387        0.729383       0.00072778    -6.93378e-06       -0.0399296       0.0357996
281716                -0.0234645        0.015085      8.43312e-05     0.000783327        -0.636255       -0.768413      0.000358463    -0.000147592
                     0.000100978     0.000704673       -0.0364078       0.0360425     -9.76282e-05     0.000368685         0.670486        0.729321
                       -0.635815       -0.768516     -0.000190334     0.000362847       -0.0191846       0.0210333      0.000774864     0.000129393
                     0.000331201    -0.000181103         0.670664        0.729127      0.000727745    -7.15767e-06       -0.0399382       0.0358168
281718                -0.0234674       0.0150998      8.45324e-05     0.000783245        -0.636468       -0.768235      0.000358326    -0.000147723
                     0.000101303     0.000704576        -0.036398       0.0360791     -9.75689e-05     0.000368745         0.670763        0.729066
                       -0.636029       -0.768339     -0.000190194      0.00036291        -0.019188       0.0210441      0.000774966     0.000129042
                     0.000331224    -0.000181308         0.670941        0.728871       0.00072771    -7.38152e-06       -0.0399468        0.035834
281720                -0.0234703       0.0151147      8.47335e-05     0.000783163        -0.636682       -0.768058       0.00035819    -0.000147854
                     0.000101627     0.000704478       -0.0363881       0.0361157     -9.75096e-05     0.000368804          0.67104         0.72881
                       -0.636242       -0.768161     -0.000190054     0.000362973       -0.0191914       0.0210549      0.000775066     0.000128692
                     0.000331246    -0.000181512         0.671218        0.728615      0.000727675    -7.60532e-06       -0.0399554       0.0358513
281722                -0.0234732       0.0151295      8.49345e-05      0.00078308        -0.636895        -0.76788      0.000358053    -0.000147984
                     0.000101952     0.000704381       -0.0363783       0.0361522     -9.74502e-05     0.000368864         0.671317        0.728555
                       -0.636456       -0.767983     -0.000189914     0.000363036       -0.0191949       0.0210658      0.000775167     0.000128341
                     0.000331269    -0.000181717         0.671495        0.728359      0.000727641    -7.82907e-06        -0.039964       0.0358686
281724                -0.0234761       0.0151444      8.51355e-05     0.000782998        -0.637109       -0.767702      0.000357916    -0.000148115
                     0.000102276     0.000704282       -0.0363685       0.0361888     -9.73907e-05     0.000368923         0.671593        0.728299
                       -0.636669       -0.767805     -0.000189774     0.000363099       -0.0191983       0.0210766      0.000775267      0.00012799
                     0.000331293    -0.000181922         0.671772        0.728103      0.000727606    -8.05276e-06       -0.0399725       0.0358859
281726                 -0.023479       0.0151592      8.53363e-05     0.000782915        -0.637322       -0.767525       0.00035778    -0.000148245
                     0.000102601     0.000704184       -0.0363586       0.0362253     -9.73311e-05     0.000368983          0.67187        0.728043
                       -0.636883       -0.767627     -0.000189634     0.000363161       -0.0192017       0.0210875      0.000775368     0.000127638
                     0.000331316    -0.000182127         0.672048        0.727847      0.000727571    -8.27641e-06       -0.0399811       0.0359032
281728                -0.0234819       0.0151741      8.55371e-05     0.000782833        -0.637535       -0.767347      0.000357643    -0.000148375
                     0.000102926     0.000704085       -0.0363488       0.0362619     -9.72715e-05     0.000369042         0.672147        0.727787
                       -0.637096       -0.767449     -0.000189494     0.000363224       -0.0192051       0.0210984      0.000775468     0.000127287
                     0.000331339    -0.000182332         0.672325        0.727591      0.000727536    -8.50001e-06       -0.0399896       0.0359206
281730                -0.0234848        0.015189      8.57378e-05      0.00078275        -0.637749       -0.767169      0.000357506    -0.000148504
                      0.00010325     0.000703986       -0.0363389       0.0362984     -9.72118e-05     0.000369102         0.672423        0.727531
                        -0.63731       -0.767271     -0.000189354     0.000363286       -0.0192085       0.0211092      0.000775567     0.000126935
                     0.000331363    -0.000182536         0.672601        0.727335      0.000727501    -8.72356e-06       -0.0399982       0.0359379
281732                -0.0234877       0.0152038      8.59385e-05     0.000782667        -0.637962       -0.766991       0.00035737    -0.000148634
                     0.000103575     0.000703887        -0.036329       0.0363349      -9.7152e-05     0.000369161           0.6727        0.727275
                       -0.637523       -0.767093     -0.000189214     0.000363349       -0.0192119       0.0211201      0.000775667     0.000126583
                     0.000331386    -0.000182741         0.672877        0.727078      0.000727467    -8.94706e-06       -0.0400067       0.0359553
281734                -0.0234905       0.0152187       8.6139e-05     0.000782585        -0.638175       -0.766813      0.000357233    -0.000148763
                       0.0001039     0.000703788       -0.0363192       0.0363715     -9.70922e-05     0.000369221         0.672976        0.727018
                       -0.637736       -0.766915     -0.000189074     0.000363411       -0.0192152        0.021131      0.000775766     0.000126231
                      0.00033141    -0.000182947         0.673154        0.726822      0.000727432    -9.17052e-06       -0.0400152       0.0359728
281736                -0.0234934       0.0152335      8.63395e-05     0.000782502        -0.638388       -0.766635      0.000357096    -0.000148892
                     0.000104224     0.000703688       -0.0363093        0.036408     -9.70323e-05      0.00036928         0.673252        0.726762
                       -0.637949       -0.766737     -0.000188934     0.000363473       -0.0192186       0.0211419      0.000775865     0.000125879
                     0.000331434    -0.000183152          0.67343        0.726565      0.000727397    -9.39392e-06       -0.0400237       0.0359902
281738                -0.0234963       0.0152484      8.65398e-05     0.000782419        -0.638601       -0.766457       0.00035696    -0.000149021
                     0.000104549     0.000703588       -0.0362994       0.0364445     -9.69723e-05      0.00036934         0.673528        0.726505
                       -0.638162       -0.766559     -0.000188794     0.000363535        -0.019222       0.0211528      0.000775964     0.000125526
                     0.000331458    -0.000183357         0.673706        0.726308      0.000727362    -9.61728e-06       -0.0400322       0.0360077
281740                -0.0234992       0.0152632      8.67401e-05     0.000782336        -0.638814       -0.766279      0.000356823     -0.00014915
                     0.000104873     0.000703488       -0.0362895        0.036481     -9.69123e-05     0.000369399         0.673804        0.726249
                       -0.638376        -0.76638     -0.000188654     0.000363597       -0.0192254       0.0211637      0.000776063     0.000125173
                     0.000331482    -0.000183562         0.673981        0.726051      0.000727328    -9.84058e-06       -0.0400407       0.0360252
281742                 -0.023502       0.0152781      8.69402e-05     0.000782253        -0.639027       -0.766101      0.000356686    -0.000149278
                     0.000105198     0.000703388       -0.0362796       0.0365175     -9.68522e-05     0.000369459          0.67408        0.725992
                       -0.638589       -0.766202     -0.000188514     0.000363659       -0.0192287       0.0211746      0.000776161      0.00012482
                     0.000331506    -0.000183767         0.674257        0.725794      0.000727293    -1.00638e-05       -0.0400492       0.0360427
281744                -0.0235049        0.015293      8.71403e-05     0.000782171         -0.63924       -0.765923      0.000356549    -0.000149407
                     0.000105522     0.000703287       -0.0362696        0.036554      -9.6792e-05     0.000369518         0.674356        0.725735
                       -0.638802       -0.766023     -0.000188374     0.000363721       -0.0192321       0.0211856      0.000776259     0.000124467
                      0.00033153    -0.000183972         0.674533        0.725537      0.000727258     -1.0287e-05       -0.0400577       0.0360603
281746                -0.0235078       0.0153078      8.73404e-05     0.000782088        -0.639453       -0.765744      0.000356413    -0.000149535
                     0.000105846     0.000703186       -0.0362597       0.0365905     -9.67318e-05     0.000369578         0.674631        0.725478
                       -0.639015       -0.765845     -0.000188235     0.000363783       -0.0192354       0.0211965      0.000776357     0.000124114
                     0.000331555    -0.000184177         0.674808         0.72528      0.000727224    -1.05102e-05       -0.0400661       0.0360779
281748                -0.0235106       0.0153227       8.7541e-05     0.000782007        -0.639666       -0.765566      0.000356276    -0.000149663
                      0.00010617     0.000703085       -0.0362498        0.036627     -9.66714e-05     0.000369637         0.674907        0.725221
                       -0.639227       -0.765666     -0.000188095     0.000363845       -0.0192388       0.0212075      0.000776455      0.00012376
                     0.000331579    -0.000184382         0.675084        0.725023      0.000727189    -1.07333e-05       -0.0400746       0.0360955
281750                -0.0235135       0.0153376      8.77431e-05     0.000781926        -0.639879       -0.765388      0.000356139     -0.00014979
                     0.000106494     0.000702983       -0.0362398       0.0366635      -9.6611e-05     0.000369696         0.675182        0.724964
                        -0.63944       -0.765488     -0.000187955     0.000363907       -0.0192421       0.0212184      0.000776552     0.000123406
                     0.000331604    -0.000184587         0.675359        0.724766      0.000727154    -1.09564e-05        -0.040083       0.0361131
281752                -0.0235164       0.0153524      8.79475e-05     0.000781843        -0.640092       -0.765209      0.000356002    -0.000149918
                     0.000106818     0.000702881       -0.0362298       0.0366999     -9.65506e-05     0.000369756         0.675458        0.724707
                       -0.639653       -0.765309     -0.000187815     0.000363968       -0.0192454       0.0212294      0.000776649     0.000123052
                     0.000331629    -0.000184792         0.675634        0.724508       0.00072712    -1.11794e-05       -0.0400914       0.0361308
281754                -0.0235192       0.0153673      8.81516e-05     0.000781757        -0.640304       -0.765031      0.000355865    -0.000150045
                     0.000107142     0.000702779       -0.0362199       0.0367364       -9.649e-05     0.000369815         0.675733         0.72445
                       -0.639866        -0.76513     -0.000187676      0.00036403       -0.0192488       0.0212403      0.000776746     0.000122698
                     0.000331654    -0.000184996          0.67591        0.724251      0.000727085    -1.14024e-05       -0.0400999       0.0361485
281756                -0.0235221       0.0153821      8.83527e-05     0.000781669        -0.640517       -0.764852      0.000355729    -0.000150172
                     0.000107466     0.000702677       -0.0362099       0.0367729     -9.64294e-05     0.000369874         0.676008        0.724192
                       -0.640079       -0.764951     -0.000187537     0.000364091       -0.0192521       0.0212513      0.000776843     0.000122343
                     0.000331679    -0.000185201         0.676185        0.723993       0.00072705    -1.16253e-05       -0.0401083       0.0361662
281758                 -0.023525        0.015397      8.85523e-05     0.000781583         -0.64073       -0.764673      0.000355592    -0.000150299
                     0.000107789     0.000702574       -0.0361999       0.0368093     -9.63687e-05     0.000369934         0.676283        0.723935
                       -0.640291       -0.764772     -0.000187399     0.000364153       -0.0192554       0.0212623       0.00077694     0.000121988
                     0.000331704    -0.000185406          0.67646        0.723735      0.000727016    -1.18482e-05       -0.0401167       0.0361839
281760                -0.0235278       0.0154119      8.87516e-05     0.000781497        -0.640942       -0.764495      0.000355455    -0.000150426
                     0.000108113     0.000702471       -0.0361899       0.0368458     -9.63079e-05     0.000369993         0.676558        0.723677
                       -0.640504       -0.764593     -0.000187262     0.000364217       -0.0192587       0.0212733      0.000777036     0.000121633
                     0.000331729     -0.00018561         0.676734        0.723477      0.000726981    -1.20711e-05       -0.0401251       0.0362017
281762                -0.0235307       0.0154267      8.89509e-05     0.000781412        -0.641155       -0.764316      0.000355318    -0.000150552
                     0.000108436     0.000702368       -0.0361799       0.0368823      -9.6247e-05     0.000370052         0.676833        0.723419
                       -0.640717       -0.764414     -0.000187121     0.000364284        -0.019262       0.0212843      0.000777132     0.000121278
