! TOUCHSTONE file generated by CST MICROWAVE STUDIO
! Date and time: Wed Oct 15 17:29:13 2025
! Project name: Teste_Macro_Metasurface_Nanopilar.cst
! Parameters = {H=600; L_x=95; L_y=90; Lambda=1064; Max_L=200; Min_L=70; PathPara=1; Phi=0; Step_L=10; Theta=0; p=520; phaseX=180; phaseY=0}
! Header version: 2018
! Port assignment regex: !\s*Touchstone port\s*([0-9]+)\s*=\s*(CST MWS port|CST DS port)\s*([0-9]+|Zmin|Zmax)\s*\(\"(.*)\"\)(\s*mode\s*([0-9]+))?.*
! Touchstone port assignment:
! Touchstone port 1 = CST MWS port Zmax ("") mode 1
! Touchstone port 2 = CST MWS port Zmax ("") mode 2
! Touchstone port 3 = CST MWS port Zmin ("") mode 1
! Touchstone port 4 = CST MWS port Zmin ("") mode 2
! S-Parameters are not renormalized. Each port impedance will be approximated by the real part at minimum frequency. The values are described via the [Reference] keyword.
! Default impedance is overridden by [Reference]
[Version] 2.0
# GHz S RI R 376.73
[Number of Ports] 4
[Reference]
376.73 376.73 259.888 259.888 
[Number of Frequencies] 51
[Network Data]
281700                 0.0059088      -0.0820321      0.000161588      4.3196e-05        -0.175368       -0.980116        0.0001133    -0.000107623
                     0.000109084     6.50137e-06       0.00109603      -0.0663525      0.000169728     8.12602e-05         -0.25751       -0.963142
                       -0.175473       -0.980484      1.28284e-05     2.32363e-05        0.0338523       0.0750797      8.40654e-05    -0.000164392
                     6.26095e-05     -5.2643e-05        -0.257684       -0.962622      -4.0133e-05    -0.000193891        0.0338548       0.0572318
281702                0.00589738      -0.0820273       0.00016164     4.31899e-05        -0.175613       -0.980072       0.00011327    -0.000107656
                     0.000109064     6.51073e-06       0.00108562      -0.0663461      0.000169756     8.12081e-05        -0.257755       -0.963077
                       -0.175719       -0.980441      1.27557e-05     2.31674e-05        0.0338775       0.0750623      8.40674e-05    -0.000164443
                     6.26422e-05    -5.25692e-05        -0.257929       -0.962556     -4.01577e-05    -0.000193933        0.0338716       0.0572142
281704                0.00588595      -0.0820226      0.000161691     4.31838e-05        -0.175858       -0.980029      0.000113239    -0.000107688
                     0.000109044     6.52011e-06        0.0010752      -0.0663396      0.000169785     8.11559e-05           -0.258       -0.963012
                       -0.175964       -0.980397      1.26828e-05     2.30985e-05        0.0339026       0.0750448      8.40693e-05    -0.000164493
                      6.2675e-05    -5.24955e-05        -0.258174       -0.962491     -4.01825e-05    -0.000193974        0.0338884       0.0571966
281706                0.00587452      -0.0820178      0.000161743     4.31775e-05        -0.176103       -0.979985      0.000113208     -0.00010772
                     0.000109024     6.52949e-06       0.00106479      -0.0663331      0.000169813     8.11037e-05        -0.258245       -0.962946
                       -0.176209       -0.980354      1.26098e-05     2.30295e-05        0.0339278       0.0750274      8.40712e-05    -0.000164544
                      6.2708e-05    -5.24217e-05        -0.258419       -0.962425     -4.02073e-05    -0.000194015        0.0339052        0.057179
281708                0.00586309      -0.0820131      0.000161794     4.31711e-05        -0.176349       -0.979941      0.000113178    -0.000107752
                     0.000109004     6.53889e-06       0.00105438      -0.0663267      0.000169842     8.10515e-05        -0.258491       -0.962881
                       -0.176455        -0.98031      1.25365e-05     2.29604e-05        0.0339529         0.07501      8.40731e-05    -0.000164595
                     6.27412e-05    -5.23479e-05        -0.258664        -0.96236     -4.02322e-05    -0.000194056         0.033922       0.0571614
281710                0.00585167      -0.0820083      0.000161846     4.31646e-05        -0.176594       -0.979898      0.000113147    -0.000107784
                     0.000108984     6.54829e-06       0.00104396      -0.0663202       0.00016987     8.09993e-05        -0.258736       -0.962815
                         -0.1767       -0.980266      1.24631e-05     2.28913e-05         0.033978       0.0749925      8.40748e-05    -0.000164646
                     6.27746e-05     -5.2274e-05        -0.258908       -0.962294     -4.02571e-05    -0.000194097        0.0339388       0.0571438
281712                0.00584024      -0.0820036      0.000161898     4.31579e-05        -0.176839       -0.979854      0.000113116    -0.000107816
                     0.000108963      6.5577e-06       0.00103355      -0.0663137      0.000169899      8.0947e-05        -0.258981        -0.96275
                       -0.176945       -0.980223      1.23894e-05     2.28222e-05        0.0340032       0.0749751      8.40766e-05    -0.000164697
                     6.28081e-05    -5.22001e-05        -0.259153       -0.962228      -4.0282e-05    -0.000194138        0.0339555       0.0571261
281714                0.00582881      -0.0819988       0.00016195     4.31512e-05        -0.177084        -0.97981      0.000113085    -0.000107848
                     0.000108943     6.56712e-06       0.00102314      -0.0663073      0.000169928     8.08947e-05        -0.259226       -0.962684
                        -0.17719       -0.980179      1.23155e-05      2.2753e-05        0.0340283       0.0749576      8.40782e-05    -0.000164747
                     6.28418e-05    -5.21262e-05        -0.259398       -0.962163      -4.0307e-05    -0.000194178        0.0339723       0.0571085
281716                0.00581739       -0.081994      0.000162002     4.31444e-05         -0.17733       -0.979766      0.000113054     -0.00010788
                     0.000108922     6.57655e-06       0.00101273      -0.0663008      0.000169956     8.08424e-05        -0.259471       -0.962619
                       -0.177436       -0.980135      1.22415e-05     2.26837e-05        0.0340534       0.0749402      8.40798e-05    -0.000164798
                     6.28757e-05    -5.20523e-05        -0.259643       -0.962097      -4.0332e-05    -0.000194219         0.033989       0.0570909
281718                0.00580596      -0.0819893      0.000162054     4.31375e-05        -0.177575       -0.979722      0.000113023    -0.000107912
                     0.000108902     6.58598e-06       0.00100232      -0.0662943      0.000169985     8.07901e-05        -0.259716       -0.962553
                       -0.177681       -0.980091      1.21672e-05     2.26144e-05        0.0340785       0.0749227      8.40813e-05    -0.000164849
                     6.29098e-05    -5.19783e-05        -0.259888       -0.962031      -4.0357e-05    -0.000194259        0.0340058       0.0570733
281720                0.00579454      -0.0819845      0.000162106     4.31304e-05         -0.17782       -0.979678      0.000112992    -0.000107944
                     0.000108881     6.59543e-06      0.000991912      -0.0662878      0.000170013     8.07377e-05        -0.259961       -0.962487
                       -0.177926       -0.980047      1.20927e-05      2.2545e-05        0.0341036       0.0749052      8.40828e-05      -0.0001649
                     6.29441e-05    -5.19044e-05        -0.260133       -0.961965     -4.03821e-05    -0.000194299        0.0340225       0.0570556
281722                0.00578311      -0.0819797      0.000162159     4.31233e-05        -0.178065       -0.979634      0.000112962    -0.000107976
                      0.00010886     6.60488e-06      0.000981504      -0.0662813      0.000170042     8.06853e-05        -0.260206       -0.962421
                       -0.178171       -0.980003       1.2018e-05     2.24755e-05        0.0341286       0.0748877      8.40842e-05     -0.00016495
                     6.29786e-05    -5.18303e-05        -0.260378       -0.961899     -4.04072e-05    -0.000194339        0.0340392        0.057038
281724                0.00577169       -0.081975      0.000162211      4.3116e-05         -0.17831       -0.979589      0.000112931    -0.000108008
                      0.00010884     6.61435e-06      0.000971096      -0.0662749       0.00017007     8.06329e-05         -0.26045       -0.962355
                       -0.178416       -0.979959       1.1943e-05      2.2406e-05        0.0341537       0.0748702      8.40855e-05    -0.000165001
                     6.30132e-05    -5.17563e-05        -0.260622       -0.961832     -4.04324e-05    -0.000194379         0.034056       0.0570203
281726                0.00576027      -0.0819702      0.000162264     4.31087e-05        -0.178555       -0.979545        0.0001129     -0.00010804
                     0.000108819     6.62382e-06       0.00096069      -0.0662684      0.000170099     8.05805e-05        -0.260695       -0.962289
                       -0.178662       -0.979915      1.18679e-05     2.23365e-05        0.0341788       0.0748527      8.40868e-05    -0.000165052
                     6.30481e-05    -5.16823e-05        -0.260867       -0.961766     -4.04576e-05    -0.000194418        0.0340727       0.0570027
281728                0.00574884      -0.0819654      0.000162317     4.31012e-05        -0.178801       -0.979501      0.000112869    -0.000108072
                     0.000108798      6.6333e-06      0.000950284      -0.0662619      0.000170128      8.0528e-05         -0.26094       -0.962223
                       -0.178907       -0.979871      1.17925e-05     2.22668e-05        0.0342038       0.0748352       8.4088e-05    -0.000165103
                     6.30831e-05    -5.16082e-05        -0.261112         -0.9617     -4.04828e-05    -0.000194458        0.0340894        0.056985
281730                0.00573742      -0.0819606      0.000162369     4.30936e-05        -0.179046       -0.979457      0.000112838    -0.000108104
                     0.000108777     6.64279e-06      0.000939879      -0.0662554      0.000170156     8.04755e-05        -0.261185       -0.962157
                       -0.179152       -0.979827       1.1717e-05     2.21971e-05        0.0342289       0.0748177      8.40891e-05    -0.000165154
                     6.31184e-05    -5.15341e-05        -0.261357       -0.961634     -4.05081e-05    -0.000194497         0.034106       0.0569674
281732                  0.005726      -0.0819559      0.000162422     4.30859e-05        -0.179291       -0.979412      0.000112807    -0.000108136
                     0.000108756     6.65229e-06      0.000929474      -0.0662489      0.000170185      8.0423e-05         -0.26143       -0.962091
                       -0.179397       -0.979783      1.16412e-05     2.21274e-05        0.0342539       0.0748002      8.40902e-05    -0.000165205
                     6.31538e-05      -5.146e-05        -0.261602       -0.961567     -4.05334e-05    -0.000194536        0.0341227       0.0569497
281734                0.00571458      -0.0819511      0.000162475     4.30781e-05        -0.179536       -0.979368      0.000112776    -0.000108168
                     0.000108734      6.6618e-06       0.00091907      -0.0662425      0.000170214     8.03705e-05        -0.261675       -0.962025
                       -0.179642       -0.979738      1.15652e-05     2.20576e-05        0.0342789       0.0747826      8.40912e-05    -0.000165256
                     6.31894e-05    -5.13859e-05        -0.261846       -0.961501     -4.05587e-05    -0.000194575        0.0341394       0.0569321
281736                0.00570316      -0.0819463      0.000162529     4.30702e-05        -0.179781       -0.979323      0.000112745      -0.0001082
                     0.000108713     6.67132e-06      0.000908667       -0.066236      0.000170242     8.03179e-05         -0.26192       -0.961958
                       -0.179887       -0.979694       1.1489e-05     2.19878e-05        0.0343039       0.0747651      8.40922e-05    -0.000165307
                     6.32253e-05    -5.13117e-05        -0.262091       -0.961434     -4.05841e-05    -0.000194614         0.034156       0.0569144
281738                0.00569174      -0.0819415      0.000162582     4.30622e-05        -0.180026       -0.979278      0.000112714    -0.000108231
                     0.000108692     6.68085e-06      0.000898265      -0.0662295      0.000170271     8.02654e-05        -0.262165       -0.961892
                       -0.180132       -0.979649      1.14125e-05     2.19178e-05        0.0343289       0.0747475      8.40931e-05    -0.000165358
                     6.32613e-05    -5.12376e-05        -0.262336       -0.961368     -4.06095e-05    -0.000194653        0.0341727       0.0568967
281740                0.00568032      -0.0819367      0.000162636      4.3054e-05        -0.180271       -0.979234      0.000112683    -0.000108263
                      0.00010867     6.69039e-06      0.000887864       -0.066223        0.0001703     8.02128e-05        -0.262409       -0.961826
                       -0.180378       -0.979605      1.13358e-05     2.18479e-05        0.0343539         0.07473       8.4094e-05    -0.000165409
                     6.32976e-05    -5.11634e-05         -0.26258       -0.961301      -4.0635e-05    -0.000194692        0.0341893        0.056879
281742                 0.0056689       -0.081932      0.000162689     4.30458e-05        -0.180516       -0.979189      0.000112651    -0.000108295
                     0.000108649     6.69994e-06      0.000877463      -0.0662165      0.000170328     8.01602e-05        -0.262654       -0.961759
                       -0.180623        -0.97956      1.12589e-05     2.17778e-05        0.0343789       0.0747124      8.40947e-05     -0.00016546
                      6.3334e-05    -5.10892e-05        -0.262825       -0.961234     -4.06605e-05     -0.00019473         0.034206       0.0568614
281744                0.00565748      -0.0819272      0.000162743     4.30374e-05        -0.180761       -0.979144       0.00011262    -0.000108327
                     0.000108627      6.7095e-06      0.000867063        -0.06621      0.000170357     8.01075e-05        -0.262899       -0.961693
                       -0.180868       -0.979515      1.11818e-05     2.17077e-05        0.0344039       0.0746948      8.40955e-05    -0.000165511
                     6.33707e-05     -5.1015e-05         -0.26307       -0.961168      -4.0686e-05    -0.000194769        0.0342226       0.0568437
281746                0.00564606      -0.0819224      0.000162797     4.30289e-05        -0.181007       -0.979099      0.000112589    -0.000108359
                     0.000108606     6.71907e-06      0.000856663      -0.0662035      0.000170386     8.00549e-05        -0.263144       -0.961626
                       -0.181113       -0.979471      1.11044e-05     2.16376e-05        0.0344289       0.0746772      8.40962e-05    -0.000165563
                     6.34076e-05    -5.09408e-05        -0.263314       -0.961101     -4.07116e-05    -0.000194807        0.0342392        0.056826
281748                0.00563464      -0.0819176      0.000162851     4.30204e-05        -0.181252       -0.979054      0.000112558     -0.00010839
                     0.000108584     6.72865e-06      0.000846265       -0.066197      0.000170414     8.00022e-05        -0.263388       -0.961559
                       -0.181358       -0.979426      1.10268e-05     2.15674e-05        0.0344538       0.0746596      8.40968e-05    -0.000165614
                     6.34446e-05    -5.08666e-05        -0.263559       -0.961034     -4.07372e-05    -0.000194845        0.0342558       0.0568083
281750                0.00562322      -0.0819128      0.000162905     4.30117e-05        -0.181497       -0.979009      0.000112527    -0.000108422
                     0.000108562     6.73824e-06      0.000835867      -0.0661905      0.000170443     7.99494e-05        -0.263633       -0.961493
                       -0.181603       -0.979381       1.0949e-05     2.14971e-05        0.0344788        0.074642      8.40974e-05    -0.000165665
                     6.34819e-05    -5.07924e-05        -0.263804       -0.960967     -4.07628e-05    -0.000194883        0.0342724       0.0567906
281752                0.00561181       -0.081908      0.000162959     4.30028e-05        -0.181742       -0.978964      0.000112496    -0.000108454
                      0.00010854     6.74784e-06       0.00082547       -0.066184      0.000170472     7.98967e-05        -0.263878       -0.961426
                       -0.181848       -0.979336      1.08709e-05     2.14268e-05        0.0345037       0.0746244       8.4098e-05    -0.000165717
                     6.35194e-05    -5.07182e-05        -0.264048         -0.9609     -4.07885e-05     -0.00019492         0.034289       0.0567729
281754                0.00560039      -0.0819032      0.000163014     4.29939e-05        -0.181987       -0.978919      0.000112464    -0.000108485
                     0.000108518     6.75745e-06      0.000815074      -0.0661775      0.000170501     7.98439e-05        -0.264123       -0.961359
                       -0.182093       -0.979291      1.07926e-05     2.13564e-05        0.0345287       0.0746068      8.40986e-05    -0.000165768
                     6.35572e-05     -5.0644e-05        -0.264293       -0.960833     -4.08142e-05    -0.000194957        0.0343056       0.0567552
281756                0.00558897      -0.0818984      0.000163068     4.29849e-05        -0.182232       -0.978874      0.000112433    -0.000108517
                     0.000108496     6.76708e-06      0.000804678       -0.066171       0.00017053      7.9791e-05        -0.264367       -0.961292
                       -0.182338       -0.979246       1.0714e-05     2.12859e-05        0.0345536       0.0745892      8.40991e-05     -0.00016582
                     6.35951e-05    -5.05697e-05        -0.264537       -0.960766       -4.084e-05    -0.000194994        0.0343221       0.0567375
281758                0.00557756      -0.0818937      0.000163123     4.29757e-05        -0.182477       -0.978829      0.000112402    -0.000108549
                     0.000108474     6.77672e-06      0.000794283      -0.0661645      0.000170559     7.97381e-05        -0.264612       -0.961225
                       -0.182583       -0.979201      1.06351e-05     2.12153e-05        0.0345785       0.0745716      8.40997e-05    -0.000165871
                     6.36332e-05    -5.04955e-05        -0.264782       -0.960699     -4.08657e-05    -0.000195031        0.0343387       0.0567198
281760                0.00556614      -0.0818889      0.000163178     4.29664e-05        -0.182722       -0.978783       0.00011237     -0.00010858
                     0.000108452     6.78637e-06      0.000783889       -0.066158      0.000170588     7.96851e-05        -0.264857       -0.961158
                       -0.182828       -0.979156      1.05558e-05     2.11447e-05        0.0346034       0.0745539      8.41004e-05    -0.000165923
                     6.36716e-05    -5.04212e-05        -0.265026       -0.960631     -4.08915e-05    -0.000195066        0.0343553       0.0567021
281762                0.00555473      -0.0818841      0.000163234      4.2957e-05        -0.182967       -0.978738      0.000112339    -0.000108612
                     0.000108429     6.79603e-06      0.000773496      -0.0661515      0.000170617     7.96318e-05        -0.265101       -0.961091
                       -0.183073       -0.979111       1.0476e-05      2.1074e-05        0.0346283       0.0745363      8.41019e-05    -0.000165975
