! TOUCHSTONE file generated by CST MICROWAVE STUDIO
! Date and time: Wed Oct 15 17:33:02 2025
! Project name: Teste_Macro_Metasurface_Nanopilar.cst
! Parameters = {H=600; L_x=160; L_y=125; Lambda=1064; Max_L=200; Min_L=70; PathPara=1; Phi=0; Step_L=10; Theta=0; p=520; phaseX=180; phaseY=0}
! Header version: 2018
! Port assignment regex: !\s*Touchstone port\s*([0-9]+)\s*=\s*(CST MWS port|CST DS port)\s*([0-9]+|Zmin|Zmax)\s*\(\"(.*)\"\)(\s*mode\s*([0-9]+))?.*
! Touchstone port assignment:
! Touchstone port 1 = CST MWS port Zmax ("") mode 1
! Touchstone port 2 = CST MWS port Zmax ("") mode 2
! Touchstone port 3 = CST MWS port Zmin ("") mode 1
! Touchstone port 4 = CST MWS port Zmin ("") mode 2
! S-Parameters are not renormalized. Each port impedance will be approximated by the real part at minimum frequency. The values are described via the [Reference] keyword.
! Default impedance is overridden by [Reference]
[Version] 2.0
# GHz S RI R 376.73
[Number of Ports] 4
[Reference]
376.73 376.73 259.888 259.888 
[Number of Frequencies] 51
[Network Data]
281700                  0.078759        0.104373      0.000803728      0.00125132         0.983586       0.0706984      -0.00152465    -0.000743762
                     0.000998418      0.00168885         0.851317        0.342861      -0.00151886     -0.00029904       -0.0166211       -0.284567
                        0.983593       0.0705108      -0.00171149     0.000256264       -0.0915835       0.0924552       0.00118825     -0.00150159
                     -0.00237009     -0.00109655        -0.016095       -0.284161       0.00161964    -0.000785677         0.607553       -0.664497
281702                 0.0787718        0.104385      0.000805678      0.00125061         0.983607       0.0703777      -0.00152623    -0.000741757
                      0.00100236      0.00168887         0.851913        0.342137      -0.00151961    -0.000298471       -0.0167531       -0.283536
                        0.983613       0.0701895       -0.0017115     0.000258401       -0.0915377        0.092525       0.00118657     -0.00150406
                      -0.0023746     -0.00109285       -0.0162246       -0.283129       0.00162016    -0.000787043         0.606553       -0.665778
281704                 0.0787847        0.104397      0.000807627      0.00124989         0.983627        0.070057       -0.0015278    -0.000739747
                      0.00100632      0.00168888         0.852507         0.34141      -0.00152036    -0.000297901       -0.0168823       -0.282503
                        0.983634       0.0698681      -0.00171151     0.000260541       -0.0914918       0.0925948       0.00118489     -0.00150653
                     -0.00237911     -0.00108913       -0.0163515       -0.282096       0.00162068    -0.000788413         0.605549       -0.667058
281706                 0.0787975        0.104409      0.000809576      0.00124917         0.983648       0.0697363      -0.00152937    -0.000737729
                      0.00101028      0.00168888         0.853101        0.340682      -0.00152111    -0.000297329       -0.0170088        -0.28147
                        0.983654       0.0695468      -0.00171151     0.000262684       -0.0914459       0.0926646       0.00118319     -0.00150899
                     -0.00238362      -0.0010854       -0.0164755       -0.281062        0.0016212    -0.000789785         0.604541       -0.668337
281708                 0.0788103        0.104421      0.000811526      0.00124845         0.983669       0.0694156      -0.00153093    -0.000735706
                      0.00101425      0.00168887         0.853693        0.339952      -0.00152186    -0.000296756       -0.0171324       -0.280435
                        0.983675       0.0692255      -0.00171151     0.000264829          -0.0914       0.0927343       0.00118149     -0.00151146
                     -0.00238814     -0.00108165       -0.0165967       -0.280026       0.00162172     -0.00079116          0.60353       -0.669613
281710                 0.0788231        0.104433      0.000813475      0.00124772         0.983689       0.0690949      -0.00153249    -0.000733677
                      0.00101823      0.00168885         0.854284         0.33922      -0.00152261    -0.000296181       -0.0172532         -0.2794
                        0.983695       0.0689042      -0.00171151     0.000266977       -0.0913539        0.092804       0.00117978     -0.00151392
                     -0.00239265     -0.00107788       -0.0167151        -0.27899       0.00162224    -0.000792538         0.602514       -0.670889
281712                 0.0788359        0.104445      0.000815423      0.00124699          0.98371       0.0687743      -0.00153404    -0.000731641
                      0.00102222      0.00168883         0.854874        0.338486      -0.00152336    -0.000295605       -0.0173712       -0.278363
                        0.983715       0.0685828       -0.0017115     0.000269128       -0.0913079       0.0928737       0.00117807     -0.00151637
                     -0.00239717      -0.0010741       -0.0168308       -0.277953       0.00162276    -0.000793919         0.601495       -0.672162
281714                 0.0788488        0.104457      0.000817372      0.00124625          0.98373       0.0684536      -0.00153559    -0.000729599
                      0.00102622       0.0016888         0.855463         0.33775      -0.00152411    -0.000295028       -0.0174864       -0.277326
                        0.983735       0.0682615      -0.00171148     0.000271281       -0.0912618       0.0929434       0.00117635     -0.00151882
                     -0.00240169      -0.0010703       -0.0169436       -0.276915       0.00162328    -0.000795303         0.600472       -0.673434
281716                 0.0788616        0.104469      0.000819321       0.0012455          0.98375       0.0681329      -0.00153714    -0.000727551
                      0.00103022      0.00168875         0.856051        0.337013      -0.00152487    -0.000294449       -0.0175987       -0.276288
                        0.983755       0.0679402      -0.00171146     0.000273437       -0.0912156        0.093013       0.00117463     -0.00152127
                     -0.00240621     -0.00106648       -0.0170535       -0.275876        0.0016238    -0.000796689         0.599446       -0.674704
281718                 0.0788744        0.104481      0.000821269      0.00124475          0.98377       0.0678122      -0.00153868    -0.000725497
                      0.00103423      0.00168871         0.856638        0.336273      -0.00152562    -0.000293868       -0.0177083       -0.275249
                        0.983775       0.0676188      -0.00171144     0.000275595       -0.0911694       0.0930826        0.0011729     -0.00152372
                     -0.00241073     -0.00106264       -0.0171607       -0.274836       0.00162432    -0.000798078         0.598415       -0.675973
281720                 0.0788873        0.104493      0.000823217        0.001244          0.98379       0.0674915      -0.00154021    -0.000723436
                      0.00103826      0.00168865         0.857223        0.335532      -0.00152638    -0.000293287       -0.0178149       -0.274209
                        0.983794       0.0672975      -0.00171141     0.000277756       -0.0911231       0.0931522       0.00117116     -0.00152616
                     -0.00241525     -0.00105879        -0.017265       -0.273795       0.00162484    -0.000799469         0.597381        -0.67724
281722                 0.0789001        0.104505      0.000825165      0.00124324          0.98381       0.0671708      -0.00154174     -0.00072137
                      0.00104228      0.00168858         0.857807        0.334789      -0.00152713    -0.000292704       -0.0179188       -0.273168
                        0.983814       0.0669762      -0.00171138     0.000279919       -0.0910768       0.0932218       0.00116942      -0.0015286
                     -0.00241978     -0.00105492       -0.0173665       -0.272754       0.00162536    -0.000800862         0.596343       -0.678505
281724                 0.0789129        0.104517      0.000827113      0.00124248          0.98383       0.0668501      -0.00154327    -0.000719297
                      0.00104632       0.0016885          0.85839        0.334044      -0.00152789    -0.000292121       -0.0180197       -0.272126
                        0.983833       0.0666548      -0.00171134     0.000282084       -0.0910304       0.0932914       0.00116767     -0.00153104
                      -0.0024243     -0.00105103       -0.0174651       -0.271711       0.00162588    -0.000802258         0.595301       -0.679769
281726                 0.0789257        0.104529      0.000829061      0.00124171         0.983849       0.0665294      -0.00154479    -0.000717217
                      0.00105037      0.00168842         0.858972        0.333298      -0.00152865    -0.000291537       -0.0181178       -0.271083
                        0.983853       0.0663335       -0.0017113     0.000284252        -0.090984       0.0933609       0.00116591     -0.00153347
                     -0.00242883     -0.00104712       -0.0175608       -0.270668        0.0016264    -0.000803656         0.594255       -0.681031
281728                 0.0789386        0.104541      0.000831008      0.00124093         0.983869       0.0662088      -0.00154631    -0.000715132
                      0.00105442      0.00168833         0.859552        0.332549      -0.00152941    -0.000290952       -0.0182131        -0.27004
                        0.983872       0.0660121      -0.00171125     0.000286422       -0.0909375       0.0934304       0.00116415      -0.0015359
                     -0.00243336      -0.0010432       -0.0176537       -0.269623       0.00162692    -0.000805056         0.593206       -0.682291
281730                 0.0789514        0.104552      0.000832955      0.00124015         0.983888       0.0658881      -0.00154782     -0.00071304
                      0.00105848      0.00168822         0.860132        0.331799      -0.00153017    -0.000290367       -0.0183055       -0.268996
                        0.983891       0.0656908       -0.0017112     0.000288594        -0.090891       0.0934999       0.00116239     -0.00153832
                     -0.00243789     -0.00103926       -0.0177438       -0.268578       0.00162745    -0.000806457         0.592152        -0.68355
281732                 0.0789642        0.104564      0.000834901      0.00123937         0.983908       0.0655674      -0.00154933    -0.000710943
                      0.00106256      0.00168811          0.86071        0.331046      -0.00153093    -0.000289782       -0.0183949        -0.26795
                         0.98391       0.0653695      -0.00171114     0.000290768       -0.0908444       0.0935693       0.00116062     -0.00154074
                     -0.00244242      -0.0010353       -0.0178309       -0.267532       0.00162797    -0.000807859         0.591095       -0.684806
281734                 0.0789771        0.104576      0.000836847      0.00123857         0.983927       0.0652467      -0.00155083    -0.000708839
                      0.00106663      0.00168799         0.861287        0.330292      -0.00153169    -0.000289198       -0.0184816       -0.266904
                        0.983929       0.0650481      -0.00171108     0.000292945       -0.0907978       0.0936388       0.00115884     -0.00154316
                     -0.00244695     -0.00103132       -0.0179151       -0.266485       0.00162849    -0.000809262         0.590034       -0.686061
281736                 0.0789899        0.104588      0.000838793      0.00123778         0.983946        0.064926      -0.00155233    -0.000706728
                      0.00107072      0.00168787         0.861862        0.329536      -0.00153246    -0.000288614       -0.0185653       -0.265858
                        0.983948       0.0647268      -0.00171101     0.000295124       -0.0907512       0.0937082       0.00115705     -0.00154557
                     -0.00245148     -0.00102733       -0.0179965       -0.265437       0.00162902    -0.000810665          0.58897       -0.687314
281738                 0.0790027          0.1046      0.000840739      0.00123698         0.983965       0.0646054      -0.00155383    -0.000704612
                      0.00107482      0.00168773         0.862437        0.328779      -0.00153322     -0.00028803       -0.0186461        -0.26481
                        0.983967       0.0644054      -0.00171094     0.000297304       -0.0907044       0.0937776       0.00115526     -0.00154798
                     -0.00245602     -0.00102331        -0.018075       -0.264389       0.00162954    -0.000812069         0.587901       -0.688566
281740                 0.0790156        0.104612      0.000842683      0.00123617         0.983984       0.0642847      -0.00155532    -0.000702489
                      0.00107892      0.00168758          0.86301        0.328019      -0.00153398    -0.000287448        -0.018724       -0.263761
                        0.983985       0.0640841      -0.00171087     0.000299487       -0.0906577       0.0938469       0.00115347     -0.00155039
                     -0.00246055     -0.00101928       -0.0181505       -0.263339       0.00163006    -0.000813472         0.586829       -0.689815
281742                 0.0790284        0.104624      0.000844628      0.00123536         0.984003        0.063964       -0.0015568     -0.00070036
                      0.00108303      0.00168743         0.863582        0.327258      -0.00153474    -0.000286866        -0.018799       -0.262712
                        0.984004       0.0637627      -0.00171078     0.000301672       -0.0906108       0.0939163       0.00115166     -0.00155279
                     -0.00246509     -0.00101524       -0.0182232       -0.262289       0.00163059    -0.000814874         0.585753       -0.691063
281744                 0.0790413        0.104636      0.000846572      0.00123454         0.984021       0.0636434      -0.00155828    -0.000698225
                      0.00108715      0.00168726         0.864152        0.326494       -0.0015355    -0.000286284       -0.0188712       -0.261662
                        0.984022       0.0634414       -0.0017107     0.000303859        -0.090564       0.0939856       0.00114986     -0.00155519
                     -0.00246962     -0.00101117       -0.0182929       -0.261238       0.00163111    -0.000816275         0.584673       -0.692309
281746                 0.0790541        0.104648      0.000848515      0.00123371          0.98404       0.0633227      -0.00155976    -0.000696083
                      0.00109128      0.00168709         0.864722        0.325729      -0.00153626    -0.000285702       -0.0189403       -0.260611
                         0.98404         0.06312      -0.00171061     0.000306047        -0.090517       0.0940549       0.00114804     -0.00155759
                     -0.00247416     -0.00100709       -0.0183597       -0.260186       0.00163163    -0.000817675          0.58359       -0.693553
281748                 0.0790669         0.10466      0.000850458      0.00123288         0.984058        0.063002      -0.00156123    -0.000693935
                      0.00109542      0.00168691          0.86529        0.324963      -0.00153702    -0.000285121       -0.0190066       -0.259559
                        0.984059       0.0627987      -0.00171051     0.000308237       -0.0904701       0.0941241       0.00114622     -0.00155998
                      -0.0024787     -0.00100298       -0.0184236       -0.259134       0.00163215    -0.000819073         0.582502       -0.694795
281750                 0.0790798        0.104672        0.0008524      0.00123205         0.984077       0.0626814       -0.0015627    -0.000691781
                      0.00109957      0.00168671         0.865856        0.324194      -0.00153778    -0.000284538       -0.0190699       -0.258507
                        0.984077       0.0624773      -0.00171041      0.00031043        -0.090423       0.0941934       0.00114439     -0.00156236
                     -0.00248324    -0.000998862       -0.0184845        -0.25808       0.00163266    -0.000820469         0.581411       -0.696035
281752                 0.0790926        0.104684      0.000854341       0.0012312         0.984095       0.0623607      -0.00156416     -0.00068962
                      0.00110372      0.00168651         0.866422        0.323423      -0.00153853    -0.000283954       -0.0191303       -0.257454
                        0.984095        0.062156       -0.0017103     0.000312623        -0.090376       0.0942626       0.00114255     -0.00156474
                     -0.00248778    -0.000994723       -0.0185424       -0.257026       0.00163318    -0.000821862         0.580316       -0.697274
281754                 0.0791055        0.104695      0.000856282      0.00123036         0.984113       0.0620401      -0.00156563    -0.000687453
                      0.00110788       0.0016863         0.866986        0.322651      -0.00153929    -0.000283369       -0.0191877         -0.2564
                        0.984113       0.0618346      -0.00171019     0.000314819       -0.0903288       0.0943318       0.00114069     -0.00156711
                     -0.00249232    -0.000990566       -0.0185975       -0.255971       0.00163369    -0.000823253         0.579217        -0.69851
281756                 0.0791183        0.104707      0.000858222       0.0012295         0.984131       0.0617194       -0.0015671    -0.000685278
                      0.00111205      0.00168608         0.867549        0.321877      -0.00154004    -0.000282782       -0.0192422       -0.255345
                         0.98413       0.0615133      -0.00171007     0.000317015       -0.0902817        0.094401        0.0011388     -0.00156945
                     -0.00249686    -0.000986391       -0.0186495       -0.254916       0.00163419    -0.000824642         0.578114       -0.699745
281758                 0.0791312        0.104719      0.000860161      0.00122865         0.984149       0.0613988       -0.0015686     -0.00068309
                      0.00111623      0.00168585          0.86811        0.321101      -0.00154079    -0.000282194       -0.0192936        -0.25429
                        0.984148       0.0611919      -0.00170995     0.000319214       -0.0902344       0.0944701       0.00113684     -0.00157171
                      -0.0025014    -0.000982197       -0.0186986       -0.253859       0.00163469    -0.000826028         0.577008       -0.700978
281760                  0.079144        0.104731        0.0008621      0.00122778         0.984167       0.0610781      -0.00157046    -0.000680667
                      0.00112042      0.00168562          0.86867        0.320323      -0.00154154    -0.000281603       -0.0193421       -0.253234
                        0.984166       0.0608706      -0.00170983     0.000321413       -0.0901872       0.0945393       0.00113582       -0.001573
                     -0.00250594    -0.000977984       -0.0187446       -0.252802       0.00163519    -0.000827412         0.575899       -0.702209
281762                 0.0791569        0.104743      0.000864038      0.00122691         0.984185       0.0607575      -0.00157114     -0.00067871
                      0.00112461      0.00168537         0.869229        0.319544      -0.00154228    -0.000281011       -0.0193878       -0.252177
                        0.984183       0.0605492      -0.00170969     0.000323613       -0.0901398       0.0946084       0.00113375      -0.0015767
