! TOUCHSTONE file generated by CST MICROWAVE STUDIO
! Date and time: Wed Oct 15 17:32:07 2025
! Project name: Teste_Macro_Metasurface_Nanopilar.cst
! Parameters = {H=600; L_x=145; L_y=105; Lambda=1064; Max_L=200; Min_L=70; PathPara=1; Phi=0; Step_L=10; Theta=0; p=520; phaseX=180; phaseY=0}
! Header version: 2018
! Port assignment regex: !\s*Touchstone port\s*([0-9]+)\s*=\s*(CST MWS port|CST DS port)\s*([0-9]+|Zmin|Zmax)\s*\(\"(.*)\"\)(\s*mode\s*([0-9]+))?.*
! Touchstone port assignment:
! Touchstone port 1 = CST MWS port Zmax ("") mode 1
! Touchstone port 2 = CST MWS port Zmax ("") mode 2
! Touchstone port 3 = CST MWS port Zmin ("") mode 1
! Touchstone port 4 = CST MWS port Zmin ("") mode 2
! S-Parameters are not renormalized. Each port impedance will be approximated by the real part at minimum frequency. The values are described via the [Reference] keyword.
! Default impedance is overridden by [Reference]
[Version] 2.0
# GHz S RI R 376.73
[Number of Ports] 4
[Reference]
376.73 376.73 259.888 259.888 
[Number of Frequencies] 51
[Network Data]
281700                  0.163417       0.0746439      4.02212e-05    -0.000675847        -0.835865        0.503658      0.000165609     0.000109828
                     2.65312e-05    -0.000680971         0.046715        0.124576       3.3073e-05    -0.000157686         0.972809        0.155108
                       -0.835376        0.503469      -3.5449e-05    -8.93478e-05      -0.00990099         0.17855       0.00038486     0.000689205
                     0.000117639     0.000158693         0.972028         0.15505      0.000507628     0.000541252       -0.0820562        0.104747
281702                  0.163433        0.074625      4.00105e-05     -0.00067578        -0.835672        0.503976      0.000165617     0.000109768
                     2.63657e-05    -0.000680908        0.0467329        0.124591      3.29757e-05    -0.000157725          0.97286        0.154777
                       -0.835182        0.503786     -3.55511e-05    -8.92897e-05      -0.00978916        0.178562      0.000385166      0.00068892
                     0.000117696     0.000158677         0.972079         0.15472      0.000507789     0.000540847        -0.082007        0.104812
281704                  0.163448       0.0746061      3.97999e-05    -0.000675712        -0.835478        0.504293      0.000165625     0.000109709
                     2.62003e-05    -0.000680844        0.0467509        0.124607      3.28783e-05    -0.000157764          0.97291        0.154446
                       -0.834989        0.504103     -3.56529e-05    -8.92315e-05      -0.00967733        0.178575      0.000385471     0.000688634
                     0.000117754      0.00015866          0.97213         0.15439      0.000507949     0.000540442       -0.0819577        0.104877
281706                  0.163464       0.0745872      3.95894e-05    -0.000675645        -0.835285         0.50461      0.000165633     0.000109649
                     2.60351e-05     -0.00068078        0.0467689        0.124622      3.27809e-05    -0.000157803          0.97296        0.154115
                       -0.834795        0.504421     -3.57546e-05    -8.91732e-05      -0.00956548        0.178587      0.000385776     0.000688348
                     0.000117811     0.000158643          0.97218         0.15406      0.000508109     0.000540037       -0.0819084        0.104941
281708                  0.163479       0.0745682       3.9379e-05    -0.000675577        -0.835091        0.504927      0.000165641     0.000109589
                     2.58699e-05    -0.000680716        0.0467868        0.124637      3.26833e-05    -0.000157842          0.97301        0.153784
                       -0.834601        0.504738     -3.58561e-05    -8.91149e-05      -0.00945362        0.178599      0.000386081     0.000688062
                     0.000117868     0.000158626          0.97223         0.15373      0.000508268     0.000539632        -0.081859        0.105006
281710                  0.163494       0.0745493      3.91688e-05     -0.00067551        -0.834897        0.505245      0.000165649     0.000109529
                     2.57049e-05    -0.000680651        0.0468048        0.124653      3.25858e-05    -0.000157881         0.973059        0.153453
                       -0.834407        0.505055     -3.59574e-05    -8.90564e-05      -0.00934175        0.178611      0.000386385     0.000687776
                     0.000117926     0.000158609          0.97228          0.1534      0.000508427     0.000539228       -0.0818096         0.10507
281712                   0.16351       0.0745304      3.89586e-05    -0.000675442        -0.834703        0.505562      0.000165657      0.00010947
                       2.554e-05    -0.000680587        0.0468227        0.124668      3.24881e-05     -0.00015792         0.973109        0.153122
                       -0.834213        0.505372     -3.60585e-05    -8.89978e-05      -0.00922986        0.178623      0.000386689     0.000687489
                     0.000117983     0.000158593         0.972331         0.15307      0.000508585     0.000538823       -0.0817602        0.105135
281714                  0.163525       0.0745114      3.87485e-05    -0.000675374        -0.834509        0.505879      0.000165665      0.00010941
                     2.53752e-05    -0.000680523        0.0468407        0.124684      3.23904e-05    -0.000157959         0.973159        0.152791
                       -0.834019        0.505689     -3.61594e-05    -8.89392e-05      -0.00911796        0.178634      0.000386993     0.000687202
                      0.00011804     0.000158576         0.972381         0.15274      0.000508742     0.000538418       -0.0817107          0.1052
281716                   0.16354       0.0744925      3.85385e-05    -0.000675306        -0.834315        0.506196      0.000165673      0.00010935
                     2.52106e-05    -0.000680459        0.0468587        0.124699      3.22927e-05    -0.000157998         0.973208        0.152461
                       -0.833824        0.506006     -3.62602e-05    -8.88804e-05      -0.00900605        0.178646      0.000387296     0.000686915
                     0.000118097     0.000158559          0.97243         0.15241      0.000508899     0.000538013       -0.0816611        0.105264
281718                  0.163556       0.0744735      3.83287e-05    -0.000675238         -0.83412        0.506512      0.000165681      0.00010929
                     2.50461e-05    -0.000680394        0.0468766        0.124715      3.21949e-05    -0.000158037         0.973257         0.15213
                        -0.83363        0.506323     -3.63608e-05    -8.88216e-05      -0.00889413        0.178658        0.0003876     0.000686628
                     0.000118154     0.000158542          0.97248         0.15208      0.000509056     0.000537609       -0.0816115        0.105329
281720                  0.163571       0.0744546      3.81189e-05     -0.00067517        -0.833926        0.506829      0.000165689     0.000109231
                     2.48817e-05     -0.00068033        0.0468946         0.12473       3.2097e-05    -0.000158076         0.973307        0.151799
                       -0.833435        0.506639     -3.64612e-05    -8.87627e-05      -0.00878219        0.178669      0.000387903     0.000686341
                     0.000118211     0.000158525          0.97253         0.15175      0.000509212     0.000537204       -0.0815618        0.105393
281722                  0.163586       0.0744356      3.79093e-05    -0.000675102        -0.833731        0.507146      0.000165697     0.000109171
                     2.47174e-05    -0.000680265        0.0469125        0.124746      3.19991e-05    -0.000158115         0.973356        0.151468
                       -0.833241        0.506956     -3.65615e-05    -8.87037e-05      -0.00867024        0.178681      0.000388205     0.000686053
                     0.000118268     0.000158508         0.972579         0.15142      0.000509367       0.0005368       -0.0815121        0.105458
281724                  0.163602       0.0744166      3.76998e-05    -0.000675033        -0.833537        0.507463      0.000165705     0.000109111
                     2.45533e-05      -0.0006802        0.0469305        0.124761      3.19012e-05    -0.000158154         0.973405        0.151136
                       -0.833046        0.507273     -3.66616e-05    -8.86446e-05      -0.00855828        0.178692      0.000388508     0.000685765
                     0.000118326      0.00015849         0.972629         0.15109      0.000509522     0.000536395       -0.0814624        0.105522
281726                  0.163617       0.0743976      3.74903e-05    -0.000674965        -0.833342        0.507779      0.000165712     0.000109052
                     2.43893e-05    -0.000680136        0.0469485        0.124776      3.18032e-05    -0.000158193         0.973454        0.150805
                       -0.832851        0.507589     -3.67615e-05    -8.85854e-05      -0.00844631        0.178704       0.00038881     0.000685477
                     0.000118383     0.000158473         0.972678         0.15076      0.000509677     0.000535991       -0.0814126        0.105586
281728                  0.163632       0.0743787       3.7281e-05    -0.000674896        -0.833147        0.508096       0.00016572     0.000108992
                     2.42255e-05    -0.000680071        0.0469664        0.124792      3.17051e-05    -0.000158232         0.973502        0.150474
                       -0.832656        0.507906     -3.68613e-05    -8.85262e-05      -0.00833432        0.178715      0.000389112     0.000685189
                      0.00011844     0.000158456         0.972727         0.15043      0.000509831     0.000535587       -0.0813627        0.105651
281730                  0.163648       0.0743597      3.70718e-05    -0.000674827        -0.832952        0.508412      0.000165728     0.000108932
                     2.40617e-05    -0.000680006        0.0469844        0.124807       3.1607e-05    -0.000158271         0.973551        0.150143
                       -0.832461        0.508222     -3.69609e-05    -8.84669e-05      -0.00822232        0.178726      0.000389414     0.000684901
                     0.000118497     0.000158439         0.972776          0.1501      0.000509984     0.000535183       -0.0813128        0.105715
281732                  0.163663       0.0743407      3.68627e-05    -0.000674758        -0.832756        0.508729      0.000165736     0.000108873
                     2.38981e-05    -0.000679941        0.0470024        0.124823      3.15089e-05     -0.00015831           0.9736        0.149812
                       -0.832265        0.508539     -3.70604e-05    -8.84075e-05      -0.00811031        0.178737      0.000389716     0.000684612
                     0.000118553     0.000158421         0.972825         0.14977      0.000510137     0.000534779       -0.0812629         0.10578
281734                  0.163678       0.0743217      3.66537e-05    -0.000674689        -0.832561        0.509045      0.000165743     0.000108813
                     2.37346e-05    -0.000679876        0.0470204        0.124838      3.14107e-05    -0.000158348         0.973648        0.149481
                        -0.83207        0.508855     -3.71598e-05     -8.8348e-05      -0.00799829        0.178748      0.000390018     0.000684323
                      0.00011861     0.000158404         0.972874        0.149439       0.00051029     0.000534375       -0.0812129        0.105844
281736                  0.163694       0.0743027      3.64449e-05     -0.00067462        -0.832366        0.509361      0.000165751     0.000108754
                     2.35713e-05    -0.000679811        0.0470383        0.124854      3.13124e-05    -0.000158387         0.973696         0.14915
                       -0.831874        0.509171      -3.7259e-05    -8.82885e-05      -0.00788625        0.178759      0.000390319     0.000684034
                     0.000118667     0.000158387         0.972922        0.149109      0.000510442     0.000533971       -0.0811629        0.105908
281738                  0.163709       0.0742836      3.62361e-05    -0.000674551         -0.83217        0.509677      0.000165759     0.000108694
                     2.34081e-05    -0.000679746        0.0470563        0.124869      3.12141e-05    -0.000158426         0.973745        0.148819
                       -0.831679        0.509487      -3.7358e-05    -8.82289e-05      -0.00777421         0.17877       0.00039062     0.000683745
                     0.000118724     0.000158369         0.972971        0.148779      0.000510593     0.000533568       -0.0811128        0.105973
281740                  0.163724       0.0742646      3.60273e-05    -0.000674481        -0.831974        0.509993      0.000165767     0.000108634
                      2.3245e-05    -0.000679681        0.0470743        0.124884      3.11158e-05    -0.000158465         0.973793        0.148488
                       -0.831483        0.509803     -3.74569e-05    -8.81692e-05      -0.00766215        0.178781      0.000390921     0.000683455
                     0.000118781     0.000158352          0.97302        0.148449      0.000510744     0.000533165       -0.0810626        0.106037
281742                   0.16374       0.0742456      3.58187e-05    -0.000674411        -0.831778        0.510309      0.000165774     0.000108575
                     2.30821e-05    -0.000679616        0.0470922          0.1249      3.10174e-05    -0.000158504         0.973841        0.148157
                       -0.831287        0.510119     -3.75557e-05    -8.81095e-05      -0.00755008        0.178792      0.000391222     0.000683165
                     0.000118838     0.000158334         0.973068        0.148119      0.000510893     0.000532762       -0.0810125        0.106101
281744                  0.163755       0.0742266      3.56102e-05    -0.000674342        -0.831582        0.510625      0.000165782     0.000108515
                     2.29193e-05    -0.000679551        0.0471102        0.124915       3.0919e-05    -0.000158543         0.973888        0.147826
                       -0.831091        0.510435     -3.76544e-05    -8.80496e-05      -0.00743799        0.178803      0.000391523     0.000682875
                     0.000118895     0.000158317         0.973116        0.147789      0.000511042     0.000532361       -0.0809622        0.106165
281746                   0.16377       0.0742075      3.54017e-05    -0.000674272        -0.831386        0.510941       0.00016579     0.000108455
                     2.27567e-05    -0.000679486        0.0471282        0.124931      3.08206e-05    -0.000158582         0.973936        0.147495
                       -0.830895        0.510751      -3.7753e-05    -8.79898e-05       -0.0073259        0.178813      0.000391824     0.000682585
                     0.000118951     0.000158299         0.973164        0.147459      0.000511188      0.00053196       -0.0809119        0.106229
281748                  0.163785       0.0741885      3.51932e-05    -0.000674202         -0.83119        0.511257      0.000165798     0.000108395
                     2.25942e-05    -0.000679421        0.0471462        0.124946      3.07221e-05     -0.00015862         0.973984        0.147163
                       -0.830698        0.511067     -3.78514e-05    -8.79298e-05      -0.00721379        0.178824      0.000392125     0.000682295
                     0.000119008     0.000158282         0.973212        0.147128      0.000511327     0.000531558       -0.0808616        0.106294
281750                  0.163801       0.0741694      3.49848e-05    -0.000674131        -0.830994        0.511573      0.000165805     0.000108335
                      2.2432e-05    -0.000679355        0.0471642        0.124961      3.06236e-05    -0.000158659         0.974031        0.146832
                       -0.830502        0.511383     -3.79497e-05    -8.78698e-05      -0.00710167        0.178834      0.000392426     0.000682004
                     0.000119065     0.000158265          0.97326        0.146798      0.000511466     0.000531143       -0.0808112        0.106358
281752                  0.163816       0.0741504      3.47765e-05    -0.000674061        -0.830797        0.511889      0.000165813     0.000108275
                     2.22699e-05     -0.00067929        0.0471821        0.124977       3.0525e-05    -0.000158698         0.974079        0.146501
                       -0.830305        0.511698      -3.8048e-05    -8.78098e-05      -0.00698954        0.178845      0.000392726     0.000681713
                     0.000119121     0.000158247         0.973308        0.146468      0.000511618     0.000530729       -0.0807608        0.106422
281754                  0.163831       0.0741313      3.45682e-05    -0.000673991        -0.830601        0.512204      0.000165821     0.000108215
                     2.21085e-05    -0.000679226        0.0472001        0.124992      3.04264e-05    -0.000158737         0.974126         0.14617
                       -0.830109        0.512014     -3.81461e-05    -8.77497e-05       -0.0068774        0.178855      0.000393027     0.000681422
                     0.000119177     0.000158231         0.973356        0.146138      0.000511771     0.000530323       -0.0807103        0.106486
281756                  0.163846       0.0741122        3.436e-05     -0.00067392        -0.830404         0.51252      0.000165828     0.000108155
                     2.19499e-05    -0.000679164        0.0472181        0.125008      3.03277e-05    -0.000158775         0.974173        0.145839
                       -0.829912         0.51233     -3.82442e-05    -8.76895e-05      -0.00676525        0.178865      0.000393327     0.000681131
                     0.000119231     0.000158216         0.973403        0.145808      0.000511922     0.000529919       -0.0806598         0.10655
281758                  0.163862       0.0740931      3.41519e-05     -0.00067385        -0.830207        0.512835      0.000165836     0.000108095
                     2.17896e-05    -0.000679073        0.0472361        0.125023       3.0229e-05    -0.000158814          0.97422        0.145508
                       -0.829715        0.512646     -3.83421e-05    -8.76292e-05      -0.00665308        0.178876      0.000393627     0.000680839
                     0.000119288     0.000158185         0.973451        0.145477      0.000512069     0.000529516       -0.0806092        0.106614
281760                  0.163877       0.0740741      3.39438e-05    -0.000673779         -0.83001        0.513151      0.000165843     0.000108034
                     2.16203e-05    -0.000679021        0.0472541        0.125038      3.01303e-05    -0.000158852         0.974267        0.145176
                       -0.829518        0.512961       -3.844e-05    -8.75689e-05       -0.0065409        0.178886      0.000393927     0.000680547
                     0.000119348     0.000158172         0.973498        0.145147      0.000512216     0.000529113       -0.0805586        0.106678
281762                  0.163892        0.074055      3.37358e-05    -0.000673708        -0.829813        0.513466       0.00016585     0.000107974
                     2.14588e-05    -0.000678957        0.0472721        0.125054      3.00315e-05    -0.000158891         0.974314        0.144845
                       -0.829321        0.513276     -3.85379e-05    -8.75086e-05      -0.00642872        0.178896      0.000394227     0.000680255
