! TOUCHSTONE file generated by CST MICROWAVE STUDIO
! Date and time: Wed Oct 15 17:28:28 2025
! Project name: Teste_Macro_Metasurface_Nanopilar.cst
! Parameters = {H=600; L_x=80; L_y=145; Lambda=1064; Max_L=200; Min_L=70; PathPara=1; Phi=0; Step_L=10; Theta=0; p=520; phaseX=180; phaseY=0}
! Header version: 2018
! Port assignment regex: !\s*Touchstone port\s*([0-9]+)\s*=\s*(CST MWS port|CST DS port)\s*([0-9]+|Zmin|Zmax)\s*\(\"(.*)\"\)(\s*mode\s*([0-9]+))?.*
! Touchstone port assignment:
! Touchstone port 1 = CST MWS port Zmax ("") mode 1
! Touchstone port 2 = CST MWS port Zmax ("") mode 2
! Touchstone port 3 = CST MWS port Zmin ("") mode 1
! Touchstone port 4 = CST MWS port Zmin ("") mode 2
! S-Parameters are not renormalized. Each port impedance will be approximated by the real part at minimum frequency. The values are described via the [Reference] keyword.
! Default impedance is overridden by [Reference]
[Version] 2.0
# GHz S RI R 376.73
[Number of Ports] 4
[Reference]
376.73 376.73 259.888 259.888 
[Number of Frequencies] 51
[Network Data]
281700                -0.0143868       -0.114429      6.18475e-05    -2.55666e-05        0.0148551         0.98371       0.00041172    -4.90104e-06
                     1.90076e-05    -6.69069e-05       -0.0119796      -0.0691875     -0.000441837     9.22053e-05        -0.245358       -0.965675
                       0.0147098        0.983722     -0.000379323     5.34659e-05       -0.0138435        0.115523      4.48732e-05     -1.7178e-05
                     0.000446245    -3.74256e-05         -0.24562       -0.966011      8.76557e-05    -6.28217e-05        0.0223933       0.0668054
281702                -0.0144207       -0.114395      6.18768e-05    -2.54386e-05        0.0152525        0.983708      0.000411757    -5.07263e-06
                     1.90203e-05     -6.6816e-05       -0.0119899      -0.0691797     -0.000441814     9.22866e-05        -0.245601       -0.965614
                       0.0151074         0.98372     -0.000379334     5.36243e-05       -0.0137854          0.1155      4.48147e-05    -1.71344e-05
                     0.000446187    -3.75333e-05        -0.245864        -0.96595      8.75665e-05    -6.27599e-05        0.0224142       0.0667922
281704                -0.0144546        -0.11436      6.19062e-05    -2.53106e-05        0.0156499        0.983705      0.000411795    -5.24423e-06
                      1.9033e-05     -6.6725e-05       -0.0120002       -0.069172      -0.00044179     9.23678e-05        -0.245845       -0.965552
                        0.015505        0.983717     -0.000379345     5.37827e-05       -0.0137274        0.115478      4.47562e-05    -1.70909e-05
                     0.000446129    -3.76411e-05        -0.246108       -0.965888      8.74784e-05     -6.2698e-05        0.0224351       0.0667791
281706                -0.0144885       -0.114326      6.19355e-05    -2.51827e-05        0.0160473        0.983702      0.000411833    -5.41582e-06
                     1.90458e-05     -6.6634e-05       -0.0120106      -0.0691642     -0.000441767     9.24491e-05        -0.246088       -0.965491
                       0.0159027        0.983714     -0.000379355     5.39413e-05       -0.0136695        0.115456      4.46978e-05    -1.70474e-05
                     0.000446071    -3.77488e-05        -0.246351       -0.965826      8.73912e-05    -6.26358e-05        0.0224559        0.066766
281708                -0.0145224       -0.114292      6.19649e-05    -2.50548e-05        0.0164448        0.983699       0.00041187    -5.58742e-06
                     1.90586e-05    -6.65431e-05       -0.0120209      -0.0691565     -0.000441744     9.25303e-05        -0.246332        -0.96543
                       0.0163003        0.983711     -0.000379366     5.40999e-05       -0.0136115        0.115433      4.46394e-05    -1.70041e-05
                     0.000446013    -3.78565e-05        -0.246595       -0.965764       8.7305e-05    -6.25732e-05        0.0224768       0.0667528
281710                -0.0145562       -0.114258      6.19943e-05    -2.49269e-05        0.0168422        0.983696      0.000411907    -5.75901e-06
                     1.90714e-05    -6.64521e-05       -0.0120312      -0.0691487     -0.000441721     9.26114e-05        -0.246576       -0.965368
                       0.0166979        0.983708     -0.000379376     5.42587e-05       -0.0135536        0.115411      4.45809e-05    -1.69608e-05
                     0.000445955    -3.79642e-05        -0.246839       -0.965702      8.72197e-05    -6.25101e-05        0.0224976       0.0667397
281712                -0.0145901       -0.114224      6.20237e-05    -2.47991e-05        0.0172396        0.983693      0.000411945     -5.9306e-06
                     1.90842e-05    -6.63611e-05       -0.0120415       -0.069141     -0.000441698     9.26925e-05        -0.246819       -0.965306
                       0.0170955        0.983705     -0.000379387     5.44176e-05       -0.0134958        0.115389      4.45226e-05    -1.69176e-05
                     0.000445897    -3.80719e-05        -0.247082        -0.96564      8.71352e-05    -6.24466e-05        0.0225184       0.0667265
281714                -0.0146239       -0.114189      6.20532e-05    -2.46713e-05         0.017637        0.983689      0.000411982    -6.10219e-06
                     1.90971e-05      -6.627e-05       -0.0120519      -0.0691332     -0.000441675     9.27735e-05        -0.247063       -0.965245
                       0.0174931        0.983701     -0.000379397     5.45766e-05       -0.0134379        0.115366      4.44642e-05    -1.68744e-05
                     0.000445838    -3.81795e-05        -0.247326       -0.965578      8.70513e-05    -6.23823e-05        0.0225393       0.0667133
281716                -0.0146577       -0.114155      6.20826e-05    -2.45435e-05        0.0180344        0.983686      0.000412019    -6.27377e-06
                     1.91101e-05     -6.6179e-05       -0.0120622      -0.0691255     -0.000441653     9.28544e-05        -0.247306       -0.965183
                       0.0178907        0.983697     -0.000379408     5.47357e-05       -0.0133801        0.115344      4.44059e-05    -1.68313e-05
                      0.00044578    -3.82872e-05        -0.247569       -0.965516       8.6968e-05    -6.23175e-05        0.0225601       0.0667001
281718                -0.0146916       -0.114121      6.21121e-05    -2.44157e-05        0.0184318        0.983682      0.000412056    -6.44536e-06
                     1.91231e-05     -6.6088e-05       -0.0120725      -0.0691178     -0.000441631     9.29351e-05         -0.24755       -0.965121
                       0.0182884        0.983693     -0.000379418     5.48949e-05       -0.0133224        0.115321      4.43476e-05    -1.67883e-05
                     0.000445721    -3.83948e-05        -0.247813       -0.965454      8.68852e-05    -6.22519e-05        0.0225809        0.066687
281720                -0.0147253       -0.114087      6.21415e-05     -2.4288e-05        0.0188293        0.983678      0.000412093    -6.61694e-06
                     1.91361e-05    -6.59969e-05       -0.0120828        -0.06911     -0.000441609     9.30155e-05        -0.247793       -0.965059
                        0.018686        0.983689     -0.000379429     5.50543e-05       -0.0132646        0.115298      4.42893e-05    -1.67454e-05
                     0.000445663    -3.85024e-05        -0.248057       -0.965392      8.68027e-05    -6.21856e-05        0.0226017       0.0666738
281722                -0.0147591       -0.114052       6.2171e-05    -2.41602e-05        0.0192267        0.983674      0.000412129    -6.78852e-06
                     1.91493e-05    -6.59058e-05       -0.0120932      -0.0691023     -0.000441587     9.30956e-05        -0.248036       -0.964998
                       0.0190836        0.983685     -0.000379439     5.52138e-05        -0.013207        0.115276      4.42311e-05    -1.67025e-05
                     0.000445604    -3.86101e-05          -0.2483        -0.96533      8.67203e-05    -6.21186e-05        0.0226225       0.0666606
281724                -0.0147929       -0.114018      6.22004e-05    -2.40324e-05        0.0196241        0.983669      0.000412166     -6.9601e-06
                     1.91625e-05    -6.58148e-05       -0.0121035      -0.0690945     -0.000441566     9.31753e-05         -0.24828       -0.964936
                       0.0194812        0.983681     -0.000379449     5.53734e-05       -0.0131493        0.115253      4.41728e-05    -1.66597e-05
                     0.000445545    -3.87177e-05        -0.248544       -0.965267      8.66381e-05    -6.20509e-05        0.0226433       0.0666474
281726                -0.0148267       -0.113984      6.22299e-05    -2.39047e-05        0.0200215        0.983665      0.000412203    -7.13168e-06
                     1.91758e-05    -6.57236e-05       -0.0121138      -0.0690867     -0.000441545     9.32545e-05        -0.248523       -0.964874
                       0.0198788        0.983676      -0.00037946     5.55332e-05       -0.0130917        0.115231      4.41146e-05     -1.6617e-05
                     0.000445486    -3.88253e-05        -0.248787       -0.965205      8.65559e-05    -6.19826e-05        0.0226641       0.0666342
281728                -0.0148604        -0.11395      6.22593e-05    -2.37769e-05        0.0204189         0.98366      0.000412239    -7.30325e-06
                     1.91892e-05    -6.56325e-05       -0.0121241       -0.069079     -0.000441524      9.3333e-05        -0.248767       -0.964811
                       0.0202764        0.983672      -0.00037947     5.56931e-05       -0.0130341        0.115208      4.40564e-05    -1.65744e-05
                     0.000445427    -3.89329e-05        -0.249031       -0.965142      8.64736e-05    -6.19138e-05        0.0226848        0.066621
281730                -0.0148942       -0.113915      6.22888e-05    -2.36491e-05        0.0208164        0.983656      0.000412275    -7.47482e-06
                     1.92027e-05    -6.55414e-05       -0.0121344      -0.0690712     -0.000441504     9.34106e-05         -0.24901       -0.964749
                        0.020674        0.983667      -0.00037948     5.58531e-05       -0.0129765        0.115185      4.39983e-05    -1.65318e-05
                     0.000445367    -3.90405e-05        -0.249274        -0.96508      8.63912e-05    -6.18444e-05        0.0227056       0.0666078
281732                -0.0149279       -0.113881      6.23182e-05    -2.35213e-05        0.0212138        0.983651      0.000412312    -7.64639e-06
                     1.92163e-05    -6.54503e-05       -0.0121447      -0.0690635     -0.000441483     9.34872e-05        -0.249253       -0.964687
                       0.0210716        0.983662      -0.00037949     5.60133e-05        -0.012919        0.115162      4.39401e-05    -1.64893e-05
                     0.000445308     -3.9148e-05        -0.249518       -0.965017      8.63085e-05    -6.17747e-05        0.0227264       0.0665945
281734                -0.0149616       -0.113847      6.23476e-05    -2.33935e-05        0.0216112        0.983646      0.000412348    -7.81795e-06
                       1.923e-05    -6.53591e-05        -0.012155      -0.0690557     -0.000441462     9.35626e-05        -0.249497       -0.964625
                       0.0214692        0.983657     -0.000379501     5.61736e-05       -0.0128615         0.11514       4.3882e-05    -1.64469e-05
                     0.000445248    -3.92556e-05        -0.249761       -0.964955      8.62257e-05    -6.17046e-05        0.0227471       0.0665813
281736                -0.0149953       -0.113812      6.23771e-05    -2.32656e-05        0.0220086         0.98364      0.000412384    -7.98951e-06
                     1.92439e-05    -6.52679e-05       -0.0121654       -0.069048     -0.000441441     9.36368e-05         -0.24974       -0.964563
                       0.0218668        0.983651     -0.000379511     5.63342e-05        -0.012804        0.115117      4.38239e-05    -1.64045e-05
                     0.000445189    -3.93632e-05        -0.250005       -0.964892      8.61425e-05    -6.16342e-05        0.0227679       0.0665681
281738                 -0.015029       -0.113778      6.24065e-05    -2.31377e-05         0.022406        0.983635       0.00041242    -8.16107e-06
                     1.92579e-05    -6.51767e-05       -0.0121757      -0.0690402     -0.000441418     9.37098e-05        -0.249983         -0.9645
                       0.0222644        0.983646     -0.000379521     5.64948e-05       -0.0127466        0.115094      4.37658e-05    -1.63622e-05
                     0.000445129    -3.94708e-05        -0.250248       -0.964829      8.60591e-05    -6.15637e-05        0.0227886       0.0665549
281740                -0.0150627       -0.113744      6.24358e-05    -2.30098e-05        0.0228035        0.983629      0.000412456    -8.33261e-06
                     1.92721e-05    -6.50855e-05        -0.012186      -0.0690324     -0.000441394     9.37819e-05        -0.250227       -0.964438
                        0.022662         0.98364     -0.000379531     5.66557e-05       -0.0126892        0.115071      4.37078e-05      -1.632e-05
                     0.000445069    -3.95783e-05        -0.250491       -0.964766      8.59754e-05    -6.14929e-05        0.0228094       0.0665416
281742                -0.0150964       -0.113709      6.24652e-05    -2.28819e-05        0.0232009        0.983624      0.000412492    -8.50415e-06
                     1.92865e-05    -6.49943e-05       -0.0121963      -0.0690247     -0.000441368     9.38537e-05         -0.25047       -0.964375
                       0.0230596        0.983634     -0.000379541     5.68167e-05       -0.0126319        0.115048      4.36498e-05    -1.62779e-05
                     0.000445008    -3.96859e-05        -0.250735       -0.964703      8.58914e-05    -6.14222e-05        0.0228301       0.0665284
281744                  -0.01513       -0.113675      6.24945e-05    -2.27539e-05        0.0235983        0.983618      0.000412527    -8.67567e-06
                     1.93012e-05    -6.49031e-05       -0.0122066      -0.0690169     -0.000441341     9.39258e-05        -0.250713       -0.964313
                       0.0234572        0.983629     -0.000379551     5.69779e-05       -0.0125746        0.115025      4.35917e-05    -1.62358e-05
                     0.000444948    -3.97935e-05        -0.250978        -0.96464      8.58071e-05    -6.13514e-05        0.0228508       0.0665151
281746                -0.0151637       -0.113641      6.25238e-05    -2.26259e-05        0.0239957        0.983612      0.000412563    -8.84717e-06
                     1.93161e-05    -6.48119e-05       -0.0122169      -0.0690092     -0.000441311     9.39987e-05        -0.250957        -0.96425
                       0.0238548        0.983622     -0.000379561     5.71392e-05       -0.0125173        0.115002      4.35338e-05    -1.61938e-05
                     0.000444887     -3.9901e-05        -0.251222       -0.964577      8.57225e-05    -6.12806e-05        0.0228715       0.0665019
281748                -0.0151973       -0.113606      6.25531e-05    -2.24978e-05        0.0243931        0.983605      0.000412598    -9.01866e-06
                     1.93314e-05    -6.47207e-05       -0.0122272      -0.0690014      -0.00044128      9.4073e-05          -0.2512       -0.964187
                       0.0242524        0.983616     -0.000379571     5.73008e-05         -0.01246         0.11498      4.34758e-05    -1.61518e-05
                     0.000444825    -4.00086e-05        -0.251465       -0.964514      8.56377e-05    -6.12099e-05        0.0228922       0.0664886
281750                -0.0152309       -0.113572      6.25823e-05    -2.23697e-05        0.0247905        0.983599      0.000412634    -9.19012e-06
                     1.93472e-05    -6.46296e-05       -0.0122375      -0.0689936     -0.000441249     9.41489e-05        -0.251443       -0.964124
                         0.02465         0.98361     -0.000379581     5.74625e-05       -0.0124028        0.114957      4.34179e-05      -1.611e-05
                     0.000444764    -4.01162e-05        -0.251708       -0.964451      8.55527e-05    -6.11393e-05        0.0229129       0.0664753
281752                -0.0152645       -0.113537      6.26115e-05    -2.22416e-05        0.0251879        0.983593      0.000412669    -9.36153e-06
                     1.93637e-05    -6.45384e-05       -0.0122478      -0.0689859     -0.000441217     9.42264e-05        -0.251686       -0.964062
                       0.0250476        0.983603     -0.000379591     5.76244e-05       -0.0123456        0.114933        4.336e-05    -1.60682e-05
                     0.000444701    -4.02238e-05        -0.251952       -0.964388      8.54674e-05    -6.10689e-05        0.0229336        0.066462
281754                -0.0152981       -0.113503      6.26406e-05    -2.21133e-05        0.0255853        0.983586      0.000412704    -9.53289e-06
                     1.93813e-05    -6.44472e-05       -0.0122581      -0.0689781     -0.000441186     9.43052e-05        -0.251929       -0.963999
                       0.0254452        0.983596     -0.000379601     5.77866e-05       -0.0122885         0.11491      4.33021e-05    -1.60264e-05
                     0.000444638    -4.03315e-05        -0.252195       -0.964325      8.53819e-05    -6.09987e-05        0.0229543       0.0664488
281756                -0.0153317       -0.113468      6.26697e-05     -2.1985e-05        0.0259828        0.983579      0.000412739    -9.70415e-06
                     1.94008e-05     -6.4356e-05       -0.0122684      -0.0689703     -0.000441155      9.4385e-05        -0.252173       -0.963936
                       0.0258428        0.983589     -0.000379611     5.79489e-05       -0.0122314        0.114887      4.32444e-05    -1.59847e-05
                     0.000444574    -4.04393e-05        -0.252438       -0.964261      8.52962e-05    -6.09288e-05         0.022975       0.0664355
281758                -0.0153653       -0.113434      6.26988e-05    -2.18567e-05        0.0263802        0.983572      0.000412774    -9.87527e-06
                     1.94246e-05    -6.42643e-05       -0.0122787      -0.0689626     -0.000441126     9.44655e-05        -0.252416       -0.963873
                       0.0262404        0.983582     -0.000379621     5.81115e-05       -0.0121743        0.114864      4.31866e-05     -1.5943e-05
                     0.000444507    -4.05476e-05        -0.252682       -0.964198      8.52103e-05    -6.08591e-05        0.0229957       0.0664222
281760                -0.0153988         -0.1134      6.27278e-05    -2.17282e-05        0.0267776        0.983565      0.000412809    -1.00461e-05
                     1.94616e-05    -6.41686e-05        -0.012289      -0.0689548     -0.000441097     9.45463e-05        -0.252659        -0.96381
                        0.026638        0.983575      -0.00037963     5.82743e-05       -0.0121172        0.114841       4.3129e-05    -1.59014e-05
                     0.000444434    -4.06578e-05        -0.252925       -0.964134      8.51242e-05    -6.07898e-05        0.0230164       0.0664089
281762                -0.0154323       -0.113365      6.27567e-05    -2.15997e-05         0.027175        0.983558      0.000412843    -1.02164e-05
                     1.95467e-05      -6.398e-05       -0.0122993       -0.068947     -0.000441069     9.46271e-05        -0.252902       -0.963747
                       0.0270349        0.983567      -0.00037964     5.84373e-05       -0.0120602        0.114818      4.30717e-05    -1.58597e-05
