! TOUCHSTONE file generated by CST MICROWAVE STUDIO
! Date and time: Wed Oct 15 17:30:47 2025
! Project name: Teste_Macro_Metasurface_Nanopilar.cst
! Parameters = {H=600; L_x=120; L_y=145; Lambda=1064; Max_L=200; Min_L=70; PathPara=1; Phi=0; Step_L=10; Theta=0; p=520; phaseX=180; phaseY=0}
! Header version: 2018
! Port assignment regex: !\s*Touchstone port\s*([0-9]+)\s*=\s*(CST MWS port|CST DS port)\s*([0-9]+|Zmin|Zmax)\s*\(\"(.*)\"\)(\s*mode\s*([0-9]+))?.*
! Touchstone port assignment:
! Touchstone port 1 = CST MWS port Zmax ("") mode 1
! Touchstone port 2 = CST MWS port Zmax ("") mode 2
! Touchstone port 3 = CST MWS port Zmin ("") mode 1
! Touchstone port 4 = CST MWS port Zmin ("") mode 2
! S-Parameters are not renormalized. Each port impedance will be approximated by the real part at minimum frequency. The values are described via the [Reference] keyword.
! Default impedance is overridden by [Reference]
[Version] 2.0
# GHz S RI R 376.73
[Number of Ports] 4
[Reference]
376.73 376.73 259.888 259.888 
[Number of Frequencies] 51
[Network Data]
281700                 0.0978816        0.163995     -0.000241196    -0.000225207         0.949725       -0.228875      3.55355e-05    -0.000293722
                    -0.000243242     -0.00015886        0.0399281       0.0333597      3.93326e-05    -0.000297085         0.753343        0.644239
                        0.950392       -0.228379      0.000194868    -0.000244631       -0.0111981        0.189847      0.000387245    -5.71211e-05
                     0.000101948    -0.000156892         0.753456        0.643972       0.00043412     3.47012e-05       -0.0388145      -0.0316851
281702                    0.0979        0.164011      -0.00024123     -0.00022497         0.949647       -0.229181      3.54511e-05    -0.000293759
                    -0.000243287    -0.000158811        0.0399296       0.0333824       3.9118e-05    -0.000297076         0.753581         0.64396
                        0.950314       -0.228686      0.000194778    -0.000244599       -0.0110837        0.189877      0.000387244    -5.72325e-05
                     0.000102013    -0.000156847         0.753694        0.643694      0.000433963      3.4817e-05       -0.0388609      -0.0316547
281704                 0.0979183        0.164027     -0.000241264    -0.000224733         0.949568       -0.229488      3.53668e-05    -0.000293797
                    -0.000243331    -0.000158762        0.0399311        0.033405      3.89034e-05    -0.000297067         0.753818        0.643682
                        0.950235       -0.228993      0.000194688    -0.000244567       -0.0109694        0.189906      0.000387243    -5.73439e-05
                     0.000102079    -0.000156803         0.753931        0.643415      0.000433806     3.49328e-05       -0.0389072      -0.0316241
281706                 0.0979367        0.164043     -0.000241298    -0.000224496          0.94949       -0.229795      3.52826e-05    -0.000293835
                    -0.000243373    -0.000158713        0.0399326       0.0334277      3.86887e-05    -0.000297058         0.754055        0.643403
                        0.950156         -0.2293      0.000194598    -0.000244534        -0.010855        0.189936      0.000387242    -5.74552e-05
                     0.000102147    -0.000156759         0.754169        0.643136      0.000433649     3.50487e-05       -0.0389535      -0.0315936
281708                  0.097955        0.164059     -0.000241331    -0.000224258         0.949411       -0.230102      3.51985e-05    -0.000293872
                    -0.000243413    -0.000158663        0.0399341       0.0334503       3.8474e-05    -0.000297049         0.754292        0.643124
                        0.950077       -0.229606      0.000194508    -0.000244502       -0.0107405        0.189965       0.00038724    -5.75663e-05
                     0.000102217    -0.000156716         0.754406        0.642857      0.000433492     3.51647e-05       -0.0389997       -0.031563
281710                 0.0979734        0.164075     -0.000241365    -0.000224021         0.949332       -0.230408      3.51145e-05     -0.00029391
                    -0.000243453    -0.000158614        0.0399356        0.033473      3.82593e-05     -0.00029704         0.754528        0.642845
                        0.949998       -0.229913      0.000194418     -0.00024447       -0.0106261        0.189995      0.000387239    -5.76773e-05
                     0.000102289    -0.000156674         0.754643        0.642578      0.000433335     3.52807e-05        -0.039046      -0.0315323
281712                 0.0979918        0.164091     -0.000241399    -0.000223784         0.949253       -0.230715      3.50307e-05    -0.000293948
                     -0.00024349    -0.000158564        0.0399371       0.0334956      3.80445e-05     -0.00029703         0.754765        0.642566
                        0.949919        -0.23022      0.000194327    -0.000244438       -0.0105116        0.190024      0.000387237    -5.77881e-05
                     0.000102363    -0.000156631          0.75488        0.642299      0.000433178     3.53968e-05       -0.0390922      -0.0315016
281714                 0.0980101        0.164107     -0.000241433    -0.000223546         0.949174       -0.231021       3.4947e-05    -0.000293986
                    -0.000243527    -0.000158514        0.0399387       0.0335183      3.78298e-05    -0.000297021         0.755001        0.642287
                        0.949839       -0.230526      0.000194237    -0.000244405        -0.010397        0.190054      0.000387235    -5.78988e-05
                     0.000102439    -0.000156589         0.755117         0.64202      0.000433022     3.55129e-05       -0.0391384      -0.0314709
281716                 0.0980285        0.164123     -0.000241466    -0.000223308         0.949095       -0.231328      3.48634e-05    -0.000294024
                    -0.000243562    -0.000158464        0.0399402       0.0335409       3.7615e-05    -0.000297012         0.755238        0.642007
                         0.94976       -0.230833      0.000194146    -0.000244373       -0.0102825        0.190083      0.000387233    -5.80092e-05
                     0.000102517    -0.000156547         0.755354        0.641741      0.000432865     3.56291e-05       -0.0391846      -0.0314401
281718                 0.0980468        0.164139       -0.0002415     -0.00022307         0.949016       -0.231634        3.478e-05    -0.000294062
                    -0.000243596    -0.000158413        0.0399417       0.0335636      3.74003e-05    -0.000297003         0.755474        0.641728
                        0.949681        -0.23114      0.000194055    -0.000244341       -0.0101679        0.190112       0.00038723    -5.81193e-05
                     0.000102596    -0.000156504          0.75559        0.641462      0.000432708     3.57454e-05       -0.0392307      -0.0314093
281720                 0.0980652        0.164155     -0.000241533    -0.000222832         0.948936       -0.231941      3.46967e-05    -0.000294101
                    -0.000243629    -0.000158363        0.0399433       0.0335862      3.71855e-05    -0.000296993          0.75571        0.641449
                        0.949601       -0.231446      0.000193964    -0.000244309       -0.0100533        0.190141      0.000387228    -5.82292e-05
                     0.000102677    -0.000156461         0.755827        0.641182      0.000432551     3.58618e-05       -0.0392768      -0.0313784
281722                 0.0980836        0.164171     -0.000241567    -0.000222594         0.948857       -0.232247      3.46135e-05    -0.000294139
                    -0.000243661    -0.000158312        0.0399448       0.0336088      3.69708e-05    -0.000296984         0.755946        0.641169
                        0.949521       -0.231753      0.000193873    -0.000244277       -0.0099386         0.19017      0.000387224    -5.83386e-05
                      0.00010276    -0.000156418         0.756063        0.640903      0.000432394     3.59782e-05       -0.0393229      -0.0313475
281724                 0.0981019        0.164187       -0.0002416    -0.000222355         0.948777       -0.232554      3.45304e-05    -0.000294179
                    -0.000243692    -0.000158261        0.0399464       0.0336315       3.6756e-05    -0.000296974         0.756182        0.640889
                        0.949441       -0.232059      0.000193782    -0.000244245       -0.0098239        0.190199      0.000387221    -5.84477e-05
                     0.000102844    -0.000156375           0.7563        0.640623      0.000432237     3.60947e-05        -0.039369      -0.0313166
281726                 0.0981203        0.164203     -0.000241633    -0.000222117         0.948698        -0.23286      3.44472e-05    -0.000294219
                    -0.000243722     -0.00015821         0.039948       0.0336541      3.65413e-05    -0.000296965         0.756418         0.64061
                        0.949361       -0.232366      0.000193691    -0.000244213      -0.00970917        0.190228      0.000387216    -5.85565e-05
                     0.000102929     -0.00015633         0.756536        0.640344       0.00043208     3.62112e-05        -0.039415      -0.0312856
281728                 0.0981387        0.164219     -0.000241667    -0.000221878         0.948618       -0.233167      3.43633e-05    -0.000294261
                    -0.000243751    -0.000158159        0.0399495       0.0336768      3.63266e-05    -0.000296955         0.756654         0.64033
                        0.949281       -0.232672      0.000193599    -0.000244181      -0.00959441        0.190257      0.000387209    -5.86651e-05
                     0.000103016    -0.000156286         0.756772        0.640064      0.000431923     3.63279e-05        -0.039461      -0.0312545
281730                 0.0981571        0.164235       -0.0002417     -0.00022164         0.948538       -0.233473      3.42754e-05    -0.000294309
                    -0.000243779    -0.000158108        0.0399511       0.0336994      3.61119e-05    -0.000296945          0.75689         0.64005
                        0.949201       -0.232979      0.000193508    -0.000244149      -0.00947961        0.190286      0.000387201    -5.87741e-05
                     0.000103104     -0.00015624         0.757008        0.639784      0.000431766     3.64446e-05        -0.039507      -0.0312235
281732                 0.0981755        0.164251     -0.000241733    -0.000221401         0.948458       -0.233779      3.41578e-05    -0.000294356
                    -0.000243806    -0.000158056        0.0399527        0.033722      3.58972e-05    -0.000296935         0.757125        0.639769
                        0.949121       -0.233285      0.000193416    -0.000244117      -0.00936479        0.190314      0.000387189    -5.88853e-05
                     0.000103193    -0.000156194         0.757244        0.639505      0.000431609     3.65614e-05       -0.0395529      -0.0311923
281734                 0.0981938        0.164267     -0.000241766    -0.000221162         0.948378       -0.234086      3.40761e-05    -0.000294337
                    -0.000243832    -0.000158004        0.0399543       0.0337447      3.56826e-05    -0.000296926         0.757362        0.639495
                        0.949041       -0.233592      0.000193325    -0.000244085      -0.00924992        0.190343      0.000387176    -5.90013e-05
                     0.000103283    -0.000156147          0.75748        0.639225      0.000431452     3.66783e-05       -0.0395993      -0.0311613
281736                 0.0982122        0.164283     -0.000241799    -0.000220922         0.948298       -0.234392      3.40178e-05    -0.000294376
                    -0.000243858    -0.000157952        0.0399559       0.0337673       3.5468e-05    -0.000296916         0.757596        0.639211
                         0.94896       -0.233898      0.000193233    -0.000244053      -0.00913503        0.190372      0.000387166    -5.91242e-05
                     0.000103374      -0.0001561         0.757715        0.638945      0.000431295     3.67952e-05        -0.039645        -0.03113
281738                 0.0982306        0.164299     -0.000241832    -0.000220683         0.948218       -0.234698      3.39424e-05    -0.000294419
                    -0.000243883      -0.0001579        0.0399575       0.0337899      3.52535e-05    -0.000296906         0.757832        0.638931
                         0.94888       -0.234204      0.000193141    -0.000244022       -0.0090201          0.1904      0.000387164    -5.92502e-05
                     0.000103466    -0.000156051         0.757951        0.638665      0.000431138     3.69123e-05       -0.0396909      -0.0310988
281740                  0.098249        0.164315     -0.000241865    -0.000220444         0.948137       -0.235004       3.3863e-05    -0.000294459
                    -0.000243907    -0.000157848        0.0399591       0.0338125      3.50389e-05    -0.000296896         0.758067         0.63865
                        0.948799       -0.234511      0.000193049     -0.00024399      -0.00890514        0.190429      0.000387169    -5.93723e-05
                     0.000103559    -0.000156002         0.758186        0.638384      0.000430981     3.70294e-05       -0.0397367      -0.0310675
281742                 0.0982674        0.164332     -0.000241898    -0.000220204         0.948057       -0.235311      3.37823e-05    -0.000294498
                    -0.000243931    -0.000157796        0.0399608       0.0338352      3.48245e-05    -0.000296885         0.758302         0.63837
                        0.948718       -0.234817      0.000192957    -0.000243958      -0.00879015        0.190457      0.000387176    -5.94881e-05
                     0.000103653    -0.000155952         0.758422        0.638104      0.000430824     3.71466e-05       -0.0397825      -0.0310361
281744                 0.0982858        0.164348     -0.000241931    -0.000219964         0.947976       -0.235617      3.37012e-05    -0.000294537
                    -0.000243954    -0.000157743        0.0399624       0.0338578        3.461e-05    -0.000296875         0.758537         0.63809
                        0.948638       -0.235123      0.000192865    -0.000243926      -0.00867512        0.190485      0.000387182    -5.95998e-05
                     0.000103747    -0.000155901         0.758657        0.637824      0.000430667     3.72639e-05       -0.0398284      -0.0310047
281746                 0.0983042        0.164364     -0.000241964    -0.000219725         0.947896       -0.235923        3.362e-05    -0.000294575
                    -0.000243976     -0.00015769         0.039964       0.0338804      3.43957e-05    -0.000296865         0.758771        0.637809
                        0.948557       -0.235429      0.000192772    -0.000243895      -0.00856006        0.190513      0.000387186    -5.97094e-05
                     0.000103842    -0.000155849         0.758892        0.637543       0.00043051     3.73813e-05       -0.0398742      -0.0309733
281748                 0.0983226         0.16438     -0.000241996    -0.000219485         0.947815       -0.236229      3.35387e-05    -0.000294613
                    -0.000243998    -0.000157638        0.0399657       0.0339031      3.41813e-05    -0.000296854         0.759006        0.637528
                        0.948476       -0.235735       0.00019268    -0.000243863      -0.00844497        0.190542      0.000387189    -5.98182e-05
                     0.000103937    -0.000155797         0.759127        0.637263      0.000430353     3.74987e-05       -0.0399199      -0.0309418
281750                  0.098341        0.164396     -0.000242029    -0.000219244         0.947734       -0.236535      3.34575e-05    -0.000294651
                     -0.00024402    -0.000157585        0.0399673       0.0339257      3.39671e-05    -0.000296844         0.759241        0.637248
                        0.948394       -0.236041      0.000192587    -0.000243831      -0.00832985         0.19057      0.000387191    -5.99269e-05
                     0.000104033    -0.000155744         0.759362        0.636982      0.000430195     3.76163e-05       -0.0399657      -0.0309103
281752                 0.0983594        0.164412     -0.000242062    -0.000219004         0.947653       -0.236841      3.33762e-05    -0.000294689
                     -0.00024404    -0.000157532         0.039969       0.0339483      3.37528e-05    -0.000296833         0.759475        0.636967
                        0.948313       -0.236347      0.000192494    -0.000243799      -0.00821469        0.190598      0.000387191    -6.00355e-05
                      0.00010413     -0.00015569         0.759597        0.636702      0.000430038     3.77339e-05       -0.0400114      -0.0308788
281754                 0.0983778        0.164428     -0.000242094    -0.000218763         0.947572       -0.237147      3.32951e-05    -0.000294726
                    -0.000244061    -0.000157479        0.0399707       0.0339709      3.35387e-05    -0.000296823         0.759709        0.636686
                        0.948232       -0.236653      0.000192401    -0.000243767       -0.0080995        0.190626      0.000387192    -6.01443e-05
                     0.000104227    -0.000155635         0.759832        0.636421      0.000429881     3.78516e-05       -0.0400571      -0.0308472
281756                 0.0983962        0.164444     -0.000242127    -0.000218523         0.947491       -0.237453      3.32141e-05    -0.000294764
                    -0.000244081    -0.000157425        0.0399723       0.0339935      3.33246e-05    -0.000296812         0.759944        0.636405
                         0.94815       -0.236959      0.000192308    -0.000243735      -0.00798428        0.190654      0.000387192    -6.02532e-05
                     0.000104324    -0.000155579         0.760066         0.63614      0.000429723     3.79694e-05       -0.0401027      -0.0308156
281758                 0.0984146         0.16446     -0.000242159    -0.000218281          0.94741       -0.237759      3.31331e-05    -0.000294801
                      -0.0002441    -0.000157372         0.039974       0.0340162      3.31105e-05    -0.000296801         0.760178        0.636124
                        0.948069       -0.237265      0.000192215    -0.000243702      -0.00786902        0.190682      0.000387192    -6.03624e-05
                     0.000104421    -0.000155522         0.760301        0.635859      0.000429566     3.80873e-05       -0.0401484      -0.0307839
281760                  0.098433        0.164476     -0.000242191    -0.000218039         0.947328       -0.238065      3.30523e-05    -0.000294839
                    -0.000244119    -0.000157319        0.0399757       0.0340388      3.28965e-05     -0.00029679         0.760412        0.635843
                        0.947987       -0.237571      0.000192122    -0.000243668      -0.00775373        0.190709      0.000387192    -6.04717e-05
                     0.000104519    -0.000155465         0.760535        0.635578      0.000429408     3.82053e-05        -0.040194      -0.0307522
281762                 0.0984514        0.164492     -0.000242223    -0.000217793         0.947247       -0.238371      3.29715e-05    -0.000294876
                    -0.000244138    -0.000157265        0.0399774       0.0340614      3.26825e-05    -0.000296779         0.760646        0.635562
                        0.947905       -0.237877      0.000192027    -0.000243626      -0.00763841        0.190737      0.000387192    -6.05813e-05
