! TOUCHSTONE file generated by CST MICROWAVE STUDIO
! Date and time: Wed Oct 15 17:28:10 2025
! Project name: Teste_Macro_Metasurface_Nanopilar.cst
! Parameters = {H=600; L_x=75; L_y=135; Lambda=1064; Max_L=200; Min_L=70; PathPara=1; Phi=0; Step_L=10; Theta=0; p=520; phaseX=180; phaseY=0}
! Header version: 2018
! Port assignment regex: !\s*Touchstone port\s*([0-9]+)\s*=\s*(CST MWS port|CST DS port)\s*([0-9]+|Zmin|Zmax)\s*\(\"(.*)\"\)(\s*mode\s*([0-9]+))?.*
! Touchstone port assignment:
! Touchstone port 1 = CST MWS port Zmax ("") mode 1
! Touchstone port 2 = CST MWS port Zmax ("") mode 2
! Touchstone port 3 = CST MWS port Zmin ("") mode 1
! Touchstone port 4 = CST MWS port Zmin ("") mode 2
! S-Parameters are not renormalized. Each port impedance will be approximated by the real part at minimum frequency. The values are described via the [Reference] keyword.
! Default impedance is overridden by [Reference]
[Version] 2.0
# GHz S RI R 376.73
[Number of Ports] 4
[Reference]
376.73 376.73 259.888 259.888 
[Number of Frequencies] 51
[Network Data]
281700                  0.184419      -0.0516676      9.11131e-06     0.000142726        -0.918017        0.326372      8.59243e-05    -0.000156299
                    -1.54637e-05     0.000162547        0.0159577       -0.101826      0.000147206    -7.22377e-05       -0.0635763       -0.991916
                       -0.918119        0.325975      0.000103611     -0.00017224        -0.175092        0.076444      -0.00010536     0.000146087
                     6.92776e-05    -0.000245217       -0.0639748       -0.991818     -0.000144708     4.15022e-06        0.0288405        0.099068
281702                  0.184414      -0.0516928      9.30028e-06     0.000142582        -0.917896        0.326708      8.58241e-05    -0.000156265
                     -1.5388e-05     0.000162554         0.015946       -0.101824      0.000147194    -7.22358e-05       -0.0638185       -0.991901
                       -0.917998         0.32631      0.000103534    -0.000172239        -0.175048        0.076549     -0.000105334     0.000146063
                     6.91725e-05    -0.000245277       -0.0642174       -0.991803     -0.000144709     4.13842e-06         0.028877       0.0990536
281704                  0.184408      -0.0517179      9.48867e-06     0.000142437        -0.917776        0.327043       8.5724e-05     -0.00015623
                    -1.53123e-05     0.000162562        0.0159343       -0.101822      0.000147181     -7.2234e-05       -0.0640606       -0.991886
                       -0.917878        0.326646      0.000103457    -0.000172238        -0.175004       0.0766541     -0.000105309     0.000146039
                     6.90675e-05    -0.000245337         -0.06446       -0.991788      -0.00014471     4.12587e-06        0.0289135       0.0990393
281706                  0.184403      -0.0517431      9.67645e-06     0.000142293        -0.917655        0.327379       8.5624e-05    -0.000156196
                    -1.52365e-05     0.000162569        0.0159226        -0.10182      0.000147169    -7.22323e-05       -0.0643028        -0.99187
                       -0.917758        0.326981       0.00010338    -0.000172237        -0.174959       0.0767591     -0.000105283     0.000146015
                     6.89624e-05    -0.000245397       -0.0647025       -0.991772     -0.000144711     4.11252e-06          0.02895       0.0990249
281708                  0.184397      -0.0517682      9.86365e-06     0.000142148        -0.917534        0.327715       8.5524e-05    -0.000156161
                    -1.51608e-05     0.000162576        0.0159109       -0.101818      0.000147156    -7.22306e-05        -0.064545       -0.991855
                       -0.917637        0.327317      0.000103303    -0.000172236        -0.174915       0.0768641     -0.000105258     0.000145991
                     6.88573e-05    -0.000245457       -0.0649451       -0.991757     -0.000144711      4.0984e-06        0.0289865       0.0990105
281710                  0.184392      -0.0517934      1.00503e-05     0.000142003        -0.917414        0.328051      8.54241e-05    -0.000156127
                    -1.50851e-05     0.000162584        0.0158992       -0.101817      0.000147144     -7.2229e-05       -0.0647871        -0.99184
                       -0.917516        0.327652      0.000103226    -0.000172235        -0.174871       0.0769691     -0.000105232     0.000145967
                     6.87522e-05    -0.000245516       -0.0651877       -0.991741     -0.000144711     4.08365e-06        0.0290229       0.0989961
281712                  0.184386      -0.0518185      1.02363e-05     0.000141858        -0.917293        0.328386      8.53243e-05    -0.000156092
                    -1.50094e-05     0.000162591        0.0158875       -0.101815      0.000147132    -7.22274e-05       -0.0650293       -0.991824
                       -0.917395        0.327988      0.000103149    -0.000172233        -0.174826       0.0770741     -0.000105207     0.000145943
                     6.86472e-05    -0.000245576       -0.0654303       -0.991726     -0.000144709     4.06851e-06        0.0290594       0.0989816
281714                  0.184381      -0.0518437      1.04217e-05     0.000141712        -0.917171        0.328722      8.52246e-05    -0.000156058
                    -1.49336e-05     0.000162598        0.0158758       -0.101813      0.000147119    -7.22259e-05       -0.0652714       -0.991808
                       -0.917274        0.328323      0.000103073    -0.000172232        -0.174782        0.077179     -0.000105181     0.000145919
                     6.85421e-05    -0.000245636       -0.0656728        -0.99171     -0.000144706     4.05331e-06        0.0290959       0.0989672
281716                  0.184375      -0.0518688      1.06066e-05     0.000141567         -0.91705        0.329058      8.51249e-05    -0.000156023
                    -1.48579e-05     0.000162605        0.0158641       -0.101811      0.000147107    -7.22245e-05       -0.0655136       -0.991793
                       -0.917153        0.328659      0.000102997     -0.00017223        -0.174737       0.0772839     -0.000105155     0.000145895
                     6.84371e-05    -0.000245695       -0.0659154       -0.991694     -0.000144703     4.03837e-06        0.0291323       0.0989528
281718                   0.18437       -0.051894      1.07909e-05     0.000141421        -0.916929        0.329393      8.50254e-05    -0.000155988
                    -1.47822e-05     0.000162613        0.0158524       -0.101809      0.000147095    -7.22231e-05       -0.0657557       -0.991777
                       -0.917032        0.328994       0.00010292    -0.000172229        -0.174692       0.0773888      -0.00010513     0.000145871
                      6.8332e-05    -0.000245755       -0.0661579       -0.991679     -0.000144698     4.02397e-06        0.0291687       0.0989383
281720                  0.184364      -0.0519191      1.09746e-05     0.000141276        -0.916807        0.329729      8.49259e-05    -0.000155954
                    -1.47064e-05      0.00016262        0.0158407       -0.101807      0.000147083    -7.22218e-05       -0.0659978       -0.991761
                       -0.916911         0.32933      0.000102844    -0.000172227        -0.174648       0.0774936     -0.000105104     0.000145847
                      6.8227e-05    -0.000245814       -0.0664005       -0.991663     -0.000144693     4.01031e-06        0.0292052       0.0989238
281722                  0.184359      -0.0519443      1.11577e-05      0.00014113        -0.916686        0.330064      8.48264e-05    -0.000155919
                    -1.46307e-05     0.000162627         0.015829       -0.101806       0.00014707    -7.22205e-05         -0.06624       -0.991746
                       -0.916789        0.329665      0.000102769    -0.000172225        -0.174603       0.0775984     -0.000105078     0.000145823
                     6.81219e-05    -0.000245874        -0.066643       -0.991647     -0.000144687     3.99746e-06        0.0292416       0.0989093
281724                  0.184353      -0.0519695      1.13402e-05     0.000140984        -0.916564          0.3304      8.47271e-05    -0.000155884
                     -1.4555e-05     0.000162634        0.0158173       -0.101804      0.000147058    -7.22192e-05       -0.0664821        -0.99173
                       -0.916668            0.33      0.000102693    -0.000172223        -0.174558       0.0777032     -0.000105052     0.000145799
                     6.80169e-05    -0.000245933       -0.0668856       -0.991631     -0.000144681      3.9854e-06         0.029278       0.0988948
281726                  0.184348      -0.0519946      1.15222e-05     0.000140838        -0.916442        0.330735      8.46278e-05    -0.000155849
                    -1.44793e-05     0.000162641        0.0158056       -0.101802      0.000147046    -7.22179e-05       -0.0667242       -0.991714
                       -0.916546        0.330335      0.000102617    -0.000172222        -0.174513        0.077808     -0.000105027     0.000145776
                     6.79119e-05    -0.000245992       -0.0671281       -0.991615     -0.000144675     3.97406e-06        0.0293144       0.0988803
281728                  0.184342      -0.0520198      1.17035e-05     0.000140692         -0.91632        0.331071      8.45287e-05    -0.000155814
                    -1.44035e-05     0.000162648        0.0157939         -0.1018      0.000147034    -7.22167e-05       -0.0669664       -0.991698
                       -0.916424        0.330671      0.000102542     -0.00017222        -0.174468       0.0779127     -0.000105001     0.000145752
                     6.78069e-05    -0.000246052       -0.0673706       -0.991599      -0.00014467     3.96332e-06        0.0293508       0.0988658
281730                  0.184337       -0.052045      1.18842e-05     0.000140545        -0.916198        0.331406      8.44296e-05    -0.000155779
                    -1.43278e-05     0.000162656        0.0157822       -0.101798      0.000147022    -7.22155e-05       -0.0672085       -0.991682
                       -0.916302        0.331006      0.000102466    -0.000172218        -0.174423       0.0780174     -0.000104975     0.000145728
                     6.77019e-05    -0.000246111       -0.0676132       -0.991583     -0.000144664     3.95307e-06        0.0293872       0.0988512
281732                  0.184331      -0.0520702      1.20642e-05     0.000140399        -0.916076        0.331741      8.43306e-05    -0.000155744
                    -1.42521e-05     0.000162663        0.0157705       -0.101796       0.00014701    -7.22144e-05       -0.0674506       -0.991666
                        -0.91618        0.331341      0.000102391    -0.000172216        -0.174378       0.0781221     -0.000104949     0.000145705
                     6.75969e-05     -0.00024617       -0.0678557       -0.991567     -0.000144659      3.9432e-06        0.0294236       0.0988367
281734                  0.184325      -0.0520953      1.22433e-05     0.000140252        -0.915953        0.332076      8.42318e-05    -0.000155708
                    -1.41764e-05      0.00016267        0.0157588       -0.101794      0.000146998    -7.22132e-05       -0.0676927        -0.99165
                       -0.916058        0.331676      0.000102316    -0.000172214        -0.174333       0.0782268     -0.000104923     0.000145681
                     6.74919e-05    -0.000246229       -0.0680982        -0.99155     -0.000144654     3.93363e-06          0.02946       0.0988221
281736                   0.18432      -0.0521205      1.24213e-05     0.000140106        -0.915831        0.332412       8.4133e-05    -0.000155673
                    -1.41007e-05     0.000162677        0.0157471       -0.101793      0.000146987    -7.22121e-05       -0.0679349       -0.991633
                       -0.915935        0.332011       0.00010224    -0.000172212        -0.174287       0.0783314     -0.000104897     0.000145658
                     6.73869e-05    -0.000246288       -0.0683407       -0.991534      -0.00014465     3.92427e-06        0.0294964       0.0988075
281738                  0.184314      -0.0521457      1.25966e-05     0.000139959        -0.915708        0.332747      8.40345e-05    -0.000155638
                     -1.4025e-05     0.000162684        0.0157354       -0.101791      0.000146975    -7.22109e-05        -0.068177       -0.991617
                       -0.915813        0.332346      0.000102163    -0.000172212        -0.174242        0.078436      -0.00010487     0.000145635
                     6.72819e-05    -0.000246347       -0.0685832       -0.991518     -0.000144645     3.91507e-06        0.0295327        0.098793
281740                  0.184309      -0.0521709      1.27589e-05     0.000139812        -0.915585        0.333082      8.39362e-05    -0.000155602
                    -1.39492e-05     0.000162691        0.0157237       -0.101789      0.000146963    -7.22098e-05       -0.0684191       -0.991601
                        -0.91569        0.332681      0.000102077    -0.000172222        -0.174197       0.0785406     -0.000104844     0.000145613
                     6.71769e-05    -0.000246406       -0.0688255       -0.991501     -0.000144641     3.90601e-06        0.0295691       0.0987783
281742                  0.184303       -0.052196      1.29853e-05     0.000139643        -0.915463        0.333417      8.38383e-05    -0.000155565
                    -1.38735e-05     0.000162698         0.015712       -0.101787      0.000146951    -7.22087e-05       -0.0686612       -0.991584
                       -0.915567        0.333016      0.000102039    -0.000172178        -0.174151       0.0786451     -0.000104816     0.000145591
                     6.70719e-05    -0.000246465       -0.0690684       -0.991485     -0.000144637     3.89705e-06        0.0296054       0.0987637
281744                  0.184298      -0.0522212      1.31483e-05     0.000139511         -0.91534        0.333752      8.37411e-05    -0.000155528
                    -1.37978e-05     0.000162705        0.0157003       -0.101785       0.00014694    -7.22076e-05       -0.0689033       -0.991568
                       -0.915445        0.333351      0.000101953    -0.000172189        -0.174106       0.0787496     -0.000104788      0.00014557
                     6.69669e-05    -0.000246524       -0.0693108       -0.991468     -0.000144633      3.8882e-06        0.0296418       0.0987491
281746                  0.184292      -0.0522464      1.33217e-05     0.000139365        -0.915217        0.334087      8.36465e-05    -0.000155487
                    -1.37221e-05     0.000162712        0.0156886       -0.101783      0.000146928    -7.22065e-05       -0.0691454       -0.991552
                       -0.915322        0.333686      0.000101877    -0.000172189         -0.17406       0.0788541     -0.000104756     0.000145555
                      6.6862e-05    -0.000246583       -0.0695532       -0.991452      -0.00014463      3.8795e-06        0.0296781       0.0987344
281748                  0.184286      -0.0522716      1.34966e-05     0.000139218        -0.915093        0.334422      8.35807e-05    -0.000155405
                    -1.36464e-05     0.000162719        0.0156769       -0.101781      0.000146917    -7.22055e-05       -0.0693874       -0.991535
                       -0.915198        0.334021      0.000101802    -0.000172187        -0.174015       0.0789586     -0.000104683     0.000145598
                      6.6757e-05    -0.000246642       -0.0697957       -0.991435     -0.000144627     3.87105e-06        0.0297144       0.0987198
281750                  0.184281      -0.0522968      1.36716e-05     0.000139071         -0.91497        0.334757      8.34244e-05    -0.000155453
                    -1.35707e-05     0.000162726        0.0156652        -0.10178      0.000146905    -7.22045e-05       -0.0696296       -0.991518
                       -0.915075        0.334355      0.000101728    -0.000172184        -0.173969        0.079063     -0.000104741     0.000145457
                     6.66521e-05    -0.000246701       -0.0700382       -0.991418     -0.000144624     3.86319e-06        0.0297508       0.0987051
281752                  0.184275       -0.052322      1.38464e-05     0.000138923        -0.914846        0.335092      8.33354e-05    -0.000155404
                     -1.3495e-05     0.000162733        0.0156535       -0.101778      0.000146894    -7.22038e-05       -0.0698717       -0.991502
                       -0.914952         0.33469      0.000101655    -0.000172181        -0.173923       0.0791675     -0.000104701     0.000145452
                     6.65471e-05    -0.000246759       -0.0702807       -0.991402     -0.000144621      3.8573e-06        0.0297871       0.0986904
281754                   0.18427      -0.0523472       1.4021e-05     0.000138775        -0.914723        0.335427      8.32395e-05    -0.000155365
                    -1.34193e-05      0.00016274        0.0156418       -0.101776      0.000146884    -7.22048e-05       -0.0701138       -0.991485
                       -0.914828        0.335025      0.000101582    -0.000172178        -0.173877       0.0792719     -0.000104672     0.000145434
                     6.64421e-05    -0.000246818       -0.0705231       -0.991385     -0.000144611     3.86847e-06        0.0298234       0.0986758
281756                  0.184264      -0.0523723      1.41951e-05     0.000138627        -0.914599        0.335762      8.31425e-05    -0.000155328
                    -1.33436e-05     0.000162747        0.0156301       -0.101774      0.000146865    -7.21992e-05       -0.0703558       -0.991468
                       -0.914705        0.335359      0.000101509    -0.000172174        -0.173831       0.0793762     -0.000104644     0.000145413
                      6.6337e-05    -0.000246877       -0.0707656       -0.991368     -0.000144605     3.82091e-06        0.0298597        0.098661
281758                  0.184258      -0.0523975      1.43689e-05     0.000138478        -0.914475        0.336097       8.3045e-05    -0.000155291
                    -1.32679e-05     0.000162754        0.0156184       -0.101772      0.000146857    -7.21985e-05       -0.0705979       -0.991451
                       -0.914581        0.335694      0.000101436     -0.00017217        -0.173785       0.0794805     -0.000104617     0.000145391
                     6.62314e-05    -0.000246935        -0.071008       -0.991351     -0.000144607     3.81739e-06         0.029896       0.0986463
281760                  0.184253      -0.0524227      1.45422e-05      0.00013833        -0.914351        0.336432      8.29473e-05    -0.000155255
                    -1.31925e-05     0.000162761        0.0156067        -0.10177      0.000146846    -7.21977e-05         -0.07084       -0.991434
                       -0.914457        0.336029      0.000101363    -0.000172166        -0.173739       0.0795848      -0.00010459     0.000145368
                     6.61304e-05    -0.000246994       -0.0712505       -0.991334     -0.000144605     3.80995e-06        0.0299323       0.0986316
281762                  0.184247      -0.0524479      1.47151e-05     0.000138181        -0.914227        0.336767      8.28497e-05    -0.000155219
                    -1.31166e-05     0.000162768         0.015595       -0.101769      0.000146835    -7.21966e-05       -0.0710821       -0.991417
                       -0.914333        0.336363      0.000101291    -0.000172162        -0.173693       0.0796891     -0.000104563     0.000145345
