! TOUCHSTONE file generated by CST MICROWAVE STUDIO
! Date and time: Wed Oct 15 17:34:43 2025
! Project name: Teste_Macro_Metasurface_Nanopilar.cst
! Parameters = {H=600; L_x=190; L_y=115; Lambda=1064; Max_L=200; Min_L=70; PathPara=1; Phi=0; Step_L=10; Theta=0; p=520; phaseX=180; phaseY=0}
! Header version: 2018
! Port assignment regex: !\s*Touchstone port\s*([0-9]+)\s*=\s*(CST MWS port|CST DS port)\s*([0-9]+|Zmin|Zmax)\s*\(\"(.*)\"\)(\s*mode\s*([0-9]+))?.*
! Touchstone port assignment:
! Touchstone port 1 = CST MWS port Zmax ("") mode 1
! Touchstone port 2 = CST MWS port Zmax ("") mode 2
! Touchstone port 3 = CST MWS port Zmin ("") mode 1
! Touchstone port 4 = CST MWS port Zmin ("") mode 2
! S-Parameters are not renormalized. Each port impedance will be approximated by the real part at minimum frequency. The values are described via the [Reference] keyword.
! Default impedance is overridden by [Reference]
[Version] 2.0
# GHz S RI R 376.73
[Number of Ports] 4
[Reference]
376.73 376.73 259.888 259.888 
[Number of Frequencies] 51
[Network Data]
281700                 0.0717064       0.0644523     -0.000431758     3.55503e-05         0.934317        0.324803     -3.93049e-05      0.00034395
                    -0.000358554       2.305e-05          0.16464       -0.130439      0.000229595      0.00028272          0.74378       -0.625449
                        0.934391        0.324979      0.000110267      0.00039763       -0.0945874      0.00729751       0.00034928    -0.000232086
                    -3.71311e-05     0.000374069         0.743777       -0.625608      0.000273559    -9.04269e-05        -0.155271        0.131601
281702                 0.0717112       0.0644675     -0.000432086     3.57008e-05         0.934428        0.324483     -3.93516e-05     0.000343705
                    -0.000358492     2.32714e-05         0.164619       -0.130387      0.000229946     0.000282268         0.743577       -0.625709
                        0.934501         0.32466      0.000109999     0.000397464       -0.0945958      0.00737126      0.000349137    -0.000232273
                    -3.70596e-05     0.000373999         0.743573       -0.625868      0.000273079    -9.01303e-05        -0.155126        0.131696
281704                  0.071716       0.0644828     -0.000432414     3.58524e-05         0.934538        0.324163     -3.93986e-05     0.000343461
                    -0.000358428     2.34935e-05         0.164598       -0.130334      0.000230296     0.000281817         0.743374       -0.625968
                        0.934611         0.32434      0.000109733       0.0003973       -0.0946041      0.00744501      0.000348994     -0.00023246
                    -3.69877e-05     0.000373928         0.743368       -0.626127        0.0002726     -8.9836e-05        -0.154981        0.131792
281706                 0.0717208        0.064498     -0.000432743     3.60053e-05         0.934649        0.323843     -3.94458e-05     0.000343216
                    -0.000358364      2.3716e-05         0.164577       -0.130282      0.000230646     0.000281367          0.74317       -0.626228
                        0.934721         0.32402      0.000109469     0.000397138       -0.0946124      0.00751877       0.00034885    -0.000232646
                    -3.69154e-05     0.000373857         0.743164       -0.626387      0.000272123    -8.95437e-05        -0.154836        0.131888
281708                 0.0717256       0.0645132     -0.000433072     3.61594e-05         0.934759        0.323524     -3.94932e-05     0.000342971
                      -0.0003583     2.39391e-05         0.164557        -0.13023      0.000230995     0.000280919         0.742967       -0.626487
                        0.934831        0.323701      0.000109207     0.000396979       -0.0946206      0.00759255      0.000348706    -0.000232833
                    -3.68427e-05     0.000373784          0.74296       -0.626646      0.000271646    -8.92536e-05        -0.154691        0.131984
281710                 0.0717304       0.0645284     -0.000433401     3.63147e-05         0.934869        0.323204      -3.9541e-05     0.000342726
                    -0.000358235     2.41626e-05         0.164536       -0.130178      0.000231345     0.000280472         0.742764       -0.626746
                         0.93494        0.323381      0.000108946     0.000396822       -0.0946288      0.00766633      0.000348561     -0.00023302
                    -3.67695e-05     0.000373711         0.742755       -0.626905      0.000271171    -8.89656e-05        -0.154545        0.132079
281712                 0.0717352       0.0645437      -0.00043373     3.64713e-05         0.934979        0.322884      -3.9589e-05      0.00034248
                     -0.00035817     2.43867e-05         0.164515       -0.130125      0.000231694     0.000280026          0.74256       -0.627005
                         0.93505        0.323061      0.000108686     0.000396666       -0.0946369      0.00774012      0.000348416    -0.000233206
                     -3.6696e-05     0.000373637         0.742551       -0.627165      0.000270696    -8.86797e-05          -0.1544        0.132174
281714                   0.07174       0.0645589     -0.000434059     3.66289e-05         0.935089        0.322564     -3.96373e-05     0.000342234
                    -0.000358105     2.46113e-05         0.164495       -0.130073      0.000232042     0.000279582         0.742356       -0.627264
                        0.935159        0.322741      0.000108426     0.000396513       -0.0946449      0.00781393       0.00034827    -0.000233393
                     -3.6622e-05     0.000373562         0.742346       -0.627424      0.000270223     -8.8396e-05        -0.154255         0.13227
281716                 0.0717448       0.0645741     -0.000434389     3.67878e-05         0.935199        0.322244     -3.96859e-05     0.000341988
                    -0.000358039     2.48363e-05         0.164474       -0.130021      0.000232391     0.000279139         0.742153       -0.627523
                        0.935268        0.322421      0.000108168     0.000396361       -0.0946529      0.00788774      0.000348124    -0.000233579
                    -3.65476e-05     0.000373486         0.742142       -0.627683      0.000269751    -8.81143e-05        -0.154109        0.132365
281718                 0.0717496       0.0645893     -0.000434718     3.69477e-05         0.935308        0.321924     -3.97349e-05     0.000341741
                    -0.000357973     2.50618e-05         0.164453       -0.129969      0.000232739     0.000278698         0.741949       -0.627782
                        0.935378        0.322101       0.00010791     0.000396211       -0.0946608      0.00796157      0.000347977    -0.000233766
                    -3.64727e-05      0.00037341         0.741937       -0.627942       0.00026928    -8.78347e-05        -0.153964         0.13246
281720                 0.0717544       0.0646045     -0.000435047     3.71087e-05         0.935418        0.321604     -3.97842e-05     0.000341495
                    -0.000357907     2.52878e-05         0.164433       -0.129917      0.000233087     0.000278258         0.741745        -0.62804
                        0.935487        0.321781      0.000107653     0.000396063       -0.0946687       0.0080354       0.00034783    -0.000233952
                    -3.63975e-05     0.000373333         0.741732         -0.6282      0.000268811    -8.75573e-05        -0.153818        0.132555
281722                 0.0717592       0.0646198     -0.000435377     3.72707e-05         0.935527        0.321284     -3.98338e-05     0.000341247
                    -0.000357841     2.55142e-05         0.164412       -0.129864      0.000233434     0.000277819         0.741541       -0.628299
                        0.935596        0.321461      0.000107397     0.000395916       -0.0946765      0.00810925      0.000347682    -0.000234139
                    -3.63219e-05     0.000373255         0.741527       -0.628459      0.000268342    -8.72819e-05        -0.153673        0.132649
281724                  0.071764        0.064635     -0.000435706     3.74337e-05         0.935636        0.320964     -3.98839e-05        0.000341
                    -0.000357774      2.5741e-05         0.164391       -0.129812      0.000233781     0.000277382         0.741337       -0.628558
                        0.935705        0.321141      0.000107141     0.000395771       -0.0946843       0.0081831      0.000347534    -0.000234326
                    -3.62459e-05     0.000373177         0.741322       -0.628718      0.000267875    -8.70086e-05        -0.153527        0.132744
281726                 0.0717688       0.0646502     -0.000436034     3.75977e-05         0.935746        0.320644     -3.99345e-05     0.000340752
                    -0.000357707     2.59682e-05         0.164371        -0.12976      0.000234128     0.000276946         0.741133       -0.628816
                        0.935813        0.320821      0.000106885     0.000395627        -0.094692      0.00825697      0.000347386    -0.000234513
                    -3.61696e-05     0.000373098         0.741117       -0.628976      0.000267408    -8.67374e-05        -0.153382        0.132838
281728                 0.0717737       0.0646654     -0.000436363     3.77625e-05         0.935855        0.320324     -3.99856e-05     0.000340503
                     -0.00035764     2.61958e-05          0.16435       -0.129708      0.000234475     0.000276512         0.740928       -0.629074
                        0.935922        0.320501      0.000106629     0.000395484       -0.0946997      0.00833084      0.000347236    -0.000234701
                    -3.60928e-05     0.000373018         0.740912       -0.629235      0.000266943    -8.64683e-05        -0.153236        0.132933
281730                 0.0717785       0.0646806     -0.000436691     3.79281e-05         0.935964        0.320003     -4.00372e-05     0.000340255
                    -0.000357573     2.64237e-05          0.16433       -0.129656      0.000234821     0.000276079         0.740724       -0.629333
                         0.93603        0.320181      0.000106374     0.000395343       -0.0947073      0.00840473      0.000347086    -0.000234889
                    -3.60157e-05     0.000372938         0.740707       -0.629493      0.000266479    -8.62012e-05        -0.153091        0.133027
281732                 0.0717833       0.0646958      -0.00043702     3.80946e-05         0.936072        0.319683     -4.00896e-05     0.000340005
                    -0.000357506      2.6652e-05         0.164309       -0.129604      0.000235167     0.000275647          0.74052       -0.629591
                        0.936139        0.319861      0.000106119     0.000395203       -0.0947149      0.00847862      0.000346936    -0.000235078
                    -3.59382e-05     0.000372857         0.740502       -0.629752      0.000266016    -8.59362e-05        -0.152945        0.133121
281734                 0.0717881        0.064711     -0.000437347     3.82617e-05         0.936181        0.319363     -4.01429e-05     0.000339755
                    -0.000357438     2.68806e-05         0.164289       -0.129552      0.000235513     0.000275217         0.740315       -0.629849
                        0.936247        0.319541      0.000105864     0.000395063       -0.0947224      0.00855252      0.000346785    -0.000235268
                    -3.58603e-05     0.000372776         0.740296        -0.63001      0.000265554    -8.56732e-05        -0.152799        0.133215
281736                  0.071793       0.0647262     -0.000437675     3.84296e-05          0.93629        0.319043     -4.01974e-05     0.000339504
                     -0.00035737     2.71095e-05         0.164268         -0.1295      0.000235859     0.000274789         0.740111       -0.630107
                        0.936355        0.319221      0.000105609     0.000394925       -0.0947298      0.00862644      0.000346633     -0.00023546
                    -3.57821e-05     0.000372694         0.740091       -0.630268      0.000265093    -8.54123e-05        -0.152654        0.133309
281738                 0.0717978       0.0647414     -0.000438002     3.85981e-05         0.936398        0.318723     -4.02536e-05     0.000339252
                    -0.000357303     2.73387e-05         0.164248       -0.129448      0.000236204     0.000274361         0.739906       -0.630365
                        0.936463        0.318901      0.000105355     0.000394788       -0.0947372      0.00870036      0.000346482    -0.000235655
                    -3.57036e-05     0.000372612         0.739885       -0.630526      0.000264633    -8.51534e-05        -0.152508        0.133403
281740                 0.0718027       0.0647566     -0.000438329     3.87671e-05         0.936507        0.318402     -4.03127e-05     0.000338997
                    -0.000357235     2.75682e-05         0.164228       -0.129396      0.000236549     0.000273936         0.739701       -0.630623
                        0.936571         0.31858        0.0001051     0.000394651       -0.0947445      0.00877429      0.000346331    -0.000235857
                    -3.56247e-05      0.00037253          0.73968       -0.630784      0.000264175    -8.48965e-05        -0.152362        0.133496
281742                 0.0718075       0.0647718     -0.000438656     3.89367e-05         0.936615        0.318082     -4.03776e-05     0.000338738
                    -0.000357167     2.77979e-05         0.164207       -0.129344      0.000236894     0.000273511         0.739496        -0.63088
                        0.936679         0.31826      0.000104846     0.000394516       -0.0947518      0.00884824      0.000346184    -0.000236071
                    -3.55455e-05     0.000372447         0.739474       -0.631042      0.000263717    -8.46417e-05        -0.152216         0.13359
281744                 0.0718124        0.064787     -0.000438982     3.91068e-05         0.936723        0.317762     -4.04578e-05     0.000338464
                    -0.000357099     2.80278e-05         0.164187       -0.129292      0.000237238     0.000273089         0.739291       -0.631138
                        0.936787         0.31794      0.000104591     0.000394381       -0.0947591      0.00892219      0.000346062    -0.000236316
                     -3.5466e-05     0.000372363         0.739268         -0.6313      0.000263261    -8.43888e-05         -0.15207        0.133683
281746                 0.0718172       0.0648022     -0.000439308     3.92774e-05         0.936831        0.317441     -4.06031e-05     0.000338076
                     -0.00035703     2.82579e-05         0.164166       -0.129239      0.000237582     0.000272667         0.739086       -0.631396
                        0.936894         0.31762      0.000104337     0.000394247       -0.0947662      0.00899615      0.000346112    -0.000236562
                    -3.53861e-05     0.000372279         0.739062       -0.631557      0.000262806     -8.4138e-05        -0.151924        0.133776
281748                 0.0718221       0.0648174     -0.000439634     3.94485e-05         0.936939        0.317121     -4.02344e-05     0.000338043
                    -0.000356962     2.84881e-05         0.164146       -0.129187      0.000237926     0.000272247         0.738881       -0.631653
                        0.937002        0.317299      0.000104083     0.000394113       -0.0947734      0.00907012      0.000345971    -0.000236399
                     -3.5306e-05     0.000372195         0.738856       -0.631815      0.000262351    -8.38891e-05        -0.151779        0.133869
281750                 0.0718269       0.0648326     -0.000439959     3.96199e-05         0.937047          0.3168     -4.04602e-05     0.000337794
                    -0.000356894     2.87184e-05         0.164126       -0.129136       0.00023827     0.000271828         0.738676        -0.63191
                        0.937109        0.316979      0.000103829     0.000393981       -0.0947804       0.0091441      0.000345659    -0.000236589
                    -3.52256e-05     0.000372111          0.73865       -0.632072      0.000261898    -8.36422e-05        -0.151633        0.133962
281752                 0.0718318       0.0648478     -0.000440285     3.97917e-05         0.937155         0.31648     -4.05495e-05     0.000337531
                    -0.000356826     2.89488e-05         0.164106       -0.129084      0.000238613     0.000271411         0.738471       -0.632168
                        0.937217        0.316658      0.000103575     0.000393848       -0.0947874      0.00921809      0.000345459    -0.000236804
                    -3.51449e-05     0.000372027         0.738444        -0.63233      0.000261446    -8.33971e-05        -0.151487        0.134055
281754                 0.0718367        0.064863      -0.00044061     3.99639e-05         0.937262        0.316159     -4.06191e-05     0.000337273
                    -0.000356757      2.9179e-05         0.164085       -0.129032      0.000238956     0.000270995         0.738266       -0.632425
                        0.937324        0.316338      0.000103321     0.000393717       -0.0947944      0.00929209      0.000345284    -0.000237008
                    -3.50641e-05     0.000371943         0.738238       -0.632587      0.000260995    -8.31539e-05         -0.15134        0.134148
281756                 0.0718415       0.0648782     -0.000440934     4.01364e-05          0.93737        0.315839     -4.06824e-05     0.000337017
                    -0.000356689     2.94088e-05         0.164065        -0.12898      0.000239299     0.000270581          0.73806       -0.632682
                        0.937431        0.316018      0.000103067     0.000393586       -0.0948013       0.0093661      0.000345117    -0.000237204
                    -3.49833e-05     0.000371859         0.738032       -0.632844      0.000260545    -8.29125e-05        -0.151194         0.13424
281758                 0.0718464       0.0648934     -0.000441259     4.03092e-05         0.937477        0.315518     -4.07433e-05     0.000336761
                    -0.000356622     2.96377e-05         0.164045       -0.128928      0.000239641     0.000270167         0.737855       -0.632939
                        0.937538        0.315697      0.000102813     0.000393456       -0.0948081      0.00944012      0.000344953    -0.000237397
                    -3.49031e-05     0.000371776         0.737825       -0.633102      0.000260096    -8.26728e-05        -0.151048        0.134333
281760                 0.0718513       0.0649086     -0.000441583     4.04824e-05         0.937584        0.315198     -4.08031e-05     0.000336505
                    -0.000356557     2.98638e-05         0.164025       -0.128876      0.000239984     0.000269755         0.737649       -0.633196
                        0.937645        0.315376       0.00010256     0.000393326       -0.0948149      0.00951414       0.00034479    -0.000237587
                    -3.48252e-05     0.000371694         0.737619       -0.633359      0.000259648    -8.24345e-05        -0.150902        0.134425
281762                 0.0718562       0.0649238     -0.000441907     4.06559e-05         0.937691        0.314877     -4.08625e-05     0.000336249
                    -0.000356513     3.00845e-05         0.164004       -0.128824      0.000240326     0.000269344         0.737444       -0.633453
                        0.937751        0.315056      0.000102306     0.000393197       -0.0948217      0.00958818      0.000344627    -0.000237776
