! TOUCHSTONE file generated by CST MICROWAVE STUDIO
! Date and time: Wed Oct 15 17:34:11 2025
! Project name: Teste_Macro_Metasurface_Nanopilar.cst
! Parameters = {H=600; L_x=180; L_y=130; Lambda=1064; Max_L=200; Min_L=70; PathPara=1; Phi=0; Step_L=10; Theta=0; p=520; phaseX=180; phaseY=0}
! Header version: 2018
! Port assignment regex: !\s*Touchstone port\s*([0-9]+)\s*=\s*(CST MWS port|CST DS port)\s*([0-9]+|Zmin|Zmax)\s*\(\"(.*)\"\)(\s*mode\s*([0-9]+))?.*
! Touchstone port assignment:
! Touchstone port 1 = CST MWS port Zmax ("") mode 1
! Touchstone port 2 = CST MWS port Zmax ("") mode 2
! Touchstone port 3 = CST MWS port Zmin ("") mode 1
! Touchstone port 4 = CST MWS port Zmin ("") mode 2
! S-Parameters are not renormalized. Each port impedance will be approximated by the real part at minimum frequency. The values are described via the [Reference] keyword.
! Default impedance is overridden by [Reference]
[Version] 2.0
# GHz S RI R 376.73
[Number of Ports] 4
[Reference]
376.73 376.73 259.888 259.888 
[Number of Frequencies] 51
[Network Data]
281700                  0.122427        0.190111     -0.000244762     0.000248021         0.873895       -0.419465     -0.000173713    -0.000422853
                    -0.000234737     0.000240657         0.163398      -0.0447413     -0.000347861    -0.000411791           0.6715       -0.714854
                        0.873734       -0.419429     -0.000405402    -0.000230305        0.0732591        0.211546      0.000517033    -5.74381e-05
                    -8.46164e-05     -0.00048029         0.671653       -0.715015      0.000433084    -7.17498e-05       -0.0343321        0.160135
281702                  0.122447        0.190148      -0.00024447     0.000248146         0.873744       -0.419755     -0.000173752    -0.000422865
                    -0.000234503     0.000240796         0.163395      -0.0447089     -0.000348057    -0.000411723         0.671278       -0.715066
                        0.873583        -0.41972     -0.000405646    -0.000230029        0.0734193        0.211533      0.000517281    -5.76822e-05
                    -8.48887e-05    -0.000480331         0.671431       -0.715227      0.000432935    -7.17481e-05       -0.0341989        0.160153
281704                  0.122467        0.190185     -0.000244177     0.000248273         0.873593       -0.420045     -0.000173791    -0.000422877
                    -0.000234269     0.000240935         0.163392      -0.0446765     -0.000348252    -0.000411652         0.671055       -0.715277
                        0.873432        -0.42001      -0.00040589    -0.000229753        0.0735794        0.211521      0.000517528    -5.79267e-05
                     -8.5161e-05    -0.000480371         0.671208       -0.715439      0.000432786    -7.17475e-05       -0.0340658         0.16017
281706                  0.122487        0.190222     -0.000243884     0.000248399         0.873442       -0.420336     -0.000173831    -0.000422889
                    -0.000234035     0.000241073         0.163389      -0.0446441     -0.000348448    -0.000411579         0.670833       -0.715489
                        0.873281         -0.4203     -0.000406133    -0.000229477        0.0737396        0.211508      0.000517774    -5.81715e-05
                    -8.54331e-05    -0.000480411         0.670985       -0.715651      0.000432637    -7.17482e-05       -0.0339327        0.160188
281708                  0.122507        0.190259     -0.000243591     0.000248527          0.87329       -0.420626      -0.00017387    -0.000422901
                    -0.000233801     0.000241211         0.163386      -0.0446117     -0.000348645    -0.000411505         0.670611       -0.715701
                        0.873129        -0.42059     -0.000406377    -0.000229201        0.0738999        0.211495      0.000518019    -5.84166e-05
                    -8.57052e-05     -0.00048045         0.670763       -0.715863      0.000432489    -7.17501e-05       -0.0337996        0.160205
281710                  0.122527        0.190296     -0.000243298     0.000248655         0.873139       -0.420916     -0.000173909    -0.000422912
                    -0.000233567     0.000241348         0.163383      -0.0445794     -0.000348841    -0.000411428         0.670388       -0.715912
                        0.872978        -0.42088      -0.00040662    -0.000228924        0.0740602        0.211482      0.000518263     -5.8662e-05
                    -8.59771e-05    -0.000480489          0.67054       -0.716075      0.000432342    -7.17532e-05       -0.0336665        0.160222
281712                  0.122547        0.190332     -0.000243004     0.000248783         0.872987       -0.421206     -0.000173949    -0.000422923
                    -0.000233334     0.000241486          0.16338       -0.044547     -0.000349038     -0.00041135         0.670166       -0.716124
                        0.872826        -0.42117     -0.000406863    -0.000228648        0.0742205        0.211468      0.000518505    -5.89076e-05
                     -8.6249e-05    -0.000480527         0.670317       -0.716287      0.000432195    -7.17576e-05       -0.0335334        0.160239
281714                  0.122567        0.190369      -0.00024271     0.000248912         0.872835       -0.421496     -0.000173989    -0.000422935
                      -0.0002331     0.000241623         0.163377      -0.0445147     -0.000349235     -0.00041127         0.669943       -0.716335
                        0.872675        -0.42146     -0.000407105    -0.000228372        0.0743809        0.211455      0.000518747    -5.91535e-05
                    -8.65207e-05    -0.000480564         0.670094       -0.716498      0.000432048    -7.17632e-05       -0.0334003        0.160256
281716                  0.122588        0.190406     -0.000242416     0.000249041         0.872683       -0.421787     -0.000174029    -0.000422945
                    -0.000232867      0.00024176         0.163374      -0.0444824     -0.000349432    -0.000411188          0.66972       -0.716547
                        0.872523        -0.42175     -0.000407348    -0.000228095        0.0745413        0.211442      0.000518987    -5.93996e-05
                    -8.67924e-05    -0.000480601         0.669871        -0.71671      0.000431901    -7.17701e-05       -0.0332672        0.160273
281718                  0.122608        0.190443     -0.000242122     0.000249171         0.872531       -0.422077     -0.000174069    -0.000422956
                    -0.000232634     0.000241896         0.163371      -0.0444501     -0.000349629    -0.000411105         0.669498       -0.716758
                        0.872371        -0.42204      -0.00040759    -0.000227818        0.0747017        0.211428      0.000519226    -5.96459e-05
                    -8.70639e-05    -0.000480637         0.669648       -0.716921      0.000431755    -7.17782e-05       -0.0331341         0.16029
281720                  0.122628         0.19048     -0.000241827     0.000249301         0.872379       -0.422367     -0.000174109    -0.000422967
                    -0.000232401     0.000242033         0.163368      -0.0444178     -0.000349827    -0.000411019         0.669275       -0.716969
                        0.872219        -0.42233     -0.000407832    -0.000227542        0.0748622        0.211415      0.000519464    -5.98925e-05
                    -8.73354e-05    -0.000480673         0.669425       -0.717133       0.00043161    -7.17876e-05       -0.0330011        0.160307
281722                  0.122648        0.190517     -0.000241532     0.000249432         0.872227       -0.422657     -0.000174149    -0.000422977
                    -0.000232168     0.000242169         0.163365      -0.0443855     -0.000350024    -0.000410932         0.669052        -0.71718
                        0.872067        -0.42262     -0.000408073    -0.000227265        0.0750227        0.211401      0.000519701    -6.01391e-05
                    -8.76067e-05    -0.000480708         0.669202       -0.717344      0.000431464    -7.17982e-05        -0.032868        0.160324
281724                  0.122668        0.190554     -0.000241237     0.000249563         0.872075       -0.422947     -0.000174189    -0.000422988
                    -0.000231935     0.000242305         0.163362      -0.0443532     -0.000350222    -0.000410842         0.668829       -0.717392
                        0.871914       -0.422909     -0.000408315    -0.000226988        0.0751833        0.211387      0.000519937     -6.0386e-05
                     -8.7878e-05    -0.000480742         0.668979       -0.717555      0.000431319    -7.18102e-05       -0.0327349         0.16034
281726                  0.122688        0.190592     -0.000240941     0.000249695         0.871922       -0.423237      -0.00017423    -0.000422998
                    -0.000231703      0.00024244         0.163359      -0.0443209     -0.000350421    -0.000410751         0.668606       -0.717603
                        0.871762       -0.423199     -0.000408556    -0.000226711        0.0753439        0.211373      0.000520171    -6.06329e-05
                    -8.81491e-05    -0.000480776         0.668756       -0.717767      0.000431175    -7.18234e-05       -0.0326019        0.160357
281728                  0.122708        0.190629     -0.000240646     0.000249828          0.87177       -0.423527     -0.000174271    -0.000423007
                     -0.00023147     0.000242575         0.163356      -0.0442886     -0.000350619    -0.000410658         0.668383       -0.717813
                         0.87161       -0.423489     -0.000408797    -0.000226434        0.0755045        0.211359      0.000520404      -6.088e-05
                    -8.84202e-05    -0.000480809         0.668533       -0.717978      0.000431031    -7.18379e-05       -0.0324688        0.160373
281730                  0.122728        0.190666      -0.00024035      0.00024996         0.871617       -0.423816     -0.000174311    -0.000423017
                    -0.000231238      0.00024271         0.163354      -0.0442564     -0.000350818    -0.000410564          0.66816       -0.718024
                        0.871457       -0.423779     -0.000409037    -0.000226157        0.0756652        0.211345      0.000520636    -6.11272e-05
                    -8.86911e-05    -0.000480842         0.668309       -0.718189      0.000430887    -7.18537e-05       -0.0323358        0.160389
281732                  0.122748        0.190703     -0.000240054     0.000250093         0.871464       -0.424106     -0.000174352    -0.000423026
                    -0.000231005     0.000242845         0.163351      -0.0442241     -0.000351017    -0.000410467         0.667937       -0.718235
                        0.871304       -0.424068     -0.000409278     -0.00022588        0.0758259        0.211331      0.000520867    -6.13744e-05
                    -8.89619e-05    -0.000480874         0.668086         -0.7184      0.000430743    -7.18708e-05       -0.0322027        0.160406
281734                  0.122769         0.19074     -0.000239758     0.000250227         0.871311       -0.424396     -0.000174394    -0.000423036
                    -0.000230773     0.000242979         0.163348      -0.0441919     -0.000351216    -0.000410369         0.667714       -0.718446
                        0.871151       -0.424358     -0.000409518    -0.000225603        0.0759867        0.211317      0.000521096    -6.16216e-05
                    -8.92326e-05    -0.000480906         0.667863       -0.718611        0.0004306    -7.18893e-05       -0.0320697        0.160422
281736                  0.122789        0.190777     -0.000239461     0.000250361         0.871158       -0.424686     -0.000174435    -0.000423044
                    -0.000230541     0.000243113         0.163345      -0.0441596     -0.000351415    -0.000410268         0.667491       -0.718656
                        0.870999       -0.424648     -0.000409757    -0.000225326        0.0761475        0.211302      0.000521324    -6.18689e-05
                    -8.95032e-05    -0.000480937         0.667639       -0.718821      0.000430457     -7.1909e-05       -0.0319367        0.160438
281738                  0.122809        0.190814     -0.000239164     0.000250496         0.871005       -0.424976     -0.000174477    -0.000423053
                     -0.00023031     0.000243247         0.163342      -0.0441274     -0.000351614    -0.000410166         0.667268       -0.718867
                        0.870845       -0.424937     -0.000409997    -0.000225048        0.0763084        0.211288       0.00052155    -6.21161e-05
                    -8.97737e-05    -0.000480967         0.667416       -0.719032      0.000430314    -7.19301e-05       -0.0318036        0.160454
281740                  0.122829        0.190852     -0.000238867     0.000250631         0.870852       -0.425265     -0.000174519    -0.000423061
                    -0.000230078     0.000243381         0.163339      -0.0440952     -0.000351814    -0.000410062         0.667044       -0.719077
                        0.870692       -0.425227     -0.000410236    -0.000224771        0.0764692        0.211273      0.000521776    -6.23634e-05
                    -9.00441e-05    -0.000480997         0.667192       -0.719243      0.000430172    -7.19525e-05       -0.0316706         0.16047
281742                  0.122849        0.190889      -0.00023857     0.000250766         0.870698       -0.425555     -0.000174561    -0.000423069
                    -0.000229846     0.000243514         0.163336       -0.044063     -0.000352014    -0.000409956         0.666821       -0.719288
                        0.870539       -0.425516     -0.000410474    -0.000224493        0.0766302        0.211259         0.000522    -6.26105e-05
                    -9.03144e-05    -0.000481026         0.666968       -0.719453       0.00043003    -7.19763e-05       -0.0315376        0.160485
281744                   0.12287        0.190926     -0.000238273     0.000250902         0.870545       -0.425845     -0.000174603    -0.000423077
                    -0.000229615     0.000243647         0.163334      -0.0440308     -0.000352214    -0.000409849         0.666597       -0.719498
                        0.870386       -0.425806     -0.000410713    -0.000224216        0.0767911        0.211244      0.000522222    -6.28576e-05
                    -9.05845e-05    -0.000481055         0.666744       -0.719664      0.000429888    -7.20014e-05       -0.0314046        0.160501
281746                   0.12289        0.190964     -0.000237975     0.000251038         0.870391       -0.426134     -0.000174646    -0.000423085
                    -0.000229383      0.00024378         0.163331      -0.0439986     -0.000352414    -0.000409739         0.666374       -0.719708
                        0.870232       -0.426095     -0.000410951    -0.000223938        0.0769521        0.211229      0.000522444    -6.31045e-05
                    -9.08546e-05    -0.000481083         0.666521       -0.719874      0.000429746    -7.20279e-05       -0.0312716        0.160516
281748                   0.12291        0.191001     -0.000237677     0.000251174         0.870238       -0.426424     -0.000174689    -0.000423092
                    -0.000229152     0.000243912         0.163328      -0.0439664     -0.000352614    -0.000409628          0.66615       -0.719918
                        0.870079       -0.426385     -0.000411189     -0.00022366        0.0771132        0.211214      0.000522663    -6.33513e-05
                    -9.11245e-05    -0.000481111         0.666297       -0.720085      0.000429605    -7.20557e-05       -0.0311386        0.160532
281750                   0.12293        0.191038     -0.000237379     0.000251312         0.870084       -0.426713     -0.000174732    -0.000423098
                    -0.000228921     0.000244044         0.163325      -0.0439343     -0.000352815    -0.000409514         0.665927       -0.720128
                        0.869925       -0.426674     -0.000411426    -0.000223382        0.0772743        0.211199      0.000522882    -6.35979e-05
                    -9.13943e-05    -0.000481138         0.666073       -0.720295      0.000429464     -7.2085e-05       -0.0310056        0.160547
281752                   0.12295        0.191076     -0.000237081     0.000251449          0.86993       -0.427003     -0.000174775    -0.000423105
                     -0.00022869     0.000244176         0.163322      -0.0439021     -0.000353015    -0.000409399         0.665703       -0.720338
                        0.869771       -0.426963     -0.000411664    -0.000223104        0.0774354        0.211183      0.000523099    -6.38444e-05
                     -9.1664e-05    -0.000481164         0.665849       -0.720505      0.000429323    -7.21156e-05       -0.0308727        0.160563
281754                  0.122971        0.191113     -0.000236782     0.000251587         0.869776       -0.427292     -0.000174819    -0.000423111
                    -0.000228459     0.000244307          0.16332        -0.04387     -0.000353216    -0.000409283         0.665479       -0.720548
                        0.869617       -0.427253       -0.0004119    -0.000222826        0.0775966        0.211168      0.000523315    -6.40906e-05
                    -9.19336e-05     -0.00048119         0.665625       -0.720715      0.000429183    -7.21475e-05       -0.0307397        0.160578
281756                  0.122991         0.19115     -0.000236484     0.000251725         0.869622       -0.427582     -0.000174864    -0.000423116
                    -0.000228229     0.000244438         0.163317      -0.0438378     -0.000353417    -0.000409164         0.665255       -0.720758
                        0.869463       -0.427542     -0.000412137    -0.000222547        0.0777578        0.211153      0.000523529    -6.43365e-05
                    -9.22031e-05    -0.000481215         0.665401       -0.720925      0.000429043    -7.21809e-05       -0.0306067        0.160593
281758                  0.123011        0.191188     -0.000236185     0.000251864         0.869467       -0.427871     -0.000174908    -0.000423122
                    -0.000227998     0.000244569         0.163314      -0.0438057     -0.000353618    -0.000409043         0.665031       -0.720968
                        0.869309       -0.427831     -0.000412373    -0.000222269         0.077919        0.211137      0.000523741    -6.45822e-05
                    -9.24725e-05     -0.00048124         0.665177       -0.721135      0.000428903    -7.22157e-05       -0.0304738        0.160608
281760                  0.123032        0.191225     -0.000235886     0.000252003         0.869313        -0.42816     -0.000174954    -0.000423126
                    -0.000227768       0.0002447         0.163311      -0.0437736      -0.00035382    -0.000408921         0.664807       -0.721178
                        0.869154        -0.42812     -0.000412609    -0.000221991        0.0780803        0.211121      0.000523953    -6.48276e-05
                    -9.27417e-05    -0.000481264         0.664952       -0.721345      0.000428763    -7.22519e-05       -0.0303408        0.160623
281762                  0.123052        0.191263     -0.000235586     0.000252142         0.869158        -0.42845     -0.000174999     -0.00042313
                    -0.000227538      0.00024483         0.163309      -0.0437415     -0.000354021    -0.000408797         0.664583       -0.721387
                           0.869        -0.42841     -0.000412844    -0.000221712        0.0782416        0.211106      0.000524162    -6.50726e-05
