! TOUCHSTONE file generated by CST MICROWAVE STUDIO
! Date and time: Wed Oct 15 17:31:48 2025
! Project name: Teste_Macro_Metasurface_Nanopilar.cst
! Parameters = {H=600; L_x=140; L_y=90; Lambda=1064; Max_L=200; Min_L=70; PathPara=1; Phi=0; Step_L=10; Theta=0; p=520; phaseX=180; phaseY=0}
! Header version: 2018
! Port assignment regex: !\s*Touchstone port\s*([0-9]+)\s*=\s*(CST MWS port|CST DS port)\s*([0-9]+|Zmin|Zmax)\s*\(\"(.*)\"\)(\s*mode\s*([0-9]+))?.*
! Touchstone port assignment:
! Touchstone port 1 = CST MWS port Zmax ("") mode 1
! Touchstone port 2 = CST MWS port Zmax ("") mode 2
! Touchstone port 3 = CST MWS port Zmin ("") mode 1
! Touchstone port 4 = CST MWS port Zmin ("") mode 2
! S-Parameters are not renormalized. Each port impedance will be approximated by the real part at minimum frequency. The values are described via the [Reference] keyword.
! Default impedance is overridden by [Reference]
[Version] 2.0
# GHz S RI R 376.73
[Number of Ports] 4
[Reference]
376.73 376.73 259.888 259.888 
[Number of Frequencies] 51
[Network Data]
281700                -0.0245632      0.00340528      0.000376758     0.000416347        -0.585255       -0.808493      0.000278169     0.000307658
                     0.000381901     0.000403958       -0.0319573      -0.0422017      0.000112226     0.000270635         0.346953        0.926764
                       -0.585294       -0.807868       0.00010569     0.000326498       -0.0109319       0.0230023      9.29321e-05     0.000591602
                     0.000262083     0.000323658         0.346661        0.926915      0.000107763     0.000595634       0.00127482       0.0548746
281702                -0.0245679      0.00341929      0.000376903     0.000416316        -0.585477       -0.808332      0.000278263     0.000307546
                     0.000381994     0.000403945       -0.0319704      -0.0421626      0.000112425     0.000270602         0.347323        0.926627
                       -0.585516       -0.807707      0.000105822     0.000326465       -0.0109341       0.0230084      9.32482e-05     0.000591677
                     0.000262221     0.000323543          0.34703        0.926778      0.000108032     0.000595718       0.00128265       0.0548523
281704                -0.0245725       0.0034333      0.000377047     0.000416285        -0.585699       -0.808171      0.000278357     0.000307434
                     0.000382087     0.000403932       -0.0319836      -0.0421234      0.000112624     0.000270569         0.347693         0.92649
                       -0.585738       -0.807546      0.000105954     0.000326432       -0.0109362       0.0230145      9.35644e-05     0.000591753
                     0.000262359     0.000323429           0.3474        0.926641      0.000108301     0.000595801       0.00129045         0.05483
281706                -0.0245772      0.00344732      0.000377192     0.000416254         -0.58592        -0.80801      0.000278451     0.000307321
                      0.00038218     0.000403919       -0.0319967      -0.0420842      0.000112823     0.000270537         0.348062        0.926353
                        -0.58596       -0.807384      0.000106086     0.000326399       -0.0109383       0.0230206      9.38809e-05     0.000591829
                     0.000262497     0.000323315          0.34777        0.926504       0.00010857     0.000595883       0.00129823       0.0548078
281708                -0.0245819      0.00346133      0.000377336     0.000416222        -0.586142       -0.807848      0.000278545     0.000307208
                     0.000382273     0.000403906       -0.0320099      -0.0420451      0.000113021     0.000270504         0.348432        0.926215
                       -0.586181       -0.807223      0.000106219     0.000326366       -0.0109405       0.0230268      9.41975e-05     0.000591904
                     0.000262634       0.0003232          0.34814        0.926366       0.00010884     0.000595966       0.00130597       0.0547856
281710                -0.0245866      0.00347535       0.00037748     0.000416191        -0.586364       -0.807687      0.000278639     0.000307096
                     0.000382365     0.000403892        -0.032023      -0.0420059       0.00011322     0.000270472         0.348802        0.926078
                       -0.586403       -0.807062      0.000106351     0.000326334       -0.0109426       0.0230329      9.45143e-05     0.000591979
                     0.000262772     0.000323086          0.34851        0.926229      0.000109109     0.000596047       0.00131369       0.0547633
281712                -0.0245912      0.00348937      0.000377625     0.000416159        -0.586585       -0.807525      0.000278732     0.000306983
                     0.000382458     0.000403879       -0.0320361      -0.0419668      0.000113418      0.00027044         0.349171         0.92594
                       -0.586625         -0.8069      0.000106484     0.000326301       -0.0109447       0.0230391      9.48313e-05     0.000592054
                     0.000262909     0.000322971         0.348879        0.926091      0.000109379     0.000596129       0.00132138       0.0547411
281714                -0.0245959      0.00350339       0.00037777     0.000416128        -0.586807       -0.807364      0.000278826      0.00030687
                     0.000382551     0.000403866       -0.0320492      -0.0419276      0.000113617     0.000270408         0.349541        0.925802
                       -0.586846       -0.806739      0.000106616     0.000326268       -0.0109469       0.0230452      9.51485e-05     0.000592129
                     0.000263046     0.000322856         0.349249        0.925953      0.000109649      0.00059621       0.00132904       0.0547189
281716                -0.0246005      0.00351741      0.000377914     0.000416096        -0.587028       -0.807202      0.000278919     0.000306757
                     0.000382643     0.000403852       -0.0320623      -0.0418884      0.000113815     0.000270377          0.34991        0.925664
                       -0.587068       -0.806577      0.000106749     0.000326235        -0.010949       0.0230514      9.54658e-05     0.000592203
                     0.000263184     0.000322741         0.349618        0.925815       0.00010992     0.000596291       0.00133668       0.0546967
281718                -0.0246052      0.00353143      0.000378059     0.000416065        -0.587249        -0.80704      0.000279013     0.000306643
                     0.000382736     0.000403839       -0.0320754      -0.0418492      0.000114013     0.000270345          0.35028        0.925526
                       -0.587289       -0.806416      0.000106882     0.000326203       -0.0109511       0.0230576      9.57833e-05     0.000592278
                      0.00026332     0.000322626         0.349988        0.925677       0.00011019     0.000596372       0.00134429       0.0546746
281720                -0.0246099      0.00354545      0.000378203     0.000416033        -0.587471       -0.806879      0.000279106      0.00030653
                     0.000382828     0.000403826       -0.0320884      -0.0418101      0.000114211     0.000270314         0.350649        0.925387
                        -0.58751       -0.806254      0.000107014      0.00032617       -0.0109532       0.0230638      9.61009e-05     0.000592352
                     0.000263457     0.000322511         0.350357        0.925539      0.000110461     0.000596452       0.00135186       0.0546524
281722                -0.0246145      0.00355947      0.000378348     0.000416001        -0.587692       -0.806717      0.000279199     0.000306416
                      0.00038292     0.000403814       -0.0321015      -0.0417709      0.000114408     0.000270283         0.351018        0.925249
                       -0.587732       -0.806093      0.000107147     0.000326137       -0.0109553       0.0230699      9.64187e-05     0.000592426
                     0.000263594     0.000322395         0.350727        0.925401      0.000110732     0.000596532       0.00135942       0.0546302
281724                -0.0246192       0.0035735      0.000378493     0.000415969        -0.587913       -0.806555      0.000279292     0.000306303
                     0.000383013     0.000403801       -0.0321145      -0.0417317      0.000114606     0.000270252         0.351388         0.92511
                       -0.587953       -0.805931      0.000107279     0.000326104       -0.0109575       0.0230761      9.67367e-05       0.0005925
                      0.00026373      0.00032228         0.351096        0.925262      0.000111003     0.000596612       0.00136694       0.0546081
281726                -0.0246238      0.00358752      0.000378637     0.000415937        -0.588134       -0.806393      0.000279385     0.000306189
                     0.000383105     0.000403789       -0.0321275      -0.0416925      0.000114804     0.000270221         0.351757        0.924971
                       -0.588174       -0.805769      0.000107412     0.000326071       -0.0109596       0.0230823      9.70548e-05     0.000592574
                     0.000263866     0.000322165         0.351465        0.925123      0.000111274     0.000596692       0.00137444        0.054586
281728                -0.0246285      0.00360155      0.000378782     0.000415905        -0.588356       -0.806231      0.000279478     0.000306075
                     0.000383198     0.000403777       -0.0321405      -0.0416533      0.000115001      0.00027019         0.352126        0.924832
                       -0.588396       -0.805607      0.000107544     0.000326037       -0.0109617       0.0230886       9.7373e-05     0.000592648
                     0.000264002      0.00032205         0.351834        0.924985      0.000111546     0.000596771       0.00138191       0.0545639
281730                -0.0246331      0.00361558      0.000378926     0.000415873        -0.588577       -0.806069      0.000279571     0.000305961
                     0.000383292     0.000403764       -0.0321535      -0.0416141      0.000115199      0.00027016         0.352495        0.924693
                       -0.588617       -0.805445      0.000107676     0.000326004       -0.0109638       0.0230948      9.76914e-05     0.000592721
                     0.000264138     0.000321935         0.352203        0.924846      0.000111817      0.00059685       0.00138935       0.0545418
281732                -0.0246378      0.00362961      0.000379071     0.000415841        -0.588798       -0.805907      0.000279663     0.000305847
                     0.000383385     0.000403752       -0.0321665       -0.041575      0.000115396      0.00027013         0.352864        0.924554
                       -0.588838       -0.805283      0.000107809     0.000325971       -0.0109659        0.023101      9.80099e-05     0.000592794
                     0.000264274      0.00032182         0.352572        0.924707      0.000112089     0.000596929       0.00139677       0.0545197
281734                -0.0246424      0.00364364      0.000379216     0.000415809        -0.589019       -0.805744      0.000279756     0.000305733
                     0.000383479      0.00040374       -0.0321795      -0.0415358      0.000115593       0.0002701         0.353233        0.924415
                       -0.589059       -0.805121      0.000107941     0.000325938        -0.010968       0.0231072      9.83286e-05     0.000592867
                     0.000264409     0.000321705         0.352941        0.924567      0.000112361     0.000597007       0.00140415       0.0544976
281736                -0.0246471      0.00365767       0.00037936     0.000415777         -0.58924       -0.805582      0.000279848     0.000305619
                     0.000383572     0.000403727       -0.0321925      -0.0414966       0.00011579      0.00027007         0.353602        0.924275
                        -0.58928       -0.804959      0.000108074     0.000325904       -0.0109701       0.0231135      9.86474e-05      0.00059294
                     0.000264545      0.00032159          0.35331        0.924428      0.000112633     0.000597086       0.00141151       0.0544755
281738                -0.0246517       0.0036717      0.000379505     0.000415745        -0.589461        -0.80542      0.000279941     0.000305505
                     0.000383666     0.000403714       -0.0322054      -0.0414574      0.000115987      0.00027004          0.35397        0.924136
                       -0.589501       -0.804797      0.000108206      0.00032587       -0.0109722       0.0231197      9.89663e-05     0.000593013
                     0.000264681     0.000321474         0.353679        0.924288      0.000112905     0.000597164       0.00141885       0.0544535
281740                -0.0246563      0.00368573       0.00037965     0.000415713        -0.589682       -0.805257      0.000280033      0.00030539
                      0.00038376     0.000403702       -0.0322184      -0.0414182      0.000116184     0.000270011         0.354339        0.923996
                       -0.589722       -0.804634      0.000108338     0.000325837       -0.0109742        0.023126      9.92854e-05     0.000593085
                     0.000264817     0.000321359         0.354048        0.924149      0.000113177     0.000597242       0.00142615       0.0544315
281742                 -0.024661      0.00369976      0.000379794      0.00041568        -0.589903       -0.805095      0.000280125     0.000305276
                     0.000383854     0.000403689       -0.0322313      -0.0413789       0.00011638     0.000269981         0.354708        0.923856
                       -0.589943       -0.804472       0.00010847     0.000325803       -0.0109763       0.0231322      9.96045e-05     0.000593158
                     0.000264953     0.000321244         0.354417        0.924009       0.00011345     0.000597319       0.00143343       0.0544094
281744                -0.0246656       0.0037138      0.000379939     0.000415648        -0.590123       -0.804932      0.000280217     0.000305161
                     0.000383948     0.000403676       -0.0322442      -0.0413397      0.000116577     0.000269952         0.355076        0.923716
                       -0.590164        -0.80431      0.000108603     0.000325769       -0.0109784       0.0231385      9.99238e-05      0.00059323
                     0.000265089     0.000321129         0.354785        0.923869      0.000113722     0.000597397       0.00144068       0.0543874
281746                -0.0246703      0.00372783      0.000380083     0.000415616        -0.590344        -0.80477      0.000280309     0.000305046
                     0.000384041     0.000403663       -0.0322571      -0.0413005      0.000116773     0.000269923         0.355445        0.923576
                       -0.590385       -0.804147      0.000108735     0.000325735       -0.0109805       0.0231448      0.000100243     0.000593302
                     0.000265224     0.000321013         0.355154        0.923729      0.000113995     0.000597474        0.0014479       0.0543654
281748                -0.0246749      0.00374187      0.000380228     0.000415584        -0.590565       -0.804607      0.000280401     0.000304931
                     0.000384135      0.00040365         -0.03227      -0.0412613       0.00011697     0.000269894         0.355813        0.923435
                       -0.590606       -0.803985      0.000108867     0.000325701       -0.0109826       0.0231511      0.000100563     0.000593374
                      0.00026536     0.000320898         0.355523        0.923588      0.000114267     0.000597551        0.0014551       0.0543435
281750                -0.0246795      0.00375591      0.000380373     0.000415551        -0.590786       -0.804444      0.000280492     0.000304816
                     0.000384229     0.000403638       -0.0322829      -0.0412221      0.000117166     0.000269865         0.356182        0.923295
                       -0.590827       -0.803822      0.000108999     0.000325667       -0.0109846       0.0231574      0.000100882     0.000593445
                     0.000265495     0.000320782         0.355891        0.923448       0.00011454     0.000597627       0.00146227       0.0543215
281752                -0.0246841      0.00376995      0.000380517     0.000415519        -0.591006       -0.804282      0.000280584     0.000304701
                     0.000384323     0.000403625       -0.0322957      -0.0411829      0.000117362     0.000269837          0.35655        0.923154
                       -0.591047       -0.803659      0.000109131     0.000325633       -0.0109867       0.0231637      0.000101202     0.000593517
                     0.000265631     0.000320667          0.35626        0.923307      0.000114813     0.000597704       0.00146941       0.0542995
281754                -0.0246888      0.00378399      0.000380662     0.000415487        -0.591227       -0.804119      0.000280675     0.000304586
                     0.000384417     0.000403612       -0.0323086      -0.0411437      0.000117558     0.000269809         0.356918        0.923013
                       -0.591268       -0.803497      0.000109264     0.000325599       -0.0109888         0.02317      0.000101522     0.000593588
                     0.000265766     0.000320551         0.356628        0.923167      0.000115086      0.00059778       0.00147652       0.0542776
281756                -0.0246934      0.00379803      0.000380807     0.000415455        -0.591448       -0.803956      0.000280767     0.000304471
                     0.000384512     0.000403599       -0.0323214      -0.0411044      0.000117754      0.00026978         0.357287        0.922872
                       -0.591489       -0.803334      0.000109396     0.000325565       -0.0109908       0.0231763      0.000101842     0.000593659
                     0.000265902     0.000320435         0.356996        0.923026      0.000115359     0.000597856       0.00148361       0.0542556
281758                 -0.024698      0.00381207      0.000380951     0.000415422        -0.591668       -0.803793      0.000280858     0.000304355
                     0.000384606     0.000403586       -0.0323343      -0.0410652       0.00011795     0.000269752         0.357655        0.922731
                       -0.591709       -0.803171      0.000109528      0.00032553       -0.0109929       0.0231826      0.000102162      0.00059373
                     0.000266037     0.000320319         0.357364        0.922885      0.000115632     0.000597932       0.00149067       0.0542337
281760                -0.0247026      0.00382611      0.000381096      0.00041539        -0.591889        -0.80363      0.000280949      0.00030424
                       0.0003847     0.000403574       -0.0323471       -0.041026      0.000118146     0.000269724         0.358023         0.92259
                        -0.59193       -0.803008       0.00010966     0.000325496        -0.010995       0.0231889      0.000102483       0.0005938
                     0.000266172     0.000320203         0.357733        0.922744      0.000115904     0.000598008        0.0014977       0.0542118
281762                -0.0247072      0.00384016      0.000381241     0.000415358        -0.592109       -0.803467       0.00028104     0.000304124
                     0.000384794     0.000403561       -0.0323599      -0.0409868      0.000118342     0.000269697         0.358391        0.922448
                       -0.592151       -0.802845      0.000109792     0.000325461        -0.010997       0.0231953      0.000102803     0.000593871
