! TOUCHSTONE file generated by CST MICROWAVE STUDIO
! Date and time: Wed Oct 15 17:29:06 2025
! Project name: Teste_Macro_Metasurface_Nanopilar.cst
! Parameters = {H=600; L_x=90; L_y=170; Lambda=1064; Max_L=200; Min_L=70; PathPara=1; Phi=0; Step_L=10; Theta=0; p=520; phaseX=180; phaseY=0}
! Header version: 2018
! Port assignment regex: !\s*Touchstone port\s*([0-9]+)\s*=\s*(CST MWS port|CST DS port)\s*([0-9]+|Zmin|Zmax)\s*\(\"(.*)\"\)(\s*mode\s*([0-9]+))?.*
! Touchstone port assignment:
! Touchstone port 1 = CST MWS port Zmax ("") mode 1
! Touchstone port 2 = CST MWS port Zmax ("") mode 2
! Touchstone port 3 = CST MWS port Zmin ("") mode 1
! Touchstone port 4 = CST MWS port Zmin ("") mode 2
! S-Parameters are not renormalized. Each port impedance will be approximated by the real part at minimum frequency. The values are described via the [Reference] keyword.
! Default impedance is overridden by [Reference]
[Version] 2.0
# GHz S RI R 376.73
[Number of Ports] 4
[Reference]
376.73 376.73 259.888 259.888 
[Number of Frequencies] 51
[Network Data]
281700                 0.0955616        0.223259     -0.000342235     7.91211e-07         0.917924       -0.296581      0.000152818    -1.91666e-06
                    -0.000347433     7.93034e-05       -0.0215712       0.0734458       8.7012e-05     2.56461e-05        -0.834899       -0.539571
                        0.918349       -0.296559      0.000137559       1.815e-05        0.0545818        0.235466     -0.000306512    -5.37949e-05
                     7.18057e-05    -5.01992e-05         -0.83502       -0.539354     -0.000270309    -0.000144787       -0.0575356       0.0508301
281702                 0.0955894        0.223286     -0.000342209     9.04672e-07         0.917815        -0.29689      0.000152765     -2.0767e-06
                    -0.000347399     7.93385e-05       -0.0215665       0.0734656      8.70337e-05     2.56418e-05        -0.835058       -0.539321
                        0.918239       -0.296868       0.00013755     1.81288e-05        0.0547354        0.235467     -0.000306441    -5.36667e-05
                     7.18196e-05      -5.019e-05         -0.83518       -0.539105      -0.00027034    -0.000144674       -0.0575255       0.0508683
281704                 0.0956171        0.223312     -0.000342182     1.01817e-06         0.917706       -0.297199      0.000152711    -2.23686e-06
                    -0.000347365     7.93736e-05       -0.0215617       0.0734855      8.70556e-05     2.56373e-05        -0.835217        -0.53907
                         0.91813       -0.297176      0.000137542     1.81077e-05        0.0548891        0.235467     -0.000306369    -5.35388e-05
                     7.18335e-05    -5.01807e-05        -0.835339       -0.538855     -0.000270371     -0.00014456       -0.0575154       0.0509066
281706                 0.0956448        0.223339     -0.000342156     1.13169e-06         0.917597       -0.297508      0.000152657    -2.39715e-06
                    -0.000347331     7.94086e-05       -0.0215568       0.0735053      8.70777e-05     2.56325e-05        -0.835376        -0.53882
                        0.918021       -0.297484      0.000137533     1.80864e-05        0.0550428        0.235468     -0.000306297    -5.34112e-05
                     7.18475e-05    -5.01712e-05        -0.835498       -0.538606     -0.000270402    -0.000144447       -0.0575052       0.0509448
281708                 0.0956726        0.223366     -0.000342129     1.24524e-06         0.917487       -0.297816      0.000152603    -2.55755e-06
                    -0.000347297     7.94435e-05        -0.021552       0.0735251      8.70999e-05     2.56275e-05        -0.835535        -0.53857
                        0.917911       -0.297792      0.000137525     1.80652e-05        0.0551965        0.235468     -0.000306224    -5.32838e-05
                     7.18616e-05    -5.01615e-05        -0.835657       -0.538356     -0.000270432    -0.000144334       -0.0574951        0.050983
281710                 0.0957004        0.223393     -0.000342102     1.35881e-06         0.917378       -0.298125      0.000152548    -2.71808e-06
                    -0.000347263     7.94782e-05       -0.0215472        0.073545      8.71224e-05     2.56224e-05        -0.835694        -0.53832
                        0.917801         -0.2981      0.000137516     1.80438e-05        0.0553503        0.235468      -0.00030615    -5.31567e-05
                     7.18757e-05    -5.01517e-05        -0.835816       -0.538107     -0.000270463    -0.000144221       -0.0574849       0.0510213
281712                 0.0957281         0.22342     -0.000342075     1.47239e-06         0.917268       -0.298433      0.000152493    -2.87872e-06
                    -0.000347228     7.95129e-05       -0.0215424       0.0735648       8.7145e-05      2.5617e-05        -0.835852       -0.538069
                        0.917691       -0.298409      0.000137507     1.80225e-05        0.0555041        0.235468     -0.000306076    -5.30298e-05
                     7.18899e-05    -5.01417e-05        -0.835975       -0.537857     -0.000270493    -0.000144107       -0.0574747       0.0510595
281714                 0.0957559        0.223447     -0.000342048       1.586e-06         0.917158       -0.298742      0.000152438    -3.03949e-06
                    -0.000347194     7.95476e-05       -0.0215376       0.0735846      8.71678e-05     2.56115e-05        -0.836011       -0.537819
                        0.917582       -0.298717      0.000137499     1.80011e-05        0.0556579        0.235468     -0.000306001    -5.29032e-05
                     7.19041e-05    -5.01315e-05        -0.836134       -0.537607     -0.000270524    -0.000143994       -0.0574644       0.0510978
281716                 0.0957836        0.223474     -0.000342021     1.69961e-06         0.917048       -0.299051      0.000152383    -3.20036e-06
                     -0.00034716     7.95821e-05       -0.0215328       0.0736045      8.71907e-05     2.56057e-05         -0.83617       -0.537568
                        0.917472       -0.299025       0.00013749     1.79798e-05        0.0558117        0.235468     -0.000305926    -5.27769e-05
                     7.19184e-05    -5.01211e-05        -0.836293       -0.537358     -0.000270554    -0.000143881       -0.0574542        0.051136
281718                 0.0958114        0.223501     -0.000341994     1.81323e-06         0.916938       -0.299359      0.000152327    -3.36135e-06
                    -0.000347126     7.96165e-05       -0.0215279       0.0736243      8.72138e-05     2.55999e-05        -0.836328       -0.537318
                        0.917361       -0.299333      0.000137481     1.79583e-05        0.0559656        0.235468      -0.00030585    -5.26509e-05
                     7.19327e-05    -5.01105e-05        -0.836452       -0.537108     -0.000270584    -0.000143767       -0.0574439       0.0511743
281720                 0.0958392        0.223528     -0.000341967     1.92686e-06         0.916828       -0.299668      0.000152271    -3.52246e-06
                    -0.000347091     7.96508e-05       -0.0215231       0.0736442       8.7237e-05     2.55938e-05        -0.836486       -0.537067
                        0.917251       -0.299641      0.000137473     1.79369e-05        0.0561195        0.235468     -0.000305773    -5.25251e-05
                     7.19471e-05    -5.00997e-05        -0.836611       -0.536858     -0.000270614    -0.000143654       -0.0574336       0.0512126
281722                  0.095867        0.223555      -0.00034194      2.0405e-06         0.916718       -0.299976      0.000152215    -3.68367e-06
                    -0.000347057      7.9685e-05       -0.0215183        0.073664      8.72604e-05     2.55876e-05        -0.836645       -0.536817
                        0.917141       -0.299949      0.000137464     1.79155e-05        0.0562734        0.235467     -0.000305696    -5.23996e-05
                     7.19615e-05    -5.00888e-05        -0.836769       -0.536608     -0.000270644     -0.00014354       -0.0574232       0.0512508
281724                 0.0958948        0.223582     -0.000341912     2.15413e-06         0.916608       -0.300284      0.000152158      -3.845e-06
                    -0.000347022     7.97192e-05       -0.0215134       0.0736838      8.72839e-05     2.55813e-05        -0.836803       -0.536566
                         0.91703       -0.300256      0.000137455      1.7894e-05        0.0564273        0.235467     -0.000305618    -5.22744e-05
                      7.1976e-05    -5.00776e-05        -0.836928       -0.536358     -0.000270674    -0.000143427       -0.0574129       0.0512891
281726                 0.0959226        0.223609     -0.000341885     2.26777e-06         0.916498       -0.300593      0.000152101    -4.00643e-06
                    -0.000346988     7.97532e-05       -0.0215086       0.0737037      8.73075e-05     2.55749e-05        -0.836961       -0.536315
                         0.91692       -0.300564      0.000137446     1.78726e-05        0.0565813        0.235466     -0.000305539    -5.21495e-05
                     7.19905e-05    -5.00663e-05        -0.837087       -0.536108     -0.000270703    -0.000143313       -0.0574025       0.0513274
281728                 0.0959504        0.223636     -0.000341857     2.38141e-06         0.916387       -0.300901      0.000152044    -4.16797e-06
                    -0.000346953     7.97871e-05       -0.0215037       0.0737235      8.73312e-05     2.55683e-05        -0.837119       -0.536065
                        0.916809       -0.300872      0.000137438     1.78511e-05        0.0567352        0.235466      -0.00030546     -5.2025e-05
                     7.20051e-05    -5.00548e-05        -0.837245       -0.535858     -0.000270733      -0.0001432       -0.0573921       0.0513656
281730                 0.0959782        0.223663      -0.00034183     2.49504e-06         0.916276       -0.301209      0.000151987    -4.32962e-06
                    -0.000346918     7.98209e-05       -0.0214989       0.0737434       8.7355e-05     2.55616e-05        -0.837277       -0.535814
                        0.916698        -0.30118      0.000137429     1.78296e-05        0.0568892        0.235465      -0.00030538    -5.19007e-05
                     7.20197e-05    -5.00431e-05        -0.837403       -0.535608     -0.000270762    -0.000143086       -0.0573817       0.0514039
281732                  0.096006         0.22369     -0.000341802     2.60867e-06         0.916166       -0.301518      0.000151929    -4.49136e-06
                    -0.000346884     7.98547e-05        -0.021494       0.0737632       8.7379e-05     2.55548e-05        -0.837435       -0.535563
                        0.916587       -0.301488       0.00013742     1.78081e-05        0.0570433        0.235464       -0.0003053    -5.17767e-05
                     7.20344e-05    -5.00312e-05        -0.837562       -0.535358     -0.000270791    -0.000142973       -0.0573712       0.0514422
281734                 0.0960339        0.223717     -0.000341774     2.72229e-06         0.916055       -0.301826      0.000151871    -4.65321e-06
                    -0.000346849     7.98883e-05       -0.0214892        0.073783       8.7403e-05     2.55479e-05        -0.837593       -0.535312
                        0.916476       -0.301795      0.000137411     1.77866e-05        0.0571973        0.235463     -0.000305219    -5.16531e-05
                     7.20491e-05    -5.00191e-05         -0.83772       -0.535107      -0.00027082    -0.000142859       -0.0573607       0.0514805
281736                 0.0960617        0.223744     -0.000341746      2.8359e-06         0.915944       -0.302134      0.000151813    -4.81517e-06
                    -0.000346814     7.99218e-05       -0.0214843       0.0738029      8.74271e-05     2.55409e-05        -0.837751       -0.535061
                        0.916365       -0.302103      0.000137402     1.77651e-05        0.0573514        0.235462     -0.000305137    -5.15297e-05
                     7.20638e-05    -5.00068e-05        -0.837878       -0.534857     -0.000270849    -0.000142745       -0.0573502       0.0515188
281738                 0.0960895        0.223771     -0.000341718     2.94951e-06         0.915833       -0.302442      0.000151754    -4.97722e-06
                    -0.000346779     7.99553e-05       -0.0214794       0.0738227      8.74514e-05     2.55337e-05        -0.837908        -0.53481
                        0.916254       -0.302411      0.000137394     1.77436e-05        0.0575055        0.235461     -0.000305055    -5.14068e-05
                     7.20787e-05    -4.99944e-05        -0.838036       -0.534607     -0.000270877    -0.000142631       -0.0573397       0.0515571
281740                 0.0961174        0.223798      -0.00034169     3.06311e-06         0.915722        -0.30275      0.000151695    -5.13936e-06
                    -0.000346744     7.99886e-05       -0.0214745       0.0738426      8.74757e-05     2.55265e-05        -0.838066       -0.534559
                        0.916143       -0.302718      0.000137385     1.77221e-05        0.0576597         0.23546     -0.000304972    -5.12841e-05
                     7.20935e-05    -4.99817e-05        -0.838194       -0.534356     -0.000270905    -0.000142517       -0.0573292       0.0515954
281742                 0.0961452        0.223825     -0.000341662      3.1767e-06         0.915611       -0.303058      0.000151636    -5.30161e-06
                    -0.000346709     8.00218e-05       -0.0214697       0.0738624      8.75001e-05     2.55192e-05        -0.838224       -0.534308
                        0.916031       -0.303026      0.000137376     1.77006e-05        0.0578138        0.235458     -0.000304888    -5.11618e-05
                     7.21084e-05    -4.99688e-05        -0.838352       -0.534106     -0.000270933    -0.000142403       -0.0573186       0.0516336
281744                 0.0961731        0.223852     -0.000341634     3.29027e-06         0.915499       -0.303366      0.000151577    -5.46394e-06
                    -0.000346674     8.00549e-05       -0.0214648       0.0738822      8.75246e-05     2.55118e-05        -0.838381       -0.534057
                         0.91592       -0.303333      0.000137367     1.76791e-05         0.057968        0.235457     -0.000304804    -5.10398e-05
                     7.21234e-05    -4.99557e-05         -0.83851       -0.533855     -0.000270961    -0.000142289        -0.057308       0.0516719
281746                  0.096201        0.223879     -0.000341606     3.40383e-06         0.915388       -0.303674      0.000151517    -5.62637e-06
                    -0.000346639     8.00879e-05       -0.0214599       0.0739021      8.75492e-05     2.55044e-05        -0.838539       -0.533805
                        0.915808       -0.303641      0.000137358     1.76575e-05        0.0581222        0.235455     -0.000304719    -5.09182e-05
                     7.21383e-05    -4.99424e-05        -0.838668       -0.533605     -0.000270989    -0.000142175       -0.0572974       0.0517102
281748                 0.0962288        0.223906     -0.000341577     3.51738e-06         0.915276       -0.303982      0.000151457    -5.78889e-06
                    -0.000346604     8.01208e-05        -0.021455       0.0739219      8.75738e-05     2.54968e-05        -0.838696       -0.533554
                        0.915696       -0.303948      0.000137349      1.7636e-05        0.0582764        0.235454     -0.000304634    -5.07969e-05
                     7.21534e-05     -4.9929e-05        -0.838825       -0.533354     -0.000271016     -0.00014206       -0.0572868       0.0517486
281750                 0.0962567        0.223933     -0.000341549     3.63092e-06         0.915165        -0.30429      0.000151396     -5.9515e-06
                    -0.000346569     8.01536e-05       -0.0214501       0.0739418      8.75985e-05     2.54892e-05        -0.838853       -0.533303
                        0.915584       -0.304256       0.00013734     1.76145e-05        0.0584307        0.235452     -0.000304548    -5.06761e-05
                     7.21684e-05    -4.99153e-05        -0.838983       -0.533104     -0.000271043    -0.000141945       -0.0572761       0.0517869
281752                 0.0962846         0.22396      -0.00034152     3.74444e-06         0.915053       -0.304598      0.000151336    -6.11419e-06
                    -0.000346534     8.01863e-05       -0.0214452       0.0739616      8.76233e-05     2.54815e-05         -0.83901       -0.533051
                        0.915472       -0.304563      0.000137331      1.7593e-05         0.058585         0.23545     -0.000304461    -5.05556e-05
                     7.21835e-05    -4.99014e-05        -0.839141       -0.532853     -0.000271069    -0.000141829       -0.0572654       0.0518252
281754                 0.0963125        0.223987     -0.000341492     3.85795e-06         0.914941       -0.304906      0.000151275    -6.27697e-06
                    -0.000346499     8.02189e-05       -0.0214403       0.0739815      8.76482e-05     2.54738e-05        -0.839167         -0.5328
                         0.91536        -0.30487      0.000137322     1.75715e-05        0.0587393        0.235448     -0.000304373    -5.04355e-05
                     7.21987e-05    -4.98873e-05        -0.839298       -0.532602     -0.000271096    -0.000141712       -0.0572547       0.0518635
281756                 0.0963404        0.224014     -0.000341463     3.97144e-06         0.914829       -0.305213      0.000151213    -6.43983e-06
                    -0.000346464     8.02514e-05       -0.0214354       0.0740013      8.76731e-05      2.5466e-05        -0.839324       -0.532548
                        0.915248       -0.305178      0.000137313       1.755e-05        0.0588936        0.235446     -0.000304285    -5.03157e-05
                     7.22139e-05    -4.98729e-05        -0.839455       -0.532351     -0.000271122    -0.000141594        -0.057244       0.0519018
281758                 0.0963683        0.224041     -0.000341434     4.08492e-06         0.914717       -0.305521      0.000151152    -6.60277e-06
                    -0.000346428     8.02837e-05       -0.0214305       0.0740211      8.76981e-05     2.54581e-05        -0.839481       -0.532297
                        0.915136       -0.305485      0.000137304     1.75284e-05         0.059048        0.235444     -0.000304196    -5.01964e-05
                     7.22291e-05    -4.98584e-05        -0.839613       -0.532101     -0.000271148    -0.000141475       -0.0572332       0.0519401
281760                 0.0963962        0.224068     -0.000341405     4.19838e-06         0.914605       -0.305829       0.00015109    -6.76578e-06
                    -0.000346393      8.0316e-05       -0.0214256        0.074041      8.77231e-05     2.54502e-05        -0.839638       -0.532045
                        0.915023       -0.305792      0.000137295     1.75069e-05        0.0592023        0.235442     -0.000304106    -5.00775e-05
                     7.22444e-05    -4.98437e-05         -0.83977        -0.53185     -0.000271176    -0.000141354       -0.0572224       0.0519785
281762                 0.0964241        0.224095     -0.000341376     4.31183e-06         0.914492       -0.306137      0.000151027    -6.92887e-06
                    -0.000346358     8.03482e-05       -0.0214206       0.0740608      8.77482e-05     2.54422e-05        -0.839795       -0.531794
                        0.914911       -0.306099      0.000137286     1.74854e-05        0.0593567         0.23544     -0.000304016    -4.99591e-05
