! TOUCHSTONE file generated by CST MICROWAVE STUDIO
! Date and time: Wed Oct 15 17:33:31 2025
! Project name: Teste_Macro_Metasurface_Nanopilar.cst
! Parameters = {H=600; L_x=170; L_y=85; Lambda=1064; Max_L=200; Min_L=70; PathPara=1; Phi=0; Step_L=10; Theta=0; p=520; phaseX=180; phaseY=0}
! Header version: 2018
! Port assignment regex: !\s*Touchstone port\s*([0-9]+)\s*=\s*(CST MWS port|CST DS port)\s*([0-9]+|Zmin|Zmax)\s*\(\"(.*)\"\)(\s*mode\s*([0-9]+))?.*
! Touchstone port assignment:
! Touchstone port 1 = CST MWS port Zmax ("") mode 1
! Touchstone port 2 = CST MWS port Zmax ("") mode 2
! Touchstone port 3 = CST MWS port Zmin ("") mode 1
! Touchstone port 4 = CST MWS port Zmin ("") mode 2
! S-Parameters are not renormalized. Each port impedance will be approximated by the real part at minimum frequency. The values are described via the [Reference] keyword.
! Default impedance is overridden by [Reference]
[Version] 2.0
# GHz S RI R 376.73
[Number of Ports] 4
[Reference]
376.73 376.73 259.888 259.888 
[Number of Frequencies] 51
[Network Data]
281700                -0.0354485      0.00536443     -0.000115264     0.000142291         -0.61065       -0.788629     -0.000127671    -0.000367035
                    -2.85347e-07      0.00014597        0.0600695        0.191427     -0.000364605     1.50858e-05         0.968749       -0.099577
                       -0.610818        -0.78871     -0.000273206      1.2829e-05       -0.0139865       0.0337429     -4.61249e-05    -6.21461e-05
                    -0.000290863    -0.000272256         0.968695      -0.0994076      0.000107524    -0.000174413       -0.0183312          0.1993
281702                -0.0354542      0.00537953     -0.000115194     0.000142371        -0.610866       -0.788461     -0.000127725    -0.000367195
                    -2.53057e-07     0.000145947        0.0600933        0.191449     -0.000364621     1.51702e-05          0.96871      -0.0999048
                       -0.611033       -0.788543     -0.000273242     1.28786e-05       -0.0139841       0.0337523     -4.61636e-05    -6.18081e-05
                    -0.000290917    -0.000272164         0.968656      -0.0997368      0.000107466    -0.000174452       -0.0182142        0.199339
281704                -0.0354599      0.00539463     -0.000115124      0.00014245        -0.611081       -0.788294     -0.000127782    -0.000367355
                    -2.20789e-07     0.000145924        0.0601172        0.191471     -0.000364637     1.52546e-05         0.968671       -0.100233
                       -0.611249       -0.788375     -0.000273278     1.29282e-05       -0.0139816       0.0337618     -4.61988e-05      -6.147e-05
                    -0.000290972    -0.000272072         0.968616       -0.100066      0.000107407    -0.000174491       -0.0180972        0.199377
281706                -0.0354656      0.00540973     -0.000115054     0.000142528        -0.611297       -0.788126      -0.00012784    -0.000367517
                    -1.88543e-07     0.000145902        0.0601411        0.191493     -0.000364652     1.53389e-05         0.968632        -0.10056
                       -0.611465       -0.788207     -0.000273313     1.29779e-05       -0.0139792       0.0337712     -4.62306e-05    -6.11317e-05
                    -0.000291026    -0.000271979         0.968577       -0.100395      0.000107349     -0.00017453       -0.0179801        0.199416
281708                -0.0354712      0.00542484     -0.000114983     0.000142607        -0.611512       -0.787958     -0.000127901    -0.000367679
                    -1.56318e-07     0.000145879        0.0601649        0.191515     -0.000364668     1.54233e-05         0.968593       -0.100888
                       -0.611681       -0.788039     -0.000273349     1.30276e-05       -0.0139768       0.0337807     -4.62589e-05    -6.07933e-05
                     -0.00029108    -0.000271887         0.968537       -0.100724       0.00010729    -0.000174569        -0.017863        0.199454
281710                -0.0354769      0.00543994     -0.000114912     0.000142685        -0.611728        -0.78779     -0.000127965    -0.000367841
                    -1.24115e-07     0.000145856        0.0601888        0.191537     -0.000364684     1.55076e-05         0.968554       -0.101216
                       -0.611897       -0.787871     -0.000273385     1.30774e-05       -0.0139743       0.0337902     -4.62838e-05    -6.04549e-05
                    -0.000291135    -0.000271795         0.968497       -0.101053      0.000107231    -0.000174608       -0.0177459        0.199492
281712                -0.0354826      0.00545505     -0.000114841     0.000142763        -0.611943       -0.787622      -0.00012803    -0.000368004
                     -9.1932e-08     0.000145833        0.0602127         0.19156     -0.000364699      1.5592e-05         0.968514       -0.101544
                       -0.612112       -0.787703      -0.00027342     1.31272e-05       -0.0139719       0.0337996     -4.63053e-05    -6.01164e-05
                    -0.000291189    -0.000271703         0.968457       -0.101382      0.000107173    -0.000174647       -0.0176287        0.199531
281714                -0.0354883      0.00547016      -0.00011477     0.000142842        -0.612159       -0.787454     -0.000128098    -0.000368168
                      -5.977e-08      0.00014581        0.0602365        0.191582     -0.000364715     1.56763e-05         0.968475       -0.101871
                       -0.612328       -0.787535     -0.000273456      1.3177e-05       -0.0139694       0.0338091     -4.63233e-05    -5.97778e-05
                    -0.000291243     -0.00027161         0.968417       -0.101712      0.000107114    -0.000174686       -0.0175114        0.199569
281716                 -0.035494      0.00548527     -0.000114698      0.00014292        -0.612374       -0.787286     -0.000128168    -0.000368332
                    -2.76286e-08     0.000145787        0.0602604        0.191604     -0.000364731     1.57607e-05         0.968435       -0.102199
                       -0.612544       -0.787367     -0.000273491     1.32268e-05        -0.013967       0.0338186     -4.63379e-05    -5.94393e-05
                    -0.000291297    -0.000271518         0.968377       -0.102041      0.000107056    -0.000174725       -0.0173942        0.199607
281718                -0.0354996      0.00550038     -0.000114627     0.000142999        -0.612589       -0.787118      -0.00012824    -0.000368497
                     4.49249e-09     0.000145764        0.0602843        0.191626     -0.000364747      1.5845e-05         0.968396       -0.102527
                       -0.612759       -0.787199     -0.000273527     1.32767e-05       -0.0139645       0.0338281      -4.6349e-05    -5.91008e-05
                    -0.000291351    -0.000271426         0.968337        -0.10237      0.000106997    -0.000174764       -0.0172769        0.199645
281720                -0.0355053      0.00551549     -0.000114556     0.000143077        -0.612804        -0.78695     -0.000128315    -0.000368662
                     3.65933e-08     0.000145742        0.0603082        0.191648     -0.000364762     1.59293e-05         0.968356       -0.102854
                       -0.612975        -0.78703     -0.000273563     1.33266e-05        -0.013962       0.0338376     -4.63567e-05    -5.87624e-05
                    -0.000291405    -0.000271333         0.968296       -0.102699      0.000106939    -0.000174803       -0.0171595        0.199683
281722                 -0.035511      0.00553061     -0.000114485     0.000143155        -0.613019       -0.786781     -0.000128392    -0.000368827
                     6.86741e-08     0.000145719         0.060332         0.19167     -0.000364778     1.60136e-05         0.968316       -0.103182
                        -0.61319       -0.786862     -0.000273598     1.33765e-05       -0.0139596       0.0338471     -4.63609e-05    -5.84241e-05
                    -0.000291459    -0.000271241         0.968256       -0.103028      0.000106881    -0.000174842       -0.0170421        0.199721
281724                -0.0355166      0.00554572     -0.000114414     0.000143234        -0.613235       -0.786613     -0.000128471    -0.000368994
                     1.00735e-07     0.000145696        0.0603559        0.191692     -0.000364794     1.60979e-05         0.968276        -0.10351
                       -0.613405       -0.786694     -0.000273634     1.34264e-05       -0.0139571       0.0338566     -4.63617e-05    -5.80858e-05
                    -0.000291513    -0.000271149         0.968215       -0.103357      0.000106822    -0.000174881       -0.0169247        0.199759
281726                -0.0355223      0.00556084     -0.000114343     0.000143312         -0.61345       -0.786445     -0.000128553     -0.00036916
                     1.32776e-07     0.000145673        0.0603798        0.191714      -0.00036481     1.61822e-05         0.968236       -0.103837
                       -0.613621       -0.786525      -0.00027367     1.34762e-05       -0.0139546       0.0338661     -4.63589e-05    -5.77477e-05
                    -0.000291566    -0.000271057         0.968175       -0.103686      0.000106764    -0.000174919       -0.0168072        0.199797
281728                 -0.035528      0.00557596     -0.000114272      0.00014339        -0.613665       -0.786276     -0.000128637    -0.000369327
                     1.64797e-07      0.00014565        0.0604037        0.191736     -0.000364826     1.62665e-05         0.968196       -0.104165
                       -0.613836       -0.786357     -0.000273705     1.35261e-05       -0.0139521       0.0338756     -4.63527e-05    -5.74097e-05
                     -0.00029162    -0.000270964         0.968134       -0.104015      0.000106705    -0.000174958       -0.0166897        0.199835
281730                -0.0355336      0.00559108       -0.0001142     0.000143468         -0.61388       -0.786108     -0.000128723    -0.000369495
                     1.96799e-07     0.000145627        0.0604276        0.191758     -0.000364841     1.63507e-05         0.968156       -0.104492
                       -0.614051       -0.786188     -0.000273741     1.35759e-05       -0.0139496       0.0338851      -4.6343e-05    -5.70719e-05
                    -0.000291674    -0.000270872         0.968093       -0.104344      0.000106647    -0.000174997       -0.0165722        0.199872
281732                -0.0355393       0.0056062     -0.000114129     0.000143546        -0.614095       -0.785939     -0.000128812    -0.000369663
                      2.2878e-07     0.000145604        0.0604515         0.19178     -0.000364857      1.6435e-05         0.968115        -0.10482
                       -0.614267       -0.786019     -0.000273777     1.36257e-05       -0.0139471       0.0338946     -4.63299e-05    -5.67343e-05
                    -0.000291727     -0.00027078         0.968052       -0.104673      0.000106589    -0.000175036       -0.0164546         0.19991
281734                -0.0355449      0.00562133     -0.000114058     0.000143625         -0.61431        -0.78577     -0.000128903    -0.000369831
                     2.60743e-07     0.000145582        0.0604754        0.191803     -0.000364873     1.65193e-05         0.968075       -0.105148
                       -0.614482       -0.785851     -0.000273812     1.36755e-05       -0.0139446       0.0339042     -4.63132e-05    -5.63969e-05
                    -0.000291781    -0.000270688         0.968011       -0.105001       0.00010653    -0.000175074       -0.0163369        0.199948
281736                -0.0355506      0.00563645     -0.000113987     0.000143703        -0.614524       -0.785602     -0.000128997        -0.00037
                     2.92686e-07     0.000145559        0.0604993        0.191825     -0.000364889     1.66035e-05         0.968034       -0.105475
                       -0.614697       -0.785682     -0.000273848     1.37253e-05       -0.0139421       0.0339137     -4.62931e-05    -5.60598e-05
                    -0.000291834    -0.000270595         0.967969        -0.10533      0.000106472    -0.000175113       -0.0162193        0.199985
281738                -0.0355562      0.00565158     -0.000113916     0.000143781        -0.614739       -0.785433     -0.000129093     -0.00037017
                     3.24609e-07     0.000145536        0.0605232        0.191847     -0.000364905     1.66878e-05         0.967994       -0.105803
                       -0.614912       -0.785513     -0.000273883     1.37751e-05       -0.0139396       0.0339232     -4.62694e-05    -5.57229e-05
                    -0.000291888    -0.000270503         0.967928       -0.105659      0.000106414    -0.000175151       -0.0161016        0.200023
281740                -0.0355619       0.0056667     -0.000113845     0.000143859        -0.614954       -0.785264     -0.000129191    -0.000370339
                     3.56514e-07     0.000145513        0.0605471        0.191869     -0.000364921      1.6772e-05         0.967953        -0.10613
                       -0.615127       -0.785344     -0.000273919     1.38248e-05        -0.013937       0.0339328     -4.62422e-05    -5.53863e-05
                    -0.000291941    -0.000270411         0.967886       -0.105988      0.000106355     -0.00017519       -0.0159838         0.20006
281742                -0.0355675      0.00568183     -0.000113774     0.000143936        -0.615169       -0.785095     -0.000129292    -0.000370509
                     3.88399e-07      0.00014549         0.060571        0.191891     -0.000364936     1.68562e-05         0.967912       -0.106458
                       -0.615342       -0.785175     -0.000273954     1.38746e-05       -0.0139345       0.0339423     -4.62116e-05      -5.505e-05
                    -0.000291994    -0.000270319         0.967845       -0.106317      0.000106297    -0.000175229        -0.015866        0.200097
281744                -0.0355732      0.00569696     -0.000113702     0.000144014        -0.615383       -0.784926     -0.000129396     -0.00037068
                     4.20264e-07     0.000145467        0.0605949        0.191913     -0.000364952     1.69405e-05         0.967871       -0.106785
                       -0.615557       -0.785006      -0.00027399     1.39244e-05        -0.013932       0.0339519     -4.61774e-05    -5.47141e-05
                    -0.000292048    -0.000270226         0.967803       -0.106646      0.000106239    -0.000175267       -0.0157482        0.200134
281746                -0.0355788       0.0057121     -0.000113631     0.000144092        -0.615598       -0.784757     -0.000129502     -0.00037085
                     4.52111e-07     0.000145444        0.0606188        0.191935     -0.000364968     1.70247e-05          0.96783       -0.107112
                       -0.615772       -0.784837     -0.000274025     1.39742e-05       -0.0139294       0.0339614     -4.61396e-05    -5.43785e-05
                    -0.000292101    -0.000270134         0.967761       -0.106975      0.000106181    -0.000175306       -0.0156303        0.200172
281748                -0.0355845      0.00572723      -0.00011356      0.00014417        -0.615813       -0.784588      -0.00012961    -0.000371022
                     4.83938e-07     0.000145421        0.0606427        0.191957     -0.000364984     1.71089e-05         0.967789        -0.10744
                       -0.615987       -0.784668     -0.000274061      1.4024e-05       -0.0139269        0.033971     -4.60983e-05    -5.40432e-05
                    -0.000292154    -0.000270042         0.967719       -0.107303      0.000106122    -0.000175344       -0.0155124        0.200209
281750                -0.0355901      0.00574236     -0.000113489     0.000144247        -0.616027       -0.784419     -0.000129721    -0.000371193
                     5.15746e-07     0.000145398        0.0606667        0.191979        -0.000365      1.7193e-05         0.967747       -0.107767
                       -0.616202       -0.784499     -0.000274096     1.40738e-05       -0.0139243       0.0339806     -4.60535e-05    -5.37084e-05
                    -0.000292207     -0.00026995         0.967677       -0.107632      0.000106064    -0.000175382       -0.0153945        0.200246
281752                -0.0355957       0.0057575     -0.000113418     0.000144325        -0.616242        -0.78425     -0.000129834    -0.000371365
                     5.47535e-07     0.000145376        0.0606906        0.192001     -0.000365016     1.72773e-05         0.967706       -0.108095
                       -0.616417        -0.78433     -0.000274131     1.41236e-05       -0.0139217       0.0339901     -4.60051e-05    -5.33739e-05
                     -0.00029226    -0.000269857         0.967635       -0.107961      0.000106006    -0.000175421       -0.0152765        0.200283
281754                -0.0356014      0.00577264     -0.000113346     0.000144403        -0.616456       -0.784081      -0.00012995    -0.000371537
                     5.79305e-07     0.000145353        0.0607145        0.192024     -0.000365032     1.73615e-05         0.967665       -0.108422
                       -0.616631        -0.78416     -0.000274167     1.41735e-05       -0.0139192       0.0339997     -4.59531e-05    -5.30399e-05
                    -0.000292313    -0.000269765         0.967593        -0.10829      0.000105948    -0.000175459       -0.0151585         0.20032
281756                 -0.035607      0.00578778     -0.000113275      0.00014448         -0.61667       -0.783911     -0.000130068    -0.000371709
                     6.11057e-07      0.00014533        0.0607384        0.192046     -0.000365048     1.74456e-05         0.967623       -0.108749
                       -0.616846       -0.783991     -0.000274202     1.42233e-05       -0.0139166       0.0340093     -4.58975e-05    -5.27063e-05
                    -0.000292366    -0.000269673          0.96755       -0.108618       0.00010589    -0.000175498       -0.0150404        0.200357
281758                -0.0356126      0.00580292     -0.000113204     0.000144558        -0.616885       -0.783742     -0.000130189    -0.000371882
                     6.42789e-07     0.000145307        0.0607624        0.192068     -0.000365064     1.75298e-05         0.967581       -0.109077
                       -0.617061       -0.783821     -0.000274237     1.42731e-05        -0.013914       0.0340189     -4.58382e-05    -5.23732e-05
                    -0.000292418    -0.000269581         0.967508       -0.108947      0.000105831    -0.000175536       -0.0149223        0.200393
281760                -0.0356183      0.00581806     -0.000113132     0.000144635        -0.617099       -0.783572     -0.000130313    -0.000372055
                     6.74502e-07     0.000145284        0.0607863         0.19209      -0.00036508      1.7614e-05         0.967539       -0.109404
                       -0.617275       -0.783652     -0.000274273      1.4323e-05       -0.0139115       0.0340285     -4.57752e-05    -5.20406e-05
                    -0.000292471    -0.000269488         0.967465       -0.109276      0.000105773    -0.000175574       -0.0148041         0.20043
281762                -0.0356239       0.0058332     -0.000113061     0.000144713        -0.617313       -0.783403     -0.000130439    -0.000372228
                     7.06197e-07     0.000145261        0.0608102        0.192112     -0.000365096     1.76982e-05         0.967498       -0.109731
                        -0.61749       -0.783482     -0.000274308     1.43728e-05       -0.0139089       0.0340381     -4.57086e-05    -5.17086e-05
