! TOUCHSTONE file generated by CST MICROWAVE STUDIO
! Date and time: Wed Oct 15 17:28:49 2025
! Project name: Teste_Macro_Metasurface_Nanopilar.cst
! Parameters = {H=600; L_x=85; L_y=175; Lambda=1064; Max_L=200; Min_L=70; PathPara=1; Phi=0; Step_L=10; Theta=0; p=520; phaseX=180; phaseY=0}
! Header version: 2018
! Port assignment regex: !\s*Touchstone port\s*([0-9]+)\s*=\s*(CST MWS port|CST DS port)\s*([0-9]+|Zmin|Zmax)\s*\(\"(.*)\"\)(\s*mode\s*([0-9]+))?.*
! Touchstone port assignment:
! Touchstone port 1 = CST MWS port Zmax ("") mode 1
! Touchstone port 2 = CST MWS port Zmax ("") mode 2
! Touchstone port 3 = CST MWS port Zmin ("") mode 1
! Touchstone port 4 = CST MWS port Zmin ("") mode 2
! S-Parameters are not renormalized. Each port impedance will be approximated by the real part at minimum frequency. The values are described via the [Reference] keyword.
! Default impedance is overridden by [Reference]
[Version] 2.0
# GHz S RI R 376.73
[Number of Ports] 4
[Reference]
376.73 376.73 259.888 259.888 
[Number of Frequencies] 51
[Network Data]
281700                 0.0827108         0.23009     -0.000955651    -0.000139976          0.92888       -0.258005      9.71389e-06     5.44528e-05
                    -0.000940517    -0.000134156       -0.0378889       0.0130124      0.000159247    -0.000165444        -0.642267       -0.763542
                        0.929029       -0.257148      4.86407e-05    -0.000253359        0.0494759        0.238423     -0.000950285    -0.000465326
                     4.33728e-05      6.6177e-05        -0.642307       -0.762746      -0.00105179    -0.000477237       -0.0191174       0.0358902
281702                 0.0827396        0.230119       -0.0009557    -0.000139793         0.928783       -0.258321      9.76789e-06     5.44515e-05
                    -0.000940554     -0.00013387       -0.0378941       0.0130285      0.000159185    -0.000165655        -0.642477       -0.763365
                        0.928932       -0.257465      4.85555e-05    -0.000253403        0.0496306        0.238428     -0.000950553    -0.000464956
                     4.33923e-05     6.60682e-05        -0.642517       -0.762568      -0.00105193    -0.000476685       -0.0191144       0.0359032
281704                 0.0827684        0.230148     -0.000955749     -0.00013961         0.928685       -0.258638      9.82182e-06       5.445e-05
                    -0.000940591    -0.000133583       -0.0378993       0.0130446      0.000159121    -0.000165866        -0.642688       -0.763188
                        0.928834       -0.257781      4.84701e-05    -0.000253447        0.0497854        0.238434     -0.000950821    -0.000464585
                     4.34115e-05     6.59593e-05        -0.642727        -0.76239      -0.00105208    -0.000476133       -0.0191114       0.0359163
281706                 0.0827972        0.230177     -0.000955797    -0.000139427         0.928587       -0.258955      9.87568e-06     5.44485e-05
                    -0.000940628    -0.000133296       -0.0379045       0.0130607      0.000159058    -0.000166077        -0.642898        -0.76301
                        0.928737       -0.258098      4.83847e-05    -0.000253491        0.0499402        0.238439     -0.000951088    -0.000464215
                     4.34304e-05     6.58505e-05        -0.642938       -0.762212      -0.00105222    -0.000475582       -0.0191083       0.0359293
281708                 0.0828261        0.230206     -0.000955846    -0.000139243         0.928488       -0.259272      9.92945e-06     5.44469e-05
                    -0.000940664     -0.00013301       -0.0379097       0.0130769      0.000158994    -0.000166287        -0.643108       -0.762833
                         0.92864       -0.258414      4.82992e-05    -0.000253535         0.050095        0.238444     -0.000951355    -0.000463844
                     4.34489e-05     6.57416e-05        -0.643148       -0.762034      -0.00105237     -0.00047503       -0.0191053       0.0359423
281710                 0.0828549        0.230235     -0.000955894     -0.00013906          0.92839       -0.259588      9.98315e-06     5.44452e-05
                    -0.000940701    -0.000132723       -0.0379149        0.013093       0.00015893    -0.000166498        -0.643318       -0.762656
                        0.928542       -0.258731      4.82136e-05    -0.000253579        0.0502498        0.238449     -0.000951622    -0.000463472
                     4.34671e-05     6.56328e-05        -0.643358       -0.761856      -0.00105251    -0.000474479       -0.0191022       0.0359553
281712                 0.0828837        0.230264     -0.000955942    -0.000138877         0.928292       -0.259905      1.00368e-05     5.44434e-05
                    -0.000940736    -0.000132436       -0.0379201       0.0131091      0.000158866    -0.000166708        -0.643529       -0.762478
                        0.928444       -0.259047      4.81279e-05    -0.000253623        0.0504047        0.238453     -0.000951888    -0.000463101
                     4.34849e-05     6.55239e-05        -0.643568       -0.761678      -0.00105265    -0.000473927       -0.0190992       0.0359684
281714                 0.0829125        0.230293     -0.000955991    -0.000138694         0.928193       -0.260221      1.00903e-05     5.44415e-05
                    -0.000940772    -0.000132149       -0.0379253       0.0131252      0.000158801    -0.000166919        -0.643739       -0.762301
                        0.928346       -0.259364      4.80421e-05    -0.000253666        0.0505596        0.238458     -0.000952154    -0.000462729
                     4.35024e-05     6.54151e-05        -0.643778         -0.7615       -0.0010528    -0.000473376       -0.0190961       0.0359814
281716                 0.0829414        0.230322     -0.000956039     -0.00013851         0.928095       -0.260538      1.01438e-05     5.44396e-05
                    -0.000940807    -0.000131861       -0.0379305       0.0131413      0.000158737    -0.000167129        -0.643949       -0.762124
                        0.928248        -0.25968      4.79563e-05     -0.00025371        0.0507145        0.238463     -0.000952419    -0.000462358
                     4.35195e-05     6.53062e-05        -0.643988       -0.761321      -0.00105294    -0.000472825        -0.019093       0.0359944
281718                 0.0829702        0.230351     -0.000956087    -0.000138327         0.927996       -0.260855      1.01972e-05     5.44376e-05
                    -0.000940842    -0.000131574       -0.0379356       0.0131574      0.000158672    -0.000167339        -0.644159       -0.761946
                         0.92815       -0.259996      4.78704e-05    -0.000253754        0.0508694        0.238467     -0.000952684    -0.000461986
                     4.35363e-05     6.51974e-05        -0.644198       -0.761143      -0.00105308    -0.000472274       -0.0190899       0.0360075
281720                 0.0829991         0.23038     -0.000956135    -0.000138144         0.927897       -0.261171      1.02505e-05     5.44355e-05
                    -0.000940876    -0.000131287       -0.0379408       0.0131735      0.000158606    -0.000167549        -0.644369       -0.761768
                        0.928052       -0.260312      4.77844e-05    -0.000253797        0.0510244        0.238472     -0.000952949    -0.000461613
                     4.35527e-05     6.50886e-05        -0.644408       -0.760964      -0.00105322    -0.000471723       -0.0190868       0.0360205
281722                 0.0830279        0.230409     -0.000956182     -0.00013796         0.927798       -0.261487      1.03038e-05     5.44333e-05
                     -0.00094091    -0.000130999        -0.037946       0.0131897      0.000158541     -0.00016776        -0.644579       -0.761591
                        0.927954       -0.260629      4.76983e-05    -0.000253841        0.0511794        0.238476     -0.000953213    -0.000461241
                     4.35688e-05     6.49798e-05        -0.644618       -0.760786      -0.00105337    -0.000471173       -0.0190837       0.0360336
281724                 0.0830568        0.230438      -0.00095623    -0.000137777         0.927699       -0.261804      1.03569e-05      5.4431e-05
                    -0.000940944    -0.000130712       -0.0379512       0.0132058      0.000158475     -0.00016797        -0.644789       -0.761413
                        0.927855       -0.260945      4.76122e-05    -0.000253885        0.0513345         0.23848     -0.000953477    -0.000460868
                     4.35845e-05     6.48711e-05        -0.644828       -0.760607      -0.00105351    -0.000470622       -0.0190806       0.0360467
281726                 0.0830857        0.230467     -0.000956278    -0.000137594           0.9276        -0.26212        1.041e-05     5.44287e-05
                    -0.000940978    -0.000130424       -0.0379563       0.0132219      0.000158409     -0.00016818        -0.644998       -0.761235
                        0.927757       -0.261261       4.7526e-05    -0.000253928        0.0514895        0.238485     -0.000953741    -0.000460496
                     4.35999e-05     6.47624e-05        -0.645037       -0.760429      -0.00105365    -0.000470071       -0.0190775       0.0360597
281728                 0.0831146        0.230496     -0.000956325     -0.00013741         0.927501       -0.262437       1.0463e-05     5.44263e-05
                    -0.000941011    -0.000130136       -0.0379615        0.013238      0.000158343     -0.00016839        -0.645208       -0.761057
                        0.927658       -0.261577      4.74398e-05    -0.000253972        0.0516446        0.238489     -0.000954004    -0.000460123
                     4.36149e-05     6.46537e-05        -0.645247        -0.76025      -0.00105379     -0.00046952       -0.0190744       0.0360728
281730                 0.0831434        0.230526     -0.000956372    -0.000137227         0.927401       -0.262753       1.0516e-05     5.44238e-05
                    -0.000941044    -0.000129849       -0.0379667       0.0132542      0.000158276      -0.0001686        -0.645418        -0.76088
                        0.927559       -0.261893      4.73536e-05    -0.000254015        0.0517997        0.238493     -0.000954266     -0.00045975
                     4.36295e-05     6.45451e-05        -0.645457       -0.760071      -0.00105393     -0.00046897       -0.0190713       0.0360859
281732                 0.0831723        0.230555      -0.00095642    -0.000137044         0.927302       -0.263069      1.05688e-05     5.44213e-05
                    -0.000941077    -0.000129561       -0.0379718       0.0132703       0.00015821     -0.00016881        -0.645628       -0.760702
                        0.927461       -0.262209      4.72673e-05    -0.000254058        0.0519549        0.238497     -0.000954529    -0.000459376
                     4.36439e-05     6.44365e-05        -0.645666       -0.759893      -0.00105407    -0.000468419       -0.0190681        0.036099
281734                 0.0832012        0.230584     -0.000956467     -0.00013686         0.927202       -0.263385      1.06216e-05     5.44187e-05
                    -0.000941109    -0.000129273        -0.037977       0.0132864      0.000158143     -0.00016902        -0.645837       -0.760524
                        0.927362       -0.262525      4.71811e-05    -0.000254102        0.0521101          0.2385      -0.00095479    -0.000459003
                     4.36578e-05     6.43279e-05        -0.645876       -0.759714      -0.00105421    -0.000467868        -0.019065       0.0361121
281736                 0.0832301        0.230613     -0.000956514    -0.000136677         0.927102       -0.263702      1.06743e-05      5.4416e-05
                    -0.000941141    -0.000128985       -0.0379822       0.0133025      0.000158076     -0.00016923        -0.646047       -0.760345
                        0.927263       -0.262841       4.7095e-05    -0.000254145        0.0522653        0.238504     -0.000955052     -0.00045863
                     4.36714e-05     6.42195e-05        -0.646085       -0.759535      -0.00105435    -0.000467317       -0.0190618       0.0361252
281738                 0.0832591        0.230642     -0.000956561    -0.000136494         0.927003       -0.264018      1.07269e-05     5.44132e-05
                    -0.000941172    -0.000128697       -0.0379873       0.0133187      0.000158008     -0.00016944        -0.646256       -0.760167
                        0.927163       -0.263157      4.70091e-05    -0.000254187        0.0524205        0.238508     -0.000955313    -0.000458256
                     4.36847e-05      6.4111e-05        -0.646295       -0.759356      -0.00105449    -0.000466767       -0.0190586       0.0361383
281740                  0.083288        0.230671     -0.000956608    -0.000136312         0.926903       -0.264334      1.07795e-05     5.44104e-05
                    -0.000941204    -0.000128409       -0.0379925       0.0133348      0.000157941     -0.00016965        -0.646466       -0.759989
                        0.927064       -0.263473      4.69238e-05    -0.000254229        0.0525758        0.238511     -0.000955574    -0.000457882
                     4.36976e-05     6.40027e-05        -0.646504       -0.759177      -0.00105463    -0.000466216       -0.0190555       0.0361514
281742                 0.0833169          0.2307     -0.000956656    -0.000136132         0.926803        -0.26465      1.08319e-05     5.44075e-05
                    -0.000941235    -0.000128121       -0.0379976        0.013351      0.000157873     -0.00016986        -0.646675       -0.759811
                        0.926965       -0.263789      4.68402e-05    -0.000254269         0.052731        0.238515     -0.000955834    -0.000457508
                     4.37101e-05     6.38943e-05        -0.646714       -0.758998      -0.00105477    -0.000465665       -0.0190523       0.0361645
281744                 0.0833458        0.230729      -0.00095671     -0.00013597         0.926702       -0.264966      1.08843e-05     5.44046e-05
                    -0.000941265    -0.000127833       -0.0380028       0.0133671      0.000157805     -0.00017007        -0.646885       -0.759633
                        0.926865       -0.264105      4.67658e-05    -0.000254297        0.0528864        0.238518     -0.000956094    -0.000457134
                     4.37223e-05     6.37861e-05        -0.646923       -0.758819       -0.0010549    -0.000465113       -0.0190491       0.0361776
281746                 0.0833748        0.230758     -0.000956743    -0.000135736         0.926602       -0.265282      1.09366e-05     5.44015e-05
                    -0.000941296    -0.000127544       -0.0380079       0.0133832      0.000157737     -0.00017028        -0.647094       -0.759454
                        0.926765        -0.26442      4.66183e-05    -0.000254386        0.0530417        0.238521     -0.000956353     -0.00045676
                     4.37341e-05     6.36778e-05        -0.647132       -0.758639      -0.00105504    -0.000464562       -0.0190459       0.0361907
281748                 0.0834037        0.230788     -0.000956792    -0.000135565         0.926502       -0.265598      1.09888e-05     5.43984e-05
                    -0.000941325    -0.000127256       -0.0380131       0.0133993      0.000157669    -0.000170491        -0.647303       -0.759276
                        0.926666       -0.264736        4.656e-05    -0.000254416        0.0531971        0.238524     -0.000956612    -0.000456385
                     4.37455e-05     6.35696e-05        -0.647341        -0.75846      -0.00105518     -0.00046401       -0.0190427       0.0362038
281750                 0.0834327        0.230817     -0.000956839    -0.000135384         0.926401       -0.265914      1.10409e-05     5.43953e-05
                    -0.000941355    -0.000126968       -0.0380182       0.0134155        0.0001576    -0.000170701        -0.647513       -0.759097
                        0.926566       -0.265052      4.64774e-05    -0.000254456        0.0533525        0.238527     -0.000956871    -0.000456011
                     4.37565e-05     6.34613e-05        -0.647551       -0.758281      -0.00105532    -0.000463458       -0.0190395        0.036217
281752                 0.0834616        0.230846     -0.000956885    -0.000135201         0.926301        -0.26623      1.10929e-05      5.4392e-05
                    -0.000941384    -0.000126679       -0.0380234       0.0134316      0.000157531    -0.000170912        -0.647722       -0.758919
                        0.926466       -0.265367      4.63921e-05    -0.000254497        0.0535079         0.23853     -0.000957129    -0.000455636
                     4.37669e-05     6.33529e-05         -0.64776       -0.758101      -0.00105545    -0.000462905       -0.0190363       0.0362301
281754                 0.0834906        0.230875     -0.000956931    -0.000135018           0.9262       -0.266546      1.11448e-05     5.43887e-05
                    -0.000941412    -0.000126391       -0.0380285       0.0134478      0.000157462    -0.000171124        -0.647931        -0.75874
                        0.926366       -0.265683      4.63059e-05     -0.00025454        0.0536634        0.238533     -0.000957387    -0.000455261
                     4.37764e-05     6.32439e-05        -0.647969       -0.757922      -0.00105559    -0.000462351       -0.0190331       0.0362432
281756                 0.0835195        0.230904     -0.000956978    -0.000134834         0.926099       -0.266862      1.11966e-05     5.43852e-05
                    -0.000941438    -0.000126102       -0.0380336       0.0134639      0.000157393    -0.000171335         -0.64814       -0.758562
                        0.926265       -0.265999      4.62193e-05    -0.000254582        0.0538189        0.238536     -0.000957644    -0.000454886
                     4.37823e-05     6.31331e-05        -0.648178       -0.757742      -0.00105573    -0.000461797       -0.0190298       0.0362564
281758                 0.0835485        0.230933     -0.000957023    -0.000134651         0.925998       -0.267178      1.12482e-05     5.43817e-05
                    -0.000941454    -0.000125828       -0.0380388       0.0134801      0.000157324    -0.000171548        -0.648349       -0.758383
                        0.926165       -0.266315      4.61323e-05    -0.000254625        0.0539744        0.238539     -0.000957901     -0.00045451
                     4.37829e-05     6.30483e-05        -0.648387       -0.757563      -0.00105586     -0.00046124       -0.0190266       0.0362695
281760                 0.0835775        0.230962     -0.000957069    -0.000134467         0.925897       -0.267493      1.12997e-05      5.4378e-05
                    -0.000941506    -0.000125536       -0.0380439       0.0134962      0.000157254    -0.000171763        -0.648558       -0.758204
                        0.926065        -0.26663      4.60453e-05    -0.000254668        0.0541299        0.238541     -0.000958156    -0.000454134
                     4.38083e-05      6.2933e-05        -0.648596       -0.757383        -0.001056    -0.000460679       -0.0190233       0.0362827
281762                 0.0836065        0.230992     -0.000957115    -0.000134283         0.925796       -0.267809      1.13508e-05      5.4374e-05
                    -0.000941533    -0.000125243        -0.038049       0.0135124      0.000157184    -0.000171983        -0.648767       -0.758025
                        0.925964       -0.266945      4.59581e-05    -0.000254711        0.0542855        0.238544     -0.000958411    -0.000453758
