! TOUCHSTONE file generated by CST MICROWAVE STUDIO
! Date and time: Wed Oct 15 17:34:08 2025
! Project name: Teste_Macro_Metasurface_Nanopilar.cst
! Parameters = {H=600; L_x=180; L_y=110; Lambda=1064; Max_L=200; Min_L=70; PathPara=1; Phi=0; Step_L=10; Theta=0; p=520; phaseX=180; phaseY=0}
! Header version: 2018
! Port assignment regex: !\s*Touchstone port\s*([0-9]+)\s*=\s*(CST MWS port|CST DS port)\s*([0-9]+|Zmin|Zmax)\s*\(\"(.*)\"\)(\s*mode\s*([0-9]+))?.*
! Touchstone port assignment:
! Touchstone port 1 = CST MWS port Zmax ("") mode 1
! Touchstone port 2 = CST MWS port Zmax ("") mode 2
! Touchstone port 3 = CST MWS port Zmin ("") mode 1
! Touchstone port 4 = CST MWS port Zmin ("") mode 2
! S-Parameters are not renormalized. Each port impedance will be approximated by the real part at minimum frequency. The values are described via the [Reference] keyword.
! Default impedance is overridden by [Reference]
[Version] 2.0
# GHz S RI R 376.73
[Number of Ports] 4
[Reference]
376.73 376.73 259.888 259.888 
[Number of Frequencies] 51
[Network Data]
281700                 0.0897936     -0.00573573     -0.000244637     -8.0396e-05         0.535045        0.830509      0.000607236     0.000473076
                    -0.000127994    -0.000196863         0.404496       -0.355678     -0.000417426    -0.000391542         0.821319      -0.0820637
                        0.533855         0.83081     -0.000423917    -0.000328899        0.0420708      -0.0765207      0.000527062     0.000313131
                      0.00051366     0.000457817         0.821497      -0.0811499      0.000625041     0.000485032        -0.441682       -0.291543
281702                 0.0897789      -0.0057246     -0.000244719    -8.02224e-05          0.53536        0.830307      0.000607358     0.000472528
                    -0.000128201    -0.000196493         0.404241       -0.355606     -0.000417456    -0.000390947         0.821436       -0.082542
                        0.534173        0.830607     -0.000424161    -0.000328285        0.0419962      -0.0765438      0.000526698     0.000312674
                      0.00051372     0.000457194         0.821613      -0.0816297       0.00062437     0.000484173        -0.441757       -0.290998
281704                 0.0897642     -0.00571347     -0.000244801    -8.00487e-05         0.535676        0.830106      0.000607479     0.000471981
                    -0.000128408    -0.000196124         0.403987       -0.355534     -0.000417486    -0.000390351         0.821553      -0.0830203
                        0.534491        0.830403     -0.000424403    -0.000327671        0.0419216      -0.0765668      0.000526333     0.000312218
                     0.000513779     0.000456571         0.821729      -0.0821096      0.000623697     0.000483315        -0.441832       -0.290453
281706                 0.0897495     -0.00570233     -0.000244882    -7.98748e-05         0.535992        0.829904      0.000607599     0.000471434
                    -0.000128614    -0.000195755         0.403732       -0.355462     -0.000417515    -0.000389756          0.82167      -0.0834986
                        0.534808        0.830199     -0.000424644    -0.000327058         0.041847      -0.0765897      0.000525967     0.000311763
                     0.000513839     0.000455949         0.821845      -0.0825897      0.000623023     0.000482459        -0.441907       -0.289909
281708                 0.0897349     -0.00569119     -0.000244962    -7.97009e-05         0.536307        0.829702      0.000607719     0.000470888
                    -0.000128821    -0.000195385         0.403478        -0.35539     -0.000417543     -0.00038916         0.821786      -0.0839769
                        0.535126        0.829994     -0.000424884    -0.000326446        0.0417724      -0.0766126      0.000525601      0.00031131
                     0.000513898     0.000455326          0.82196      -0.0830699      0.000622348     0.000481605        -0.441981       -0.289365
281710                 0.0897202     -0.00568004     -0.000245042    -7.95268e-05         0.536622          0.8295      0.000607838     0.000470341
                    -0.000129028    -0.000195016         0.403224       -0.355318      -0.00041757    -0.000388564         0.821901      -0.0844551
                        0.535443         0.82979     -0.000425123    -0.000325835        0.0416978      -0.0766355      0.000525233     0.000310858
                     0.000513958     0.000454704         0.822074      -0.0835501      0.000621671     0.000480751        -0.442054       -0.288821
281712                 0.0897055     -0.00566889     -0.000245121    -7.93526e-05         0.536938        0.829298      0.000607956     0.000469795
                    -0.000129234    -0.000194647         0.402971       -0.355246     -0.000417596    -0.000387967         0.822017      -0.0849333
                         0.53576        0.829586      -0.00042536    -0.000325225        0.0416231      -0.0766582      0.000524865     0.000310407
                     0.000514018     0.000454082         0.822188      -0.0840304      0.000620993     0.000479899        -0.442127       -0.288278
281714                 0.0896909     -0.00565773     -0.000245199    -7.91783e-05         0.537253        0.829096      0.000608073     0.000469248
                    -0.000129441    -0.000194278         0.402717       -0.355174     -0.000417621    -0.000387371         0.822131      -0.0854115
                        0.536078        0.829381     -0.000425597    -0.000324615        0.0415485      -0.0766809      0.000524496     0.000309957
                     0.000514078     0.000453461         0.822302      -0.0845109      0.000620314     0.000479049          -0.4422       -0.287734
281716                 0.0896762     -0.00564657     -0.000245276    -7.90039e-05         0.537568        0.828893      0.000608189     0.000468702
                    -0.000129647    -0.000193909         0.402464       -0.355101     -0.000417645    -0.000386774         0.822246      -0.0858896
                        0.536395        0.829176     -0.000425832    -0.000324007        0.0414738      -0.0767035      0.000524126     0.000309509
                     0.000514138      0.00045284         0.822415      -0.0849913      0.000619634     0.000478199        -0.442271       -0.287191
281718                 0.0896616     -0.00563541     -0.000245353    -7.88294e-05         0.537883        0.828691      0.000608305     0.000468156
                    -0.000129854     -0.00019354         0.402211       -0.355029     -0.000417669    -0.000386177         0.822359      -0.0863677
                        0.536712        0.828972     -0.000426066      -0.0003234        0.0413991      -0.0767261      0.000523755     0.000309062
                     0.000514198     0.000452218         0.822528      -0.0854718      0.000618952     0.000477352        -0.442342       -0.286649
281720                 0.0896469     -0.00562423     -0.000245428    -7.86548e-05         0.538198        0.828488       0.00060842      0.00046761
                     -0.00013006    -0.000193171         0.401958       -0.354956     -0.000417691     -0.00038558         0.822473      -0.0868458
                        0.537029        0.828767       -0.0004263    -0.000322794        0.0413244      -0.0767486      0.000523383     0.000308616
                     0.000514258     0.000451597          0.82264      -0.0859524      0.000618269     0.000476505        -0.442413       -0.286106
281722                 0.0896323     -0.00561306     -0.000245503    -7.84801e-05         0.538513        0.828285      0.000608534     0.000467064
                    -0.000130266    -0.000192802         0.401706       -0.354883     -0.000417713    -0.000384983         0.822586      -0.0873239
                        0.537346        0.828562     -0.000426532     -0.00032219        0.0412497       -0.076771      0.000523011     0.000308172
                     0.000514318     0.000450977         0.822751      -0.0864329      0.000617585      0.00047566        -0.442483       -0.285564
281724                 0.0896176     -0.00560187     -0.000245577    -7.83053e-05         0.538828        0.828083      0.000608648     0.000466519
                    -0.000130472    -0.000192433         0.401454        -0.35481     -0.000417734    -0.000384386         0.822698      -0.0878019
                        0.537662        0.828357     -0.000426763    -0.000321587         0.041175      -0.0767934      0.000522638     0.000307729
                     0.000514379     0.000450356         0.822863      -0.0869135        0.0006169     0.000474816        -0.442552       -0.285022
281726                  0.089603     -0.00559069      -0.00024565    -7.81305e-05         0.539142         0.82788      0.000608761     0.000465973
                    -0.000130678    -0.000192064         0.401202       -0.354738     -0.000417754    -0.000383788          0.82281      -0.0882799
                        0.537979        0.828152     -0.000426994    -0.000320985        0.0411003      -0.0768157      0.000522264     0.000307287
                     0.000514439     0.000449736         0.822973       -0.087394      0.000616214     0.000473974        -0.442621        -0.28448
281728                 0.0895884      -0.0055795     -0.000245721    -7.79556e-05         0.539457        0.827677      0.000608873     0.000465428
                    -0.000130884    -0.000191695          0.40095       -0.354664     -0.000417773     -0.00038319         0.822922      -0.0887578
                        0.538296        0.827946     -0.000427223    -0.000320385        0.0410255       -0.076838      0.000521889     0.000306847
                       0.0005145     0.000449116         0.823084      -0.0878745      0.000615527     0.000473133        -0.442689       -0.283939
281730                 0.0895738      -0.0055683     -0.000245792    -7.77807e-05         0.539771        0.827473      0.000608985     0.000464883
                     -0.00013109    -0.000191326         0.400698       -0.354591     -0.000417792    -0.000382592         0.823033      -0.0892357
                        0.538612        0.827741     -0.000427452    -0.000319786        0.0409508      -0.0768602      0.000521513     0.000306408
                     0.000514561     0.000448496         0.823194       -0.088355      0.000614839     0.000472293        -0.442757       -0.283398
281732                 0.0895591      -0.0055571     -0.000245862    -7.76057e-05         0.540086         0.82727      0.000609096     0.000464339
                    -0.000131296    -0.000190957         0.400447       -0.354518     -0.000417809    -0.000381994         0.823144      -0.0897136
                        0.538929        0.827535      -0.00042768     -0.00031919         0.040876      -0.0768823      0.000521137      0.00030597
                     0.000514621     0.000447876         0.823303      -0.0888354       0.00061415     0.000471454        -0.442824       -0.282857
281734                 0.0895445     -0.00554589      -0.00024593    -7.74306e-05           0.5404        0.827067      0.000609206     0.000463794
                    -0.000131502    -0.000190588         0.400196       -0.354445     -0.000417826    -0.000381395         0.823254      -0.0901915
                        0.539245        0.827329     -0.000427908    -0.000318595        0.0408012      -0.0769044      0.000520759     0.000305534
                     0.000514682     0.000447257         0.823412      -0.0893157       0.00061346     0.000470617        -0.442891       -0.282316
281736                 0.0895299     -0.00553468     -0.000245997    -7.72555e-05         0.540714        0.826863      0.000609316     0.000463251
                    -0.000131708    -0.000190219         0.399945       -0.354371     -0.000417842    -0.000380797         0.823364      -0.0906693
                        0.539562        0.827124     -0.000428135    -0.000318002        0.0407264      -0.0769264      0.000520381       0.0003051
                     0.000514743     0.000446638         0.823521      -0.0897959      0.000612769     0.000469781        -0.442956       -0.281776
281738                 0.0895153     -0.00552346     -0.000246063    -7.70804e-05         0.541029        0.826659      0.000609424     0.000462707
                    -0.000131914     -0.00018985         0.399695       -0.354298     -0.000417857    -0.000380198         0.823473      -0.0911471
                        0.539878        0.826918     -0.000428361    -0.000317411        0.0406516      -0.0769483      0.000520003     0.000304667
                     0.000514805     0.000446019         0.823629       -0.090276      0.000612076     0.000468946        -0.443022       -0.281236
281740                 0.0895007     -0.00551224     -0.000246127    -7.69053e-05         0.541343        0.826456      0.000609532     0.000462163
                    -0.000132119    -0.000189481         0.399444       -0.354224     -0.000417872    -0.000379598         0.823582      -0.0916248
                        0.540194        0.826712     -0.000428587    -0.000316823        0.0405768      -0.0769702      0.000519623     0.000304235
                     0.000514866       0.0004454         0.823737      -0.0907559      0.000611383     0.000468113        -0.443087       -0.280696
281742                 0.0894861     -0.00550101      -0.00024619    -7.67301e-05         0.541657        0.826252      0.000609639      0.00046162
                    -0.000132325    -0.000189112         0.399194        -0.35415     -0.000417885    -0.000378999         0.823691      -0.0921025
                         0.54051        0.826506     -0.000428813    -0.000316237         0.040502       -0.076992      0.000519243     0.000303805
                     0.000514927     0.000444781         0.823844      -0.0912357       0.00061069     0.000467281        -0.443151       -0.280157
281744                 0.0894715     -0.00548978     -0.000246252     -7.6555e-05         0.541971        0.826048      0.000609745     0.000461077
                    -0.000132531    -0.000188743         0.398944       -0.354076     -0.000417898      -0.0003784         0.823799      -0.0925802
                        0.540826        0.826299     -0.000429038    -0.000315654        0.0404272      -0.0770137      0.000518861     0.000303376
                     0.000514989     0.000444163         0.823951      -0.0917153      0.000609995      0.00046645        -0.443215       -0.279618
281746                 0.0894569     -0.00547854     -0.000246311    -7.63798e-05         0.542284        0.825844      0.000609851     0.000460535
                    -0.000132736    -0.000188374         0.398694       -0.354002      -0.00041791      -0.0003778         0.823906      -0.0930578
                        0.541142        0.826093     -0.000429264    -0.000315073        0.0403523      -0.0770354       0.00051848     0.000302949
                      0.00051505     0.000443545         0.824058      -0.0921946      0.000609299     0.000465621        -0.443278       -0.279079
281748                 0.0894424      -0.0054673     -0.000246369    -7.62047e-05         0.542598        0.825639      0.000609955     0.000459992
                    -0.000132942    -0.000188005         0.398445       -0.353928     -0.000417922      -0.0003772         0.824013      -0.0935354
                        0.541458        0.825887     -0.000429489    -0.000314495        0.0402775       -0.077057      0.000518097     0.000302523
                     0.000515112     0.000442927         0.824164      -0.0926738      0.000608603     0.000464792         -0.44334        -0.27854
281750                 0.0894278     -0.00545605     -0.000246426    -7.60296e-05         0.542912        0.825435      0.000610059      0.00045945
                    -0.000133147    -0.000187636         0.398196       -0.353854     -0.000417933    -0.000376599          0.82412       -0.094013
                        0.541773         0.82568     -0.000429714     -0.00031392        0.0402026      -0.0770786      0.000517714     0.000302099
                     0.000515174     0.000442309         0.824271      -0.0931528      0.000607906     0.000463965        -0.443402       -0.278002
281752                 0.0894132     -0.00544479      -0.00024648    -7.58545e-05         0.543225        0.825231      0.000610162     0.000458908
                    -0.000133352    -0.000187267         0.397947        -0.35378     -0.000417943    -0.000375999         0.824226      -0.0944905
                        0.542089        0.825473     -0.000429939    -0.000313349        0.0401277      -0.0771001      0.000517329     0.000301677
                     0.000515236     0.000441691         0.824376      -0.0936315      0.000607208     0.000463139        -0.443464       -0.277463
281754                 0.0893987     -0.00543354     -0.000246533    -7.56794e-05         0.543539        0.825026      0.000610264     0.000458366
                    -0.000133557    -0.000186898         0.397698       -0.353705     -0.000417952    -0.000375398         0.824332       -0.094968
                        0.542404        0.825267     -0.000430164     -0.00031278        0.0400529      -0.0771215      0.000516945     0.000301256
                     0.000515298     0.000441074         0.824482        -0.09411      0.000606509     0.000462315        -0.443525       -0.276926
281756                 0.0893841     -0.00542227     -0.000246584    -7.55043e-05         0.543852        0.824821      0.000610366     0.000457824
                    -0.000133762    -0.000186529         0.397449        -0.35363     -0.000417961    -0.000374797         0.824437      -0.0954454
                         0.54272         0.82506     -0.000430389    -0.000312215         0.039978      -0.0771429      0.000516559     0.000300837
                      0.00051536     0.000440456         0.824587      -0.0945883      0.000605809     0.000461492        -0.443585       -0.276388
281758                 0.0893695     -0.00541101     -0.000246633    -7.53292e-05         0.544166        0.824617      0.000610466     0.000457282
                    -0.000133967     -0.00018616         0.397201       -0.353556     -0.000417969    -0.000374196         0.824542      -0.0959229
                        0.543035        0.824853     -0.000430614    -0.000311652        0.0399031      -0.0771642      0.000516173     0.000300419
                     0.000515423     0.000439839         0.824692      -0.0950664      0.000605109     0.000460669        -0.443645       -0.275851
281760                  0.089355     -0.00539973     -0.000246681     -7.5154e-05         0.544479        0.824412      0.000610566     0.000456741
                    -0.000134172    -0.000185791         0.396953       -0.353481     -0.000417976    -0.000373595         0.824647      -0.0964002
                         0.54335        0.824645     -0.000430839    -0.000311092        0.0398281      -0.0771854      0.000515786     0.000300003
                     0.000515485     0.000439223         0.824797      -0.0955443      0.000604408     0.000459849        -0.443704       -0.275314
281762                 0.0893404     -0.00538845     -0.000246727    -7.49787e-05         0.544792        0.824207      0.000610665       0.0004562
                    -0.000134377    -0.000185422         0.396705       -0.353406     -0.000417983    -0.000372993         0.824751      -0.0968776
                        0.543666        0.824438     -0.000431063    -0.000310535        0.0397532      -0.0772066      0.000515398     0.000299588
