! TOUCHSTONE file generated by CST MICROWAVE STUDIO
! Date and time: Wed Oct 15 17:31:16 2025
! Project name: Teste_Macro_Metasurface_Nanopilar.cst
! Parameters = {H=600; L_x=130; L_y=105; Lambda=1064; Max_L=200; Min_L=70; PathPara=1; Phi=0; Step_L=10; Theta=0; p=520; phaseX=180; phaseY=0}
! Header version: 2018
! Port assignment regex: !\s*Touchstone port\s*([0-9]+)\s*=\s*(CST MWS port|CST DS port)\s*([0-9]+|Zmin|Zmax)\s*\(\"(.*)\"\)(\s*mode\s*([0-9]+))?.*
! Touchstone port assignment:
! Touchstone port 1 = CST MWS port Zmax ("") mode 1
! Touchstone port 2 = CST MWS port Zmax ("") mode 2
! Touchstone port 3 = CST MWS port Zmin ("") mode 1
! Touchstone port 4 = CST MWS port Zmin ("") mode 2
! S-Parameters are not renormalized. Each port impedance will be approximated by the real part at minimum frequency. The values are described via the [Reference] keyword.
! Default impedance is overridden by [Reference]
[Version] 2.0
# GHz S RI R 376.73
[Number of Ports] 4
[Reference]
376.73 376.73 259.888 259.888 
[Number of Frequencies] 51
[Network Data]
281700                  0.114113        0.101681      0.000785014    -0.000107143        -0.978734       0.0785056      0.000367948    -3.65003e-05
                     0.000781475    -0.000133976      0.000552673      -0.0401733      0.000221639     0.000185981         0.342915        0.928722
                       -0.978338       0.0790439      0.000220323     0.000189835       -0.0951731        0.118958      0.000314779     0.000770371
                     0.000478468      2.1154e-05         0.342896        0.928687      0.000288133     0.000707612        0.0244149       0.0324885
281702                  0.114136        0.101677      0.000784935    -0.000107329        -0.978703       0.0788515      0.000367806    -3.65911e-05
                     0.000781393    -0.000134194      0.000536197      -0.0401406      0.000221723     0.000185924         0.343287        0.928586
                       -0.978307       0.0793905      0.000220414     0.000189734       -0.0951122        0.119025      0.000315207     0.000770121
                     0.000478366     2.09838e-05         0.343268        0.928551      0.000288468     0.000707445        0.0244068       0.0324545
281704                  0.114159        0.101674      0.000784857    -0.000107515        -0.978673       0.0791974      0.000367665    -3.66813e-05
                     0.000781311    -0.000134412      0.000519732       -0.040108      0.000221807     0.000185867         0.343659        0.928451
                       -0.978276       0.0797371      0.000220506     0.000189633       -0.0950512        0.119092      0.000315635      0.00076987
                     0.000478264      2.0814e-05         0.343639        0.928415      0.000288802     0.000707278        0.0243987       0.0324206
281706                  0.114182         0.10167      0.000784778    -0.000107701        -0.978642       0.0795433      0.000367523    -3.67707e-05
                     0.000781228     -0.00013463      0.000503279      -0.0400753      0.000221891     0.000185809         0.344031        0.928315
                       -0.978244       0.0800837      0.000220597     0.000189531       -0.0949902         0.11916      0.000316062     0.000769618
                     0.000478162     2.06445e-05         0.344011        0.928279      0.000289137     0.000707111        0.0243905       0.0323868
281708                  0.114205        0.101666      0.000784699    -0.000107887        -0.978611       0.0798892      0.000367381    -3.68595e-05
                     0.000781146    -0.000134848      0.000486837      -0.0400426      0.000221975     0.000185751         0.344403        0.928179
                       -0.978213       0.0804304      0.000220688      0.00018943       -0.0949292        0.119227      0.000316488     0.000769365
                      0.00047806     2.04753e-05         0.344383        0.928143      0.000289472     0.000706943        0.0243823       0.0323529
281710                  0.114228        0.101662       0.00078462    -0.000108074         -0.97858       0.0802351      0.000367238    -3.69475e-05
                     0.000781064    -0.000135065      0.000470406        -0.04001      0.000222059     0.000185693         0.344775        0.928043
                       -0.978182        0.080777       0.00022078     0.000189329       -0.0948681        0.119294      0.000316914     0.000769111
                     0.000477958     2.03066e-05         0.344755        0.928006      0.000289806     0.000706775        0.0243741       0.0323191
281712                  0.114251        0.101659      0.000784541     -0.00010826        -0.978548       0.0805809      0.000367096    -3.70349e-05
                     0.000780981    -0.000135283      0.000453987      -0.0399773      0.000222144     0.000185635         0.345147        0.927907
                        -0.97815       0.0811236      0.000220871     0.000189227        -0.094807        0.119361       0.00031734     0.000768857
                     0.000477855     2.01381e-05         0.345127         0.92787      0.000290141     0.000706607        0.0243659       0.0322853
281714                  0.114274        0.101655      0.000784461    -0.000108446        -0.978517       0.0809268      0.000366953    -3.71215e-05
                     0.000780899      -0.0001355      0.000437579      -0.0399446      0.000222228     0.000185576         0.345519         0.92777
                       -0.978118       0.0814702      0.000220962     0.000189126       -0.0947458        0.119428      0.000317766     0.000768601
                     0.000477753       1.997e-05         0.345498        0.927733      0.000290475     0.000706438        0.0243576       0.0322515
281716                  0.114297        0.101651      0.000784382    -0.000108632        -0.978485       0.0812727       0.00036681    -3.72075e-05
                     0.000780817    -0.000135717      0.000421183      -0.0399119      0.000222312     0.000185518         0.345891        0.927634
                       -0.978086       0.0818168      0.000221053     0.000189025       -0.0946846        0.119495      0.000318191     0.000768345
                      0.00047765     1.98023e-05          0.34587        0.927597      0.000290809     0.000706269        0.0243493       0.0322178
281718                  0.114319        0.101648      0.000784303    -0.000108818        -0.978454       0.0816186      0.000366666    -3.72927e-05
                     0.000780734    -0.000135933      0.000404798      -0.0398793      0.000222397     0.000185459         0.346263        0.927497
                       -0.978054       0.0821634      0.000221145     0.000188923       -0.0946233        0.119562      0.000318616     0.000768088
                     0.000477548     1.96349e-05         0.346242         0.92746      0.000291144     0.000706099        0.0243409        0.032184
281720                  0.114342        0.101644      0.000784223    -0.000109004        -0.978422       0.0819645      0.000366523    -3.73773e-05
                     0.000780651     -0.00013615      0.000388424      -0.0398466      0.000222481       0.0001854         0.346635         0.92736
                       -0.978022         0.08251      0.000221236     0.000188822        -0.094562        0.119629       0.00031904      0.00076783
                     0.000477445     1.94678e-05         0.346613        0.927323      0.000291478      0.00070593        0.0243326       0.0321503
281722                  0.114365         0.10164      0.000784144     -0.00010919         -0.97839       0.0823103      0.000366379    -3.74611e-05
                     0.000780569    -0.000136366      0.000372062      -0.0398139      0.000222566     0.000185341         0.347006        0.927223
                        -0.97799       0.0828566      0.000221327      0.00018872       -0.0945007        0.119696      0.000319464     0.000767571
                     0.000477342     1.93012e-05         0.346984        0.927185      0.000291813     0.000705759        0.0243242       0.0321166
281724                  0.114388        0.101636      0.000784064    -0.000109376        -0.978358       0.0826562      0.000366235    -3.75442e-05
                     0.000780486    -0.000136582       0.00035571      -0.0397812      0.000222651     0.000185282         0.347378        0.927086
                       -0.977958       0.0832032      0.000221418     0.000188618       -0.0944392        0.119763      0.000319888     0.000767311
                     0.000477239     1.91349e-05         0.347356        0.927048      0.000292147     0.000705589        0.0243157        0.032083
281726                  0.114411        0.101633      0.000783984    -0.000109562        -0.978326       0.0830021      0.000366091    -3.76266e-05
                     0.000780403    -0.000136797      0.000339371      -0.0397485      0.000222735     0.000185222          0.34775        0.926948
                       -0.977925       0.0835498      0.000221509     0.000188517       -0.0943778         0.11983      0.000320311     0.000767051
                     0.000477136     1.89689e-05         0.347727         0.92691      0.000292481     0.000705418        0.0243072       0.0320493
281728                  0.114434        0.101629      0.000783904    -0.000109748        -0.978294       0.0833479      0.000365947    -3.77083e-05
                      0.00078032    -0.000137013      0.000323042      -0.0397157       0.00022282     0.000185162         0.348121        0.926811
                       -0.977893       0.0838964        0.0002216     0.000188415       -0.0943163        0.119897      0.000320734     0.000766789
                     0.000477033     1.88033e-05         0.348098        0.926773      0.000292815     0.000705246        0.0242987       0.0320157
281730                  0.114457        0.101625      0.000783824    -0.000109934        -0.978262       0.0836938      0.000365803    -3.77893e-05
                     0.000780237    -0.000137228      0.000306725       -0.039683      0.000222905     0.000185103         0.348492        0.926673
                        -0.97786       0.0842429      0.000221691     0.000188314       -0.0942547        0.119964      0.000321157     0.000766527
                      0.00047693     1.86381e-05         0.348469        0.926635       0.00029315     0.000705075        0.0242902       0.0319821
281732                   0.11448        0.101621      0.000783744     -0.00011012        -0.978229       0.0840397      0.000365658    -3.78695e-05
                     0.000780154    -0.000137443       0.00029042      -0.0396503       0.00022299     0.000185043         0.348864        0.926536
                       -0.977827       0.0845895      0.000221783     0.000188212       -0.0941931        0.120031      0.000321579     0.000766263
                     0.000476826     1.84732e-05         0.348841        0.926497      0.000293484     0.000704903        0.0242816       0.0319485
281734                  0.114503        0.101618      0.000783664    -0.000110305        -0.978196       0.0843855      0.000365513     -3.7949e-05
                     0.000780071    -0.000137658      0.000274125      -0.0396176      0.000223075     0.000184982         0.349235        0.926398
                       -0.977794       0.0849361      0.000221874      0.00018811       -0.0941314        0.120098         0.000322     0.000765999
                     0.000476723     1.83088e-05         0.349212        0.926359      0.000293818      0.00070473         0.024273        0.031915
281736                  0.114525        0.101614      0.000783584    -0.000110491        -0.978164       0.0847314      0.000365368    -3.80278e-05
                     0.000779988    -0.000137872      0.000257842      -0.0395849       0.00022316     0.000184922         0.349606         0.92626
                       -0.977761       0.0852827      0.000221965     0.000188009       -0.0940697        0.120165      0.000322421     0.000765734
                     0.000476619     1.81446e-05         0.349583        0.926221      0.000294152     0.000704557        0.0242643       0.0318815
281738                  0.114548         0.10161      0.000783503    -0.000110677        -0.978131       0.0850772      0.000365223    -3.81058e-05
                     0.000779905    -0.000138087      0.000241571      -0.0395521      0.000223245     0.000184862         0.349978        0.926121
                       -0.977728       0.0856292      0.000222056     0.000187907        -0.094008        0.120231      0.000322842     0.000765468
                     0.000476516     1.79809e-05         0.349954        0.926082      0.000294487     0.000704384        0.0242557        0.031848
281740                  0.114571        0.101606      0.000783423    -0.000110863        -0.978098        0.085423      0.000365077    -3.81831e-05
                     0.000779822    -0.000138301      0.000225311      -0.0395194       0.00022333     0.000184801         0.350349        0.925983
                       -0.977694       0.0859758      0.000222147     0.000187805       -0.0939462        0.120298      0.000323263     0.000765202
                     0.000476412     1.78175e-05         0.350324        0.925944      0.000294821     0.000704211        0.0242469       0.0318145
281742                  0.114594        0.101602      0.000783342    -0.000111049        -0.978065       0.0857689      0.000364932    -3.82597e-05
                     0.000779738    -0.000138515      0.000209062      -0.0394866      0.000223415      0.00018474          0.35072        0.925845
                       -0.977661       0.0863223      0.000222237     0.000187703       -0.0938843        0.120365      0.000323683     0.000764934
                     0.000476308     1.76545e-05         0.350695        0.925805      0.000295155     0.000704037        0.0242382        0.031781
281744                  0.114617        0.101598      0.000783262    -0.000111235        -0.978032       0.0861147      0.000364786    -3.83356e-05
                     0.000779655    -0.000138728      0.000192824      -0.0394539        0.0002235     0.000184679         0.351091        0.925706
                       -0.977627       0.0866689      0.000222328     0.000187601       -0.0938224        0.120431      0.000324102     0.000764666
                     0.000476204     1.74919e-05         0.351066        0.925666      0.000295489     0.000703863        0.0242294       0.0317476
281746                   0.11464        0.101595      0.000783181    -0.000111421        -0.977998       0.0864605       0.00036464    -3.84106e-05
                     0.000779571    -0.000138942      0.000176598      -0.0394211      0.000223586     0.000184618         0.351462        0.925567
                       -0.977594       0.0870154      0.000222419     0.000187499       -0.0937605        0.120498      0.000324521     0.000764396
                       0.0004761     1.73296e-05         0.351437        0.925527      0.000295823     0.000703689        0.0242206       0.0317142
281748                  0.114663        0.101591        0.0007831    -0.000111606        -0.977965       0.0868064      0.000364494     -3.8485e-05
                     0.000779487    -0.000139155      0.000160383      -0.0393884      0.000223671     0.000184557         0.351833        0.925428
                        -0.97756        0.087362       0.00022251     0.000187397       -0.0936985        0.120564       0.00032494     0.000764126
                     0.000475996     1.71677e-05         0.351807        0.925388      0.000296157     0.000703514        0.0242118       0.0316808
281750                  0.114686        0.101587      0.000783019    -0.000111792        -0.977931       0.0871522      0.000364347    -3.85586e-05
                       0.0007794    -0.000139367       0.00014418      -0.0393556      0.000223757     0.000184496         0.352203        0.925289
                       -0.977526       0.0877085      0.000222601     0.000187295       -0.0936365        0.120631      0.000325358     0.000763855
                     0.000475892     1.70062e-05         0.352178        0.925249      0.000296491     0.000703339        0.0242029       0.0316474
281752                  0.114709        0.101583      0.000782938    -0.000111978        -0.977898        0.087498      0.000364201    -3.86314e-05
                      0.00077933    -0.000139582      0.000127988      -0.0393228      0.000223842     0.000184435         0.352574         0.92515
                       -0.977492        0.088055      0.000222692     0.000187193       -0.0935744        0.120698      0.000325776     0.000763583
                     0.000475788      1.6845e-05         0.352548         0.92511      0.000296825     0.000703164         0.024194       0.0316141
281754                  0.114732        0.101579      0.000782857    -0.000112164        -0.977864       0.0878438      0.000364054    -3.87035e-05
                      0.00077924    -0.000139793      0.000111807      -0.0392901      0.000223928     0.000184373         0.352945        0.925011
                       -0.977458       0.0884016      0.000222783     0.000187091       -0.0935123        0.120764      0.000326194      0.00076331
                     0.000475684     1.66842e-05         0.352919         0.92497      0.000297159     0.000702988        0.0241851       0.0315808
281756                  0.114754        0.101575      0.000782776    -0.000112349         -0.97783       0.0881896      0.000363907    -3.87747e-05
                     0.000779156    -0.000140006      9.56379e-05      -0.0392573      0.000224014     0.000184312         0.353316        0.924871
                       -0.977423       0.0887481      0.000222874     0.000186989       -0.0934501         0.12083       0.00032661     0.000763037
                      0.00047558     1.65238e-05         0.353289         0.92483      0.000297493     0.000702813        0.0241761       0.0315475
281758                  0.114777        0.101571      0.000782694    -0.000112535        -0.977796       0.0885355       0.00036376    -3.88452e-05
                     0.000779072    -0.000140218      7.94799e-05      -0.0392245      0.000224099     0.000184251         0.353686        0.924732
                       -0.977389       0.0890946      0.000222964     0.000186887       -0.0933879        0.120897      0.000327027     0.000762762
                     0.000475475     1.63638e-05          0.35366         0.92469      0.000297827     0.000702638        0.0241671       0.0315142
281760                    0.1148        0.101568      0.000782613    -0.000112721        -0.977762       0.0888813      0.000363613    -3.89148e-05
                     0.000778987    -0.000140429      6.33332e-05      -0.0391917      0.000224185     0.000184198         0.354057        0.924592
                       -0.977354       0.0894412      0.000223055     0.000186785       -0.0933256        0.120963      0.000327443     0.000762487
                     0.000475371     1.62043e-05          0.35403         0.92455       0.00029816     0.000702472         0.024158        0.031481
281762                  0.114823        0.101564      0.000782531    -0.000112906        -0.977727       0.0892271      0.000363466     -3.8983e-05
                     0.000778903    -0.000140641      4.71985e-05      -0.0391589      0.000224268      0.00018412         0.354427        0.924452
                        -0.97732       0.0897877      0.000223145     0.000186683       -0.0932633         0.12103      0.000327858      0.00076221
