! TOUCHSTONE file generated by CST MICROWAVE STUDIO
! Date and time: Wed Oct 15 17:32:36 2025
! Project name: Teste_Macro_Metasurface_Nanopilar.cst
! Parameters = {H=600; L_x=150; L_y=190; Lambda=1064; Max_L=200; Min_L=70; PathPara=1; Phi=0; Step_L=10; Theta=0; p=520; phaseX=180; phaseY=0}
! Header version: 2018
! Port assignment regex: !\s*Touchstone port\s*([0-9]+)\s*=\s*(CST MWS port|CST DS port)\s*([0-9]+|Zmin|Zmax)\s*\(\"(.*)\"\)(\s*mode\s*([0-9]+))?.*
! Touchstone port assignment:
! Touchstone port 1 = CST MWS port Zmax ("") mode 1
! Touchstone port 2 = CST MWS port Zmax ("") mode 2
! Touchstone port 3 = CST MWS port Zmin ("") mode 1
! Touchstone port 4 = CST MWS port Zmin ("") mode 2
! S-Parameters are not renormalized. Each port impedance will be approximated by the real part at minimum frequency. The values are described via the [Reference] keyword.
! Default impedance is overridden by [Reference]
[Version] 2.0
# GHz S RI R 376.73
[Number of Ports] 4
[Reference]
376.73 376.73 259.888 259.888 
[Number of Frequencies] 51
[Network Data]
281700                  0.216806       0.0775795      8.09177e-05     0.000434633         0.302212       -0.921387     -0.000118204    -9.12146e-05
                     6.28486e-05     0.000419705         0.170008       0.0215928     -0.000229847    -7.12889e-05           0.6642       -0.722123
                         0.30227        -0.92162     -0.000220094    -8.21154e-05          0.21889       0.0632573       0.00047058      4.8011e-05
                    -0.000106533    -7.78045e-05         0.664915       -0.721663      0.000533563    -0.000238321        0.0350279        0.164962
281702                  0.216823       0.0775854      8.07987e-05     0.000434609         0.301944       -0.921471     -0.000149037    -5.56917e-05
                     6.30213e-05     0.000419716         0.170007        0.021599     -0.000230002    -7.12724e-05         0.664066       -0.722286
                        0.302001       -0.921703     -0.000219723    -8.22957e-05         0.218944       0.0631359      0.000510611    -5.78469e-05
                    -0.000106617     -7.7638e-05           0.6647       -0.721862      0.000533689    -0.000238647        0.0351583        0.164949
281704                   0.21684       0.0775912      8.06802e-05     0.000434586         0.301676       -0.921554     -0.000149151     -5.5678e-05
                      6.3194e-05     0.000419728         0.170005       0.0216052     -0.000230156    -7.12559e-05         0.663851       -0.722485
                        0.301733       -0.921786     -0.000219355    -8.24773e-05         0.218997       0.0630145      0.000510593    -5.78269e-05
                    -0.000106701    -7.74715e-05         0.664485        -0.72206      0.000533816    -0.000238974        0.0352626        0.164927
281706                  0.216857       0.0775971      8.05624e-05     0.000434564         0.301409       -0.921638     -0.000149246    -5.56483e-05
                     6.33667e-05     0.000419741         0.170003       0.0216114     -0.000230311    -7.12394e-05         0.663636       -0.722683
                        0.301464       -0.921868      -0.00021899    -8.26605e-05         0.219051        0.062893        0.0005106    -5.79392e-05
                    -0.000106786    -7.73051e-05         0.664269       -0.722259      0.000533943      -0.0002393         0.035367        0.164905
281708                  0.216873        0.077603      8.04453e-05     0.000434543         0.301141       -0.921721     -0.000149337    -5.56145e-05
                     6.35394e-05     0.000419754         0.170002       0.0216175     -0.000230466    -7.12229e-05         0.663421       -0.722881
                        0.301196        -0.92195     -0.000218628     -8.2845e-05         0.219105       0.0627716      0.000510613    -5.80844e-05
                    -0.000106871    -7.71389e-05         0.664054       -0.722457       0.00053407    -0.000239627        0.0354712        0.164883
281710                   0.21689       0.0776088      8.03291e-05     0.000434522         0.300873       -0.921804     -0.000149427     -5.5579e-05
                     6.37122e-05     0.000419767             0.17       0.0216237     -0.000230621    -7.12064e-05         0.663205       -0.723079
                        0.300927       -0.922033     -0.000218268    -8.30311e-05         0.219158         0.06265      0.000510629    -5.82426e-05
                    -0.000106956    -7.69727e-05         0.663839       -0.722655      0.000534197    -0.000239953        0.0355755         0.16486
281712                  0.216907       0.0776147      8.02139e-05     0.000434503         0.300605       -0.921888     -0.000149515    -5.55427e-05
                     6.38851e-05      0.00041978         0.169998       0.0216299     -0.000230776    -7.11899e-05         0.662989       -0.723277
                        0.300659       -0.922115     -0.000217911    -8.32186e-05         0.219212       0.0625285      0.000510646    -5.84071e-05
                    -0.000107041    -7.68065e-05         0.663624       -0.722853      0.000534324     -0.00024028        0.0356797        0.164838
281714                  0.216923       0.0776206      8.00997e-05     0.000434484         0.300337       -0.921971     -0.000149603    -5.55058e-05
                     6.40581e-05     0.000419794         0.169996        0.021636     -0.000230932    -7.11733e-05         0.662774       -0.723475
                         0.30039       -0.922197     -0.000217557    -8.34075e-05         0.219265       0.0624069      0.000510663    -5.85751e-05
                    -0.000107127    -7.66405e-05         0.663408       -0.723051      0.000534452    -0.000240606        0.0357839        0.164816
281716                   0.21694       0.0776264      7.99867e-05     0.000434465         0.300069       -0.922054     -0.000149691    -5.54685e-05
                     6.42314e-05     0.000419808         0.169995       0.0216422     -0.000231087    -7.11568e-05         0.662558       -0.723673
                        0.300122       -0.922279     -0.000217204    -8.35978e-05         0.219318       0.0622852       0.00051068    -5.87451e-05
                    -0.000107213    -7.64745e-05         0.663193       -0.723249      0.000534579    -0.000240933        0.0358881        0.164793
281718                  0.216957       0.0776323       7.9875e-05     0.000434447         0.299802       -0.922137     -0.000149778    -5.54309e-05
                     6.44052e-05     0.000419821         0.169993       0.0216483     -0.000231242    -7.11402e-05         0.662342       -0.723871
                        0.299853       -0.922361     -0.000216853    -8.37895e-05         0.219372       0.0621636      0.000510697    -5.89162e-05
                    -0.000107299    -7.63087e-05         0.662977       -0.723447      0.000534707     -0.00024126        0.0359923        0.164771
281720                  0.216973       0.0776381      7.97645e-05      0.00043443         0.299534        -0.92222     -0.000149865    -5.53931e-05
                     6.45798e-05     0.000419834         0.169991       0.0216544     -0.000231398    -7.11236e-05         0.662126       -0.724068
                        0.299584       -0.922443     -0.000216503    -8.39825e-05         0.219425       0.0620419      0.000510713    -5.90877e-05
                    -0.000107386    -7.61431e-05         0.662762       -0.723645      0.000534834    -0.000241586        0.0360964        0.164748
281722                   0.21699       0.0776439      7.96553e-05     0.000434412         0.299266       -0.922302     -0.000149953    -5.53552e-05
                     6.47563e-05     0.000419846         0.169989       0.0216605     -0.000231553     -7.1107e-05          0.66191       -0.724266
                        0.299316       -0.922525     -0.000216156    -8.41767e-05         0.219478       0.0619201      0.000510729    -5.92593e-05
                    -0.000107474    -7.59781e-05         0.662546       -0.723843      0.000534962    -0.000241913        0.0362005        0.164725
281724                  0.217007       0.0776497      7.95474e-05     0.000434395         0.298998       -0.922385      -0.00015004     -5.5317e-05
                     6.49375e-05     0.000419854         0.169988       0.0216666     -0.000231709    -7.10903e-05         0.661694       -0.724463
                        0.299047       -0.922607     -0.000215809    -8.43721e-05         0.219531       0.0617983      0.000510744    -5.94302e-05
                    -0.000107564    -7.58148e-05          0.66233       -0.724041       0.00053509     -0.00024224        0.0363046        0.164702
281726                  0.217024       0.0776558      7.94408e-05     0.000434377          0.29873       -0.922468     -0.000150127    -5.52788e-05
                     6.51391e-05     0.000419845         0.169986       0.0216727     -0.000231865    -7.10737e-05         0.661478       -0.724661
                        0.298778       -0.922689     -0.000215463    -8.45686e-05         0.219584       0.0616765      0.000510756       -5.96e-05
                    -0.000107655    -7.56569e-05         0.662115       -0.724238      0.000535218    -0.000242566        0.0364087         0.16468
281728                   0.21704       0.0776615      7.93354e-05     0.000434359         0.298462        -0.92255     -0.000150214    -5.52404e-05
                     6.58677e-05     0.000420579         0.169984       0.0216788     -0.000232021    -7.10569e-05         0.661262       -0.724858
                         0.29851        -0.92277     -0.000215119    -8.47662e-05         0.219637       0.0615547      0.000510766    -5.97678e-05
                    -0.000107736    -7.55055e-05         0.661899       -0.724436      0.000535346    -0.000242893        0.0365127        0.164657
281730                  0.217057       0.0776673      7.92311e-05     0.000434341         0.298194       -0.922633     -0.000150301    -5.52018e-05
                     6.53795e-05     0.000419996         0.169982       0.0216849     -0.000232176    -7.10402e-05         0.661046       -0.725056
                        0.298241       -0.922852     -0.000214775    -8.49647e-05          0.21969       0.0614328      0.000510771    -5.99323e-05
                    -0.000107807    -7.53421e-05         0.661683       -0.724633      0.000535474     -0.00024322        0.0366167        0.164634
281732                  0.217074       0.0776731      7.91279e-05     0.000434323         0.297926       -0.922715     -0.000150389    -5.51632e-05
                     6.55728e-05     0.000419983         0.169981        0.021691     -0.000232332    -7.10234e-05          0.66083       -0.725253
                        0.297972       -0.922934     -0.000214432    -8.51642e-05         0.219743       0.0613109      0.000510766    -6.00918e-05
                    -0.000107887    -7.51708e-05         0.661467       -0.724831      0.000535602    -0.000243547        0.0367207        0.164611
281734                   0.21709       0.0776789      7.90256e-05     0.000434304         0.297657       -0.922798     -0.000150476    -5.51245e-05
                     6.57523e-05     0.000419991         0.169979        0.021697     -0.000232489    -7.10066e-05         0.660614        -0.72545
                        0.297703       -0.923015      -0.00021409    -8.53644e-05         0.219795       0.0611889      0.000510736    -6.02451e-05
                    -0.000107972    -7.50012e-05         0.661251       -0.725028       0.00053573    -0.000243874        0.0368247        0.164588
281736                  0.217107       0.0776847       7.8924e-05     0.000434285         0.297389        -0.92288     -0.000150563    -5.50857e-05
                     6.59279e-05     0.000420005         0.169977       0.0217031     -0.000232645    -7.09897e-05         0.660398       -0.725647
                        0.297434       -0.923096     -0.000213748    -8.55653e-05         0.219848        0.061067      0.000510638    -6.04107e-05
                    -0.000108058    -7.48335e-05         0.661035       -0.725226      0.000535858    -0.000244201        0.0369286        0.164564
281738                  0.217124       0.0776905      7.88231e-05     0.000434266         0.297121       -0.922962      -0.00015065    -5.50468e-05
                      6.6102e-05     0.000420021         0.169975       0.0217091     -0.000232801    -7.09728e-05         0.660181       -0.725844
                        0.297166       -0.923178     -0.000213407    -8.57669e-05         0.219901       0.0609449      0.000510454    -6.07907e-05
                    -0.000108145    -7.46669e-05         0.660819       -0.725423      0.000535987    -0.000244528        0.0370326        0.164541
281740                   0.21714       0.0776963      7.87227e-05     0.000434246         0.296853       -0.923044     -0.000150738    -5.50078e-05
                     6.62752e-05     0.000420039         0.169974       0.0217152     -0.000232958    -7.09559e-05         0.659965       -0.726041
                        0.296897       -0.923259     -0.000213066    -8.59691e-05         0.219953       0.0608229      0.000510732    -6.12399e-05
                    -0.000108231     -7.4501e-05         0.660603        -0.72562      0.000536115    -0.000244855        0.0371364        0.164518
281742                  0.217157       0.0777021      7.86226e-05     0.000434226         0.296585       -0.923126     -0.000150825    -5.49687e-05
                     6.64479e-05     0.000420058         0.169972       0.0217212     -0.000233114    -7.09389e-05         0.659748       -0.726238
                        0.296628        -0.92334     -0.000212726    -8.61717e-05         0.220005       0.0607008      0.000510916    -6.13248e-05
                    -0.000108318    -7.43356e-05         0.660387       -0.725817      0.000536243    -0.000245183        0.0372403        0.164495
281744                  0.217174       0.0777079      7.85225e-05     0.000434205         0.296317       -0.923208     -0.000150913    -5.49296e-05
                     6.66203e-05     0.000420077          0.16997       0.0217272     -0.000233271    -7.09219e-05         0.659532       -0.726435
                        0.296359       -0.923421     -0.000212386    -8.63746e-05         0.220058       0.0605787       0.00051097    -6.14326e-05
                    -0.000108405    -7.41704e-05          0.66017       -0.726014      0.000536369    -0.000245511        0.0373442        0.164471
281746                  0.217191       0.0777137      7.84224e-05     0.000434184         0.296049        -0.92329        -0.000151    -5.48904e-05
                     6.67925e-05     0.000420097         0.169968       0.0217332     -0.000233428    -7.09049e-05         0.659315       -0.726632
                         0.29609       -0.923502     -0.000212046    -8.65779e-05          0.22011       0.0604565      0.000510997    -6.15717e-05
                    -0.000108492    -7.40055e-05         0.659954       -0.726211      0.000536484    -0.000245839         0.037448        0.164448
281748                  0.217207       0.0777195      7.83219e-05     0.000434162          0.29578       -0.923372     -0.000151088    -5.48511e-05
                     6.69645e-05     0.000420117         0.169967       0.0217392     -0.000233584    -7.08881e-05         0.659099       -0.726829
                        0.295821       -0.923583     -0.000211706    -8.67813e-05         0.220162       0.0603343      0.000511017    -6.17267e-05
                     -0.00010858    -7.38407e-05         0.659738       -0.726408      0.000536639     -0.00024615        0.0375518        0.164424
281750                  0.217224       0.0777253      7.82209e-05      0.00043414         0.295512       -0.923454     -0.000151176    -5.48118e-05
                     6.71364e-05     0.000420138         0.169965       0.0217452     -0.000233739     -7.0871e-05         0.658882       -0.727025
                        0.295552       -0.923664     -0.000211366    -8.69848e-05         0.220215       0.0602121      0.000511035    -6.18901e-05
                    -0.000108667    -7.36762e-05         0.659521       -0.726605      0.000536764    -0.000246485        0.0376555          0.1644
281752                  0.217241        0.077731      7.81193e-05     0.000434117         0.295244       -0.923535     -0.000151264    -5.47724e-05
                     6.73082e-05     0.000420159         0.169963       0.0217512     -0.000233898     -7.0852e-05         0.658665       -0.727222
                        0.295283       -0.923744     -0.000211026    -8.71882e-05         0.220267       0.0600898      0.000511052    -6.20584e-05
                    -0.000108754    -7.35117e-05         0.659305       -0.726802      0.000536892    -0.000246814        0.0377593        0.164377
281754                  0.217257       0.0777368      7.80169e-05     0.000434094         0.294976       -0.923617     -0.000151352    -5.47329e-05
                     6.74799e-05     0.000420181         0.169961       0.0217572     -0.000234055    -7.08349e-05         0.658449       -0.727418
                        0.295014       -0.923825     -0.000210687    -8.73915e-05         0.220319       0.0599675      0.000511069    -6.22298e-05
                    -0.000108842    -7.33474e-05         0.659088       -0.726999      0.000537021    -0.000247142         0.037863        0.164353
281756                  0.217274       0.0777426      7.79136e-05      0.00043407         0.294707       -0.923698      -0.00015144    -5.46933e-05
                     6.76516e-05     0.000420203          0.16996       0.0217632     -0.000234213    -7.08176e-05         0.658232       -0.727615
                        0.294745       -0.923906     -0.000210347    -8.75944e-05         0.220371       0.0598452      0.000511085    -6.24033e-05
                    -0.000108929    -7.31832e-05         0.658872       -0.727195      0.000537149     -0.00024747        0.0379667        0.164329
281758                  0.217291       0.0777483      7.78094e-05     0.000434044         0.294439        -0.92378     -0.000151528    -5.46536e-05
                     6.78232e-05     0.000420225         0.169958       0.0217691      -0.00023437    -7.08002e-05         0.658015       -0.727811
                        0.294476       -0.923986     -0.000210007    -8.77968e-05         0.220422       0.0597228      0.000511102    -6.25782e-05
                    -0.000109017    -7.30191e-05         0.658655       -0.727392      0.000537278    -0.000247798        0.0380704        0.164305
281760                  0.217308       0.0777541      7.77043e-05     0.000434018         0.294171       -0.923861     -0.000151617    -5.46137e-05
                     6.79947e-05     0.000420248         0.169956       0.0217751     -0.000234528    -7.07827e-05         0.657798       -0.728008
                        0.294207       -0.924067     -0.000209666    -8.79985e-05         0.220474       0.0596004      0.000511119    -6.27543e-05
                    -0.000109105    -7.28551e-05         0.658438       -0.727588      0.000537407    -0.000248126         0.038174        0.164281
281762                  0.217324       0.0777599      7.75986e-05      0.00043399         0.293902       -0.923942     -0.000151706    -5.45737e-05
                     6.81662e-05      0.00042027         0.169954        0.021781     -0.000234686    -7.07651e-05         0.657581       -0.728204
                        0.293938       -0.924147     -0.000209325    -8.81993e-05         0.220526       0.0594779      0.000511135    -6.29311e-05
