! TOUCHSTONE file generated by CST MICROWAVE STUDIO
! Date and time: Wed Oct 15 17:34:49 2025
! Project name: Teste_Macro_Metasurface_Nanopilar.cst
! Parameters = {H=600; L_x=190; L_y=165; Lambda=1064; Max_L=200; Min_L=70; PathPara=1; Phi=0; Step_L=10; Theta=0; p=520; phaseX=180; phaseY=0}
! Header version: 2018
! Port assignment regex: !\s*Touchstone port\s*([0-9]+)\s*=\s*(CST MWS port|CST DS port)\s*([0-9]+|Zmin|Zmax)\s*\(\"(.*)\"\)(\s*mode\s*([0-9]+))?.*
! Touchstone port assignment:
! Touchstone port 1 = CST MWS port Zmax ("") mode 1
! Touchstone port 2 = CST MWS port Zmax ("") mode 2
! Touchstone port 3 = CST MWS port Zmin ("") mode 1
! Touchstone port 4 = CST MWS port Zmin ("") mode 2
! S-Parameters are not renormalized. Each port impedance will be approximated by the real part at minimum frequency. The values are described via the [Reference] keyword.
! Default impedance is overridden by [Reference]
[Version] 2.0
# GHz S RI R 376.73
[Number of Ports] 4
[Reference]
376.73 376.73 259.888 259.888 
[Number of Frequencies] 51
[Network Data]
281700                  0.301005        0.429239      0.000518325    -0.000108288         0.567302       -0.564661     -1.58367e-06    -8.10959e-05
                      0.00043455    -9.65997e-05         0.239311       0.0896579     -0.000200291     0.000244131         0.164277        -0.94918
                        0.566933        -0.56474     -0.000161009     0.000285593         0.374655         0.37705      0.000354473     0.000376928
                    -6.45033e-05     2.38534e-06         0.164098       -0.949409      0.000323347     0.000404196          0.25359     -0.00521799
281702                  0.301232        0.428419       0.00051819    -0.000108569         0.567178       -0.565593     -2.03353e-06    -8.04333e-05
                     0.000434951     -9.6813e-05         0.239323       0.0896553     -0.000199722     0.000244036         0.164002       -0.949225
                         0.56681       -0.565672     -0.000161005     0.000285232         0.374751        0.376147      0.000354564     0.000377506
                    -6.45558e-05     2.70704e-06         0.163821       -0.949452      0.000323512     0.000404531         0.253597     -0.00535839
281704                  0.301456        0.427603      0.000518054    -0.000108848         0.567052       -0.566522     -2.56208e-06    -7.96538e-05
                      0.00043535    -9.70274e-05         0.239335       0.0896526     -0.000199156      0.00024394         0.163726       -0.949271
                        0.566684       -0.566601        -0.000161     0.000284871         0.374845        0.375247      0.000354547     0.000378145
                    -6.46073e-05     3.02689e-06         0.163545       -0.949495      0.000323677     0.000404863         0.253605     -0.00549881
281706                  0.301678        0.426789      0.000517918    -0.000109124         0.566924       -0.567447     -3.17885e-06    -7.87442e-05
                     0.000435747     -9.7243e-05         0.239347         0.08965     -0.000198592     0.000243843         0.163451       -0.949316
                        0.566556       -0.567526     -0.000160995     0.000284511         0.374937        0.374351       0.00035441      0.00037885
                    -6.46577e-05     3.34489e-06         0.163268       -0.949538      0.000323842     0.000405192         0.253613     -0.00563923
281708                  0.301897        0.425979      0.000517783    -0.000109398         0.566794        -0.56837     -3.89442e-06    -7.76901e-05
                     0.000436141    -9.74596e-05         0.239359       0.0896474     -0.000198031     0.000243744         0.163176        -0.94936
                        0.566426       -0.568448     -0.000160988      0.00028415         0.375027        0.373458      0.000354141     0.000379631
                    -6.47072e-05     3.66107e-06         0.162992       -0.949581      0.000324008     0.000405519          0.25362     -0.00577967
281710                  0.302114        0.425172      0.000517647     -0.00010967         0.566661       -0.569289     -4.72054e-06    -7.64751e-05
                     0.000436533    -9.76773e-05         0.239371       0.0896448     -0.000197472     0.000243645           0.1629       -0.949405
                        0.566294       -0.569367      -0.00016098      0.00028379         0.375116        0.372569      0.000353724     0.000380496
                    -6.47556e-05     3.97543e-06         0.162715       -0.949624      0.000324174     0.000405843         0.253627     -0.00592012
281712                  0.302327        0.424368      0.000517512    -0.000109939         0.566526       -0.570204      -5.6702e-06    -7.50807e-05
                     0.000436922    -9.78961e-05         0.239383       0.0896422     -0.000196916     0.000243545         0.162625       -0.949449
                        0.566159       -0.570283     -0.000160972     0.000283431         0.375203        0.371682      0.000353144     0.000381456
                     -6.4803e-05     4.28796e-06         0.162439       -0.949667      0.000324341     0.000406164         0.253634     -0.00606058
281714                  0.302539        0.423567      0.000517378    -0.000110207          0.56639       -0.571117     -6.75767e-06    -7.34861e-05
                     0.000437309    -9.81159e-05         0.239395       0.0896396     -0.000196363     0.000243443         0.162349       -0.949493
                        0.566023       -0.571195     -0.000160962     0.000283071         0.375288        0.370799      0.000352381     0.000382522
                    -6.48494e-05     4.59869e-06         0.162162       -0.949709      0.000324508     0.000406482         0.253641     -0.00620104
281716                  0.302748        0.422769      0.000517244    -0.000110471          0.56625       -0.572026     -7.99851e-06     -7.1668e-05
                     0.000437693    -9.83368e-05         0.239406       0.0896369     -0.000195812     0.000243341         0.162074       -0.949536
                        0.565884       -0.572104     -0.000160951     0.000282712         0.375371         0.36992      0.000351414     0.000383708
                    -6.48949e-05     4.90763e-06         0.161886       -0.949752      0.000324676     0.000406798         0.253648     -0.00634152
281718                  0.302954        0.421974      0.000517111    -0.000110734         0.566109       -0.572932     -9.40954e-06    -6.96003e-05
                     0.000438076    -9.85587e-05         0.239418       0.0896343     -0.000195264     0.000243237         0.161798       -0.949579
                        0.565743        -0.57301     -0.000160938     0.000282353         0.375453        0.369043       0.00035022     0.000385028
                    -6.49394e-05     5.21477e-06         0.161609       -0.949795      0.000324843     0.000407111         0.253655     -0.00648201
281720                  0.303158        0.421182      0.000516979    -0.000110994         0.565966       -0.573834     -1.10086e-05    -6.72538e-05
                     0.000438455    -9.87817e-05          0.23943       0.0896317     -0.000194718     0.000243133         0.161522       -0.949622
                          0.5656       -0.573912     -0.000160924     0.000281994         0.375533         0.36817      0.000348771       0.0003865
                     -6.4983e-05     5.52013e-06         0.161333       -0.949837      0.000325012     0.000407422         0.253662      -0.0066225
281722                  0.303359        0.420393      0.000516848    -0.000111252         0.565821       -0.574734     -1.28142e-05    -6.45967e-05
                     0.000438833    -9.90056e-05         0.239442       0.0896291     -0.000194174     0.000243028         0.161247       -0.949664
                        0.565455       -0.574811     -0.000160909     0.000281636         0.375611          0.3673      0.000347039     0.000388143
                    -6.50257e-05     5.82371e-06         0.161056        -0.94988       0.00032518     0.000407729         0.253668       -0.006763
281724                  0.303558        0.419608      0.000516718    -0.000111507         0.565673        -0.57563     -1.48446e-05    -6.15945e-05
                     0.000439208    -9.92306e-05         0.239454       0.0896264     -0.000193633     0.000242921         0.160971       -0.949706
                        0.565308       -0.575708     -0.000160893     0.000281278         0.375688        0.366433      0.000344992     0.000389976
                    -6.50674e-05     6.12553e-06         0.160779       -0.949922      0.000325349     0.000408035         0.253675     -0.00690351
281726                  0.303755        0.418825       0.00051659    -0.000111761         0.565524       -0.576523     -1.71172e-05    -5.82115e-05
                      0.00043958    -9.94565e-05         0.239466       0.0896238     -0.000193095     0.000242814         0.160696       -0.949747
                        0.565159         -0.5766     -0.000160875      0.00028092         0.375763        0.365569      0.000342593     0.000392021
                    -6.51083e-05     6.42559e-06         0.160503       -0.949964      0.000325519     0.000408338         0.253681     -0.00704403
281728                  0.303949        0.418045      0.000516463    -0.000112013         0.565373       -0.577413     -1.96455e-05    -5.44127e-05
                     0.000439951    -9.96834e-05         0.239478       0.0896212     -0.000192559     0.000242706          0.16042       -0.949788
                        0.565008        -0.57749     -0.000160855     0.000280563         0.375837        0.364708      0.000339811     0.000394301
                    -6.51482e-05      6.7239e-06         0.160226       -0.950006      0.000325688     0.000408638         0.253688     -0.00718455
281730                  0.304141        0.417268      0.000516338    -0.000112262         0.565219       -0.578299     -2.24367e-05    -5.01683e-05
                     0.000440319    -9.99113e-05          0.23949       0.0896185     -0.000192025     0.000242597         0.160145       -0.949829
                        0.564855       -0.578377     -0.000160834     0.000280206         0.375909        0.363851      0.000336613     0.000396836
                    -6.51873e-05     7.02048e-06          0.15995       -0.950049      0.000325858     0.000408936         0.253694     -0.00732508
281732                  0.304331        0.416494      0.000516215     -0.00011251         0.565064       -0.579183     -2.54861e-05    -4.54614e-05
                     0.000440685     -0.00010014         0.239502       0.0896159     -0.000191494     0.000242488         0.159871       -0.949869
                          0.5647        -0.57926     -0.000160811      0.00027985         0.375979        0.362997       0.00033298     0.000399638
                    -6.52255e-05     7.31532e-06         0.159673       -0.950091      0.000326028     0.000409231           0.2537     -0.00746562
281734                  0.304518        0.415723      0.000516094    -0.000112756         0.564907       -0.580063     -2.87685e-05    -4.03033e-05
                     0.000441049     -0.00010037         0.239514       0.0896132     -0.000190965     0.000242377         0.159596       -0.949909
                        0.564543        -0.58014     -0.000160785     0.000279494         0.376048        0.362145      0.000328915     0.000402706
                    -6.52629e-05     7.60843e-06         0.159396       -0.950133      0.000326199     0.000409524         0.253706     -0.00760616
281736                  0.304703        0.414955      0.000515975       -0.000113         0.564748        -0.58094      -3.2225e-05    -3.47588e-05
                      0.00044141    -0.000100601         0.239526       0.0896106     -0.000190439     0.000242266         0.159322       -0.949948
                        0.564384       -0.581017     -0.000160758     0.000279139         0.376115        0.361297      0.000324469     0.000406009
                    -6.52995e-05     7.89983e-06          0.15912       -0.950175       0.00032637     0.000409814         0.253712      -0.0077467
281738                  0.304886         0.41419      0.000515859    -0.000113244         0.564587       -0.581815     -3.57414e-05    -2.89932e-05
                     0.000441769    -0.000100832         0.239537       0.0896079     -0.000189915     0.000242154         0.159048       -0.949988
                        0.564223       -0.581891     -0.000160729     0.000278784         0.376181        0.360452      0.000319787     0.000409456
                    -6.53352e-05     8.18953e-06         0.158843       -0.950216      0.000326541     0.000410103         0.253718     -0.00788725
281740                  0.305066        0.413427      0.000515744    -0.000113485         0.564424       -0.582686      -3.9112e-05    -2.33546e-05
                     0.000442126    -0.000101065         0.239549       0.0896053     -0.000189393     0.000242041         0.158774       -0.950028
                        0.564061       -0.582762     -0.000160698      0.00027843         0.376245         0.35961      0.000315185      0.00041285
                    -6.53701e-05     8.47753e-06         0.158566       -0.950258      0.000326712     0.000410388         0.253724      -0.0080278
281742                  0.305244        0.412668      0.000515633    -0.000113726          0.56426       -0.583554      -4.1978e-05    -1.85166e-05
                     0.000442481    -0.000101298         0.239561       0.0896026     -0.000188874     0.000241927         0.158499       -0.950069
                        0.563896        -0.58363     -0.000160664     0.000278076         0.376308        0.358771      0.000311295      0.00041579
                    -6.54042e-05     8.76383e-06         0.158289         -0.9503      0.000326884     0.000410672          0.25373     -0.00816834
281744                   0.30542        0.411911      0.000515524    -0.000113966         0.564093       -0.584419     -4.37129e-05    -1.57221e-05
                     0.000442834    -0.000101532         0.239573          0.0896     -0.000188357     0.000241813         0.158224       -0.950112
                         0.56373       -0.584495     -0.000160628     0.000277724         0.376369        0.357935      0.000309301     0.000417527
                    -6.54376e-05     9.04846e-06         0.158013       -0.950342      0.000327056     0.000410953         0.253736     -0.00830889
281746                  0.305594        0.411158      0.000515418    -0.000114205         0.563925        -0.58528     -4.31858e-05    -1.71696e-05
                     0.000443184    -0.000101768         0.239585       0.0895973     -0.000187842     0.000241698         0.157947       -0.950157
                        0.563562       -0.585357     -0.000160589     0.000277372         0.376429        0.357102      0.000311302     0.000416724
                    -6.54701e-05     9.33142e-06         0.157736       -0.950383      0.000327228     0.000411232         0.253742     -0.00844944
281748                  0.305766        0.410407      0.000515315    -0.000114443         0.563755       -0.586139     -3.82282e-05    -2.65229e-05
                     0.000443533    -0.000102004         0.239597       0.0895946      -0.00018733     0.000241582         0.157667       -0.950208
                        0.563392       -0.586215     -0.000160547     0.000277021         0.376487        0.356272      0.000320702     0.000411204
                    -6.55019e-05     9.61271e-06         0.157459       -0.950425        0.0003274     0.000411508         0.253748     -0.00858997
281750                  0.305936        0.409659      0.000515214    -0.000114681         0.563583       -0.586995      -2.4407e-05    -4.91721e-05
                     0.000443879     -0.00010224         0.239609        0.089592      -0.00018682     0.000241466         0.157388        -0.95027
                        0.563221       -0.587071     -0.000160502     0.000276671         0.376544        0.355445      0.000342182     0.000397958
                    -6.55329e-05     9.89236e-06         0.157182       -0.950466      0.000327573     0.000411783         0.253755      -0.0087305
281752                  0.306104        0.408914      0.000515117    -0.000114919         0.563409       -0.587848      7.30307e-06    -9.05823e-05
                     0.000444223    -0.000102478         0.239621       0.0895893     -0.000186312     0.000241349         0.157126       -0.950345
                        0.563048       -0.587924     -0.000160455     0.000276321           0.3766        0.354621      0.000380086     0.000374169
                    -6.55632e-05     1.01704e-05         0.156906       -0.950508      0.000327745     0.000412055         0.253763     -0.00887103
281754                  0.306269        0.408172      0.000515022    -0.000115157         0.563234       -0.588697      7.16547e-05    -0.000148607
                     0.000444565    -0.000102717         0.239633       0.0895866     -0.000185807     0.000241232          0.15689       -0.950405
                        0.562873       -0.588773     -0.000160403     0.000275973         0.376654          0.3538      0.000434168     0.000339968
                    -6.55928e-05     1.04467e-05         0.156629       -0.950549      0.000327918     0.000412326         0.253778     -0.00901189
281756                  0.306433        0.407432      0.000514931    -0.000115395         0.563057       -0.589544       0.00017714     -0.00020066
                     0.000444905    -0.000102956         0.239644        0.089584     -0.000185305     0.000241114         0.156646       -0.950437
                        0.562696        -0.58962     -0.000160349     0.000275626         0.376707        0.352982      0.000495473     0.000301119
                    -6.56216e-05     1.07215e-05         0.156352        -0.95059      0.000328091     0.000412594         0.253799      -0.0094432
281758                  0.306594        0.406696      0.000514842    -0.000115633         0.562879       -0.590388      0.000298405     -0.00021561
                     0.000445243    -0.000103196         0.239656       0.0895813     -0.000184804     0.000240997         0.156383       -0.950465
                        0.562518       -0.590464     -0.000160291     0.000275281         0.376759        0.352167      0.000549608     0.000266915
                    -6.56497e-05     1.09946e-05         0.156075       -0.950631      0.000328265      0.00041286         0.253748      -0.0092959
281760                  0.306753        0.405962      0.000514758    -0.000115872         0.562698       -0.591229      0.000390475    -0.000196535
                     0.000445579    -0.000103438         0.239668       0.0895786     -0.000184305     0.000240879         0.156112       -0.950498
                        0.562337       -0.591304     -0.000160229     0.000274936         0.376809        0.351355      0.000586708     0.000243684
                     -6.5677e-05     1.12662e-05         0.155799       -0.950672      0.000328438     0.000413125         0.253763     -0.00943477
281762                  0.306911        0.405231      0.000514676    -0.000116111         0.562516       -0.592067      0.000438731    -0.000171209
                     0.000445913    -0.000103679          0.23968       0.0895759     -0.000183807     0.000240761         0.155838       -0.950535
                        0.562156       -0.592142     -0.000160163     0.000274593         0.376858        0.350545      0.000606126     0.000231782
