! TOUCHSTONE file generated by CST MICROWAVE STUDIO
! Date and time: Wed Oct 15 17:33:35 2025
! Project name: Teste_Macro_Metasurface_Nanopilar.cst
! Parameters = {H=600; L_x=170; L_y=115; Lambda=1064; Max_L=200; Min_L=70; PathPara=1; Phi=0; Step_L=10; Theta=0; p=520; phaseX=180; phaseY=0}
! Header version: 2018
! Port assignment regex: !\s*Touchstone port\s*([0-9]+)\s*=\s*(CST MWS port|CST DS port)\s*([0-9]+|Zmin|Zmax)\s*\(\"(.*)\"\)(\s*mode\s*([0-9]+))?.*
! Touchstone port assignment:
! Touchstone port 1 = CST MWS port Zmax ("") mode 1
! Touchstone port 2 = CST MWS port Zmax ("") mode 2
! Touchstone port 3 = CST MWS port Zmin ("") mode 1
! Touchstone port 4 = CST MWS port Zmin ("") mode 2
! S-Parameters are not renormalized. Each port impedance will be approximated by the real part at minimum frequency. The values are described via the [Reference] keyword.
! Default impedance is overridden by [Reference]
[Version] 2.0
# GHz S RI R 376.73
[Number of Ports] 4
[Reference]
376.73 376.73 259.888 259.888 
[Number of Frequencies] 51
[Network Data]
281700                 0.0654277       0.0314874      0.000358123     0.000726982         0.788367        0.598866     -0.000882714    -0.000838434
                     0.000212617      0.00103349         0.867894       -0.196692     -4.91197e-05     0.000224907         0.329786        0.178568
                        0.787756        0.598818     -0.000272271     0.000665975       -0.0471206      -0.0522196     -0.000561522     -0.00112075
                    -0.000944813      -0.0015108         0.329745        0.178752      -0.00039692    -0.000339411         -0.11338       -0.867004
281702                 0.0654272       0.0315037       0.00035949     0.000726358         0.788583        0.598582     -0.000883958    -0.000836658
                     0.000215647       0.0010325         0.867417       -0.197313     -5.06529e-05     0.000224245         0.330667        0.178655
                        0.787971        0.598537     -0.000271686      0.00066599       -0.0471741      -0.0521806     -0.000562275     -0.00112021
                    -0.000947699     -0.00150747         0.330625        0.178839     -0.000394129    -0.000340109        -0.114679       -0.866506
281704                 0.0654267       0.0315199      0.000360855     0.000725731           0.7888        0.598297     -0.000885199     -0.00083488
                     0.000218675      0.00103149          0.86694       -0.197932     -5.21878e-05     0.000223592         0.331548         0.17874
                        0.788185        0.598255     -0.000271101     0.000666004       -0.0472275      -0.0521416     -0.000563027     -0.00111967
                    -0.000950567     -0.00150412         0.331506        0.178924     -0.000391344     -0.00034082        -0.115977       -0.866005
281706                 0.0654262       0.0315362      0.000362218     0.000725102         0.789016        0.598012     -0.000886435      -0.0008331
                       0.0002217      0.00103047         0.866462        -0.19855     -5.37244e-05     0.000222949         0.332428        0.178823
                          0.7884        0.597974     -0.000270517     0.000666017       -0.0472809      -0.0521024     -0.000563778     -0.00111913
                    -0.000953419     -0.00150076         0.332386        0.179007     -0.000388566    -0.000341545        -0.117274       -0.865502
281708                 0.0654258       0.0315524      0.000363579     0.000724471         0.789232        0.597727     -0.000887667    -0.000831317
                     0.000224722      0.00102943         0.865984       -0.199166     -5.52626e-05     0.000222315         0.333308        0.178904
                        0.788614        0.597692     -0.000269934     0.000666029       -0.0473343      -0.0520633     -0.000564528     -0.00111858
                    -0.000956253     -0.00149738         0.333266        0.179088     -0.000385794    -0.000342284        -0.118568       -0.864996
281710                 0.0654253       0.0315686      0.000364939     0.000723837         0.789448        0.597442     -0.000888895    -0.000829532
                     0.000227741      0.00102839         0.865504       -0.199782     -5.68023e-05      0.00022169         0.334188        0.178983
                        0.788828         0.59741     -0.000269351     0.000666041       -0.0473877      -0.0520241     -0.000565276     -0.00111804
                    -0.000959071     -0.00149399         0.334146        0.179167     -0.000383028    -0.000343035         -0.11986       -0.864488
281712                 0.0654248       0.0315849      0.000366297     0.000723201         0.789664        0.597157     -0.000890119    -0.000827745
                     0.000230757      0.00102733         0.865024       -0.200396     -5.83433e-05     0.000221074         0.335069        0.179059
                        0.789043        0.597129     -0.000268768     0.000666051        -0.047441      -0.0519849     -0.000566024     -0.00111749
                    -0.000961872     -0.00149059         0.335026        0.179244     -0.000380269      -0.0003438        -0.121151       -0.863978
281714                 0.0654243       0.0316011      0.000367653     0.000722562          0.78988        0.596872     -0.000891339    -0.000825955
                      0.00023377      0.00102625         0.864543       -0.201009     -5.98856e-05     0.000220467         0.335948        0.179134
                        0.789257        0.596847     -0.000268185     0.000666061       -0.0474943      -0.0519456      -0.00056677     -0.00111694
                    -0.000964657     -0.00148717         0.335906        0.179319     -0.000377517    -0.000344577         -0.12244       -0.863466
281716                 0.0654239       0.0316174      0.000369008     0.000721921         0.790095        0.596587     -0.000892555    -0.000824163
                      0.00023678      0.00102517         0.864061        -0.20162     -6.14291e-05     0.000219869         0.336828        0.179207
                        0.789471        0.596565     -0.000267604      0.00066607       -0.0475475      -0.0519062     -0.000567515      -0.0011164
                    -0.000967425     -0.00148374         0.336785        0.179392     -0.000374771    -0.000345367        -0.123727       -0.862951
281718                 0.0654234       0.0316336      0.000370361     0.000721277         0.790311        0.596302     -0.000893766    -0.000822369
                     0.000239786      0.00102407         0.863578       -0.202231     -6.29736e-05     0.000219279         0.337708        0.179277
                        0.789685        0.596283     -0.000267022     0.000666078       -0.0476007      -0.0518669     -0.000568259     -0.00111584
                    -0.000970176     -0.00148029         0.337665        0.179463     -0.000372033    -0.000346169        -0.125013       -0.862433
281720                 0.0654229       0.0316499      0.000371712     0.000720631         0.790526        0.596017     -0.000894973    -0.000820573
                     0.000242788      0.00102296         0.863095        -0.20284     -6.45191e-05     0.000218699         0.338587        0.179346
                        0.789899        0.596001     -0.000266441     0.000666085       -0.0476539      -0.0518275     -0.000569002     -0.00111529
                    -0.000972911     -0.00147683         0.338544        0.179531     -0.000369301    -0.000346984        -0.126296       -0.861914
281722                 0.0654225       0.0316661      0.000373061     0.000719983         0.790742        0.595731     -0.000896176    -0.000818775
                     0.000245787      0.00102184         0.862611       -0.203448     -6.60654e-05     0.000218127         0.339467        0.179412
                        0.790113        0.595719     -0.000265861     0.000666091       -0.0477071       -0.051788     -0.000569744     -0.00111474
                     -0.00097563     -0.00147336         0.339423        0.179598     -0.000366576     -0.00034781        -0.127578       -0.861392
281724                  0.065422       0.0316824      0.000374408     0.000719332         0.790957        0.595446     -0.000897375    -0.000816974
                     0.000248782       0.0010207         0.862126       -0.204055     -6.76125e-05     0.000217564         0.340346        0.179476
                        0.790327        0.595437     -0.000265281     0.000666096       -0.0477602      -0.0517485     -0.000570484     -0.00111418
                    -0.000978332     -0.00146988         0.340302        0.179663     -0.000363858    -0.000348649        -0.128858       -0.860868
281726                 0.0654216       0.0316986      0.000375754     0.000718679         0.791172         0.59516      -0.00089857    -0.000815171
                     0.000251774      0.00101956          0.86164        -0.20466     -6.91603e-05     0.000217009         0.341225        0.179539
                         0.79054        0.595155     -0.000264701     0.000666101       -0.0478133      -0.0517089     -0.000571224     -0.00111363
                    -0.000981019     -0.00146638         0.341181        0.179725     -0.000361148    -0.000349499        -0.130136       -0.860341
281728                 0.0654212       0.0317149      0.000377098     0.000718023         0.791387        0.594875      -0.00089976    -0.000813366
                     0.000254761       0.0010184         0.861154       -0.205264     -7.07087e-05     0.000216463         0.342103        0.179599
                        0.790754        0.594873     -0.000264122     0.000666104       -0.0478664      -0.0516693     -0.000571962     -0.00111307
                    -0.000983688     -0.00146288          0.34206        0.179786     -0.000358444     -0.00035036        -0.131412       -0.859812
281730                 0.0654207       0.0317311       0.00037844     0.000717365         0.791602        0.594589     -0.000900946    -0.000811559
                     0.000257743      0.00101723         0.860666       -0.205867     -7.22575e-05     0.000215926         0.342982        0.179657
                        0.790967         0.59459     -0.000263543     0.000666107       -0.0479194      -0.0516297     -0.000572699     -0.00111251
                    -0.000986342     -0.00145936         0.342938        0.179844     -0.000355749    -0.000351233        -0.132686       -0.859281
281732                 0.0654203       0.0317473      0.000379781     0.000716705         0.791817        0.594303     -0.000902128     -0.00080975
                     0.000260722      0.00101605         0.860178       -0.206469     -7.38068e-05     0.000215397         0.343861        0.179713
                        0.791181        0.594308     -0.000262965     0.000666109       -0.0479724        -0.05159     -0.000573434     -0.00111194
                    -0.000988979     -0.00145583         0.343817          0.1799      -0.00035306    -0.000352117        -0.133959       -0.858748
281734                 0.0654199       0.0317636      0.000381119     0.000716042         0.792032        0.594017     -0.000903306    -0.000807938
                     0.000263696      0.00101485          0.85969        -0.20707     -7.53563e-05     0.000214876         0.344739        0.179767
                        0.791394        0.594026     -0.000262387      0.00066611       -0.0480253      -0.0515503     -0.000574169     -0.00111138
                      -0.0009916      -0.0014523         0.344695        0.179955     -0.000350379    -0.000353012        -0.135229       -0.858212
281736                 0.0654194       0.0317798      0.000382456     0.000715377         0.792247        0.593732      -0.00090448    -0.000806125
                     0.000266665      0.00101365           0.8592       -0.207669     -7.69061e-05     0.000214363         0.345617        0.179819
                        0.791608        0.593743      -0.00026181      0.00066611       -0.0480783      -0.0515105     -0.000574902     -0.00111082
                    -0.000994204     -0.00144875         0.345573        0.180007     -0.000347706    -0.000353917        -0.136498       -0.857675
281738                  0.065419       0.0317961      0.000383791      0.00071471         0.792461        0.593446     -0.000905649    -0.000804309
                     0.000269629      0.00101243          0.85871       -0.208267      -7.8456e-05     0.000213859         0.346495        0.179869
                        0.791821        0.593461     -0.000261233     0.000666109       -0.0481312      -0.0514707     -0.000575634     -0.00111025
                    -0.000996792     -0.00144519          0.34645        0.180057      -0.00034504    -0.000354834        -0.137765       -0.857134
281740                 0.0654186       0.0318123      0.000385124      0.00071404         0.792676         0.59316     -0.000906814    -0.000802491
                     0.000272589      0.00101121         0.858219       -0.208863      -8.0006e-05     0.000213363         0.347372        0.179917
                        0.792034        0.593178     -0.000260657     0.000666107        -0.048184      -0.0514308     -0.000576364     -0.00110968
                    -0.000999364     -0.00144163         0.347328        0.180106     -0.000342382     -0.00035576         -0.13903       -0.856592
281742                 0.0654182       0.0318286      0.000386455     0.000713369          0.79289        0.592873     -0.000907975    -0.000800671
                     0.000275543      0.00100997         0.857727       -0.209459     -8.15559e-05     0.000212874          0.34825        0.179963
                        0.792247        0.592896     -0.000260081     0.000666105       -0.0482369      -0.0513909     -0.000577094     -0.00110911
                     -0.00100192     -0.00143805         0.348205        0.180152     -0.000339732    -0.000356697        -0.140293       -0.856048
281744                 0.0654178       0.0318448      0.000387785     0.000712694         0.793105        0.592587     -0.000909131    -0.000798849
                     0.000278492      0.00100873         0.857234       -0.210053     -8.31057e-05     0.000212394         0.349127        0.180007
                         0.79246        0.592613     -0.000259506     0.000666101       -0.0482896       -0.051351     -0.000577822     -0.00110854
                     -0.00100446     -0.00143447         0.349082        0.180196      -0.00033709    -0.000357644        -0.141554       -0.855501
281746                 0.0654174        0.031861      0.000389112     0.000712018         0.793319        0.592301     -0.000910283    -0.000797025
                     0.000281436      0.00100747         0.856741       -0.210646     -8.46553e-05     0.000211922         0.350004        0.180049
                        0.792673         0.59233     -0.000258931     0.000666097       -0.0483424       -0.051311     -0.000578549     -0.00110797
                     -0.00100698     -0.00143088         0.349959        0.180238     -0.000334455    -0.000358601        -0.142814       -0.854952
281748                  0.065417       0.0318773      0.000390438     0.000711339         0.793533        0.592015     -0.000911431    -0.000795198
                     0.000284374       0.0010062         0.856247       -0.211237     -8.62046e-05     0.000211457          0.35088        0.180089
                        0.792886        0.592047     -0.000258356     0.000666092       -0.0483951       -0.051271     -0.000579274     -0.00110739
                     -0.00100948     -0.00142728         0.350836        0.180279     -0.000331829    -0.000359567        -0.144071         -0.8544
281750                 0.0654166       0.0318935      0.000391762     0.000710658         0.793747        0.591728     -0.000912575     -0.00079337
                     0.000287306      0.00100492         0.855753       -0.211828     -8.77535e-05        0.000211         0.351757        0.180127
                        0.793098        0.591764     -0.000257782     0.000666086       -0.0484478      -0.0512309     -0.000579999     -0.00110682
                     -0.00101197     -0.00142367         0.351712        0.180317      -0.00032921    -0.000360543        -0.145327       -0.853847
281752                 0.0654162       0.0319098      0.000393084     0.000709974         0.793961        0.591442     -0.000913715     -0.00079154
                     0.000290232      0.00100364         0.855257       -0.212417      -8.9302e-05     0.000210551         0.352633        0.180163
                        0.793311        0.591482     -0.000257209     0.000666079       -0.0485005      -0.0511908     -0.000580721     -0.00110624
                     -0.00101444     -0.00142005         0.352588        0.180353       -0.0003266    -0.000361529        -0.146581       -0.853291
281754                 0.0654158        0.031926      0.000394405     0.000709288         0.794175        0.591155      -0.00091485    -0.000789707
                     0.000293152      0.00100234         0.854761       -0.213005     -9.08499e-05      0.00021011         0.353509        0.180197
                        0.793524        0.591199     -0.000256636     0.000666072       -0.0485531      -0.0511506     -0.000581443     -0.00110566
                      -0.0010169     -0.00141643         0.353464        0.180387     -0.000323998    -0.000362523        -0.147833       -0.852733
281756                 0.0654154       0.0319422      0.000395723       0.0007086         0.794388        0.590869     -0.000915981    -0.000787872
                     0.000296066      0.00100103         0.854264       -0.213591     -9.23971e-05     0.000209676         0.354385        0.180229
                        0.793736        0.590915     -0.000256063     0.000666063       -0.0486057      -0.0511104     -0.000582163     -0.00110508
                     -0.00101934      -0.0014128          0.35434        0.180419     -0.000321404    -0.000363527        -0.149082       -0.852173
281758                 0.0654151       0.0319585       0.00039704      0.00070791         0.794602        0.590582     -0.000917107    -0.000786035
                     0.000298973     0.000999719         0.853767       -0.214177     -9.39437e-05      0.00020925          0.35526        0.180258
                        0.793949        0.590632     -0.000255491     0.000666054       -0.0486583      -0.0510701     -0.000582882     -0.00110449
                     -0.00102176     -0.00140917         0.355215        0.180449     -0.000318819    -0.000364539         -0.15033       -0.851611
281760                 0.0654147       0.0319747      0.000398355     0.000707218         0.794815        0.590295     -0.000918229    -0.000784196
                     0.000301874     0.000998395         0.853268       -0.214761     -9.54894e-05     0.000208831         0.356136        0.180286
                        0.794161        0.590349     -0.000254919     0.000666044       -0.0487108      -0.0510298       -0.0005836     -0.00110391
                     -0.00102416     -0.00140553          0.35609        0.180477     -0.000316242    -0.000365561        -0.151577       -0.851047
281762                 0.0654143        0.031991      0.000399668     0.000706523         0.795029        0.590008     -0.000919347    -0.000782354
                     0.000304767     0.000997061         0.852769       -0.215344     -9.70343e-05      0.00020842         0.357011        0.180312
                        0.794373        0.590066     -0.000254348     0.000666033       -0.0487633      -0.0509895     -0.000584314     -0.00110332
