! TOUCHSTONE file generated by CST MICROWAVE STUDIO
! Date and time: Wed Oct 15 17:33:57 2025
! Project name: Teste_Macro_Metasurface_Nanopilar.cst
! Parameters = {H=600; L_x=175; L_y=160; Lambda=1064; Max_L=200; Min_L=70; PathPara=1; Phi=0; Step_L=10; Theta=0; p=520; phaseX=180; phaseY=0}
! Header version: 2018
! Port assignment regex: !\s*Touchstone port\s*([0-9]+)\s*=\s*(CST MWS port|CST DS port)\s*([0-9]+|Zmin|Zmax)\s*\(\"(.*)\"\)(\s*mode\s*([0-9]+))?.*
! Touchstone port assignment:
! Touchstone port 1 = CST MWS port Zmax ("") mode 1
! Touchstone port 2 = CST MWS port Zmax ("") mode 2
! Touchstone port 3 = CST MWS port Zmin ("") mode 1
! Touchstone port 4 = CST MWS port Zmin ("") mode 2
! S-Parameters are not renormalized. Each port impedance will be approximated by the real part at minimum frequency. The values are described via the [Reference] keyword.
! Default impedance is overridden by [Reference]
[Version] 2.0
# GHz S RI R 376.73
[Number of Ports] 4
[Reference]
376.73 376.73 259.888 259.888 
[Number of Frequencies] 51
[Network Data]
281700                  0.176149       0.0378247      0.000139077     0.000181463         0.584108       -0.787048     -0.000200972    -0.000105616
                     0.000172382     0.000181118          0.19104        0.058263     -0.000165197    -0.000151443         0.449887       -0.866715
                        0.583925       -0.786959     -0.000122604     0.000137075        0.0864747        0.154957      0.000246397    -0.000104332
                    -0.000248652     1.33607e-05          0.44988       -0.866904      0.000287597    -0.000257043         0.156346        0.120093
281702                  0.176153       0.0378325      0.000139592     0.000181753          0.58388       -0.787217     -0.000201087    -0.000105617
                     0.000172783     0.000180828         0.191051       0.0582702      -0.00016647    -0.000151494         0.449637       -0.866843
                        0.583696       -0.787127     -0.000126136     0.000137071        0.0865742         0.15491      0.000246545     -0.00010428
                    -0.000248688     1.36755e-05         0.449631       -0.867032      0.000289517     -0.00025799         0.156428        0.120007
281704                  0.176158       0.0378402      0.000140125     0.000182007         0.583652       -0.787385     -0.000201204    -0.000105619
                     0.000173184     0.000180534         0.191061       0.0582774     -0.000167742    -0.000151393         0.449387       -0.866971
                        0.583468       -0.787296     -0.000129552     0.000136995        0.0866736        0.154862      0.000246696     -0.00010423
                    -0.000248722     1.39912e-05         0.449381        -0.86716       0.00029144    -0.000259041         0.156509        0.119921
281706                  0.176162        0.037848       0.00014068     0.000182223         0.583423       -0.787554     -0.000201321    -0.000105621
                     0.000173583     0.000180238         0.191072       0.0582847      -0.00016898    -0.000151126         0.449136       -0.867098
                        0.583239       -0.787465     -0.000132816     0.000136863        0.0867729        0.154814      0.000246851    -0.000104181
                    -0.000248754     1.43078e-05         0.449132       -0.867287      0.000293357    -0.000260215          0.15659        0.119835
281708                  0.176167       0.0378558      0.000141258     0.000182396         0.583195       -0.787723      -0.00020144    -0.000105624
                     0.000173982     0.000179938         0.191082       0.0582919     -0.000170138    -0.000150685         0.448886       -0.867226
                         0.58301       -0.787633     -0.000135891     0.000136693         0.086872        0.154766      0.000247011    -0.000104134
                    -0.000248782     1.46253e-05         0.448882       -0.867415      0.000295251    -0.000261535         0.156672        0.119749
281710                  0.176171       0.0378635      0.000141861     0.000182522         0.582966       -0.787891      -0.00020156    -0.000105627
                      0.00017438     0.000179636         0.191093       0.0582991     -0.000171166    -0.000150077         0.448636       -0.867353
                        0.582782       -0.787801     -0.000138734     0.000136507        0.0869711        0.154718      0.000247175    -0.000104089
                    -0.000248806     1.49439e-05         0.448633       -0.867542      0.000297099    -0.000263031         0.156753        0.119663
281712                  0.176176       0.0378713      0.000142491     0.000182594         0.582738       -0.788059     -0.000201682    -0.000105631
                     0.000174777      0.00017933         0.191103       0.0583063     -0.000172013    -0.000149329         0.448385        -0.86748
                        0.582553       -0.787969       -0.0001413     0.000136329          0.08707        0.154671      0.000247344    -0.000104047
                    -0.000248827     1.52634e-05         0.448383       -0.867669       0.00029887    -0.000264734         0.156834        0.119577
281714                   0.17618       0.0378791      0.000143152     0.000182608         0.582509       -0.788228     -0.000201805    -0.000105635
                     0.000175173     0.000179021         0.191114       0.0583136     -0.000172631    -0.000148486         0.448135       -0.867607
                        0.582323       -0.788137     -0.000143538     0.000136187        0.0871688        0.154623       0.00024752     -0.00010401
                    -0.000248843      1.5584e-05         0.448133       -0.867796      0.000300512    -0.000266681         0.156915        0.119491
281716                  0.176185       0.0378868      0.000143845     0.000182556          0.58228       -0.788396     -0.000201931     -0.00010564
                     0.000175568     0.000178707         0.191124       0.0583209      -0.00017299     -0.00014761         0.447884       -0.867734
                        0.582094       -0.788305     -0.000145393     0.000136112        0.0872676        0.154575      0.000247702    -0.000103977
                    -0.000248855     1.59057e-05         0.447883       -0.867922      0.000301951    -0.000268913         0.156996        0.119405
281718                   0.17619       0.0378946      0.000144574      0.00018243         0.582051       -0.788563      -0.00020206    -0.000105646
                     0.000175962      0.00017839         0.191135       0.0583281     -0.000173084    -0.000146774         0.447633       -0.867861
                        0.581865       -0.788473     -0.000146803     0.000136131        0.0873662        0.154527      0.000247892     -0.00010395
                    -0.000248861     1.62286e-05         0.447632       -0.868049      0.000303077    -0.000271464         0.157077        0.119319
281720                  0.176194       0.0379024      0.000145341     0.000182224         0.581822       -0.788731     -0.000202192    -0.000105653
                     0.000176355     0.000178068         0.191145       0.0583354     -0.000172929     -0.00014605         0.447382       -0.867987
                        0.581635       -0.788641     -0.000147703     0.000136272        0.0874647        0.154479       0.00024809    -0.000103931
                    -0.000248861     1.65526e-05         0.447382       -0.868176      0.000303728    -0.000274352         0.157158        0.119233
281722                  0.176199       0.0379102      0.000146148     0.000181926         0.581592       -0.788898     -0.000202328     -0.00010566
                     0.000176748     0.000177742         0.191156       0.0583428     -0.000172568    -0.000145499         0.447131       -0.868114
                        0.581405       -0.788809     -0.000148019     0.000136558        0.0875632        0.154431      0.000248299    -0.000103921
                    -0.000248855     1.68778e-05         0.447132       -0.868302      0.000303676    -0.000277543         0.157239        0.119147
281724                  0.176203       0.0379179      0.000146997     0.000181527         0.581363       -0.789066     -0.000202469    -0.000105668
                      0.00017714      0.00017741         0.191166       0.0583501     -0.000172057    -0.000145162          0.44688        -0.86824
                        0.581175       -0.788976     -0.000147672     0.000137003        0.0876616        0.154382      0.000248519    -0.000103925
                     -0.00024884     1.72042e-05         0.446881       -0.868428      0.000302617    -0.000280894         0.157319         0.11906
281726                  0.176208       0.0379257      0.000147888     0.000181015         0.581133       -0.789233     -0.000202617    -0.000105677
                     0.000177531     0.000177072         0.191177       0.0583575     -0.000171456    -0.000145059         0.446629       -0.868366
                        0.580945       -0.789144     -0.000146581     0.000137607        0.0877599        0.154334       0.00024875    -0.000103945
                    -0.000248817     1.75317e-05         0.446631       -0.868554      0.000300203    -0.000284057           0.1574        0.118974
281728                  0.176212       0.0379335       0.00014882     0.000180379         0.580903         -0.7894     -0.000202773    -0.000105687
                     0.000177922     0.000176728         0.191187       0.0583649     -0.000170825    -0.000145193         0.446378       -0.868492
                        0.580715       -0.789311     -0.000144665      0.00013835        0.0878581        0.154286      0.000248995    -0.000103988
                    -0.000248782     1.78602e-05          0.44638        -0.86868      0.000296182    -0.000286355         0.157481        0.118887
281730                  0.176217       0.0379414      0.000149785     0.000179606         0.580673       -0.789567      -0.00020294    -0.000105696
                     0.000178313     0.000176376         0.191198       0.0583724     -0.000170212     -0.00014555         0.446126       -0.868618
                        0.580485       -0.789479     -0.000141853     0.000139188        0.0879563        0.154238      0.000249254    -0.000104061
                    -0.000248736     1.81894e-05         0.446129       -0.868806      0.000290704    -0.000286767         0.157561        0.118801
281732                  0.176221       0.0379492      0.000150771     0.000178685         0.580442       -0.789733     -0.000203122    -0.000105705
                     0.000178704     0.000176016         0.191209         0.05838     -0.000169655    -0.000146111         0.445874       -0.868744
                        0.580254       -0.789646     -0.000138094     0.000140049        0.0880544         0.15419      0.000249525    -0.000104173
                    -0.000248673      1.8519e-05         0.445878       -0.868931      0.000284721    -0.000284244         0.157642        0.118714
281734                  0.176226        0.037957      0.000151754     0.000177604         0.580212         -0.7899     -0.000203326    -0.000105711
                     0.000179096     0.000175645         0.191219       0.0583877     -0.000169182    -0.000146854         0.445623       -0.868869
                        0.580024       -0.789813     -0.000133382      0.00014083        0.0881524        0.154141      0.000249803    -0.000104338
                    -0.000248593     1.88482e-05         0.445627       -0.869057      0.000279993     -0.00027849         0.157722        0.118628
281736                  0.176231       0.0379649      0.000152692     0.000176358         0.579981       -0.790066      -0.00020356    -0.000105708
                      0.00017949     0.000175262          0.19123       0.0583955     -0.000168813    -0.000147763          0.44537       -0.868995
                        0.579793       -0.789981     -0.000127783     0.000141407        0.0882504        0.154093       0.00025008    -0.000104575
                    -0.000248489     1.91758e-05         0.445377       -0.869182      0.000278233    -0.000270558         0.157803        0.118541
281738                  0.176235       0.0379727      0.000153512     0.000174953          0.57975       -0.790233      -0.00020384    -0.000105685
                     0.000179886     0.000174865         0.191241       0.0584035     -0.000168563    -0.000148826         0.445117       -0.869119
                        0.579561       -0.790148     -0.000121475     0.000141663        0.0883483        0.154045      0.000250334    -0.000104903
                    -0.000248357     1.94998e-05         0.445126       -0.869307      0.000280015    -0.000262352         0.157883        0.118455
281740                   0.17624       0.0379804      0.000154094     0.000173414         0.579518       -0.790399     -0.000204185    -0.000105612
                     0.000180288      0.00017445         0.191251       0.0584116     -0.000168448    -0.000150045         0.444863       -0.869243
                         0.57933       -0.790316     -0.000114794      0.00014153        0.0884462        0.153996      0.000250527    -0.000105343
                     -0.00024819     1.98167e-05         0.444875       -0.869432      0.000284664    -0.000255457         0.157964        0.118368
281742                  0.176245        0.037988      0.000154242     0.000171812         0.579286       -0.790565     -0.000204616    -0.000105418
                     0.000180699     0.000174014         0.191261       0.0584197     -0.000168493    -0.000151432         0.444605       -0.869366
                        0.579098       -0.790484     -0.000108306     0.000141069         0.088544        0.153948      0.000250595      -0.0001059
                    -0.000247976     2.01207e-05         0.444625       -0.869557      0.000291056    -0.000250561         0.158044        0.118281
281744                   0.17625       0.0379955      0.000153639     0.000170301         0.579053       -0.790732     -0.000205082    -0.000104936
                     0.000181124     0.000173551         0.191271       0.0584277     -0.000168742    -0.000153024         0.444309        -0.86949
                        0.578866       -0.790653     -0.000102909     0.000140578        0.0886417        0.153899       0.00025045    -0.000106542
                    -0.000247701      2.0401e-05         0.444375       -0.869681      0.000298289    -0.000247693         0.158124        0.118194
281746                  0.176254       0.0380032      0.000151803     0.000169214         0.578821       -0.790899     -0.000205206    -0.000104005
                     0.000181574     0.000173055          0.19128       0.0584351     -0.000169288    -0.000154888         0.444134       -0.869651
                        0.578634       -0.790822      -0.00010008     0.000140742        0.0887395         0.15385      0.000250012    -0.000107159
                    -0.000247347     2.06386e-05         0.444126       -0.869806      0.000305856     -0.00024667         0.158205        0.118108
281748                  0.176259       0.0380108      0.000148052     0.000169227         0.578588       -0.791067     -0.000204444    -0.000103237
                     0.000182064     0.000172518          0.19129       0.0584417     -0.000170333    -0.000157136         0.443873       -0.869759
                        0.578402       -0.790994     -0.000102583     0.000142762        0.0888371        0.153801      0.000249282    -0.000107575
                    -0.000246889     2.07976e-05         0.443878        -0.86993      0.000313546    -0.000247399         0.158285        0.118021
281750                  0.176263       0.0380185      0.000141631     0.000171659         0.578354       -0.791235      -0.00020357    -0.000103408
                     0.000182625     0.000171937           0.1913       0.0584478     -0.000172383    -0.000159922         0.443617       -0.869881
                        0.578173       -0.791169     -0.000116772     0.000147982        0.0889347        0.153752      0.000248403     -0.00010763
                    -0.000246303     2.08098e-05         0.443631       -0.870054       0.00032126    -0.000250057         0.158365        0.117934
281752                  0.176268       0.0380263      0.000132271     0.000178767         0.578121       -0.791405     -0.000203246    -0.000103904
                     0.000183306     0.000171318         0.191311       0.0584536     -0.000176831    -0.000163162         0.443364       -0.870004
                        0.577952       -0.791343     -0.000160217     0.000152061        0.0890324        0.153703      0.000247598     -0.00010731
                    -0.000245582     2.05452e-05         0.443388       -0.870176      0.000328753    -0.000255233         0.158446        0.117847
281754                  0.176272        0.038034      0.000121482     0.000193342          0.57789       -0.791577      -0.00020324    -0.000104301
                     0.000184183     0.000170712         0.191322       0.0584592     -0.000187087    -0.000163821          0.44311       -0.870128
                        0.577735       -0.791507     -0.000259584      9.4448e-05          0.08913        0.153654      0.000247024    -0.000106742
                    -0.000244821     1.97786e-05         0.443148       -0.870297      0.000335089    -0.000264036         0.158526         0.11776
281756                  0.176277       0.0380417      0.000113503     0.000216285         0.577661       -0.791748     -0.000203349    -0.000104573
                     0.000185322     0.000170267         0.191333       0.0584647     -0.000196486    -0.000148227         0.442857       -0.870252
                         0.57751       -0.791662     -0.000226879     -8.9377e-05        0.0892276        0.153604      0.000246712    -0.000106089
                    -0.000244422     1.82564e-05         0.442913       -0.870413        0.0003374    -0.000277597         0.158606        0.117673
281758                  0.176281       0.0380495      0.000112654     0.000243498         0.577435       -0.791919     -0.000203493    -0.000104761
                     0.000186634     0.000170252         0.191344       0.0584701     -0.000183025    -0.000136914         0.442604       -0.870376
                        0.577278        -0.79182     -0.000106577    -0.000107211        0.0893255        0.153554      0.000246608    -0.000105459
                    -0.000245232     1.62159e-05         0.442681       -0.870521      0.000329715    -0.000293768         0.158686        0.117586
281760                  0.176286       0.0380572      0.000118458     0.000268012         0.577213       -0.792087     -0.000203648    -0.000104897
                     0.000187695     0.000170798         0.191354       0.0584758     -0.000174027    -0.000140262         0.442351       -0.870501
                        0.577044       -0.791982     -6.35815e-05    -8.29843e-05        0.0894237        0.153504      0.000246644    -0.000104899
                    -0.000247564     1.50049e-05         0.442446       -0.870617      0.000309372    -0.000301275         0.158766        0.117499
281762                   0.17629        0.038065      0.000126476     0.000285876          0.57699       -0.792249     -0.000203803       -0.000105
                     0.000188126     0.000171515         0.191364        0.058482     -0.000170819    -0.000144345         0.442099       -0.870625
                         0.57681       -0.792145     -4.88318e-05     -6.8356e-05        0.0895225        0.153453      0.000246764    -0.000104417
