! TOUCHSTONE file generated by CST MICROWAVE STUDIO
! Date and time: Wed Oct 15 17:31:44 2025
! Project name: Teste_Macro_Metasurface_Nanopilar.cst
! Parameters = {H=600; L_x=135; L_y=190; Lambda=1064; Max_L=200; Min_L=70; PathPara=1; Phi=0; Step_L=10; Theta=0; p=520; phaseX=180; phaseY=0}
! Header version: 2018
! Port assignment regex: !\s*Touchstone port\s*([0-9]+)\s*=\s*(CST MWS port|CST DS port)\s*([0-9]+|Zmin|Zmax)\s*\(\"(.*)\"\)(\s*mode\s*([0-9]+))?.*
! Touchstone port assignment:
! Touchstone port 1 = CST MWS port Zmax ("") mode 1
! Touchstone port 2 = CST MWS port Zmax ("") mode 2
! Touchstone port 3 = CST MWS port Zmin ("") mode 1
! Touchstone port 4 = CST MWS port Zmin ("") mode 2
! S-Parameters are not renormalized. Each port impedance will be approximated by the real part at minimum frequency. The values are described via the [Reference] keyword.
! Default impedance is overridden by [Reference]
[Version] 2.0
# GHz S RI R 376.73
[Number of Ports] 4
[Reference]
376.73 376.73 259.888 259.888 
[Number of Frequencies] 51
[Network Data]
281700                  0.181163       0.0295582      0.000331179     0.000177265         0.473018       -0.857216     -0.000652663     -0.00023816
                    -1.31315e-05     0.000211325         0.800607       -0.111581     -0.000367195    -0.000135423          0.41993        0.178531
                         0.47296       -0.856818      0.000129694     2.12382e-05         0.120359        0.133667     -0.000464578     7.26471e-05
                    -0.000249671    -0.000612694         0.420073        0.178367      0.000269806    -0.000173157        -0.141761       -0.758047
281702                  0.181173       0.0295754      0.000331236     0.000176991         0.472764       -0.857354     -0.000653021    -0.000237769
                    -1.01625e-05     0.000211496         0.799593       -0.112771     -0.000362886    -0.000134726         0.421763         0.17865
                        0.472706       -0.856956      0.000130143     1.99944e-05         0.120458        0.133596     -0.000463509     7.51515e-05
                    -0.000253529    -0.000610163         0.421902         0.17849      0.000264271    -0.000170134        -0.143906       -0.756805
281704                  0.181184       0.0295926      0.000331292     0.000176717         0.472509       -0.857492     -0.000653336    -0.000237374
                    -7.20446e-06     0.000211656         0.798576       -0.113954     -0.000358588    -0.000134051         0.423593         0.17876
                        0.472452       -0.857094      0.000130585     1.87523e-05         0.120558        0.133525     -0.000462478     7.74884e-05
                    -0.000257367    -0.000607632         0.423729        0.178605      0.000258767    -0.000167095        -0.146041       -0.755558
281706                  0.181194       0.0296098      0.000331349     0.000176443         0.472254        -0.85763     -0.000653613    -0.000236974
                    -4.25746e-06     0.000211805         0.797557       -0.115131     -0.000354302    -0.000133399          0.42542        0.178863
                        0.472198       -0.857231      0.000131021     1.75118e-05         0.120658        0.133453     -0.000461492     7.96889e-05
                    -0.000261186    -0.000605099         0.425553         0.17871      0.000253295    -0.000164039        -0.148167       -0.754305
281708                  0.181205        0.029627      0.000331405     0.000176169         0.471999       -0.857767     -0.000653857    -0.000236568
                    -1.32169e-06     0.000211942         0.796534       -0.116302      -0.00035003    -0.000132769         0.427245        0.178957
                        0.471944       -0.857369      0.000131449     1.62731e-05         0.120757        0.133382     -0.000460557     8.17792e-05
                    -0.000264985    -0.000602566         0.427375        0.178807      0.000247856    -0.000160969        -0.150283       -0.753046
281710                  0.181216       0.0296442      0.000331461     0.000175896         0.471745       -0.857905     -0.000654072    -0.000236157
                     1.60267e-06     0.000212068         0.795509       -0.117466     -0.000345773    -0.000132163         0.429066        0.179043
                        0.471689       -0.857506      0.000131871     1.50359e-05         0.120857        0.133311     -0.000459671     8.37806e-05
                    -0.000268765    -0.000600032         0.429194        0.178896      0.000242451    -0.000157884         -0.15239       -0.751781
281712                  0.181226       0.0296613      0.000331517     0.000175622          0.47149       -0.858043      -0.00065426     -0.00023574
                     4.51547e-06     0.000212182         0.794481       -0.118625      -0.00034153     -0.00013158         0.430886        0.179121
                        0.471435       -0.857644      0.000132287     1.38004e-05         0.120956         0.13324     -0.000458834     8.57103e-05
                    -0.000272524    -0.000597497         0.431012        0.178976      0.000237082    -0.000154786        -0.154488        -0.75051
281714                  0.181237       0.0296785      0.000331574      0.00017535         0.471235        -0.85818     -0.000654425    -0.000235318
                     7.41653e-06     0.000212286          0.79345       -0.119776     -0.000337304    -0.000131021         0.432702         0.17919
                        0.471181       -0.857781      0.000132696     1.25665e-05         0.121055        0.133168     -0.000458041     8.75823e-05
                    -0.000276263    -0.000594963         0.432826        0.179047      0.000231748    -0.000151675        -0.156576       -0.749233
281716                  0.181247       0.0296957      0.000331629     0.000175077          0.47098       -0.858317     -0.000654569    -0.000234891
                     1.03057e-05     0.000212377         0.792417       -0.120922     -0.000333094    -0.000130484         0.434516        0.179252
                        0.470927       -0.857918      0.000133099     1.13342e-05         0.121155        0.133097     -0.000457289     8.94076e-05
                    -0.000279982    -0.000592428         0.434638         0.17911      0.000226452    -0.000148552        -0.158655        -0.74795
281718                  0.181258       0.0297128      0.000331685     0.000174805         0.470725       -0.858455     -0.000654695    -0.000234458
                     1.31828e-05     0.000212458         0.791381       -0.122061     -0.000328902    -0.000129971         0.436326        0.179305
                        0.470672       -0.858055      0.000133495     1.01034e-05         0.121254        0.133025     -0.000456574     9.11951e-05
                     -0.00028368    -0.000589894         0.436448        0.179165      0.000221194    -0.000145419        -0.160724       -0.746662
281720                  0.181268         0.02973      0.000331741     0.000174534          0.47047       -0.858592     -0.000654803    -0.000234022
                     1.60478e-05     0.000212527         0.790343       -0.123193     -0.000324729    -0.000129482         0.438134         0.17935
                        0.470418       -0.858192      0.000133885     8.87413e-06         0.121353        0.132954     -0.000455891     9.29521e-05
                    -0.000287358     -0.00058736         0.438255        0.179211      0.000215975    -0.000142275        -0.162784       -0.745368
281722                  0.181279       0.0297472      0.000331796     0.000174263         0.470216       -0.858729     -0.000654896    -0.000233581
                     1.89004e-05     0.000212585         0.789302        -0.12432     -0.000320575    -0.000129016         0.439939        0.179387
                        0.470164       -0.858329      0.000134269     7.64637e-06         0.121452        0.132882     -0.000455237      9.4684e-05
                    -0.000291015    -0.000584826         0.440059        0.179249      0.000210795    -0.000139121        -0.164834       -0.744068
281724                  0.181289       0.0297643      0.000331851     0.000173992         0.469961       -0.858866     -0.000654976    -0.000233136
                     2.17404e-05     0.000212633         0.788259        -0.12544     -0.000316442    -0.000128573         0.441741        0.179416
                        0.469909       -0.858466      0.000134646     6.42011e-06         0.121551         0.13281     -0.000454608     9.63955e-05
                    -0.000294651    -0.000582293          0.44186        0.179279      0.000205656     -0.00013596        -0.166875       -0.742763
281726                    0.1813       0.0297814      0.000331906     0.000173722         0.469705       -0.859003     -0.000655043    -0.000232688
                     2.45679e-05     0.000212669         0.787213       -0.126553     -0.000312329    -0.000128153          0.44354        0.179437
                        0.469655       -0.858603      0.000135017     5.19531e-06          0.12165        0.132738     -0.000454001     9.80902e-05
                    -0.000298265    -0.000579761         0.443659          0.1793      0.000200558     -0.00013279        -0.168907       -0.741451
281728                  0.181311       0.0297986       0.00033196     0.000173453          0.46945        -0.85914     -0.000655099    -0.000232237
                     2.73825e-05     0.000212694         0.786165        -0.12766     -0.000308239    -0.000127757         0.445336         0.17945
                        0.469401        -0.85874      0.000135382     3.97196e-06         0.121749        0.132667     -0.000453413      9.9771e-05
                    -0.000301859     -0.00057723         0.445455        0.179314      0.000195502    -0.000129614        -0.170929       -0.740135
281730                  0.181321       0.0298157      0.000332014     0.000173184         0.469195       -0.859277     -0.000655144    -0.000231784
                     3.01842e-05     0.000212708         0.785115       -0.128761     -0.000304171    -0.000127384         0.447129        0.179455
                        0.469146       -0.858876      0.000135741     2.75005e-06         0.121849        0.132595     -0.000452841      0.00010144
                    -0.000305431      -0.0005747         0.447248        0.179319      0.000190488    -0.000126432        -0.172942       -0.738813
281732                  0.181332       0.0298328      0.000332068     0.000172916          0.46894       -0.859414     -0.000655181     -0.00023133
                     3.29728e-05     0.000212712         0.784063       -0.129856     -0.000300126    -0.000127034         0.448919        0.179453
                        0.468892       -0.859013      0.000136094     1.52956e-06         0.121947        0.132523     -0.000452283     0.000103099
                    -0.000308982    -0.000572171         0.449038        0.179316      0.000185519    -0.000123245        -0.174945       -0.737485
281734                  0.181342         0.02985      0.000332121     0.000172648         0.468685        -0.85955     -0.000655209    -0.000230875
                     3.57481e-05     0.000212704         0.783008       -0.130944     -0.000296106    -0.000126706         0.450706        0.179442
                        0.468637        -0.85915      0.000136441     3.10493e-07         0.122046        0.132451     -0.000451737      0.00010475
                    -0.000312511    -0.000569643         0.450826        0.179305      0.000180593    -0.000120054        -0.176938       -0.736152
281736                  0.181353       0.0298671      0.000332174     0.000172381          0.46843       -0.859687     -0.000655231    -0.000230421
                     3.85099e-05     0.000212686         0.781951       -0.132026     -0.000292111    -0.000126401          0.45249        0.179423
                        0.468382       -0.859286      0.000136782    -9.07161e-07         0.122145        0.132378       -0.0004512     0.000106393
                    -0.000316018    -0.000567118          0.45261        0.179285      0.000175713    -0.000116859        -0.178922       -0.734813
281738                  0.181364       0.0298842      0.000332226     0.000172114         0.468175       -0.859824     -0.000655246    -0.000229968
                     4.12582e-05     0.000212658         0.780892       -0.133102     -0.000288142    -0.000126119          0.45427        0.179396
                        0.468128       -0.859422      0.000137117    -2.12339e-06         0.122244        0.132306     -0.000450672     0.000108028
                    -0.000319503    -0.000564594         0.454392        0.179258      0.000170878    -0.000113662        -0.180897       -0.733469
281740                  0.181374       0.0299013      0.000332277     0.000171848         0.467919        -0.85996     -0.000655256     -0.00022952
                     4.39925e-05     0.000212619         0.779831       -0.134171       -0.0002842    -0.000125859         0.456048        0.179362
                        0.467873       -0.859559      0.000137446    -3.33817e-06         0.122343        0.132234      -0.00045015     0.000109658
                    -0.000322966    -0.000562073          0.45617        0.179223      0.000166089    -0.000110464        -0.182861        -0.73212
281742                  0.181385       0.0299184      0.000332328     0.000171582         0.467664       -0.860096     -0.000655262    -0.000229079
                     4.67125e-05      0.00021257         0.778767       -0.135234     -0.000280286     -0.00012562         0.457822        0.179319
                        0.467618       -0.859695       0.00013777    -4.55147e-06         0.122442        0.132162     -0.000449634     0.000111281
                    -0.000326406    -0.000559554         0.457945         0.17918      0.000161347    -0.000107266        -0.184816       -0.730765
281744                  0.181395       0.0299355      0.000332378     0.000171317         0.467409       -0.860233     -0.000655264     -0.00022865
                     4.94175e-05      0.00021251         0.777702       -0.136291     -0.000276402    -0.000125401         0.459592        0.179269
                        0.467364       -0.859831      0.000138088    -5.76319e-06          0.12254        0.132089     -0.000449124     0.000112896
                    -0.000329824    -0.000557038         0.459717        0.179129      0.000156653     -0.00010407        -0.186761       -0.729405
281746                  0.181406       0.0299526      0.000332427     0.000171053         0.467153       -0.860369     -0.000655262     -0.00022824
                     5.21059e-05      0.00021244         0.776635       -0.137342     -0.000272548    -0.000125202         0.461359        0.179211
                        0.467109       -0.859967        0.0001384    -6.97321e-06         0.122639        0.132017      -0.00044862     0.000114504
                    -0.000333218    -0.000554526         0.461487         0.17907      0.000152007    -0.000100877        -0.188697       -0.728039
281748                  0.181417       0.0299697      0.000332476     0.000170789         0.466898       -0.860505     -0.000655256    -0.000227864
                     5.47741e-05     0.000212356         0.775566       -0.138386     -0.000268725     -0.00012502         0.463123        0.179144
                        0.466854       -0.860103      0.000138707     -8.1813e-06         0.122738        0.131944     -0.000448122     0.000116102
                    -0.000336582    -0.000552021         0.463253        0.179004      0.000147408    -9.76906e-05        -0.190622       -0.726667
281750                  0.181427       0.0299868      0.000332524     0.000170525         0.466642       -0.860641     -0.000655238    -0.000227548
                     5.74286e-05      0.00021224         0.774495       -0.139424     -0.000264933    -0.000124852         0.464883         0.17907
                        0.466599       -0.860239       0.00013901    -9.38704e-06         0.122836        0.131872     -0.000447634     0.000117687
                    -0.000339892      -0.0005495         0.465015        0.178929      0.000142856     -9.4513e-05        -0.192537        -0.72529
281752                  0.181438       0.0300039      0.000332572     0.000170263         0.466387       -0.860777     -0.000655173    -0.000227348
                     6.01071e-05     0.000212121         0.773422       -0.140456     -0.000261168    -0.000124694         0.466639        0.178987
                        0.466344       -0.860375      0.000139309    -1.05898e-05         0.122935        0.131799     -0.000447164     0.000119253
                    -0.000343253    -0.000546939         0.466775        0.178847      0.000138346    -9.13466e-05        -0.194443       -0.723906
281754                  0.181449        0.030021       0.00033262     0.000170003         0.466131       -0.860913     -0.000654913    -0.000227364
                     6.27591e-05     0.000212018         0.772347       -0.141481     -0.000257424    -0.000124548         0.468392        0.178894
                         0.46609        -0.86051      0.000139607    -1.17886e-05         0.123033        0.131726     -0.000446729      0.00012079
                     -0.00034658    -0.000544446         0.468532        0.178758       0.00013387    -8.81895e-05        -0.196339       -0.722515
281756                  0.181459        0.030038      0.000332671     0.000169748         0.465876       -0.861049      -0.00065385    -0.000227458
                     6.53854e-05     0.000211904          0.77127       -0.142501     -0.000253697    -0.000124421         0.470142        0.178793
                        0.465835       -0.860646      0.000139917    -1.29863e-05         0.123132        0.131654     -0.000446383     0.000122281
                    -0.000349868     -0.00054195         0.470285         0.17866      0.000129427    -8.50326e-05        -0.198227       -0.721118
281758                   0.18147       0.0300551      0.000332761     0.000169501          0.46562       -0.861185      -0.00065231    -0.000225773
                     6.79946e-05     0.000211776         0.770191       -0.143514      -0.00024999    -0.000124318         0.471892        0.178682
                         0.46558       -0.860781      0.000140247    -1.42226e-05          0.12323        0.131581     -0.000446327     0.000123734
                     -0.00035313    -0.000539454         0.472037        0.178554      0.000125021     -8.1866e-05        -0.200108       -0.719715
281760                  0.181481       0.0300722       0.00033277     0.000169147         0.465364        -0.86132     -0.000652844     -0.00022394
                     7.05886e-05     0.000211637         0.769109       -0.144519     -0.000246311    -0.000124244         0.473643        0.178565
                        0.465325       -0.860917      0.000140491    -1.55004e-05         0.123328        0.131508     -0.000447162     0.000126074
                    -0.000356368    -0.000536959         0.473784        0.178438      0.000120665    -7.86892e-05        -0.201981       -0.718306
281762                  0.181491       0.0300892      0.000332794     0.000168909         0.465109       -0.861456     -0.000653444    -0.000223201
                     7.31678e-05     0.000211487         0.768029       -0.145517     -0.000242663    -0.000124194          0.47539        0.178444
                         0.46507       -0.861052      0.000140713    -1.67034e-05         0.123427        0.131435     -0.000444978     0.000129518
