! TOUCHSTONE file generated by CST MICROWAVE STUDIO
! Date and time: Wed Oct 15 17:34:39 2025
! Project name: Teste_Macro_Metasurface_Nanopilar.cst
! Parameters = {H=600; L_x=190; L_y=85; Lambda=1064; Max_L=200; Min_L=70; PathPara=1; Phi=0; Step_L=10; Theta=0; p=520; phaseX=180; phaseY=0}
! Header version: 2018
! Port assignment regex: !\s*Touchstone port\s*([0-9]+)\s*=\s*(CST MWS port|CST DS port)\s*([0-9]+|Zmin|Zmax)\s*\(\"(.*)\"\)(\s*mode\s*([0-9]+))?.*
! Touchstone port assignment:
! Touchstone port 1 = CST MWS port Zmax ("") mode 1
! Touchstone port 2 = CST MWS port Zmax ("") mode 2
! Touchstone port 3 = CST MWS port Zmin ("") mode 1
! Touchstone port 4 = CST MWS port Zmin ("") mode 2
! S-Parameters are not renormalized. Each port impedance will be approximated by the real part at minimum frequency. The values are described via the [Reference] keyword.
! Default impedance is overridden by [Reference]
[Version] 2.0
# GHz S RI R 376.73
[Number of Ports] 4
[Reference]
376.73 376.73 259.888 259.888 
[Number of Frequencies] 51
[Network Data]
281700                -0.0395597        0.044081      0.000886186     0.000499452        -0.735768       -0.670905      -0.00115562    -0.000371202
                     0.000886912     0.000461834         0.270233        0.434886     -0.000638527     0.000798369         0.547826       -0.650391
                       -0.736097       -0.670814     -0.000635013     0.000740908       -0.0398435       0.0443685      0.000505114     -0.00078201
                     -0.00106661    -0.000358493         0.547499       -0.650179      0.000247826    -0.000848784         0.474969        0.181674
281702                -0.0395608       0.0440996      0.000886431     0.000499351        -0.735958       -0.670696      -0.00115562    -0.000370975
                     0.000887041     0.000461689         0.270363        0.434946     -0.000638255     0.000798746         0.547498        -0.65057
                       -0.736286       -0.670605     -0.000634814     0.000741311       -0.0398367        0.044394      0.000504318    -0.000781993
                     -0.00106681    -0.000358202         0.547171        -0.65036      0.000247207    -0.000848928         0.475209        0.181376
281704                -0.0395619       0.0441181      0.000886676     0.000499251        -0.736147       -0.670487      -0.00115561    -0.000370747
                      0.00088717     0.000461544         0.270492        0.435006     -0.000637982     0.000799124         0.547171       -0.650749
                       -0.736475       -0.670395     -0.000634614     0.000741715         -0.03983       0.0444196      0.000503522    -0.000781976
                       -0.001067    -0.000357911         0.546842        -0.65054      0.000246589    -0.000849071          0.47545        0.181078
281706                -0.0395631       0.0441367      0.000886921      0.00049915        -0.736336       -0.670277       -0.0011556    -0.000370519
                     0.000887299     0.000461399         0.270622        0.435067     -0.000637708     0.000799501         0.546843       -0.650929
                       -0.736665       -0.670185     -0.000634415      0.00074212       -0.0398232       0.0444451      0.000502723    -0.000781958
                      -0.0010672    -0.000357621         0.546513        -0.65072       0.00024597    -0.000849214          0.47569         0.18078
281708                -0.0395642       0.0441552      0.000887166     0.000499048        -0.736525       -0.670068      -0.00115559    -0.000370291
                     0.000887427     0.000461254         0.270752        0.435127     -0.000637435     0.000799879         0.546515       -0.651108
                       -0.736854       -0.669976     -0.000634215     0.000742524       -0.0398163       0.0444707      0.000501922    -0.000781939
                      -0.0010674     -0.00035733         0.546184         -0.6509       0.00024535    -0.000849356          0.47593        0.180481
281710                -0.0395653       0.0441738      0.000887411     0.000498947        -0.736715       -0.669858      -0.00115558    -0.000370063
                     0.000887556      0.00046111         0.270882        0.435187     -0.000637161     0.000800257         0.546187       -0.651286
                       -0.737043       -0.669766     -0.000634016     0.000742928       -0.0398095       0.0444963       0.00050112    -0.000781919
                      -0.0010676    -0.000357039         0.545855       -0.651079       0.00024473    -0.000849498          0.47617        0.180183
281712                -0.0395664       0.0441924      0.000887656     0.000498845        -0.736904       -0.669649      -0.00115557    -0.000369834
                     0.000887685     0.000460965         0.271011        0.435247     -0.000636887     0.000800634         0.545859       -0.651465
                       -0.737232       -0.669556     -0.000633816     0.000743333       -0.0398027       0.0445218      0.000500316    -0.000781898
                      -0.0010678    -0.000356748         0.545526       -0.651259       0.00024411     -0.00084964          0.47641        0.179884
281714                -0.0395675       0.0442109      0.000887901     0.000498743        -0.737093       -0.669439      -0.00115556    -0.000369604
                     0.000887813      0.00046082         0.271141        0.435307     -0.000636612     0.000801012          0.54553       -0.651643
                       -0.737421       -0.669346     -0.000633616     0.000743737       -0.0397958       0.0445474      0.000499509    -0.000781877
                     -0.00106799    -0.000356457         0.545197       -0.651438       0.00024349    -0.000849782          0.47665        0.179584
281716                -0.0395686       0.0442295      0.000888146     0.000498641        -0.737282       -0.669229      -0.00115554    -0.000369375
                     0.000887942     0.000460675         0.271271        0.435367     -0.000636338     0.000801389         0.545202       -0.651822
                        -0.73761       -0.669137     -0.000633416     0.000744142       -0.0397889        0.044573      0.000498702    -0.000781854
                     -0.00106819    -0.000356167         0.544867       -0.651617      0.000242869    -0.000849923          0.47689        0.179285
281718                -0.0395697       0.0442481      0.000888391     0.000498539        -0.737471        -0.66902      -0.00115552    -0.000369144
                      0.00088807     0.000460531         0.271401        0.435427     -0.000636063     0.000801767         0.544873          -0.652
                       -0.737799       -0.668927     -0.000633216     0.000744547       -0.0397821       0.0445986      0.000497892    -0.000781831
                     -0.00106839    -0.000355876         0.544538       -0.651796      0.000242248    -0.000850064         0.477129        0.178985
281720                -0.0395708       0.0442666      0.000888635     0.000498436         -0.73766        -0.66881      -0.00115551    -0.000368914
                     0.000888199     0.000460386         0.271532        0.435487     -0.000635788     0.000802145         0.544545       -0.652178
                       -0.737988       -0.668717     -0.000633016     0.000744952       -0.0397752       0.0446241       0.00049708    -0.000781806
                     -0.00106859    -0.000355585         0.544208       -0.651975      0.000241627    -0.000850204         0.477369        0.178685
281722                -0.0395719       0.0442852       0.00088888     0.000498334        -0.737849         -0.6686      -0.00115549    -0.000368683
                     0.000888327     0.000460241         0.271662        0.435548     -0.000635512     0.000802522         0.544216       -0.652356
                       -0.738177       -0.668507     -0.000632816     0.000745357       -0.0397682       0.0446497      0.000496267    -0.000781781
                     -0.00106878    -0.000355294         0.543878       -0.652153      0.000241005    -0.000850344         0.477608        0.178385
281724                 -0.039573       0.0443037      0.000889125     0.000498231        -0.738037        -0.66839      -0.00115547    -0.000368451
                     0.000888455     0.000460097         0.271792        0.435608     -0.000635236       0.0008029         0.543887       -0.652533
                       -0.738366       -0.668297     -0.000632616     0.000745762       -0.0397613       0.0446753      0.000495452    -0.000781755
                     -0.00106898    -0.000355003         0.543548       -0.652332      0.000240383    -0.000850484         0.477847        0.178084
281726                -0.0395741       0.0443223       0.00088937     0.000498127        -0.738226        -0.66818      -0.00115544    -0.000368219
                     0.000888584     0.000459952         0.271923        0.435668      -0.00063496     0.000803277         0.543558       -0.652711
                       -0.738554       -0.668086     -0.000632416     0.000746167       -0.0397544       0.0447009      0.000494634    -0.000781728
                     -0.00106918    -0.000354712         0.543218        -0.65251      0.000239761    -0.000850623         0.478086        0.177783
281728                -0.0395752       0.0443409      0.000889615     0.000498024        -0.738415        -0.66797      -0.00115542    -0.000367987
                     0.000888712     0.000459807         0.272053        0.435728     -0.000634684     0.000803655         0.543229       -0.652888
                       -0.738743       -0.667876     -0.000632216     0.000746573       -0.0397474       0.0447265      0.000493815    -0.000781701
                     -0.00106938    -0.000354421         0.542888       -0.652688      0.000239138    -0.000850762         0.478325        0.177482
281730                -0.0395763       0.0443595       0.00088986     0.000497921        -0.738603        -0.66776      -0.00115539    -0.000367753
                      0.00088884     0.000459662         0.272184        0.435788     -0.000634407     0.000804033           0.5429       -0.653065
                       -0.738932       -0.667666     -0.000632015     0.000746978       -0.0397404       0.0447521      0.000492994    -0.000781673
                     -0.00106957    -0.000354131         0.542558       -0.652866      0.000238516      -0.0008509         0.478563        0.177181
281732                -0.0395773        0.044378      0.000890105     0.000497817        -0.738792        -0.66755      -0.00115537    -0.000367518
                     0.000888968     0.000459518         0.272314        0.435848      -0.00063413      0.00080441          0.54257       -0.653242
                        -0.73912       -0.667456     -0.000631815     0.000747384       -0.0397334       0.0447777      0.000492171    -0.000781645
                     -0.00106977     -0.00035384         0.542228       -0.653044      0.000237892    -0.000851038         0.478802        0.176879
281734                -0.0395784       0.0443966       0.00089035     0.000497713         -0.73898        -0.66734      -0.00115534    -0.000367282
                     0.000889096     0.000459373         0.272445        0.435908     -0.000633853     0.000804788         0.542241       -0.653419
                       -0.739309       -0.667245     -0.000631614      0.00074779       -0.0397264       0.0448033      0.000491346    -0.000781618
                     -0.00106997    -0.000353549         0.541897       -0.653221      0.000237269    -0.000851176          0.47904        0.176577
281736                -0.0395795       0.0444152      0.000890595     0.000497609        -0.739169        -0.66713       -0.0011553    -0.000367042
                     0.000889224     0.000459228         0.272576        0.435968     -0.000633576     0.000805166         0.541911       -0.653595
                       -0.739497       -0.667035     -0.000631414     0.000748196       -0.0397194       0.0448289      0.000490517    -0.000781593
                     -0.00107017    -0.000353258         0.541566       -0.653399      0.000236645    -0.000851313         0.479278        0.176275
281738                -0.0395806       0.0444337       0.00089084     0.000497504        -0.739357       -0.666919      -0.00115526    -0.000366794
                     0.000889352     0.000459084         0.272706        0.436028     -0.000633299     0.000805543         0.541582       -0.653772
                       -0.739685       -0.666824     -0.000631213     0.000748602       -0.0397123       0.0448546      0.000489682    -0.000781574
                     -0.00107036    -0.000352967         0.541236       -0.653576      0.000236021     -0.00085145         0.479516        0.175973
281740                -0.0395816       0.0444523      0.000891086       0.0004974        -0.739546       -0.666709      -0.00115516    -0.000366512
                     0.000889479     0.000458939         0.272837        0.436088     -0.000633021     0.000805921         0.541252       -0.653948
                       -0.739874       -0.666614     -0.000631012     0.000749008       -0.0397053       0.0448802       0.00048882    -0.000781586
                     -0.00107056    -0.000352675         0.540905       -0.653753      0.000235397    -0.000851587         0.479754         0.17567
281742                -0.0395827       0.0444709      0.000891331     0.000497295        -0.739734       -0.666498      -0.00115528     -0.00036663
                     0.000889607     0.000458794         0.272968        0.436148     -0.000632743     0.000806299         0.540922       -0.654124
                       -0.740062       -0.666403     -0.000630811     0.000749414       -0.0396982       0.0449058      0.000487904    -0.000781058
                     -0.00107076    -0.000352384         0.540574        -0.65393      0.000234772    -0.000851723         0.479992        0.175366
281744                -0.0395838       0.0444895      0.000891576      0.00049719        -0.739922       -0.666288      -0.00115524    -0.000366201
                     0.000889735      0.00045865         0.273099        0.436208     -0.000632464     0.000806676         0.540592         -0.6543
                        -0.74025       -0.666192      -0.00063061     0.000749821       -0.0396911       0.0449314       0.00048723    -0.000781348
                     -0.00107095    -0.000352093         0.540243       -0.654107      0.000234148    -0.000851858          0.48023        0.175064
281746                -0.0395848       0.0445081      0.000891821     0.000497085         -0.74011       -0.666078      -0.00115519    -0.000365939
                     0.000889862     0.000458505          0.27323        0.436268     -0.000632186     0.000807054         0.540262       -0.654476
                       -0.740438       -0.665982     -0.000630409     0.000750227        -0.039684       0.0449571       0.00048639    -0.000781346
                     -0.00107115    -0.000351802         0.539912       -0.654283      0.000233523    -0.000851994         0.480467         0.17476
281748                -0.0395859       0.0445266      0.000892066     0.000496979        -0.740298       -0.665867      -0.00115515    -0.000365694
                      0.00088999      0.00045836         0.273361        0.436328     -0.000631907     0.000807431         0.539932       -0.654651
                       -0.740626       -0.665771     -0.000630208     0.000750634       -0.0396769       0.0449827      0.000485551     -0.00078132
                     -0.00107135    -0.000351511          0.53958        -0.65446      0.000232897    -0.000852128         0.480705        0.174456
281750                -0.0395869       0.0445452      0.000892312     0.000496874        -0.740486       -0.665656      -0.00115511    -0.000365454
                     0.000890118     0.000458216         0.273493        0.436387     -0.000631628     0.000807809         0.539601       -0.654826
                       -0.740814        -0.66556     -0.000630007     0.000751041       -0.0396698       0.0450084      0.000484712    -0.000781286
                     -0.00107155     -0.00035122         0.539249       -0.654636      0.000232272    -0.000852263         0.480942        0.174152
281752                 -0.039588       0.0445638      0.000892557     0.000496768        -0.740674       -0.665446      -0.00115507    -0.000365215
                     0.000890245     0.000458071         0.273624        0.436447     -0.000631349     0.000808187         0.539271       -0.655002
                       -0.741002       -0.665349     -0.000629806     0.000751448       -0.0396626        0.045034      0.000483872     -0.00078125
                     -0.00107174    -0.000350928         0.538918       -0.654812      0.000231646    -0.000852396         0.481179        0.173848
281754                 -0.039589       0.0445824      0.000892802     0.000496662        -0.740862       -0.665235      -0.00115503    -0.000364978
                     0.000890372     0.000457926         0.273755        0.436507     -0.000631069     0.000808564          0.53894       -0.655177
                        -0.74119       -0.665138     -0.000629604     0.000751855       -0.0396555       0.0450596       0.00048303    -0.000781211
                     -0.00107194    -0.000350637         0.538586       -0.654988       0.00023102     -0.00085253         0.481416        0.173544
281756                -0.0395901        0.044601      0.000893048     0.000496556         -0.74105       -0.665024      -0.00115499    -0.000364741
                       0.0008905     0.000457784         0.273887        0.436567      -0.00063079     0.000808942         0.538609       -0.655352
                       -0.741378       -0.664927     -0.000629403     0.000752262       -0.0396483       0.0450853      0.000482187     -0.00078117
                     -0.00107214    -0.000350346         0.538254       -0.655163      0.000230393    -0.000852663         0.481653        0.173239
281758                -0.0395911       0.0446195      0.000893293     0.000496449        -0.741238       -0.664813      -0.00115495    -0.000364504
                     0.000890627     0.000457638         0.274018        0.436627      -0.00063051     0.000809319         0.538278       -0.655526
                       -0.741566       -0.664716     -0.000629201      0.00075267       -0.0396411        0.045111      0.000481343    -0.000781128
                     -0.00107233    -0.000350055         0.537922       -0.655339      0.000229767    -0.000852795          0.48189        0.172934
281760                -0.0395922       0.0446381      0.000893539     0.000496343        -0.741426       -0.664602      -0.00115491    -0.000364267
                     0.000890754     0.000457493          0.27415        0.436687      -0.00063023     0.000809697         0.537947       -0.655701
                       -0.741753       -0.664505     -0.000628998     0.000753078       -0.0396339       0.0451366      0.000480497    -0.000781084
                     -0.00107253    -0.000349764          0.53759       -0.655514       0.00022914    -0.000852927         0.482126        0.172628
281762                -0.0395932       0.0446567      0.000893784     0.000496238        -0.741613       -0.664391      -0.00115486    -0.000364031
                     0.000890881     0.000457348         0.274282        0.436747      -0.00062995     0.000810075         0.537616       -0.655875
                       -0.741941       -0.664294     -0.000628798     0.000753483       -0.0396267       0.0451623       0.00047965     -0.00078104
