! TOUCHSTONE file generated by CST MICROWAVE STUDIO
! Date and time: Wed Oct 15 17:30:24 2025
! Project name: Teste_Macro_Metasurface_Nanopilar.cst
! Parameters = {H=600; L_x=115; L_y=105; Lambda=1064; Max_L=200; Min_L=70; PathPara=1; Phi=0; Step_L=10; Theta=0; p=520; phaseX=180; phaseY=0}
! Header version: 2018
! Port assignment regex: !\s*Touchstone port\s*([0-9]+)\s*=\s*(CST MWS port|CST DS port)\s*([0-9]+|Zmin|Zmax)\s*\(\"(.*)\"\)(\s*mode\s*([0-9]+))?.*
! Touchstone port assignment:
! Touchstone port 1 = CST MWS port Zmax ("") mode 1
! Touchstone port 2 = CST MWS port Zmax ("") mode 2
! Touchstone port 3 = CST MWS port Zmin ("") mode 1
! Touchstone port 4 = CST MWS port Zmin ("") mode 2
! S-Parameters are not renormalized. Each port impedance will be approximated by the real part at minimum frequency. The values are described via the [Reference] keyword.
! Default impedance is overridden by [Reference]
[Version] 2.0
# GHz S RI R 376.73
[Number of Ports] 4
[Reference]
376.73 376.73 259.888 259.888 
[Number of Frequencies] 51
[Network Data]
281700                 0.0528921       0.0839845      0.000233177     0.000251711        -0.930782       -0.339213     -0.000101771     4.26694e-05
                     0.000318539     0.000303787         0.157021       0.0423295      0.000179698     5.17549e-05        -0.949349        0.241865
                       -0.930973       -0.339238      0.000166667     6.20381e-05       -0.0938219       0.0313748     -0.000231894     0.000254207
                    -4.83083e-05     2.56231e-05        -0.949007        0.242392     -0.000442747     0.000227679        -0.116615        0.112462
281702                 0.0529069       0.0839945      0.000233333     0.000251755        -0.930889       -0.338913     -0.000101779     4.27137e-05
                     0.000318668     0.000303707         0.157033       0.0423122       0.00017979     5.16196e-05        -0.949258        0.242214
                        -0.93108       -0.338938      0.000166672     6.18854e-05       -0.0938197       0.0314334     -0.000231845     0.000254248
                    -4.82249e-05     2.56314e-05        -0.948916        0.242741      -0.00044274     0.000227858        -0.116552        0.112538
281704                 0.0529218       0.0840044      0.000233489     0.000251799        -0.930996       -0.338612     -0.000101787     4.27582e-05
                     0.000318796     0.000303628         0.157046       0.0422949      0.000179882     5.14842e-05        -0.949167        0.242562
                       -0.931188       -0.338637      0.000166677     6.17327e-05       -0.0938174        0.031492     -0.000231797     0.000254289
                    -4.81416e-05     2.56397e-05        -0.948824         0.24309     -0.000442732     0.000228038        -0.116489        0.112615
281706                 0.0529366       0.0840144      0.000233645     0.000251844        -0.931103       -0.338312     -0.000101795     4.28029e-05
                     0.000318925     0.000303549         0.157058       0.0422776      0.000179973     5.13488e-05        -0.949076        0.242911
                       -0.931295       -0.338336      0.000166682       6.158e-05        -0.093815       0.0315506     -0.000231748     0.000254329
                    -4.80585e-05      2.5648e-05        -0.948733        0.243438     -0.000442725     0.000228217        -0.116425        0.112691
281708                 0.0529515       0.0840244      0.000233801     0.000251888         -0.93121       -0.338011     -0.000101802     4.28479e-05
                     0.000319053      0.00030347         0.157071       0.0422602      0.000180064     5.12134e-05        -0.948985        0.243259
                       -0.931402       -0.338036      0.000166687     6.14273e-05       -0.0938126       0.0316092       -0.0002317     0.000254369
                    -4.79755e-05     2.56563e-05        -0.948642        0.243787     -0.000442717     0.000228396        -0.116362        0.112767
281710                 0.0529664       0.0840343      0.000233957     0.000251932        -0.931317       -0.337711     -0.000101809     4.28932e-05
                     0.000319182     0.000303391         0.157083       0.0422429      0.000180155     5.10779e-05        -0.948893        0.243608
                       -0.931509       -0.337735      0.000166692     6.12746e-05       -0.0938102       0.0316678     -0.000231652     0.000254409
                    -4.78926e-05     2.56647e-05         -0.94855        0.244136     -0.000442709     0.000228575        -0.116298        0.112843
281712                 0.0529812       0.0840443      0.000234113     0.000251976        -0.931424        -0.33741     -0.000101816     4.29386e-05
                     0.000319311     0.000303311         0.157095       0.0422255      0.000180245     5.09425e-05        -0.948802        0.243957
                       -0.931616       -0.337434      0.000166697     6.11219e-05       -0.0938078       0.0317264     -0.000231604     0.000254448
                    -4.78099e-05      2.5673e-05        -0.948458        0.244484     -0.000442701     0.000228754        -0.116235         0.11292
281714                 0.0529961       0.0840543      0.000234269      0.00025202        -0.931531        -0.33711     -0.000101822     4.29843e-05
                     0.000319439     0.000303232         0.157108       0.0422082      0.000180336      5.0807e-05         -0.94871        0.244305
                       -0.931723       -0.337134      0.000166701     6.09691e-05       -0.0938053       0.0317851     -0.000231557     0.000254486
                    -4.77273e-05     2.56814e-05        -0.948367        0.244833     -0.000442692     0.000228933        -0.116171        0.112996
281716                  0.053011       0.0840642      0.000234425     0.000252064        -0.931638       -0.336809     -0.000101828     4.30301e-05
                     0.000319568     0.000303152          0.15712       0.0421908      0.000180426     5.06715e-05        -0.948618        0.244654
                        -0.93183       -0.336833      0.000166706     6.08164e-05       -0.0938027       0.0318437     -0.000231511     0.000254525
                    -4.76448e-05     2.56897e-05        -0.948275        0.245182     -0.000442683     0.000229112        -0.116107        0.113072
281718                 0.0530259       0.0840742      0.000234581     0.000252108        -0.931744       -0.336508     -0.000101834     4.30761e-05
                     0.000319696     0.000303073         0.157133       0.0421734      0.000180515     5.05359e-05        -0.948526        0.245002
                       -0.931937       -0.336532       0.00016671     6.06636e-05       -0.0938002       0.0319023     -0.000231464     0.000254563
                    -4.75624e-05     2.56981e-05        -0.948183         0.24553     -0.000442674      0.00022929        -0.116044        0.113148
281720                 0.0530408       0.0840841      0.000234738     0.000252151        -0.931851       -0.336208      -0.00010184     4.31223e-05
                     0.000319825     0.000302993         0.157145        0.042156      0.000180605     5.04004e-05        -0.948434        0.245351
                       -0.932043       -0.336231      0.000166714     6.05109e-05       -0.0937976        0.031961     -0.000231419     0.000254601
                    -4.74802e-05     2.57065e-05         -0.94809        0.245879     -0.000442664     0.000229469         -0.11598        0.113224
281722                 0.0530556       0.0840941      0.000234894     0.000252195        -0.931957       -0.335907     -0.000101845     4.31686e-05
                     0.000319954     0.000302914         0.157157       0.0421387      0.000180694     5.02647e-05        -0.948342        0.245699
                        -0.93215        -0.33593      0.000166719     6.03581e-05       -0.0937949       0.0320196     -0.000231373     0.000254639
                    -4.73981e-05     2.57149e-05        -0.947998        0.246227     -0.000442654     0.000229647        -0.115916          0.1133
281724                 0.0530705        0.084104      0.000235051     0.000252239        -0.932063       -0.335606      -0.00010185      4.3215e-05
                     0.000320082     0.000302834          0.15717       0.0421213      0.000180783     5.01291e-05         -0.94825        0.246047
                       -0.932256       -0.335629      0.000166723     6.02053e-05       -0.0937923       0.0320783     -0.000231329     0.000254678
                    -4.73161e-05     2.57233e-05        -0.947906        0.246576     -0.000442644     0.000229826        -0.115852        0.113376
281726                 0.0530854        0.084114      0.000235207     0.000252282        -0.932169       -0.335305     -0.000101854     4.32616e-05
                     0.000320211     0.000302754         0.157182       0.0421039      0.000180871     4.99934e-05        -0.948157        0.246396
                       -0.932363       -0.335328      0.000166726     6.00525e-05       -0.0937896       0.0321369     -0.000231284     0.000254716
                    -4.72343e-05     2.57317e-05        -0.947813        0.246924     -0.000442633     0.000230004        -0.115788        0.113452
281728                 0.0531003       0.0841239      0.000235364     0.000252326        -0.932276       -0.335004     -0.000101859     4.33083e-05
                      0.00032034     0.000302675         0.157195       0.0420865      0.000180959     4.98577e-05        -0.948065        0.246744
                       -0.932469       -0.335027       0.00016673     5.98997e-05       -0.0937868       0.0321956      -0.00023124     0.000254754
                    -4.71526e-05     2.57402e-05         -0.94772        0.247273     -0.000442623     0.000230182        -0.115724        0.113528
281730                 0.0531152       0.0841338      0.000235521     0.000252369        -0.932382       -0.334703     -0.000101863     4.33552e-05
                     0.000320469     0.000302595         0.157207       0.0420691      0.000181047      4.9722e-05        -0.947972        0.247092
                       -0.932575       -0.334726      0.000166734     5.97469e-05        -0.093784       0.0322543     -0.000231196     0.000254792
                     -4.7071e-05     2.57486e-05        -0.947627        0.247621     -0.000442611      0.00023036         -0.11566        0.113604
281732                 0.0531301       0.0841438      0.000235677     0.000252412        -0.932487       -0.334402     -0.000101867     4.34021e-05
                     0.000320597     0.000302515         0.157219       0.0420517      0.000181134     4.95862e-05        -0.947879        0.247441
                       -0.932681       -0.334425      0.000166738      5.9594e-05       -0.0937812        0.032313     -0.000231153     0.000254831
                    -4.69895e-05     2.57571e-05        -0.947534         0.24797     -0.000442599     0.000230539        -0.115596         0.11368
281734                 0.0531451       0.0841537      0.000235834     0.000252456        -0.932593       -0.334101      -0.00010187     4.34491e-05
                     0.000320726     0.000302435         0.157232       0.0420343      0.000181221     4.94503e-05        -0.947786        0.247789
                       -0.932787       -0.334124      0.000166741     5.94412e-05       -0.0937784       0.0323716      -0.00023111      0.00025487
                    -4.69081e-05     2.57656e-05        -0.947441        0.248318     -0.000442587     0.000230717        -0.115532        0.113756
281736                   0.05316       0.0841636      0.000235991     0.000252499        -0.932699         -0.3338     -0.000101873     4.34963e-05
                     0.000320855     0.000302355         0.157244       0.0420168      0.000181308     4.93144e-05        -0.947693        0.248137
                       -0.932893       -0.333823      0.000166744     5.92883e-05       -0.0937755       0.0324303     -0.000231067     0.000254909
                    -4.68269e-05     2.57742e-05        -0.947348        0.248667     -0.000442575     0.000230895        -0.115468        0.113831
281738                 0.0531749       0.0841735      0.000236148     0.000252542        -0.932805       -0.333499     -0.000101877     4.35435e-05
                     0.000320984     0.000302275         0.157256       0.0419994      0.000181394     4.91785e-05          -0.9476        0.248485
                       -0.932999       -0.333522      0.000166747     5.91355e-05       -0.0937725        0.032489     -0.000231025     0.000254948
                    -4.67457e-05     2.57827e-05        -0.947255        0.249015     -0.000442562     0.000231073        -0.115403        0.113907
281740                 0.0531898       0.0841835      0.000236306     0.000252585         -0.93291       -0.333198     -0.000101879     4.35908e-05
                     0.000321113     0.000302195         0.157269        0.041982       0.00018148     4.90424e-05        -0.947507        0.248834
                       -0.933104        -0.33322      0.000166751     5.89826e-05       -0.0937696       0.0325478     -0.000230982     0.000254987
                    -4.66647e-05     2.57913e-05        -0.947161        0.249363     -0.000442549     0.000231251        -0.115339        0.113983
281742                 0.0532047       0.0841934      0.000236463     0.000252628        -0.933016       -0.332897     -0.000101882     4.36381e-05
                     0.000321242     0.000302115         0.157281       0.0419646      0.000181566     4.89063e-05        -0.947413        0.249182
                        -0.93321       -0.332919      0.000166754     5.88297e-05       -0.0937666       0.0326065      -0.00023094     0.000255027
                    -4.65838e-05     2.57999e-05        -0.947067        0.249712     -0.000442535     0.000231429        -0.115275        0.114059
281744                 0.0532197       0.0842033       0.00023662     0.000252671        -0.933121       -0.332596     -0.000101884     4.36856e-05
                     0.000321371     0.000302035         0.157293       0.0419471      0.000181651     4.87702e-05         -0.94732         0.24953
                       -0.933315       -0.332618      0.000166756     5.86768e-05       -0.0937635       0.0326652     -0.000230898     0.000255066
                    -4.65031e-05     2.58086e-05        -0.946974         0.25006     -0.000442521     0.000231607         -0.11521        0.114134
281746                 0.0532346       0.0842132      0.000236778     0.000252714        -0.933226       -0.332294     -0.000101886     4.37331e-05
                       0.0003215     0.000301955         0.157306       0.0419297      0.000181736     4.86339e-05        -0.947226        0.249878
                       -0.933421       -0.332316      0.000166759     5.85239e-05       -0.0937605       0.0327239     -0.000230856     0.000255106
                    -4.64224e-05     2.58172e-05         -0.94688        0.250408     -0.000442507     0.000231785        -0.115146         0.11421
281748                 0.0532495       0.0842231      0.000236935     0.000252757        -0.933331       -0.331993     -0.000101888     4.37806e-05
                     0.000321629     0.000301874         0.157318       0.0419122      0.000181821     4.84976e-05        -0.947132        0.250226
                       -0.933526       -0.332015      0.000166762      5.8371e-05       -0.0937574       0.0327826     -0.000230814     0.000255147
                    -4.63418e-05     2.58259e-05        -0.946786        0.250756     -0.000442492     0.000231963        -0.115081        0.114285
281750                 0.0532645        0.084233      0.000237093       0.0002528        -0.933436       -0.331692      -0.00010189     4.38282e-05
                     0.000321758     0.000301794          0.15733       0.0418947      0.000181905     4.83611e-05        -0.947038        0.250574
                       -0.933631       -0.331714      0.000166764     5.82181e-05       -0.0937542       0.0328414     -0.000230773     0.000255187
                    -4.62614e-05     2.58347e-05        -0.946692        0.251104     -0.000442476     0.000232141        -0.115017        0.114361
281752                 0.0532794       0.0842429       0.00023725     0.000252842        -0.933541        -0.33139     -0.000101891     4.38759e-05
                     0.000321887     0.000301713         0.157343       0.0418773      0.000181989     4.82246e-05        -0.946944        0.250922
                       -0.933737       -0.331412      0.000166767     5.80652e-05        -0.093751       0.0329001     -0.000230731     0.000255228
                     -4.6181e-05     2.58434e-05        -0.946597        0.251453     -0.000442461     0.000232319        -0.114952        0.114436
281754                 0.0532943       0.0842528      0.000237408     0.000252885        -0.933646       -0.331089     -0.000101892     4.39236e-05
                     0.000322016     0.000301633         0.157355       0.0418598      0.000182072     4.80879e-05         -0.94685         0.25127
                       -0.933842        -0.33111      0.000166769     5.79122e-05       -0.0937478       0.0329589     -0.000230689     0.000255268
                    -4.61008e-05     2.58523e-05        -0.946503        0.251801     -0.000442445     0.000232498        -0.114887        0.114512
281756                 0.0533093       0.0842627      0.000237566     0.000252928        -0.933751       -0.330787     -0.000101893     4.39713e-05
                     0.000322145     0.000301552         0.157367       0.0418423      0.000182155     4.79511e-05        -0.946755        0.251618
                       -0.933946       -0.330809      0.000166771     5.77593e-05       -0.0937446       0.0330176     -0.000230647     0.000255309
                    -4.60206e-05     2.58611e-05        -0.946408        0.252149     -0.000442429     0.000232676        -0.114823        0.114587
281758                 0.0533243       0.0842726      0.000237724      0.00025297        -0.933856       -0.330486     -0.000101894     4.40191e-05
                     0.000322274     0.000301472          0.15738       0.0418249      0.000182238     4.78141e-05        -0.946661        0.251966
                       -0.934051       -0.330507      0.000166773     5.76063e-05       -0.0937413       0.0330764     -0.000230605      0.00025535
                    -4.59405e-05       2.587e-05        -0.946314        0.252497     -0.000442412     0.000232855        -0.114758        0.114662
281760                 0.0533392       0.0842825      0.000237882     0.000253013         -0.93396       -0.330184     -0.000101895     4.40669e-05
                     0.000322403     0.000301391         0.157392       0.0418074      0.000182321     4.76769e-05        -0.946566        0.252314
                       -0.934156       -0.330206      0.000166775     5.74533e-05       -0.0937379       0.0331352     -0.000230564     0.000255391
                    -4.58605e-05      2.5879e-05        -0.946219        0.252845     -0.000442395     0.000233034        -0.114693        0.114738
281762                 0.0533542       0.0842923       0.00023804     0.000253055        -0.934065       -0.329883     -0.000101895     4.41147e-05
                     0.000322532      0.00030131         0.157404       0.0417899      0.000182403     4.75395e-05        -0.946471        0.252662
                       -0.934261       -0.329904      0.000166777     5.73003e-05       -0.0937346        0.033194     -0.000230522     0.000255433
