! TOUCHSTONE file generated by CST MICROWAVE STUDIO
! Date and time: Wed Oct 15 17:34:53 2025
! Project name: Teste_Macro_Metasurface_Nanopilar.cst
! Parameters = {H=600; L_x=190; L_y=195; Lambda=1064; Max_L=200; Min_L=70; PathPara=1; Phi=0; Step_L=10; Theta=0; p=520; phaseX=180; phaseY=0}
! Header version: 2018
! Port assignment regex: !\s*Touchstone port\s*([0-9]+)\s*=\s*(CST MWS port|CST DS port)\s*([0-9]+|Zmin|Zmax)\s*\(\"(.*)\"\)(\s*mode\s*([0-9]+))?.*
! Touchstone port assignment:
! Touchstone port 1 = CST MWS port Zmax ("") mode 1
! Touchstone port 2 = CST MWS port Zmax ("") mode 2
! Touchstone port 3 = CST MWS port Zmin ("") mode 1
! Touchstone port 4 = CST MWS port Zmin ("") mode 2
! S-Parameters are not renormalized. Each port impedance will be approximated by the real part at minimum frequency. The values are described via the [Reference] keyword.
! Default impedance is overridden by [Reference]
[Version] 2.0
# GHz S RI R 376.73
[Number of Ports] 4
[Reference]
376.73 376.73 259.888 259.888 
[Number of Frequencies] 51
[Network Data]
281700                  0.400776        0.154518      0.000511626    -0.000101621       0.00125183       -0.899555      0.000164693     8.40755e-05
                     0.000474957    -0.000112657         0.365932        0.148399      0.000207828    -8.22385e-05        0.0395438        -0.91456
                        0.001547       -0.899854      9.26227e-05     0.000151604         0.399255       -0.154036      0.000578823     0.000508372
                     6.56615e-05     0.000154534        0.0400151       -0.914792      0.000443951     0.000420971         0.375483       -0.117179
281702                  0.400796        0.154496      0.000512216    -0.000101702      0.000993625       -0.899551      0.000164855     8.35702e-05
                      0.00047513     -0.00011291         0.365952        0.148382      0.000207715    -8.19283e-05        0.0392843       -0.914565
                      0.00128817       -0.899848      9.21887e-05     0.000152575         0.399186       -0.154243      0.000579824     0.000508638
                     6.55736e-05     0.000154957        0.0397512       -0.914796      0.000443716     0.000420825         0.375436       -0.117373
281704                  0.400816        0.154473      0.000512796    -0.000101789       0.00073542       -0.899546      0.000165018     8.30615e-05
                     0.000475315    -0.000112602         0.365973        0.148366      0.000207604    -8.16197e-05        0.0390248       -0.914571
                      0.00102899       -0.899842      9.17686e-05     0.000153536         0.399118        -0.15445      0.000580829     0.000508907
                     6.54773e-05      0.00015541        0.0394873       -0.914799      0.000443483     0.000420681         0.375388       -0.117567
281706                  0.400836        0.154451      0.000513367    -0.000101881      0.000477218       -0.899542       0.00016518     8.25494e-05
                     0.000475354    -0.000111561         0.365993        0.148349      0.000207495    -8.13129e-05        0.0387653       -0.914577
                     0.000769302       -0.899835      9.13624e-05     0.000154487         0.399049       -0.154658       0.00058184      0.00050918
                     6.53695e-05     0.000155903        0.0392233       -0.914802      0.000443251      0.00042054          0.37534       -0.117761
281708                  0.400856        0.154429      0.000513929    -0.000101978      0.000219018       -0.899537      0.000165343     8.20339e-05
                     0.000474865    -0.000109973         0.366013        0.148332      0.000207388    -8.10079e-05        0.0385059       -0.914583
                     0.000508773       -0.899826      9.09701e-05     0.000155428          0.39898       -0.154865      0.000582855     0.000509455
                     6.52448e-05     0.000156452        0.0389594       -0.914805       0.00044302       0.0004204         0.375292       -0.117955
281710                  0.400875        0.154408      0.000514481     -0.00010208     -3.91793e-05       -0.899532      0.000165505     8.15151e-05
                     0.000473716    -0.000108499         0.366033        0.148315      0.000207283    -8.07045e-05        0.0382464       -0.914588
                     0.000246776       -0.899815      9.05917e-05      0.00015636         0.398911       -0.155072      0.000583875     0.000509735
                     6.50946e-05     0.000157082        0.0386955       -0.914808       0.00044279     0.000420262         0.375243       -0.118149
281712                  0.400895        0.154386      0.000515025    -0.000102187     -0.000297375       -0.899528      0.000165667     8.09929e-05
                     0.000472344    -0.000107633         0.366054        0.148298       0.00020718     -8.0403e-05        0.0379869       -0.914594
                    -1.81061e-05       -0.899801      9.02272e-05     0.000157282         0.398842       -0.155279        0.0005849     0.000510017
                     6.49021e-05     0.000157833        0.0384316       -0.914812      0.000442562     0.000420127         0.375195       -0.118343
281714                  0.400912        0.154365      0.000515559    -0.000102299     -0.000555568       -0.899523      0.000165829     8.04674e-05
                     0.000471205      -0.0001073         0.366074        0.148281      0.000207079    -8.01032e-05        0.0377274       -0.914599
                    -0.000289724       -0.899781      8.98766e-05     0.000158194         0.398773       -0.155486      0.000585929     0.000510303
                     6.46331e-05     0.000158782        0.0381678       -0.914815      0.000442335     0.000419994         0.375147       -0.118537
281716                  0.400927        0.154338      0.000516084    -0.000102415     -0.000813759       -0.899518      0.000165991     7.99386e-05
                     0.000470417     -0.00010724         0.366094        0.148264      0.000206979    -7.98052e-05         0.037468       -0.914604
                    -0.000581996       -0.899749      8.95399e-05     0.000159097         0.398703       -0.155693      0.000586963     0.000510592
                     6.42048e-05     0.000160084        0.0379039       -0.914818       0.00044211     0.000419863         0.375098       -0.118731
281718                  0.400953        0.154311        0.0005166    -0.000102536      -0.00107195       -0.899513      0.000166153     7.94064e-05
                     0.000469918    -0.000107281         0.366115        0.148247      0.000206882     -7.9509e-05        0.0372085        -0.91461
                    -0.000968198       -0.899721      8.92171e-05      0.00015999         0.398634         -0.1559      0.000588002     0.000510885
                     6.33703e-05     0.000162109          0.03764       -0.914821      0.000441886     0.000419734          0.37505       -0.118925
281720                  0.400975         0.15429      0.000517107    -0.000102662      -0.00133014       -0.899508      0.000166315      7.8871e-05
                     0.000469619    -0.000107347         0.366135         0.14823      0.000206787    -7.92146e-05         0.036949       -0.914615
                     -0.00125704       -0.900054      8.89082e-05     0.000160873         0.398564       -0.156107      0.000589045     0.000511181
                     6.10555e-05      0.00016594        0.0373762       -0.914824      0.000441663     0.000419607         0.375001       -0.119119
281722                  0.400996        0.154269      0.000517605    -0.000102792      -0.00158832       -0.899503      0.000166477     7.83323e-05
                     0.000469451    -0.000107412         0.366155        0.148214      0.000206694     -7.8922e-05        0.0366895        -0.91462
                     -0.00130241       -0.899986      8.86133e-05     0.000161746         0.398495       -0.156314      0.000590092     0.000511481
                     4.77549e-05     0.000173834        0.0371124       -0.914827      0.000441442     0.000419483         0.374952       -0.119313
281724                  0.401017        0.154247      0.000518093    -0.000102926      -0.00184651       -0.899497      0.000166639     7.77903e-05
                     0.000469368    -0.000107468         0.366176        0.148197      0.000206603    -7.86312e-05          0.03643       -0.914625
                     -0.00153373       -0.899922      8.83321e-05      0.00016261         0.398425       -0.156521      0.000591144     0.000511784
                     4.72532e-05     0.000133434        0.0368486        -0.91483      0.000441223      0.00041936         0.374903       -0.119507
281726                  0.401037        0.154225      0.000518573    -0.000103065      -0.00210469       -0.899492        0.0001668     7.72451e-05
                     0.000469342    -0.000107515         0.366196         0.14818      0.000206514    -7.83422e-05        0.0361706        -0.91463
                     -0.00178717       -0.899889      8.80649e-05     0.000163464         0.398355       -0.156727      0.000592201      0.00051209
                      6.3125e-05     0.000144975        0.0365848       -0.914833      0.000441005      0.00041924         0.374854         -0.1197
281728                  0.401057        0.154203      0.000519043    -0.000103208      -0.00236287       -0.899487      0.000166962     7.66966e-05
                     0.000469352    -0.000107554         0.366216        0.148163      0.000206426    -7.80551e-05        0.0359111       -0.914635
                      -0.0020444       -0.899869      8.78115e-05     0.000164308         0.398285       -0.156934      0.000593261     0.000512399
                      6.4679e-05     0.000149816         0.036321       -0.914835      0.000440788     0.000419122         0.374805       -0.119894
281730                  0.401077        0.154181      0.000519505    -0.000103355      -0.00262105       -0.899481      0.000167123     7.61449e-05
                     0.000469387    -0.000107588         0.366237        0.148146      0.000206341    -7.77698e-05        0.0356516        -0.91464
                      -0.0023025       -0.899854      8.75719e-05     0.000165143         0.398215       -0.157141      0.000594326     0.000512713
                     6.49701e-05     0.000152166        0.0360572       -0.914838      0.000440573     0.000419006         0.374756       -0.120088
281732                  0.401097        0.154159      0.000519957    -0.000103507      -0.00287923       -0.899476      0.000167284     7.55901e-05
                     0.000469439    -0.000107617         0.366257        0.148129      0.000206258    -7.74863e-05        0.0353921       -0.914644
                     -0.00256079       -0.899842      8.73461e-05     0.000165968         0.398145       -0.157348      0.000595396     0.000513029
                     6.50086e-05     0.000153614        0.0357935       -0.914841       0.00044036     0.000418893         0.374707       -0.120282
281734                  0.401118        0.154137        0.0005204    -0.000103662      -0.00313741        -0.89947      0.000167445      7.5032e-05
                     0.000469502    -0.000107643         0.366277        0.148112      0.000206176    -7.72048e-05        0.0351326       -0.914649
                     -0.00281908       -0.899832      8.71341e-05     0.000166783         0.398075       -0.157554      0.000596469     0.000513349
                     6.49723e-05     0.000154644        0.0355297       -0.914844      0.000440148     0.000418781         0.374657       -0.120476
281736                  0.401138        0.154114      0.000520835    -0.000103822      -0.00339559       -0.899464      0.000167606     7.44708e-05
                     0.000469574    -0.000107667         0.366297        0.148095      0.000206097    -7.69251e-05        0.0348731       -0.914654
                     -0.00307732       -0.899823      8.69358e-05     0.000167588         0.398004       -0.157761      0.000597547     0.000513672
                     6.49087e-05     0.000155449         0.035266       -0.914847      0.000439938     0.000418672         0.374608       -0.120669
281738                  0.401158        0.154092       0.00052126    -0.000103985      -0.00365378       -0.899458      0.000167767     7.39064e-05
                      0.00046965     -0.00010769         0.366318        0.148078      0.000206019    -7.66473e-05        0.0346136       -0.914658
                     -0.00333551       -0.899814      8.67512e-05     0.000168383         0.397934       -0.157968      0.000598629     0.000513998
                     6.48338e-05      0.00015612        0.0350023       -0.914849      0.000439729     0.000418565         0.374558       -0.120863
281740                  0.401178         0.15407      0.000521676    -0.000104152      -0.00391196       -0.899453      0.000167926     7.33387e-05
                      0.00046973    -0.000107711         0.366338        0.148061      0.000205943    -7.63714e-05        0.0343541       -0.914663
                     -0.00359365       -0.899806      8.65804e-05     0.000169168         0.397863       -0.158174      0.000599715     0.000514328
                     6.47538e-05     0.000156704        0.0347386       -0.914852      0.000439522      0.00041846         0.374509       -0.121057
281742                  0.401198        0.154048      0.000522083    -0.000104323      -0.00417014       -0.899447      0.000168085     7.27674e-05
                     0.000469812    -0.000107731         0.366358        0.148044       0.00020587    -7.60975e-05        0.0340946       -0.914667
                     -0.00385174       -0.899798      8.64232e-05     0.000169943         0.397793       -0.158381      0.000600805     0.000514661
                     6.46713e-05      0.00015723         0.034475       -0.914855      0.000439317     0.000418357         0.374459       -0.121251
281744                  0.401218        0.154026      0.000522481    -0.000104498      -0.00442832       -0.899441      0.000168243     7.21917e-05
                     0.000469896    -0.000107751         0.366379        0.148028      0.000205798    -7.58255e-05        0.0338351       -0.914671
                      -0.0041098       -0.899791      8.62796e-05     0.000170709         0.397722       -0.158588      0.000601899     0.000514998
                     6.45877e-05     0.000157714        0.0342114       -0.914857      0.000439114     0.000418256         0.374409       -0.121444
281746                  0.401238        0.154003      0.000522869    -0.000104676       -0.0046865       -0.899434        0.0001684     7.16094e-05
                      0.00046998    -0.000107771         0.366399        0.148011      0.000205727    -7.55555e-05        0.0335756       -0.914675
                     -0.00436782       -0.899783      8.61498e-05     0.000171463         0.397651       -0.158794      0.000602997     0.000515338
                     6.45034e-05     0.000158169        0.0339477        -0.91486      0.000438912     0.000418158         0.374359       -0.121638
281748                  0.401258        0.153981      0.000523249    -0.000104859      -0.00494469       -0.899428      0.000168563     7.10196e-05
                     0.000470065     -0.00010779         0.366419        0.147994      0.000205659    -7.52874e-05        0.0333161        -0.91468
                     -0.00462582       -0.899776      8.60337e-05     0.000172208          0.39758       -0.159001      0.000604099     0.000515681
                      6.4419e-05     0.000158602        0.0336841       -0.914863      0.000438712     0.000418061         0.374309       -0.121832
281750                  0.401278        0.153959      0.000523618    -0.000105045      -0.00520287       -0.899422      0.000168734     7.04322e-05
                      0.00047015    -0.000107809          0.36644        0.147977      0.000205592    -7.50215e-05        0.0330566       -0.914684
                     -0.00488379       -0.899768      8.59314e-05     0.000172942         0.397509       -0.159207      0.000605205     0.000516027
                     6.43345e-05     0.000159017        0.0334206       -0.914865      0.000438514     0.000417967         0.374259       -0.122025
281752                  0.401299        0.153937      0.000523979    -0.000105236      -0.00546106       -0.899416      0.000168901     6.98492e-05
                     0.000470234    -0.000107828          0.36646         0.14796      0.000205527    -7.47578e-05        0.0327971       -0.914688
                     -0.00514175        -0.89976       8.5843e-05     0.000173666         0.397438       -0.159413      0.000606315     0.000516377
                     6.42502e-05      0.00015942         0.033157       -0.914868      0.000438318     0.000417875         0.374208       -0.122219
281754                  0.401319        0.153914      0.000524331    -0.000105432      -0.00571925       -0.899409      0.000169064     6.92636e-05
                     0.000470319    -0.000107847          0.36648        0.147943      0.000205464    -7.44964e-05        0.0325376       -0.914692
                      -0.0053997       -0.899753      8.57687e-05      0.00017438         0.397367        -0.15962      0.000607429     0.000516729
                     6.41661e-05     0.000159813        0.0328935        -0.91487      0.000438124     0.000417784         0.374158       -0.122412
281756                  0.401339        0.153892      0.000524676    -0.000105634      -0.00597744       -0.899403      0.000169225     6.86739e-05
                     0.000470403    -0.000107866         0.366501        0.147926      0.000205402    -7.42374e-05        0.0322781       -0.914695
                     -0.00565763       -0.899745      8.57087e-05     0.000175083         0.397295       -0.159826      0.000608547     0.000517084
                     6.40826e-05     0.000160199        0.0326299       -0.914873      0.000437932     0.000417695         0.374108       -0.122606
281758                  0.401359         0.15387      0.000525017    -0.000105838      -0.00623563       -0.899396      0.000169386     6.80804e-05
                     0.000470486    -0.000107885         0.366521        0.147909      0.000205342    -7.39812e-05        0.0320186       -0.914699
                     -0.00591556       -0.899738      8.56632e-05     0.000175776         0.397224       -0.160033      0.000609668     0.000517441
                     6.39996e-05     0.000160579        0.0323665       -0.914875      0.000437742     0.000417607         0.374057       -0.122799
281760                  0.401379        0.153848       0.00052535    -0.000106042      -0.00649382        -0.89939      0.000169546     6.74835e-05
                     0.000470569    -0.000107904         0.366541        0.147892      0.000205284    -7.37278e-05        0.0317591       -0.914703
                     -0.00617348        -0.89973      8.56325e-05     0.000176459         0.397152       -0.160239      0.000610786     0.000517804
                     6.39177e-05     0.000160954         0.032103       -0.914878      0.000437555      0.00041752         0.374006       -0.122993
281762                  0.401399        0.153825      0.000525674    -0.000106247      -0.00675201       -0.899383      0.000169706     6.68833e-05
                     0.000470652    -0.000107923         0.366562        0.147875      0.000205228    -7.34776e-05        0.0314996       -0.914707
                     -0.00643139       -0.899722      8.56167e-05     0.000177133          0.39708       -0.160445      0.000611916     0.000518176
