! TOUCHSTONE file generated by CST MICROWAVE STUDIO
! Date and time: Wed Oct 15 17:28:32 2025
! Project name: Teste_Macro_Metasurface_Nanopilar.cst
! Parameters = {H=600; L_x=80; L_y=170; Lambda=1064; Max_L=200; Min_L=70; PathPara=1; Phi=0; Step_L=10; Theta=0; p=520; phaseX=180; phaseY=0}
! Header version: 2018
! Port assignment regex: !\s*Touchstone port\s*([0-9]+)\s*=\s*(CST MWS port|CST DS port)\s*([0-9]+|Zmin|Zmax)\s*\(\"(.*)\"\)(\s*mode\s*([0-9]+))?.*
! Touchstone port assignment:
! Touchstone port 1 = CST MWS port Zmax ("") mode 1
! Touchstone port 2 = CST MWS port Zmax ("") mode 2
! Touchstone port 3 = CST MWS port Zmin ("") mode 1
! Touchstone port 4 = CST MWS port Zmin ("") mode 2
! S-Parameters are not renormalized. Each port impedance will be approximated by the real part at minimum frequency. The values are described via the [Reference] keyword.
! Default impedance is overridden by [Reference]
[Version] 2.0
# GHz S RI R 376.73
[Number of Ports] 4
[Reference]
376.73 376.73 259.888 259.888 
[Number of Frequencies] 51
[Network Data]
281700                 0.0168788         0.16247      0.000517354     0.000154215         0.969723        0.144306     -9.10816e-05    -0.000100574
                     0.000598882     0.000119905       -0.0269118      -0.0473478     -0.000233066     2.31157e-05        -0.399283       -0.913676
                        0.969668        0.144284     -0.000216104    -1.32818e-05       -0.0621147        0.151374      0.000410013     0.000510885
                    -0.000195505    -0.000183634        -0.399112       -0.914084      0.000326686     0.000495265        0.0163901       0.0524246
281702                 0.0169025        0.162495      0.000517307      0.00015418         0.969769        0.143967     -9.10889e-05    -0.000100565
                     0.000598836     0.000119828       -0.0269224      -0.0473381     -0.000233128     2.32242e-05         -0.39952       -0.913573
                        0.969714        0.143945     -0.000216114     -1.3223e-05       -0.0620387        0.151433      0.000410292     0.000510623
                    -0.000195564    -0.000183607        -0.399349        -0.91398      0.000326973     0.000494993        0.0164028       0.0524174
281704                 0.0169261        0.162519      0.000551557     0.000128507         0.969815        0.143628     -9.10936e-05    -0.000100557
                     0.000598789      0.00011975       -0.0269337      -0.0473279     -0.000233189     2.33336e-05        -0.399756       -0.913469
                         0.96976        0.143606     -0.000217011    -6.64834e-06       -0.0619627        0.151493       0.00041057      0.00051036
                    -0.000195622    -0.000183578        -0.399585       -0.913878      0.000327259     0.000494719        0.0164155       0.0524102
281706                 0.0169498        0.162543      0.000552159     0.000130517          0.96986        0.143289     -9.10975e-05    -0.000100551
                     0.000598743     0.000119673       -0.0269461      -0.0473172     -0.000233249     2.34436e-05        -0.399993       -0.913365
                        0.969807        0.143267     -0.000223449    -7.36745e-06       -0.0618866        0.151552      0.000410849     0.000510097
                    -0.000195681     -0.00018355        -0.399819       -0.913778      0.000327543     0.000494445        0.0164283       0.0524029
281708                 0.0169735        0.162567      0.000552198      0.00013093         0.969906         0.14295     -9.11012e-05    -0.000100546
                     0.000598697     0.000119596       -0.0269599       -0.047306     -0.000233309     2.35541e-05         -0.40023       -0.913261
                        0.969853        0.142928     -0.000224337    -9.16314e-06       -0.0618104        0.151611      0.000411127     0.000509834
                    -0.000195739    -0.000183521        -0.400051        -0.91368      0.000327827     0.000494169         0.016441       0.0523957
281710                 0.0169971        0.162591       0.00055217     0.000131052         0.969952        0.142611     -9.11048e-05    -0.000100541
                      0.00059865     0.000119519       -0.0269752      -0.0472948     -0.000233369     2.36651e-05        -0.400466       -0.913158
                        0.969898        0.142589     -0.000224442    -9.80626e-06       -0.0617342         0.15167      0.000411406      0.00050957
                    -0.000195796    -0.000183491        -0.400278       -0.913588       0.00032811     0.000493893        0.0164537       0.0523885
281712                 0.0170208        0.162615      0.000552129     0.000131086         0.969997        0.142272     -9.11084e-05    -0.000100536
                     0.000598604     0.000119441       -0.0269916      -0.0472841     -0.000233428     2.37765e-05        -0.400703       -0.913054
                        0.969944         0.14225     -0.000224462    -1.00497e-05        -0.061658        0.151729      0.000411684     0.000509305
                    -0.000195854    -0.000183462        -0.400489       -0.913507      0.000328393     0.000493616        0.0164665       0.0523812
281714                 0.0170445        0.162639      0.000552086     0.000131086         0.970042        0.141933      -9.1112e-05    -0.000100531
                     0.000598557     0.000119363       -0.0270086      -0.0472742     -0.000233487     2.38882e-05        -0.400939        -0.91295
                         0.96999        0.141911     -0.000224474    -1.01351e-05       -0.0615817        0.151788      0.000411963      0.00050904
                    -0.000195911    -0.000183432         -0.40063       -0.913436      0.000328675     0.000493339        0.0164792        0.052374
281716                 0.0170681        0.162663      0.000552042     0.000131071         0.970088        0.141594     -9.11156e-05    -0.000100527
                     0.000598511     0.000119286       -0.0270252      -0.0472653     -0.000233546         2.4e-05        -0.401175       -0.912846
                        0.970035        0.141572     -0.000224489    -1.01478e-05       -0.0615054        0.151847      0.000412242     0.000508775
                    -0.000195968    -0.000183402        -0.400746       -0.913015      0.000328956     0.000493061        0.0164919       0.0523668
281718                 0.0170918        0.162688         0.000552      0.00013105         0.970133        0.141255     -9.11192e-05    -0.000100522
                     0.000598464     0.000119208       -0.0270409      -0.0472571     -0.000233604      2.4112e-05        -0.401412       -0.912742
                        0.970081        0.141233     -0.000224507    -1.01231e-05        -0.061429        0.151906      0.000412521     0.000508509
                    -0.000196024    -0.000183372        -0.401243       -0.912952      0.000329238     0.000492783        0.0165046       0.0523596
281720                 0.0171155        0.162712      0.000551959     0.000131025         0.970178        0.140916     -9.11227e-05    -0.000100518
                     0.000598417      0.00011913       -0.0270555      -0.0472489     -0.000233663     2.42242e-05        -0.401648       -0.912637
                        0.970126        0.140894     -0.000224529    -1.00775e-05       -0.0613525        0.151965      0.000412799     0.000508242
                    -0.000196081    -0.000183342        -0.401506        -0.91291      0.000329519     0.000492505        0.0165173       0.0523523
281722                 0.0171392        0.162736      0.000551919     0.000130997         0.970222        0.140577     -9.11263e-05    -0.000100513
                      0.00059837     0.000119052       -0.0270691      -0.0472407     -0.000233721     2.43364e-05        -0.401885       -0.912533
                        0.970171        0.140555     -0.000224552    -1.00197e-05        -0.061276        0.152024      0.000413078     0.000507976
                    -0.000196137    -0.000183311        -0.401746       -0.912831      0.000329799     0.000492226          0.01653       0.0523451
281724                 0.0171629         0.16276       0.00055188     0.000130969         0.970267        0.140238     -9.11299e-05    -0.000100509
                     0.000598323     0.000118974       -0.0270819      -0.0472323     -0.000233779     2.44486e-05        -0.402121       -0.912429
                        0.970216        0.140216     -0.000224578     -9.9542e-06       -0.0611995        0.152083      0.000413357     0.000507708
                    -0.000196192    -0.000183281        -0.401983        -0.91274       0.00033008     0.000491947        0.0165427       0.0523378
281726                 0.0171865        0.162784      0.000551842     0.000130941         0.970312        0.139899     -9.11335e-05    -0.000100504
                     0.000598276     0.000118896       -0.0270941      -0.0472235     -0.000233837     2.45609e-05        -0.402357       -0.912325
                        0.970261        0.139877     -0.000224604    -9.88386e-06       -0.0611229        0.152142      0.000413636     0.000507441
                    -0.000196248    -0.000183251        -0.402219       -0.912644      0.000330361     0.000491668        0.0165554       0.0523306
281728                 0.0172102        0.162808      0.000551805     0.000130912         0.970356         0.13956     -9.11371e-05      -0.0001005
                     0.000598228     0.000118819       -0.0271058      -0.0472145     -0.000233896     2.46731e-05        -0.402594        -0.91222
                        0.970306        0.139538     -0.000224632    -9.81029e-06       -0.0610463        0.152201      0.000413914     0.000507173
                    -0.000196304     -0.00018322        -0.402455       -0.912544      0.000330641     0.000491389        0.0165681       0.0523234
281730                 0.0172339        0.162832      0.000551767     0.000130883         0.970401        0.139221     -9.11407e-05    -0.000100496
                      0.00059818     0.000118741       -0.0271172      -0.0472053     -0.000233954     2.47854e-05         -0.40283       -0.912116
                         0.97035        0.139199      -0.00022466    -9.73456e-06       -0.0609696         0.15226      0.000414193     0.000506904
                    -0.000196359     -0.00018319        -0.402692       -0.912443      0.000330922      0.00049111        0.0165808       0.0523161
281732                 0.0172576        0.162856      0.000551731     0.000130854         0.970445        0.138882     -9.11443e-05    -0.000100491
                     0.000598133     0.000118663       -0.0271284       -0.047196     -0.000234012     2.48976e-05        -0.403066       -0.912011
                        0.970395         0.13886     -0.000224689    -9.65735e-06       -0.0608928        0.152319      0.000414472     0.000506634
                    -0.000196414     -0.00018316        -0.402928       -0.912341      0.000331202     0.000490831        0.0165935       0.0523089
281734                 0.0172813         0.16288      0.000551695     0.000130825         0.970489        0.138543     -9.11479e-05    -0.000100487
                     0.000598085     0.000118585       -0.0271394      -0.0471865      -0.00023407     2.50097e-05        -0.403302       -0.911906
                        0.970439        0.138521     -0.000224718     -9.5791e-06        -0.060816        0.152377       0.00041475     0.000506364
                     -0.00019647    -0.000183129        -0.403164       -0.912238      0.000331483     0.000490552        0.0166062       0.0523017
281736                  0.017305        0.162904      0.000551659     0.000130796         0.970533        0.138203     -9.11515e-05    -0.000100483
                     0.000598037     0.000118507       -0.0271503      -0.0471769     -0.000234129     2.51217e-05        -0.403538       -0.911801
                        0.970483        0.138182     -0.000224748    -9.50013e-06       -0.0607392        0.152436      0.000415029     0.000506091
                    -0.000196525    -0.000183099          -0.4034       -0.912134      0.000331763     0.000490273        0.0166188       0.0522944
281738                 0.0173287        0.162929      0.000551623     0.000130768         0.970577        0.137864     -9.11551e-05    -0.000100479
                     0.000597988     0.000118429       -0.0271611      -0.0471673     -0.000234187     2.52337e-05        -0.403773       -0.911692
                        0.970528        0.137843     -0.000224778    -9.42065e-06       -0.0606623        0.152495      0.000415309     0.000505817
                    -0.000196579    -0.000183068        -0.403636        -0.91203      0.000332044     0.000489993        0.0166313       0.0522873
281740                 0.0173524        0.162953      0.000551588     0.000130739         0.970621        0.137525     -9.11587e-05    -0.000100474
                      0.00059794     0.000118352       -0.0271718      -0.0471576     -0.000234245     2.53457e-05        -0.404012       -0.911594
                        0.970572        0.137504     -0.000224808    -9.34081e-06       -0.0605854        0.152553      0.000415594     0.000505541
                    -0.000196634    -0.000183038        -0.403873       -0.911926      0.000332324     0.000489714        0.0166443       0.0522799
281742                 0.0173761        0.162977      0.000551553     0.000130711         0.970664        0.137186     -9.11623e-05     -0.00010047
                     0.000597891     0.000118274       -0.0271825      -0.0471479     -0.000234304     2.54575e-05        -0.404248       -0.911488
                        0.970615        0.137165     -0.000224839     -9.2607e-06       -0.0605084        0.152612      0.000415885     0.000505269
                    -0.000196689    -0.000183008        -0.404109       -0.911822      0.000332605     0.000489435         0.016657       0.0522727
281744                 0.0173998        0.163001      0.000551519     0.000130683         0.970708        0.136847     -9.11659e-05    -0.000100466
                     0.000597843     0.000118196       -0.0271932      -0.0471381     -0.000234362     2.55693e-05        -0.404484       -0.911383
                        0.970659        0.136826     -0.000224869    -9.18042e-06       -0.0604313        0.152671      0.000416175     0.000505006
                    -0.000196744    -0.000182977        -0.404345       -0.911718      0.000332885     0.000489155        0.0166696       0.0522654
281746                 0.0174235        0.163025      0.000551484     0.000130655         0.970751        0.136508     -9.11696e-05    -0.000100462
                     0.000597794     0.000118119       -0.0272038      -0.0471284     -0.000234421     2.56809e-05         -0.40472       -0.911278
                        0.970703        0.136486       -0.0002249        -9.1e-06       -0.0603543        0.152729      0.000416457     0.000504746
                    -0.000196798    -0.000182947        -0.404581       -0.911613      0.000333166     0.000488876        0.0166823       0.0522582
281748                 0.0174472        0.163049       0.00055145     0.000130627         0.970794        0.136168     -9.11732e-05    -0.000100458
                     0.000597745     0.000118041       -0.0272145      -0.0471186     -0.000234479     2.57925e-05        -0.404956       -0.911173
                        0.970747        0.136147     -0.000224931     -9.0195e-06       -0.0602771        0.152788      0.000416734     0.000504483
                    -0.000196852    -0.000182916        -0.404818       -0.911508      0.000333446     0.000488596        0.0166949       0.0522509
281750                 0.0174709        0.163073      0.000551415     0.000130599         0.970838        0.135829     -9.11769e-05    -0.000100454
                     0.000597696     0.000117964       -0.0272251      -0.0471088     -0.000234538      2.5904e-05        -0.405192       -0.911068
                         0.97079        0.135808     -0.000224962    -8.93894e-06       -0.0601999        0.152846      0.000417011     0.000504216
                    -0.000196907    -0.000182885        -0.405054       -0.911403      0.000333727     0.000488317        0.0167076       0.0522437
281752                 0.0174947        0.163097      0.000551381     0.000130571         0.970881         0.13549     -9.11807e-05     -0.00010045
                     0.000597647     0.000117886       -0.0272357       -0.047099     -0.000234597     2.60154e-05        -0.405427       -0.910963
                        0.970833        0.135469     -0.000224992    -8.85833e-06       -0.0601227        0.152904      0.000417288     0.000503948
                     -0.00019696    -0.000182854         -0.40529       -0.911298      0.000334008     0.000488038        0.0167202       0.0522364
281754                 0.0175184        0.163121      0.000551347     0.000130544         0.970924        0.135151     -9.11847e-05    -0.000100446
                     0.000597598     0.000117808       -0.0272463      -0.0470893     -0.000234655     2.61267e-05        -0.405663       -0.910858
                        0.970877         0.13513     -0.000225023     -8.7777e-06       -0.0600454        0.152963      0.000417565     0.000503679
                    -0.000197014    -0.000182823        -0.405526       -0.911193      0.000334289     0.000487758        0.0167329       0.0522292
281756                 0.0175421        0.163145      0.000551313     0.000130516         0.970966        0.134812       -9.119e-05    -0.000100442
                     0.000597549      0.00011773       -0.0272569      -0.0470795     -0.000234714      2.6238e-05        -0.405899       -0.910753
                         0.97092        0.134791     -0.000225054    -8.69706e-06       -0.0599681        0.153021      0.000417842     0.000503409
                    -0.000197067     -0.00018279        -0.405762       -0.911088      0.000334569     0.000487479        0.0167455       0.0522219
281758                 0.0175658        0.163169      0.000551279     0.000130488         0.971009        0.134472     -9.11942e-05    -0.000100432
                     0.000597501     0.000117651       -0.0272675      -0.0470697     -0.000234773     2.63491e-05        -0.406135       -0.910647
                        0.970963        0.134451     -0.000225085     -8.6164e-06       -0.0598907        0.153079       0.00041812     0.000503139
                    -0.000197119    -0.000182754        -0.405998       -0.910983       0.00033485       0.0004872        0.0167582       0.0522147
281760                 0.0175895        0.163193      0.000551246     0.000130461         0.971052        0.134133     -9.11946e-05     -0.00010043
                     0.000597455     0.000117572       -0.0272781      -0.0470599     -0.000234832     2.64602e-05        -0.406371       -0.910542
                        0.971005        0.134112     -0.000225117    -8.53575e-06       -0.0598133        0.153138      0.000418397     0.000502869
                    -0.000197175    -0.000182707        -0.406234       -0.910878      0.000335131      0.00048692        0.0167708       0.0522074
281762                 0.0176133        0.163217      0.000551212     0.000130434         0.971094        0.133794      -9.1198e-05    -0.000100426
                     0.000597412     0.000117495       -0.0272887      -0.0470501     -0.000234891     2.65712e-05        -0.406607       -0.910436
                        0.971048        0.133773     -0.000225148    -8.45509e-06       -0.0597358        0.153196      0.000418675     0.000502598
