! TOUCHSTONE file generated by CST MICROWAVE STUDIO
! Date and time: Wed Oct 15 17:31:09 2025
! Project name: Teste_Macro_Metasurface_Nanopilar.cst
! Parameters = {H=600; L_x=125; L_y=190; Lambda=1064; Max_L=200; Min_L=70; PathPara=1; Phi=0; Step_L=10; Theta=0; p=520; phaseX=180; phaseY=0}
! Header version: 2018
! Port assignment regex: !\s*Touchstone port\s*([0-9]+)\s*=\s*(CST MWS port|CST DS port)\s*([0-9]+|Zmin|Zmax)\s*\(\"(.*)\"\)(\s*mode\s*([0-9]+))?.*
! Touchstone port assignment:
! Touchstone port 1 = CST MWS port Zmax ("") mode 1
! Touchstone port 2 = CST MWS port Zmax ("") mode 2
! Touchstone port 3 = CST MWS port Zmin ("") mode 1
! Touchstone port 4 = CST MWS port Zmin ("") mode 2
! S-Parameters are not renormalized. Each port impedance will be approximated by the real part at minimum frequency. The values are described via the [Reference] keyword.
! Default impedance is overridden by [Reference]
[Version] 2.0
# GHz S RI R 376.73
[Number of Ports] 4
[Reference]
376.73 376.73 259.888 259.888 
[Number of Frequencies] 51
[Network Data]
281700                   0.16234      -0.0283475      7.17251e-05    -0.000313591         0.595613       -0.780584      0.000384824     0.000266505
                      0.00010105    -0.000386366          0.10634        0.147009      0.000300341     0.000378363         0.939622       -0.274388
                        0.595028       -0.780276      0.000204056     0.000145493        0.0149829        0.158669     -0.000653806       6.768e-05
                     0.000308539     0.000406461         0.940099       -0.274047     -0.000558911     -5.0807e-05      -0.00913287        0.180004
281702                  0.162344      -0.0283179      7.18466e-05    -0.000313793         0.595372       -0.780769      0.000384851     0.000266673
                     0.000101034    -0.000386799         0.106354        0.147028       0.00030047     0.000378261          0.93953       -0.274687
                        0.594789       -0.780461      0.000204106     0.000145602        0.0151114        0.158656     -0.000654153     6.78192e-05
                      0.00030867     0.000406211         0.940008       -0.274347     -0.000559148    -5.04169e-05      -0.00901843        0.180033
281704                  0.162347      -0.0282883      7.19674e-05    -0.000313996         0.595131       -0.780954       0.00038488      0.00026684
                     0.000101018    -0.000387232         0.106367        0.147047        0.0003006      0.00037816         0.939438       -0.274986
                        0.594549       -0.780646      0.000204156     0.000145713        0.0152398        0.158644       -0.0006545     6.79576e-05
                       0.0003088     0.000405962         0.939916       -0.274647     -0.000559385    -5.00267e-05      -0.00890396        0.180062
281706                  0.162351      -0.0282587      7.20877e-05      -0.0003142         0.594889       -0.781138       0.00038491     0.000267005
                     0.000101001    -0.000387664          0.10638        0.147067      0.000300729      0.00037806         0.939346       -0.275285
                         0.59431        -0.78083      0.000204207     0.000145825        0.0153682        0.158631     -0.000654847     6.80952e-05
                     0.000308931     0.000405714         0.939824       -0.274947     -0.000559623    -4.96366e-05      -0.00878945         0.18009
281708                  0.162355      -0.0282291      7.22074e-05    -0.000314405         0.594648       -0.781323      0.000384942     0.000267169
                     0.000100984    -0.000388096         0.106394        0.147086      0.000300858     0.000377959         0.939254       -0.275584
                         0.59407       -0.781015      0.000204259     0.000145939        0.0154966        0.158618     -0.000655194     6.82322e-05
                     0.000309062     0.000405466         0.939732       -0.275247      -0.00055986    -4.92463e-05      -0.00867491        0.180119
281710                  0.162359      -0.0281995      7.23264e-05    -0.000314611         0.594406       -0.781507      0.000384976     0.000267331
                     0.000100966    -0.000388528         0.106407        0.147106      0.000300988     0.000377858         0.939162       -0.275883
                         0.59383         -0.7812      0.000204311     0.000146055         0.015625        0.158605     -0.000655542     6.83684e-05
                     0.000309192     0.000405219         0.939639       -0.275547     -0.000560097    -4.88561e-05      -0.00856032        0.180148
281712                  0.162363      -0.0281699      7.24449e-05    -0.000314819         0.594165       -0.781692      0.000385011     0.000267492
                     0.000100948    -0.000388959         0.106421        0.147125      0.000301117     0.000377757         0.939069       -0.276182
                         0.59359       -0.781384      0.000204364     0.000146172        0.0157533        0.158592     -0.000655889     6.85041e-05
                     0.000309323     0.000404973         0.939547       -0.275847     -0.000560334    -4.84658e-05       -0.0084457        0.180176
281714                  0.162367      -0.0281403      7.25629e-05    -0.000315027         0.593923       -0.781876      0.000385048     0.000267652
                      0.00010093     -0.00038939         0.106434        0.147144      0.000301246     0.000377657         0.938977       -0.276481
                        0.593351       -0.781569      0.000204418     0.000146292        0.0158816        0.158579     -0.000656237     6.86391e-05
                     0.000309453     0.000404728         0.939455       -0.276147     -0.000560571    -4.80754e-05      -0.00833105        0.180205
281716                  0.162371      -0.0281107      7.26802e-05    -0.000315236         0.593681        -0.78206      0.000385086      0.00026781
                     0.000100911     -0.00038982         0.106448        0.147164      0.000301375     0.000377556         0.938884        -0.27678
                        0.593111       -0.781753      0.000204472     0.000146413          0.01601        0.158566     -0.000656584     6.87735e-05
                     0.000309584     0.000404484         0.939362       -0.276447     -0.000560807     -4.7685e-05      -0.00821635        0.180233
281718                  0.162375      -0.0280812      7.27969e-05    -0.000315446         0.593439       -0.782244      0.000385126     0.000267967
                     0.000100892     -0.00039025         0.106461        0.147183      0.000301504     0.000377456         0.938791       -0.277079
                        0.592871       -0.781938      0.000204527     0.000146535        0.0161382        0.158553     -0.000656932     6.89074e-05
                     0.000309714     0.000404241         0.939269       -0.276747     -0.000561044    -4.72946e-05      -0.00810162        0.180262
281720                  0.162379      -0.0280516      7.29131e-05    -0.000315657         0.593198       -0.782429      0.000385168     0.000268122
                     0.000100872    -0.000390679         0.106475        0.147203      0.000301633     0.000377356         0.938699       -0.277378
                        0.592631       -0.782122      0.000204582      0.00014666        0.0162665        0.158539     -0.000657279     6.90407e-05
                     0.000309845     0.000403998         0.939177       -0.277047     -0.000561281    -4.69041e-05      -0.00798685         0.18029
281722                  0.162383      -0.0280221      7.30287e-05    -0.000315869         0.592956       -0.782613      0.000385211     0.000268276
                     0.000100853    -0.000391107         0.106488        0.147222      0.000301762     0.000377256         0.938606       -0.277677
                        0.592391       -0.782306      0.000204638     0.000146786        0.0163948        0.158526     -0.000657627     6.91736e-05
                     0.000309977     0.000403757         0.939084       -0.277347     -0.000561518    -4.65136e-05      -0.00787205        0.180318
281724                  0.162387      -0.0279925      7.31437e-05    -0.000316082         0.592714       -0.782796      0.000385255     0.000268428
                     0.000100835    -0.000391535         0.106501        0.147242      0.000301891     0.000377156         0.938513       -0.277976
                        0.592151        -0.78249      0.000204694     0.000146915         0.016523        0.158512     -0.000657974      6.9306e-05
                      0.00031011     0.000403516         0.938991       -0.277646     -0.000561754     -4.6123e-05      -0.00775721        0.180346
281726                  0.162391       -0.027963      7.32582e-05    -0.000316296         0.592472        -0.78298      0.000385301     0.000268579
                     0.000100819    -0.000391962         0.106515        0.147261      0.000302021     0.000377056          0.93842       -0.278274
                         0.59191       -0.782674      0.000204751     0.000147045        0.0166512        0.158499     -0.000658322     6.94379e-05
                     0.000310247     0.000403275         0.938898       -0.277946     -0.000561991    -4.57324e-05      -0.00764233        0.180375
281728                  0.162395      -0.0279335      7.33722e-05     -0.00031651          0.59223       -0.783164      0.000385349     0.000268729
                     0.000100809    -0.000392388         0.106528        0.147281       0.00030215     0.000376956         0.938326       -0.278573
                         0.59167       -0.782858      0.000204808     0.000147177        0.0167794        0.158485     -0.000658669     6.95694e-05
                     0.000310398     0.000403028         0.938805       -0.278246     -0.000562228    -4.53416e-05      -0.00752742        0.180403
281730                  0.162399      -0.0279039      7.34856e-05    -0.000316725         0.591988       -0.783348      0.000385398     0.000268877
                     0.000100817    -0.000392821         0.106542          0.1473      0.000302279     0.000376857         0.938233       -0.278872
                         0.59143       -0.783042      0.000204866     0.000147311        0.0169076        0.158471     -0.000659017     6.97005e-05
                     0.000310506     0.000402671         0.938711       -0.278546     -0.000562464    -4.49508e-05      -0.00741247        0.180431
281732                  0.162403      -0.0278744      7.35985e-05    -0.000316941         0.591746       -0.783531      0.000385448     0.000269023
                      0.00010083    -0.000393351         0.106555        0.147319      0.000302408     0.000376757          0.93814       -0.279171
                        0.591189       -0.783226      0.000204924     0.000147447        0.0170357        0.158457     -0.000659364     6.98313e-05
                      0.00031057     0.000402533         0.938618       -0.278845     -0.000562701      -4.456e-05      -0.00729749        0.180458
281734                  0.162407      -0.0278449      7.37109e-05    -0.000317158         0.591504       -0.783715        0.0003855     0.000269168
                     0.000100677    -0.000393775         0.106569        0.147339      0.000302537     0.000376658         0.938046       -0.279469
                        0.590949        -0.78341      0.000204983     0.000147584        0.0171638        0.158443     -0.000659711     6.99617e-05
                     0.000310715     0.000402312         0.938525       -0.279145     -0.000562938     -4.4169e-05      -0.00718246        0.180486
281736                  0.162411      -0.0278154      7.38228e-05    -0.000317375         0.591261       -0.783898      0.000385554     0.000269311
                     0.000100646     -0.00039416         0.106582        0.147358      0.000302666     0.000376559         0.937953       -0.279768
                        0.590709       -0.783593      0.000205042     0.000147724         0.017292        0.158429     -0.000660058     7.00917e-05
                     0.000310849      0.00040208         0.938431       -0.279445     -0.000563175    -4.37779e-05      -0.00706741        0.180514
281738                  0.162415       -0.027786      7.39342e-05    -0.000317593         0.591019       -0.784082      0.000385609     0.000269453
                     0.000100624    -0.000394572         0.106596        0.147378      0.000302795     0.000376459         0.937859       -0.280067
                        0.590468       -0.783777      0.000205101     0.000147865          0.01742        0.158415     -0.000660405     7.02215e-05
                     0.000310981     0.000401847         0.938337       -0.279744     -0.000563411    -4.33868e-05      -0.00695231        0.180542
281740                  0.162419      -0.0277565      7.40451e-05    -0.000317811         0.590777       -0.784265      0.000385665     0.000269594
                       0.0001006    -0.000394992         0.106609        0.147397      0.000302925     0.000376361         0.937765       -0.280365
                        0.590228        -0.78396      0.000205161     0.000148009        0.0175481        0.158401     -0.000660752      7.0351e-05
                     0.000311111     0.000401614         0.938244       -0.280044     -0.000563648    -4.29954e-05      -0.00683718        0.180569
281742                  0.162423       -0.027727      7.41556e-05     -0.00031803         0.590534       -0.784448      0.000385723     0.000269733
                     0.000100575    -0.000395414         0.106623        0.147417      0.000303054     0.000376262         0.937671       -0.280664
                        0.589987       -0.784143      0.000205221     0.000148154        0.0176762        0.158386     -0.000661099     7.04803e-05
                      0.00031124     0.000401381          0.93815       -0.280343     -0.000563885     -4.2604e-05      -0.00672201        0.180597
281744                  0.162427      -0.0276976      7.42656e-05     -0.00031825         0.590292       -0.784631      0.000385783      0.00026987
                     0.000100548    -0.000395838         0.106636        0.147436      0.000303184     0.000376163         0.937577       -0.280963
                        0.589746       -0.784327      0.000205281     0.000148301        0.0178042        0.158372     -0.000661446     7.06093e-05
                     0.000311368     0.000401149         0.938056       -0.280643     -0.000564122    -4.22123e-05      -0.00660681        0.180625
281746                  0.162431      -0.0276681      7.43752e-05     -0.00031847          0.59005       -0.784814      0.000385844     0.000270006
                     0.000100521    -0.000396263          0.10665        0.147456      0.000303314     0.000376064         0.937483       -0.281261
                        0.589506        -0.78451      0.000205342      0.00014845        0.0179322        0.158358     -0.000661793     7.07381e-05
                     0.000311496     0.000400918         0.937962       -0.280942      -0.00056436    -4.18203e-05      -0.00649157        0.180652
281748                  0.162435      -0.0276387      7.44843e-05    -0.000318691         0.589807       -0.784997      0.000385906     0.000270141
                     0.000100492    -0.000396687         0.106663        0.147475      0.000303444     0.000375966         0.937389        -0.28156
                        0.589265       -0.784693      0.000205403     0.000148601        0.0180602        0.158343      -0.00066214     7.08667e-05
                     0.000311624     0.000400687         0.937867       -0.281242     -0.000564598     -4.1428e-05       -0.0063763        0.180679
281750                  0.162439      -0.0276092       7.4593e-05    -0.000318912         0.589565        -0.78518       0.00038597     0.000270274
                     0.000100463    -0.000397112         0.106677        0.147495      0.000303575     0.000375868         0.937295       -0.281858
                        0.589024       -0.784876      0.000205464     0.000148754        0.0181882        0.158328     -0.000662486     7.09951e-05
                     0.000311751     0.000400457         0.937773       -0.281541     -0.000564836    -4.10351e-05      -0.00626098        0.180707
281752                  0.162443      -0.0275798      7.47012e-05    -0.000319134         0.589322       -0.785363      0.000386036     0.000270406
                     0.000100432    -0.000397537          0.10669        0.147514      0.000303706     0.000375771           0.9372       -0.282157
                        0.588783       -0.785059      0.000205525     0.000148908        0.0183161        0.158314     -0.000662833     7.11234e-05
                     0.000311877     0.000400228         0.937679        -0.28184     -0.000565075    -4.06415e-05      -0.00614564        0.180734
281754                  0.162447      -0.0275504      7.48091e-05    -0.000319356         0.589079       -0.785545      0.000386103     0.000270537
                     0.000100401    -0.000397962         0.106704        0.147534      0.000303838     0.000375674         0.937106       -0.282455
                        0.588542       -0.785242      0.000205586     0.000149065         0.018444        0.158299     -0.000663179     7.12515e-05
                     0.000312004          0.0004         0.937584        -0.28214     -0.000565316    -4.02465e-05      -0.00603025        0.180761
281756                  0.162451       -0.027521      7.49166e-05    -0.000319579         0.588837       -0.785728      0.000386172      0.00027067
                     0.000100369    -0.000398386         0.106717        0.147553      0.000303973     0.000375578         0.937011       -0.282753
                        0.588301       -0.785425      0.000205648     0.000149223        0.0185719        0.158284     -0.000663526     7.13794e-05
                      0.00031213     0.000399773          0.93749       -0.282439     -0.000565561    -3.98486e-05      -0.00591483        0.180788
281758                  0.162455      -0.0274916      7.50236e-05    -0.000319802         0.588594       -0.785911      0.000386242      0.00027082
                     0.000100337    -0.000398811         0.106731        0.147573      0.000304114     0.000375487         0.936917       -0.283052
                         0.58806       -0.785607       0.00020571     0.000149384        0.0186998        0.158269     -0.000663872     7.15073e-05
                     0.000312256     0.000399546         0.937395       -0.282738     -0.000565816    -3.94432e-05      -0.00579936        0.180815
281760                  0.162459      -0.0274622      7.51303e-05    -0.000320025         0.588351       -0.786093      0.000386283     0.000270877
                     0.000100303    -0.000399235         0.106744        0.147593      0.000304278     0.000375431         0.936822        -0.28335
                        0.587819        -0.78579      0.000205772     0.000149546        0.0188277        0.158254     -0.000664219     7.16351e-05
                     0.000312382     0.000399321           0.9373       -0.283038      -0.00056613    -3.90037e-05      -0.00568395        0.180842
281762                  0.162463      -0.0274328      7.52366e-05    -0.000320249         0.588108       -0.786275      0.000386374     0.000271019
                     0.000100269    -0.000399659         0.106758        0.147612      0.000304225     0.000375307         0.936727       -0.283648
                        0.587578       -0.785973      0.000205834     0.000149709        0.0189555        0.158238     -0.000664565     7.17628e-05
