! TOUCHSTONE file generated by CST MICROWAVE STUDIO
! Date and time: Wed Oct 15 17:33:05 2025
! Project name: Teste_Macro_Metasurface_Nanopilar.cst
! Parameters = {H=600; L_x=160; L_y=150; Lambda=1064; Max_L=200; Min_L=70; PathPara=1; Phi=0; Step_L=10; Theta=0; p=520; phaseX=180; phaseY=0}
! Header version: 2018
! Port assignment regex: !\s*Touchstone port\s*([0-9]+)\s*=\s*(CST MWS port|CST DS port)\s*([0-9]+|Zmin|Zmax)\s*\(\"(.*)\"\)(\s*mode\s*([0-9]+))?.*
! Touchstone port assignment:
! Touchstone port 1 = CST MWS port Zmax ("") mode 1
! Touchstone port 2 = CST MWS port Zmax ("") mode 2
! Touchstone port 3 = CST MWS port Zmin ("") mode 1
! Touchstone port 4 = CST MWS port Zmin ("") mode 2
! S-Parameters are not renormalized. Each port impedance will be approximated by the real part at minimum frequency. The values are described via the [Reference] keyword.
! Default impedance is overridden by [Reference]
[Version] 2.0
# GHz S RI R 376.73
[Number of Ports] 4
[Reference]
376.73 376.73 259.888 259.888 
[Number of Frequencies] 51
[Network Data]
281700                  0.209229       -0.116656      0.000503282     -0.00115458         0.864367       -0.424306      0.000498571     0.000963128
                     0.000581327     -0.00111794         0.174802      -0.0552784      0.000170814      0.00106639         0.775131       -0.595907
                        0.864266        -0.42434      0.000264982       0.0010434        -0.214913         0.08224      -0.00149274    -0.000421206
                     0.000414208     0.000936307         0.775087       -0.595227      -0.00144501    -0.000412415       -0.0970853        0.148181
281702                  0.209175       -0.116581      0.000502503     -0.00115446         0.864224       -0.424653      0.000498775      0.00096258
                     0.000580546     -0.00111776          0.17479      -0.0552416      0.000171256       0.0010658         0.774942       -0.596162
                        0.864122       -0.424688       0.00026546      0.00104273        -0.214758       0.0824203      -0.00149245    -0.000420521
                     0.000414425     0.000935679         0.774899       -0.595482      -0.00144459     -0.00041169       -0.0969503        0.148244
281704                  0.209121       -0.116505      0.000501723     -0.00115435         0.864081       -0.425001      0.000498978     0.000962033
                     0.000579764     -0.00111758         0.174777      -0.0552049      0.000171698       0.0010652         0.774753       -0.596416
                        0.863979       -0.425035      0.000265937      0.00104206        -0.214602       0.0826005      -0.00149216    -0.000419836
                     0.000414642      0.00093505          0.77471       -0.595736      -0.00144417    -0.000410965       -0.0968153        0.148307
281706                  0.209067        -0.11643      0.000500945     -0.00115423         0.863937       -0.425348       0.00049918     0.000961485
                     0.000578981     -0.00111741         0.174765      -0.0551681      0.000172139      0.00106461         0.774565        -0.59667
                        0.863835       -0.425382      0.000266414      0.00104139        -0.214447       0.0827804      -0.00149187    -0.000419153
                     0.000414861     0.000934419         0.774522        -0.59599      -0.00144375    -0.000410241       -0.0966803        0.148369
281708                  0.209013       -0.116355      0.000500166     -0.00115412         0.863794       -0.425695      0.000499382     0.000960938
                     0.000578196     -0.00111723         0.174752      -0.0551314       0.00017258      0.00106401         0.774376       -0.596924
                        0.863692       -0.425729      0.000266889      0.00104072        -0.214292         0.08296      -0.00149157     -0.00041847
                      0.00041508     0.000933788         0.774333       -0.596244      -0.00144333    -0.000409517       -0.0965453        0.148432
281710                   0.20896       -0.116279      0.000499389       -0.001154         0.863651       -0.426042      0.000499584     0.000960392
                      0.00057741     -0.00111705          0.17474      -0.0550947       0.00017302      0.00106342         0.774187       -0.597178
                        0.863548       -0.426076      0.000267363      0.00104005        -0.214136       0.0831395      -0.00149128    -0.000417788
                       0.0004153     0.000933156         0.774144       -0.596497      -0.00144291    -0.000408794       -0.0964102        0.148494
281712                  0.208906       -0.116204      0.000498611     -0.00115388         0.863507       -0.426389      0.000499785     0.000959845
                     0.000576622     -0.00111687         0.174727      -0.0550581       0.00017346      0.00106282         0.773998       -0.597432
                        0.863404       -0.426423      0.000267836      0.00103938        -0.213981       0.0833188      -0.00149099    -0.000417106
                     0.000415521     0.000932523         0.773955       -0.596751      -0.00144249    -0.000408072       -0.0962752        0.148556
281714                  0.208852       -0.116129      0.000497834     -0.00115376         0.863363       -0.426735      0.000499985     0.000959299
                     0.000575834     -0.00111669         0.174715      -0.0550214      0.000173899      0.00106223         0.773809       -0.597686
                         0.86326       -0.426769      0.000268308      0.00103871        -0.213825       0.0834978       -0.0014907    -0.000416426
                     0.000415742     0.000931889         0.773766       -0.597005      -0.00144207     -0.00040735       -0.0961401        0.148618
281716                  0.208799       -0.116054      0.000497057     -0.00115364         0.863219       -0.427082      0.000500185     0.000958754
                     0.000575044     -0.00111651         0.174702      -0.0549848      0.000174338      0.00106163          0.77362        -0.59794
                        0.863116       -0.427116       0.00026878      0.00103804         -0.21367       0.0836766       -0.0014904    -0.000415746
                     0.000415964     0.000931255         0.773577       -0.597258      -0.00144165    -0.000406629       -0.0960051         0.14868
281718                  0.208745       -0.115979      0.000496281     -0.00115352         0.863075       -0.427428      0.000500385     0.000958208
                     0.000574254     -0.00111632          0.17469      -0.0549482      0.000174777      0.00106104         0.773431       -0.598194
                        0.862972       -0.427462       0.00026925      0.00103737        -0.213514       0.0838552      -0.00149011    -0.000415067
                     0.000416187      0.00093062         0.773388       -0.597511      -0.00144123    -0.000405908         -0.09587        0.148742
281720                  0.208692       -0.115904      0.000495505      -0.0011534         0.862931       -0.427775      0.000500583     0.000957663
                     0.000573463     -0.00111614         0.174677      -0.0549116      0.000175215      0.00106044         0.773242       -0.598447
                        0.862827       -0.427808       0.00026972       0.0010367        -0.213359       0.0840335      -0.00148982    -0.000414388
                      0.00041641     0.000929984         0.773199       -0.597764      -0.00144081    -0.000405188       -0.0957349        0.148804
281722                  0.208639       -0.115829       0.00049473     -0.00115328         0.862787       -0.428121      0.000500782     0.000957118
                     0.000572671     -0.00111595         0.174665       -0.054875      0.000175652      0.00105985         0.773052       -0.598701
                        0.862683       -0.428154      0.000270188      0.00103603        -0.213203       0.0842117      -0.00148952    -0.000413711
                     0.000416634     0.000929348          0.77301       -0.598018      -0.00144039    -0.000404469       -0.0955998        0.148866
281724                  0.208586       -0.115755      0.000493955     -0.00115316         0.862642       -0.428467      0.000500979     0.000956574
                     0.000571878     -0.00111577         0.174652      -0.0548384      0.000176089      0.00105925         0.772863       -0.598954
                        0.862538         -0.4285      0.000270656      0.00103536        -0.213047       0.0843896      -0.00148923    -0.000413034
                     0.000416858     0.000928711          0.77282        -0.59827      -0.00143997     -0.00040375       -0.0954647        0.148927
281726                  0.208532        -0.11568       0.00049318     -0.00115304         0.862498       -0.428813      0.000501176      0.00095603
                     0.000571084     -0.00111558          0.17464      -0.0548019      0.000176526      0.00105866         0.772674       -0.599208
                        0.862393       -0.428846      0.000271123      0.00103469        -0.212891       0.0845673      -0.00148893    -0.000412358
                     0.000417082     0.000928074         0.772631       -0.598523      -0.00143955    -0.000403032       -0.0953295        0.148989
281728                  0.208479       -0.115605      0.000492406     -0.00115292         0.862353       -0.429158      0.000501373     0.000955486
                      0.00057029     -0.00111539         0.174628      -0.0547653      0.000176962      0.00105806         0.772484       -0.599461
                        0.862248       -0.429191      0.000271589      0.00103402        -0.212735       0.0847448      -0.00148864    -0.000411683
                     0.000417307     0.000927436         0.772441       -0.598776      -0.00143913    -0.000402314       -0.0951944         0.14905
281730                  0.208426        -0.11553      0.000491632      -0.0011528         0.862208       -0.429504      0.000501569     0.000954942
                     0.000569496      -0.0011152         0.174615      -0.0547288      0.000177397      0.00105746         0.772294       -0.599714
                        0.862103       -0.429536      0.000272055      0.00103335         -0.21258       0.0849221      -0.00148834    -0.000411009
                     0.000417533     0.000926797         0.772251       -0.599029      -0.00143871    -0.000401597       -0.0950592        0.149111
281732                  0.208373       -0.115456      0.000490858     -0.00115268         0.862063       -0.429849      0.000501765     0.000954399
                     0.000568701     -0.00111501         0.174603      -0.0546923      0.000177832      0.00105687         0.772105       -0.599967
                        0.861958       -0.429882      0.000272519      0.00103268        -0.212424       0.0850991      -0.00148804    -0.000410335
                     0.000417758     0.000926159         0.772062       -0.599281      -0.00143829    -0.000400881       -0.0949241        0.149173
281734                   0.20832       -0.115381      0.000490084     -0.00115255         0.861918       -0.430194       0.00050196     0.000953856
                     0.000567905     -0.00111482          0.17459      -0.0546559      0.000178267      0.00105627         0.771915       -0.600221
                        0.861813       -0.430227      0.000272983      0.00103201        -0.212268        0.085276      -0.00148775    -0.000409663
                     0.000417984     0.000925519         0.771872       -0.599534      -0.00143787    -0.000400165       -0.0947889        0.149234
281736                  0.208268       -0.115307      0.000489311     -0.00115243         0.861773       -0.430539      0.000502154     0.000953314
                     0.000567109     -0.00111463         0.174578      -0.0546194      0.000178701      0.00105568         0.771725       -0.600474
                        0.861667       -0.430572      0.000273447      0.00103134        -0.212112       0.0854526      -0.00148745    -0.000408991
                      0.00041821      0.00092488         0.771682       -0.599786      -0.00143745     -0.00039945       -0.0946537        0.149294
281738                  0.208215       -0.115232      0.000488538     -0.00115231         0.861628       -0.430884      0.000502348     0.000952772
                     0.000566313     -0.00111444         0.174566       -0.054583      0.000179134      0.00105508         0.771535       -0.600726
                        0.861522       -0.430916       0.00027391      0.00103067        -0.211955        0.085629      -0.00148715     -0.00040832
                     0.000418437     0.000924239         0.771492       -0.600039      -0.00143703    -0.000398735       -0.0945185        0.149355
281740                  0.208162       -0.115158      0.000487765     -0.00115218         0.861482       -0.431229      0.000502542      0.00095223
                     0.000565516     -0.00111424         0.174553      -0.0545465      0.000179567      0.00105449         0.771345       -0.600979
                        0.861376       -0.431261      0.000274372         0.00103        -0.211799       0.0858052      -0.00148686     -0.00040765
                     0.000418663     0.000923599         0.771302       -0.600291      -0.00143661    -0.000398021       -0.0943833        0.149416
281742                  0.208109       -0.115083      0.000486992     -0.00115206         0.861337       -0.431574      0.000502735     0.000951689
                      0.00056472     -0.00111405         0.174541      -0.0545101          0.00018      0.00105389         0.771155       -0.601232
                         0.86123       -0.431605      0.000274833      0.00102934        -0.211643       0.0859811      -0.00148656     -0.00040698
                      0.00041889     0.000922958         0.771112       -0.600543      -0.00143619    -0.000397308       -0.0942481        0.149477
281744                  0.208057       -0.115009      0.000486219     -0.00115194         0.861191       -0.431918      0.000502927     0.000951148
                     0.000563923     -0.00111385         0.174529      -0.0544737      0.000180432      0.00105329         0.770965       -0.601485
                        0.861085        -0.43195      0.000275295      0.00102867        -0.211487       0.0861569      -0.00148626    -0.000406311
                     0.000419117     0.000922317         0.770922       -0.600796      -0.00143577    -0.000396596       -0.0941129        0.149537
281746                  0.208004       -0.114935      0.000485447     -0.00115181         0.861045       -0.432263      0.000503119     0.000950607
                     0.000563126     -0.00111365         0.174517      -0.0544373      0.000180863       0.0010527         0.770775       -0.601737
                        0.860938       -0.432294      0.000275755        0.001028        -0.211331       0.0863324      -0.00148596    -0.000405644
                     0.000419344     0.000921676         0.770732       -0.601048      -0.00143535    -0.000395884       -0.0939776        0.149597
281748                  0.207952        -0.11486      0.000484674     -0.00115169         0.860899       -0.432607      0.000503311     0.000950066
                     0.000562329     -0.00111345         0.174504       -0.054401      0.000181294       0.0010521         0.770585        -0.60199
                        0.860792       -0.432638      0.000276216      0.00102733        -0.211174       0.0865077      -0.00148566    -0.000404977
                     0.000419572     0.000921034         0.770542         -0.6013      -0.00143493    -0.000395172       -0.0938424        0.149658
281750                    0.2079       -0.114786      0.000483902     -0.00115156         0.860753       -0.432951      0.000503502     0.000949526
                     0.000561531     -0.00111325         0.174492      -0.0543646      0.000181724      0.00105151         0.770395       -0.602242
                        0.860646       -0.432982      0.000276675      0.00102666        -0.211018       0.0866828      -0.00148536    -0.000404311
                     0.000419799     0.000920392         0.770351       -0.601552      -0.00143451    -0.000394462       -0.0937071        0.149718
281752                  0.207847       -0.114712      0.000483129     -0.00115144         0.860607       -0.433295      0.000503693     0.000948986
                     0.000560734     -0.00111305          0.17448      -0.0543283      0.000182154      0.00105091         0.770204       -0.602494
                          0.8605       -0.433325      0.000277135        0.001026        -0.210861       0.0868577      -0.00148506    -0.000403645
                     0.000420027     0.000919749         0.770161       -0.601804      -0.00143409    -0.000393752       -0.0935718        0.149778
281754                  0.207795       -0.114638      0.000482357     -0.00115131         0.860461       -0.433639      0.000503884     0.000948446
                     0.000559937     -0.00111285         0.174468      -0.0542919      0.000182583      0.00105032         0.770014       -0.602747
                        0.860353       -0.433669      0.000277594      0.00102533        -0.210705       0.0870324      -0.00148476     -0.00040298
                     0.000420254     0.000919107         0.769971       -0.602056      -0.00143367    -0.000393043       -0.0934365        0.149838
281756                  0.207743       -0.114564      0.000481585     -0.00115119         0.860314       -0.433983      0.000504075     0.000947906
                     0.000559139     -0.00111265         0.174456      -0.0542556      0.000183011      0.00104972         0.769823       -0.602999
                        0.860206       -0.434012      0.000278053      0.00102466        -0.210548       0.0872068      -0.00148446    -0.000402316
                     0.000420482     0.000918464          0.76978       -0.602309      -0.00143325    -0.000392334       -0.0933012        0.149898
281758                  0.207691        -0.11449      0.000480813     -0.00115106         0.860168       -0.434326      0.000504266     0.000947365
                     0.000558342     -0.00111244         0.174444      -0.0542193      0.000183439      0.00104912         0.769633       -0.603251
                         0.86006       -0.434356      0.000278512        0.001024        -0.210392       0.0873811      -0.00148416    -0.000401652
                     0.000420709     0.000917821          0.76959       -0.602561      -0.00143283    -0.000391626       -0.0931659        0.149957
281760                  0.207639       -0.114416      0.000480041     -0.00115094         0.860021       -0.434669      0.000504458     0.000946824
                     0.000557545     -0.00111224         0.174432       -0.054183      0.000183867      0.00104853         0.769442       -0.603503
                        0.859913       -0.434699      0.000278971      0.00102333        -0.210235       0.0875551      -0.00148387    -0.000400988
                     0.000420937     0.000917178         0.769399       -0.602813      -0.00143241    -0.000390919       -0.0930306        0.150017
281762                  0.207587       -0.114342      0.000479269     -0.00115081         0.859874       -0.435013      0.000504655     0.000946283
                     0.000556747     -0.00111203          0.17442      -0.0541467      0.000184294      0.00104793         0.769251       -0.603755
                        0.859766       -0.435042      0.000279429      0.00102266        -0.210079       0.0877289      -0.00148357    -0.000400323
