! TOUCHSTONE file generated by CST MICROWAVE STUDIO
! Date and time: Wed Oct 15 17:34:05 2025
! Project name: Teste_Macro_Metasurface_Nanopilar.cst
! Parameters = {H=600; L_x=180; L_y=85; Lambda=1064; Max_L=200; Min_L=70; PathPara=1; Phi=0; Step_L=10; Theta=0; p=520; phaseX=180; phaseY=0}
! Header version: 2018
! Port assignment regex: !\s*Touchstone port\s*([0-9]+)\s*=\s*(CST MWS port|CST DS port)\s*([0-9]+|Zmin|Zmax)\s*\(\"(.*)\"\)(\s*mode\s*([0-9]+))?.*
! Touchstone port assignment:
! Touchstone port 1 = CST MWS port Zmax ("") mode 1
! Touchstone port 2 = CST MWS port Zmax ("") mode 2
! Touchstone port 3 = CST MWS port Zmin ("") mode 1
! Touchstone port 4 = CST MWS port Zmin ("") mode 2
! S-Parameters are not renormalized. Each port impedance will be approximated by the real part at minimum frequency. The values are described via the [Reference] keyword.
! Default impedance is overridden by [Reference]
[Version] 2.0
# GHz S RI R 376.73
[Number of Ports] 4
[Reference]
376.73 376.73 259.888 259.888 
[Number of Frequencies] 51
[Network Data]
281700                -0.0372873       0.0231634     -0.000146103     0.000400276        -0.675432        -0.73291      0.000100568     -0.00039679
                    -0.000217466     0.000382227         0.113022        0.278438      0.000124479     0.000442925         0.855995       -0.407765
                       -0.675663       -0.733128      7.53672e-05      0.00037226       -0.0258915       0.0361081     -0.000152938    -0.000476144
                       0.0001691    -0.000446358         0.856196       -0.406923     -0.000266883    -0.000342715         0.146858        0.260287
281702                -0.0372915       0.0231799     -0.000146192     0.000400432        -0.675636       -0.732721      0.000100455    -0.000396938
                    -0.000217592     0.000382317         0.113062        0.278479      0.000124642     0.000443039         0.855835       -0.408062
                       -0.675867       -0.732939      7.54792e-05      0.00037236       -0.0258881       0.0361255     -0.000153435    -0.000476236
                     0.000168908    -0.000446609         0.856036        -0.40722     -0.000267305    -0.000342746          0.14705        0.260239
281704                -0.0372957       0.0231963     -0.000146281     0.000400588         -0.67584       -0.732533      0.000100341    -0.000397086
                    -0.000217718     0.000382408         0.113103        0.278519      0.000124805     0.000443153         0.855675       -0.408358
                       -0.676071        -0.73275      7.55913e-05     0.000372461       -0.0258848       0.0361429     -0.000153931    -0.000476328
                     0.000168716     -0.00044686         0.855876       -0.407517     -0.000267726    -0.000342776         0.147241         0.26019
281706                -0.0372999       0.0232128      -0.00014637     0.000400744        -0.676043       -0.732344      0.000100227    -0.000397235
                    -0.000217844     0.000382498         0.113143        0.278559      0.000124969     0.000443267         0.855514       -0.408655
                       -0.676275       -0.732561      7.57033e-05     0.000372561       -0.0258814       0.0361602     -0.000154428    -0.000476419
                     0.000168525    -0.000447112         0.855716       -0.407814     -0.000268148    -0.000342805         0.147433        0.260142
281708                 -0.037304       0.0232293     -0.000146459       0.0004009        -0.676247       -0.732154      0.000100113    -0.000397383
                    -0.000217971     0.000382589         0.113184          0.2786      0.000125132     0.000443382         0.855354       -0.408952
                       -0.676479       -0.732372      7.58154e-05     0.000372662       -0.0258781       0.0361776     -0.000154923    -0.000476509
                     0.000168333    -0.000447363         0.855555       -0.408111     -0.000268569    -0.000342835         0.147625        0.260093
281710                -0.0373082       0.0232457     -0.000146548     0.000401056        -0.676451       -0.731965      9.99985e-05    -0.000397531
                    -0.000218097      0.00038268         0.113224         0.27864      0.000125295     0.000443496         0.855194       -0.409248
                       -0.676683       -0.732182      7.59274e-05     0.000372762       -0.0258747        0.036195     -0.000155419    -0.000476599
                     0.000168141    -0.000447614         0.855395       -0.408408     -0.000268991    -0.000342864         0.147816        0.260044
281712                -0.0373124       0.0232622     -0.000146637     0.000401213        -0.676654       -0.731776       9.9884e-05    -0.000397679
                    -0.000218224     0.000382772         0.113264         0.27868      0.000125459      0.00044361         0.855033       -0.409544
                       -0.676887       -0.731993      7.60395e-05     0.000372862       -0.0258713       0.0362124     -0.000155914    -0.000476689
                     0.000167949    -0.000447865         0.855234       -0.408705     -0.000269413    -0.000342893         0.148008        0.259995
281714                -0.0373166       0.0232787     -0.000146726      0.00040137        -0.676858       -0.731587      9.97694e-05    -0.000397827
                     -0.00021835     0.000382863         0.113305        0.278721      0.000125622     0.000443724         0.854872       -0.409841
                       -0.677091       -0.731804      7.61515e-05     0.000372962       -0.0258679       0.0362298     -0.000156409    -0.000476778
                     0.000167757    -0.000448117         0.855073       -0.409002     -0.000269835    -0.000342921         0.148199        0.259946
281716                -0.0373207       0.0232951     -0.000146815     0.000401527        -0.677061       -0.731398      9.96545e-05    -0.000397975
                    -0.000218477     0.000382955         0.113345        0.278761      0.000125786     0.000443838         0.854711       -0.410137
                       -0.677294       -0.731614      7.62635e-05     0.000373062       -0.0258645       0.0362471     -0.000156904    -0.000476867
                     0.000167564    -0.000448368         0.854913       -0.409298     -0.000270257     -0.00034295         0.148391        0.259896
281718                -0.0373249       0.0233116     -0.000146904     0.000401684        -0.677265       -0.731208      9.95395e-05    -0.000398123
                    -0.000218604     0.000383047         0.113386        0.278801      0.000125949     0.000443952          0.85455       -0.410433
                       -0.677498       -0.731425      7.63756e-05     0.000373162       -0.0258611       0.0362645     -0.000157399    -0.000476955
                     0.000167372    -0.000448619         0.854752       -0.409595     -0.000270679    -0.000342977         0.148583        0.259847
281720                -0.0373291       0.0233281     -0.000146992     0.000401841        -0.677468       -0.731019      9.94243e-05    -0.000398272
                    -0.000218731     0.000383139         0.113426        0.278842      0.000126113     0.000444066         0.854389       -0.410729
                       -0.677702       -0.731236      7.64875e-05     0.000373262       -0.0258576        0.036282     -0.000157893    -0.000477043
                      0.00016718    -0.000448871         0.854591       -0.409892     -0.000271101    -0.000343005         0.148774        0.259797
281722                -0.0373332       0.0233445     -0.000147081     0.000401999        -0.677671       -0.730829       9.9309e-05     -0.00039842
                    -0.000218858     0.000383231         0.113467        0.278882      0.000126277      0.00044418         0.854228       -0.411026
                       -0.677905       -0.731046      7.65995e-05     0.000373362       -0.0258542       0.0362994     -0.000158387    -0.000477131
                     0.000166988    -0.000449122         0.854429       -0.410188     -0.000271523    -0.000343032         0.148966        0.259747
281724                -0.0373374        0.023361      -0.00014717     0.000402157        -0.677875        -0.73064      9.91934e-05    -0.000398568
                    -0.000218985     0.000383323         0.113507        0.278923      0.000126441     0.000444294         0.854067       -0.411322
                       -0.678109       -0.730856      7.67114e-05     0.000373462       -0.0258507       0.0363168     -0.000158882    -0.000477218
                     0.000166796    -0.000449374         0.854268       -0.410485     -0.000271946    -0.000343059         0.149158        0.259698
281726                -0.0373416       0.0233775     -0.000147259     0.000402315        -0.678078        -0.73045      9.90777e-05    -0.000398716
                    -0.000219112     0.000383416         0.113548        0.278963      0.000126604     0.000444408         0.853905       -0.411618
                       -0.678312       -0.730667      7.68233e-05     0.000373561       -0.0258473       0.0363342     -0.000159376    -0.000477305
                     0.000166604    -0.000449625         0.854107       -0.410781     -0.000272368    -0.000343086         0.149349        0.259648
281728                -0.0373457        0.023394     -0.000147348     0.000402473        -0.678281       -0.730261      9.89618e-05    -0.000398863
                    -0.000219239     0.000383509         0.113588        0.279003      0.000126768     0.000444522         0.853744       -0.411914
                       -0.678516       -0.730477      7.69351e-05     0.000373661       -0.0258438       0.0363516      -0.00015987    -0.000477391
                     0.000166411    -0.000449877         0.853945       -0.411078     -0.000272791    -0.000343112         0.149541        0.259598
281730                -0.0373499       0.0234104     -0.000147436     0.000402631        -0.678484       -0.730071      9.88458e-05    -0.000399011
                    -0.000219367     0.000383602         0.113629        0.279044      0.000126932     0.000444636         0.853582        -0.41221
                       -0.678719       -0.730287      7.70469e-05      0.00037376       -0.0258403       0.0363691     -0.000160364    -0.000477477
                     0.000166219    -0.000450128         0.853784       -0.411374     -0.000273213    -0.000343138         0.149733        0.259547
281732                 -0.037354       0.0234269     -0.000147525     0.000402789        -0.678687       -0.729881      9.87295e-05    -0.000399159
                    -0.000219494     0.000383695          0.11367        0.279084      0.000127096      0.00044475          0.85342       -0.412505
                       -0.678922       -0.730097      7.71586e-05      0.00037386       -0.0258368       0.0363865     -0.000160858    -0.000477563
                     0.000166027     -0.00045038         0.853622       -0.411671     -0.000273636    -0.000343164         0.149924        0.259497
281734                -0.0373582       0.0234434     -0.000147614     0.000402948         -0.67889       -0.729691      9.86131e-05    -0.000399307
                    -0.000219622     0.000383789          0.11371        0.279125       0.00012726     0.000444864         0.853259       -0.412801
                       -0.679126       -0.729907      7.72703e-05     0.000373959       -0.0258333       0.0364039     -0.000161352    -0.000477648
                     0.000165835    -0.000450632          0.85346       -0.411967     -0.000274059    -0.000343189         0.150116        0.259446
281736                -0.0373623       0.0234599     -0.000147702     0.000403107        -0.679093       -0.729501      9.84965e-05    -0.000399455
                     -0.00021975     0.000383882         0.113751        0.279165      0.000127424     0.000444978         0.853097       -0.413097
                       -0.679329       -0.729717      7.73818e-05     0.000374059       -0.0258298       0.0364214     -0.000161846    -0.000477733
                     0.000165642    -0.000450883         0.853298       -0.412263     -0.000274482    -0.000343214         0.150308        0.259396
281738                -0.0373665       0.0234764     -0.000147791     0.000403266        -0.679296       -0.729311      9.83797e-05    -0.000399603
                    -0.000219877     0.000383976         0.113791        0.279205      0.000127588     0.000445091         0.852935       -0.413393
                       -0.679532       -0.729527      7.74933e-05     0.000374158       -0.0258263       0.0364388      -0.00016234    -0.000477818
                      0.00016545    -0.000451135         0.853136       -0.412559     -0.000274905    -0.000343239         0.150499        0.259345
281740                -0.0373706       0.0234929      -0.00014788     0.000403425        -0.679499       -0.729121      9.82628e-05    -0.000399751
                    -0.000220005      0.00038407         0.113832        0.279246      0.000127753     0.000445205         0.852772       -0.413688
                       -0.679735       -0.729337      7.76048e-05     0.000374258       -0.0258228       0.0364563     -0.000162834    -0.000477902
                     0.000165258    -0.000451387         0.852974       -0.412855     -0.000275329    -0.000343264         0.150691        0.259294
281742                -0.0373747       0.0235094     -0.000147968     0.000403584        -0.679702       -0.728931      9.81456e-05    -0.000399898
                    -0.000220133     0.000384164         0.113873        0.279286      0.000127917     0.000445319          0.85261       -0.413984
                       -0.679938       -0.729147      7.77161e-05     0.000374357       -0.0258192       0.0364737     -0.000163328    -0.000477986
                     0.000165065    -0.000451638         0.852812       -0.413151     -0.000275752    -0.000343288         0.150883        0.259243
281744                -0.0373789       0.0235258     -0.000148057     0.000403743        -0.679904       -0.728741      9.80283e-05    -0.000400046
                    -0.000220261     0.000384259         0.113913        0.279327      0.000128081     0.000445432         0.852448       -0.414279
                       -0.680141       -0.728957      7.78273e-05     0.000374456       -0.0258157       0.0364912     -0.000163823    -0.000478069
                     0.000164873     -0.00045189         0.852649       -0.413447     -0.000276175    -0.000343312         0.151075        0.259192
281746                 -0.037383       0.0235423     -0.000148145     0.000403902        -0.680107       -0.728551      9.79108e-05    -0.000400194
                    -0.000220389     0.000384354         0.113954        0.279367      0.000128245     0.000445546         0.852285       -0.414575
                       -0.680344       -0.728767      7.79384e-05     0.000374556       -0.0258121       0.0365087     -0.000164317    -0.000478152
                      0.00016468    -0.000452142         0.852487       -0.413743     -0.000276599    -0.000343335         0.151266        0.259141
281748                -0.0373871       0.0235588     -0.000148234     0.000404062         -0.68031       -0.728361      9.77931e-05    -0.000400342
                    -0.000220518     0.000384448         0.113995        0.279408       0.00012841     0.000445659         0.852122        -0.41487
                       -0.680547       -0.728576      7.80493e-05     0.000374655       -0.0258085       0.0365262     -0.000164812    -0.000478235
                     0.000164488    -0.000452394         0.852324       -0.414039     -0.000277023    -0.000343358         0.151458        0.259089
281750                -0.0373913       0.0235753     -0.000148322     0.000404222        -0.680512       -0.728171      9.76752e-05    -0.000400489
                    -0.000220646     0.000384543         0.114036        0.279448      0.000128574     0.000445773          0.85196       -0.415165
                        -0.68075       -0.728386      7.81602e-05     0.000374754        -0.025805       0.0365436     -0.000165306    -0.000478317
                     0.000164295    -0.000452646         0.852161       -0.414335     -0.000277446    -0.000343381          0.15165        0.259038
281752                -0.0373954       0.0235918      -0.00014841     0.000404381        -0.680715        -0.72798      9.75571e-05    -0.000400637
                    -0.000220774     0.000384639         0.114076        0.279489      0.000128739     0.000445886         0.851797       -0.415461
                       -0.680953       -0.728196      7.82708e-05     0.000374854       -0.0258014       0.0365611     -0.000165801    -0.000478398
                     0.000164103    -0.000452898         0.851998       -0.414631      -0.00027787    -0.000343404         0.151842        0.258986
281754                -0.0373995       0.0236083     -0.000148498     0.000404541        -0.680917        -0.72779      9.74388e-05    -0.000400785
                    -0.000220903     0.000384734         0.114117        0.279529      0.000128903        0.000446         0.851634       -0.415756
                       -0.681155       -0.728005      7.83812e-05     0.000374953       -0.0257978       0.0365786     -0.000166296     -0.00047848
                      0.00016391     -0.00045315         0.851835       -0.414926     -0.000278294    -0.000343426         0.152033        0.258934
281756                -0.0374037       0.0236248     -0.000148586     0.000404701         -0.68112       -0.727599      9.73203e-05    -0.000400933
                    -0.000221032      0.00038483         0.114158         0.27957      0.000129068     0.000446113         0.851471       -0.416051
                       -0.681358       -0.727814      7.84914e-05     0.000375052       -0.0257941       0.0365961     -0.000166791    -0.000478561
                     0.000163717    -0.000453402         0.851672       -0.415222     -0.000278718    -0.000343448         0.152225        0.258883
281758                -0.0374078       0.0236413     -0.000148673     0.000404861        -0.681322       -0.727409      9.72016e-05    -0.000401081
                     -0.00022116     0.000384926         0.114199         0.27961      0.000129232     0.000446227         0.851307       -0.416346
                       -0.681561       -0.727624      7.86013e-05     0.000375151       -0.0257905       0.0366136     -0.000167287    -0.000478641
                     0.000163525    -0.000453654         0.851509       -0.415517     -0.000279142     -0.00034347         0.152417        0.258831
281760                -0.0374119       0.0236578      -0.00014876     0.000405021        -0.681525       -0.727218      9.70828e-05     -0.00040123
                    -0.000221289     0.000385022         0.114239        0.279651      0.000129397      0.00044634         0.851144       -0.416641
                       -0.681763       -0.727433      7.87108e-05      0.00037525       -0.0257869       0.0366311     -0.000167782    -0.000478721
                     0.000163332    -0.000453906         0.851346       -0.415813     -0.000279567    -0.000343491         0.152609        0.258778
281762                 -0.037416       0.0236743     -0.000148846     0.000405184        -0.681727       -0.727028      9.69637e-05    -0.000401378
                    -0.000221418     0.000385118          0.11428        0.279691      0.000129562     0.000446453          0.85098       -0.416936
                       -0.681966       -0.727242      7.88203e-05     0.000375348       -0.0257832       0.0366486     -0.000168278    -0.000478801
