! TOUCHSTONE file generated by CST MICROWAVE STUDIO
! Date and time: Wed Oct 15 17:30:41 2025
! Project name: Teste_Macro_Metasurface_Nanopilar.cst
! Parameters = {H=600; L_x=120; L_y=95; Lambda=1064; Max_L=200; Min_L=70; PathPara=1; Phi=0; Step_L=10; Theta=0; p=520; phaseX=180; phaseY=0}
! Header version: 2018
! Port assignment regex: !\s*Touchstone port\s*([0-9]+)\s*=\s*(CST MWS port|CST DS port)\s*([0-9]+|Zmin|Zmax)\s*\(\"(.*)\"\)(\s*mode\s*([0-9]+))?.*
! Touchstone port assignment:
! Touchstone port 1 = CST MWS port Zmax ("") mode 1
! Touchstone port 2 = CST MWS port Zmax ("") mode 2
! Touchstone port 3 = CST MWS port Zmin ("") mode 1
! Touchstone port 4 = CST MWS port Zmin ("") mode 2
! S-Parameters are not renormalized. Each port impedance will be approximated by the real part at minimum frequency. The values are described via the [Reference] keyword.
! Default impedance is overridden by [Reference]
[Version] 2.0
# GHz S RI R 376.73
[Number of Ports] 4
[Reference]
376.73 376.73 259.888 259.888 
[Number of Frequencies] 51
[Network Data]
281700                -0.0170208      0.00425441     -1.30125e-05     4.32692e-05        -0.600852       -0.796735     -0.000270976     0.000233493
                     3.41463e-05    -0.000178347         0.163939       0.0165837      -3.7091e-05     0.000257632         -0.94354        0.261567
                       -0.600776       -0.796576     -8.12226e-05     0.000110993      -0.00880863       0.0159542      0.000332031    -7.17447e-05
                    -0.000148777     0.000258796        -0.943745        0.261026      1.30053e-05    -4.93182e-05        -0.131187       0.0987001
281702                 -0.017025      0.00426832     -1.28437e-05     4.34603e-05        -0.601073       -0.796568     -0.000270858     0.000233641
                     3.40379e-05     -0.00017835         0.163947       0.0165642     -3.70482e-05     0.000257622        -0.943442        0.261914
                       -0.600998        -0.79641     -8.13705e-05     0.000110929      -0.00881433       0.0159593      0.000331973    -7.18283e-05
                     -0.00014877     0.000258739        -0.943647        0.261374      1.30271e-05    -4.92362e-05         -0.13113       0.0987837
281704                -0.0170291      0.00428223     -1.26748e-05     4.36504e-05        -0.601294       -0.796401     -0.000270741     0.000233789
                     3.39285e-05    -0.000178352         0.163954       0.0165447     -3.70055e-05     0.000257612        -0.943344        0.262261
                       -0.601219       -0.796243     -8.15184e-05     0.000110865      -0.00882003       0.0159645      0.000331915    -7.19119e-05
                    -0.000148762     0.000258683        -0.943549        0.261722       1.3049e-05    -4.91542e-05        -0.131074       0.0988673
281706                -0.0170333      0.00429614     -1.25059e-05     4.38395e-05        -0.601515       -0.796233     -0.000270623     0.000233937
                      3.3818e-05    -0.000178353         0.163961       0.0165252     -3.69626e-05     0.000257602        -0.943246        0.262608
                       -0.601439       -0.796077      -8.1666e-05     0.000110803      -0.00882572       0.0159697      0.000331857    -7.19956e-05
                    -0.000148753     0.000258629        -0.943451         0.26207      1.30709e-05    -4.90723e-05        -0.131018       0.0989509
281708                -0.0170375      0.00431005     -1.23369e-05     4.40277e-05        -0.601735       -0.796066     -0.000270505     0.000234085
                     3.37066e-05    -0.000178352         0.163969       0.0165056     -3.69198e-05     0.000257591        -0.943148        0.262955
                        -0.60166        -0.79591     -8.18135e-05     0.000110741      -0.00883141       0.0159748      0.000331799    -7.20794e-05
                    -0.000148742     0.000258575        -0.943352        0.262418      1.30928e-05    -4.89904e-05        -0.130962       0.0990344
281710                -0.0170417      0.00432397     -1.21678e-05      4.4215e-05        -0.601956       -0.795898     -0.000270387     0.000234233
                     3.35942e-05    -0.000178351         0.163976       0.0164861     -3.68769e-05     0.000257581        -0.943049        0.263302
                       -0.601881       -0.795743     -8.19609e-05      0.00011068       -0.0088371         0.01598       0.00033174    -7.21633e-05
                    -0.000148731     0.000258522        -0.943254        0.262766      1.31148e-05    -4.89085e-05        -0.130905       0.0991178
281712                -0.0170458      0.00433788     -1.19987e-05     4.44013e-05        -0.602177       -0.795731     -0.000270268     0.000234381
                     3.34809e-05    -0.000178349         0.163983       0.0164665      -3.6834e-05     0.000257571        -0.942951        0.263649
                       -0.602102       -0.795576     -8.21081e-05      0.00011062      -0.00884279       0.0159852      0.000331682    -7.22473e-05
                    -0.000148718     0.000258471        -0.943156        0.263114      1.31367e-05    -4.88267e-05        -0.130849       0.0992013
281714                  -0.01705       0.0043518     -1.18295e-05     4.45866e-05        -0.602397       -0.795563     -0.000270149     0.000234529
                     3.33666e-05    -0.000178345         0.163991        0.016447     -3.67911e-05     0.000257561        -0.942852        0.263996
                       -0.602323       -0.795409     -8.22552e-05     0.000110562      -0.00884847       0.0159904      0.000331623    -7.23313e-05
                    -0.000148704      0.00025842        -0.943057        0.263461      1.31588e-05    -4.87448e-05        -0.130793       0.0992847
281716                -0.0170542      0.00436572     -1.16602e-05      4.4771e-05        -0.602618       -0.795396      -0.00027003     0.000234678
                     3.32515e-05    -0.000178341         0.163998       0.0164274     -3.67481e-05     0.000257551        -0.942754        0.264343
                       -0.602543       -0.795242     -8.24021e-05     0.000110503      -0.00885415       0.0159956      0.000331564    -7.24155e-05
                    -0.000148689      0.00025837        -0.942958        0.263809      1.31808e-05     -4.8663e-05        -0.130736       0.0993681
281718                -0.0170583      0.00437964     -1.14909e-05     4.49544e-05        -0.602838       -0.795228     -0.000269911     0.000234826
                     3.31355e-05    -0.000178335         0.164005       0.0164079     -3.67051e-05     0.000257541        -0.942655         0.26469
                       -0.602764       -0.795075     -8.25488e-05     0.000110446      -0.00885983       0.0160008      0.000331505    -7.24997e-05
                    -0.000148673     0.000258321        -0.942859        0.264157      1.32029e-05    -4.85812e-05        -0.130679       0.0994514
281720                -0.0170625      0.00439356     -1.13216e-05     4.51369e-05        -0.603058        -0.79506     -0.000269792     0.000234974
                     3.30187e-05    -0.000178329         0.164013       0.0163883     -3.66621e-05     0.000257531        -0.942556        0.265037
                       -0.602985       -0.794908     -8.26954e-05      0.00011039      -0.00886551       0.0160061      0.000331446     -7.2584e-05
                    -0.000148657     0.000258273         -0.94276        0.264504       1.3225e-05    -4.84995e-05        -0.130623       0.0995347
281722                -0.0170667      0.00440748     -1.11522e-05     4.53184e-05        -0.603279       -0.794892     -0.000269673     0.000235123
                     3.29011e-05    -0.000178321          0.16402       0.0163688     -3.66191e-05     0.000257521        -0.942457        0.265384
                       -0.603205       -0.794741     -8.28418e-05     0.000110335      -0.00887118       0.0160113      0.000331387    -7.26683e-05
                    -0.000148639     0.000258226        -0.942661        0.264852      1.32472e-05    -4.84177e-05        -0.130566        0.099618
281724                -0.0170708       0.0044214     -1.09827e-05      4.5499e-05        -0.603499       -0.794724     -0.000269553     0.000235271
                     3.27826e-05    -0.000178313         0.164027       0.0163492      -3.6576e-05     0.000257511        -0.942358        0.265731
                       -0.603426       -0.794574     -8.29881e-05      0.00011028      -0.00887685       0.0160165      0.000331328    -7.27528e-05
                     -0.00014862     0.000258179        -0.942562          0.2652      1.32694e-05     -4.8336e-05        -0.130509       0.0997012
281726                 -0.017075      0.00443533     -1.08133e-05     4.56786e-05        -0.603719       -0.794557     -0.000269433     0.000235419
                     3.26634e-05    -0.000178304         0.164035       0.0163296     -3.65329e-05     0.000257501        -0.942258        0.266078
                       -0.603646       -0.794406     -8.31342e-05     0.000110227      -0.00888252       0.0160218      0.000331268    -7.28373e-05
                      -0.0001486     0.000258134        -0.942462        0.265547      1.32917e-05    -4.82543e-05        -0.130453       0.0997844
281728                -0.0170791      0.00444925     -1.06437e-05     4.58573e-05         -0.60394       -0.794389     -0.000269313     0.000235568
                     3.25434e-05    -0.000178294         0.164042         0.01631     -3.64898e-05     0.000257491        -0.942159        0.266425
                       -0.603867       -0.794239     -8.32801e-05     0.000110174      -0.00888818        0.016027      0.000331209    -7.29219e-05
                    -0.000148579     0.000258088        -0.942363        0.265895       1.3314e-05    -4.81727e-05        -0.130396       0.0998676
281730                -0.0170833      0.00446318     -1.04742e-05      4.6035e-05         -0.60416        -0.79422     -0.000269193     0.000235716
                     3.24227e-05    -0.000178282         0.164049       0.0162905     -3.64467e-05     0.000257482        -0.942059        0.266772
                       -0.604087       -0.794071     -8.34258e-05     0.000110122      -0.00889384       0.0160323      0.000331149    -7.30066e-05
                    -0.000148558     0.000258044        -0.942263        0.266242      1.33364e-05     -4.8091e-05        -0.130339       0.0999508
281732                -0.0170874      0.00447711     -1.03045e-05     4.62118e-05         -0.60438       -0.794052     -0.000269073     0.000235864
                     3.23012e-05     -0.00017827         0.164057       0.0162709     -3.64036e-05     0.000257472         -0.94196        0.267118
                       -0.604307       -0.793904     -8.35714e-05     0.000110071       -0.0088995       0.0160376       0.00033109    -7.30913e-05
                    -0.000148535        0.000258        -0.942163         0.26659       1.3359e-05    -4.80094e-05        -0.130282        0.100034
281734                -0.0170916      0.00449103     -1.01349e-05     4.63876e-05          -0.6046       -0.793884     -0.000268952     0.000236013
                     3.21791e-05    -0.000178258         0.164064       0.0162513     -3.63605e-05     0.000257463         -0.94186        0.267465
                       -0.604527       -0.793736     -8.37169e-05     0.000110021      -0.00890516       0.0160429       0.00033103    -7.31761e-05
                    -0.000148512     0.000257957        -0.942063        0.266937      1.33816e-05    -4.79278e-05        -0.130225        0.100117
281736                -0.0170957      0.00450496     -9.96518e-06     4.65624e-05         -0.60482       -0.793716     -0.000268832     0.000236161
                     3.20562e-05    -0.000178244         0.164071       0.0162317     -3.63175e-05     0.000257454         -0.94176        0.267812
                       -0.604748       -0.793568     -8.38621e-05     0.000109972      -0.00891081       0.0160482      0.000330971     -7.3261e-05
                    -0.000148488     0.000257914        -0.941963        0.267285      1.34044e-05    -4.78462e-05        -0.130168          0.1002
281738                -0.0170999      0.00451889     -9.79545e-06     4.67364e-05         -0.60504       -0.793547     -0.000268712     0.000236309
                     3.19327e-05    -0.000178229         0.164079       0.0162121     -3.62746e-05     0.000257445         -0.94166        0.268158
                       -0.604968       -0.793401     -8.40072e-05     0.000109924      -0.00891646       0.0160535      0.000330912    -7.33459e-05
                    -0.000148463     0.000257872        -0.941863        0.267632      1.34274e-05    -4.77646e-05        -0.130111        0.100283
281740                 -0.017104      0.00453283     -9.62569e-06     4.69093e-05         -0.60526       -0.793379     -0.000268592     0.000236457
                     3.18085e-05    -0.000178214         0.164086       0.0161925     -3.62322e-05     0.000257437        -0.941559        0.268505
                       -0.605188       -0.793233     -8.41521e-05     0.000109877      -0.00892211       0.0160588      0.000330853     -7.3431e-05
                    -0.000148437      0.00025783        -0.941763        0.267979      1.34508e-05     -4.7683e-05        -0.130053        0.100366
281742                -0.0171081      0.00454676     -9.45589e-06     4.70814e-05         -0.60548       -0.793211     -0.000268474     0.000236605
                     3.16837e-05    -0.000178198         0.164093       0.0161729     -3.61907e-05      0.00025743        -0.941459        0.268852
                       -0.605408       -0.793065     -8.42968e-05     0.000109831      -0.00892776       0.0160641      0.000330796     -7.3516e-05
                     -0.00014841     0.000257789        -0.941662        0.268327       1.3475e-05    -4.76013e-05        -0.129996        0.100449
281744                -0.0171123      0.00456069     -9.28607e-06     4.72525e-05          -0.6057       -0.793042     -0.000268359     0.000236751
                     3.15583e-05    -0.000178181           0.1641       0.0161533     -3.61542e-05     0.000257429        -0.941359        0.269198
                       -0.605628       -0.792897     -8.44414e-05     0.000109785       -0.0089334       0.0160695      0.000330743    -7.36011e-05
                    -0.000148383     0.000257748        -0.941561        0.268674      1.35017e-05    -4.75192e-05        -0.129939        0.100532
281746                -0.0171164      0.00457463     -9.11621e-06     4.74226e-05         -0.60592       -0.792873     -0.000268267     0.000236887
                     3.14322e-05    -0.000178163         0.164108       0.0161337     -3.62033e-05     0.000257384        -0.941258        0.269545
                       -0.605848       -0.792729     -8.45857e-05      0.00010974      -0.00893904       0.0160748      0.000330715    -7.36854e-05
                    -0.000148355     0.000257708        -0.941461        0.269021      1.35513e-05    -4.74308e-05        -0.129882        0.100615
281748                -0.0171205      0.00458857     -8.94633e-06     4.75918e-05        -0.606139       -0.792705     -0.000268019     0.000237078
                     3.13056e-05    -0.000178144         0.164115        0.016114     -3.60493e-05     0.000257369        -0.941157        0.269891
                       -0.606068       -0.792561     -8.47299e-05     0.000109697      -0.00894467       0.0160802      0.000330513    -7.37666e-05
                    -0.000148327     0.000257668         -0.94136        0.269369      1.35183e-05    -4.73574e-05        -0.129824        0.100697
281750                -0.0171247      0.00460251     -8.77642e-06       4.776e-05        -0.606359       -0.792536     -0.000267952     0.000237211
                     3.11784e-05    -0.000178125         0.164122       0.0160944     -3.60069e-05     0.000257372        -0.941056        0.270238
                       -0.606287       -0.792393     -8.48739e-05     0.000109654      -0.00895031       0.0160855      0.000330516    -7.38564e-05
                    -0.000148297     0.000257629        -0.941259        0.269716      1.35529e-05    -4.72763e-05        -0.129767         0.10078
281752                -0.0171288      0.00461644     -8.60648e-06     4.79273e-05        -0.606579       -0.792367     -0.000267839     0.000237357
                     3.10506e-05    -0.000178105         0.164129       0.0160748     -3.59643e-05     0.000257366        -0.940955        0.270584
                       -0.606507       -0.792224     -8.50178e-05     0.000109612      -0.00895594       0.0160909      0.000330465    -7.39421e-05
                    -0.000148267      0.00025759        -0.941158        0.270063      1.35788e-05    -4.71949e-05        -0.129709        0.100863
281754                -0.0171329      0.00463038     -8.43653e-06     4.80937e-05        -0.606799       -0.792199     -0.000267719     0.000237505
                     3.09222e-05    -0.000178084         0.164137       0.0160552     -3.59211e-05     0.000257359        -0.940854        0.270931
                       -0.606727       -0.792056     -8.51614e-05     0.000109571      -0.00896157       0.0160963      0.000330407    -7.40277e-05
                    -0.000148236     0.000257551        -0.941056         0.27041      1.36031e-05    -4.71134e-05        -0.129652        0.100946
281756                -0.0171371      0.00464433     -8.26655e-06     4.82591e-05        -0.607018        -0.79203     -0.000267598     0.000237653
                     3.07933e-05    -0.000178063         0.164144       0.0160355     -3.58778e-05     0.000257351        -0.940753        0.271277
                       -0.606947       -0.791888     -8.53049e-05     0.000109531      -0.00896719       0.0161016      0.000330348    -7.41132e-05
                    -0.000148205     0.000257513        -0.940955        0.270757       1.3627e-05     -4.7032e-05        -0.129594        0.101029
281758                -0.0171412      0.00465827     -8.09656e-06     4.84235e-05        -0.607238       -0.791861     -0.000267477     0.000237801
                     3.06638e-05     -0.00017804         0.164151       0.0160159     -3.58342e-05     0.000257343        -0.940651        0.271624
                       -0.607166       -0.791719     -8.54482e-05     0.000109491      -0.00897282        0.016107      0.000330288    -7.41988e-05
                    -0.000148173     0.000257474        -0.940854        0.271104      1.36506e-05    -4.69507e-05        -0.129536        0.101111
281760                -0.0171453      0.00467221     -7.92654e-06     4.85871e-05        -0.607457       -0.791692     -0.000267354     0.000237949
                     3.05339e-05    -0.000178017         0.164158       0.0159962     -3.57906e-05     0.000257334         -0.94055         0.27197
                       -0.607386       -0.791551     -8.55912e-05     0.000109453      -0.00897844       0.0161124      0.000330228    -7.42845e-05
                    -0.000148141     0.000257437        -0.940752        0.271451      1.36743e-05    -4.68693e-05        -0.129478        0.101194
281762                -0.0171494      0.00468616     -7.75652e-06     4.87497e-05        -0.607677       -0.791522     -0.000267231     0.000238098
                     3.04034e-05    -0.000177994         0.164166       0.0159766     -3.57469e-05     0.000257326        -0.940448        0.272316
                       -0.607605       -0.791382     -8.57341e-05     0.000109415      -0.00898405       0.0161178      0.000330167    -7.43702e-05
