! TOUCHSTONE file generated by CST MICROWAVE STUDIO
! Date and time: Wed Oct 15 17:32:26 2025
! Project name: Teste_Macro_Metasurface_Nanopilar.cst
! Parameters = {H=600; L_x=150; L_y=110; Lambda=1064; Max_L=200; Min_L=70; PathPara=1; Phi=0; Step_L=10; Theta=0; p=520; phaseX=180; phaseY=0}
! Header version: 2018
! Port assignment regex: !\s*Touchstone port\s*([0-9]+)\s*=\s*(CST MWS port|CST DS port)\s*([0-9]+|Zmin|Zmax)\s*\(\"(.*)\"\)(\s*mode\s*([0-9]+))?.*
! Touchstone port assignment:
! Touchstone port 1 = CST MWS port Zmax ("") mode 1
! Touchstone port 2 = CST MWS port Zmax ("") mode 2
! Touchstone port 3 = CST MWS port Zmin ("") mode 1
! Touchstone port 4 = CST MWS port Zmin ("") mode 2
! S-Parameters are not renormalized. Each port impedance will be approximated by the real part at minimum frequency. The values are described via the [Reference] keyword.
! Default impedance is overridden by [Reference]
[Version] 2.0
# GHz S RI R 376.73
[Number of Ports] 4
[Reference]
376.73 376.73 259.888 259.888 
[Number of Frequencies] 51
[Network Data]
281700                  0.142746      -0.0317976     -7.68819e-05    -5.94194e-05        -0.171401        0.964855      0.000195714     0.000200307
                    -2.83335e-05    -6.77637e-05        0.0880609        0.173676     -0.000207277    -0.000203095         0.955228       -0.199743
                       -0.172418        0.965536     -0.000150862    -0.000194518         0.120778       0.0797882      0.000105628    -5.01494e-05
                     0.000215934     0.000126051         0.954788       -0.199727      0.000119431    -7.91437e-05      -0.00979685        0.193773
281702                  0.142723      -0.0318096     -7.66266e-05    -5.93653e-05        -0.171011        0.964927      0.000195811     0.000200264
                    -2.82332e-05    -6.76915e-05        0.0880807        0.173693     -0.000207402    -0.000203025         0.955158       -0.200055
                       -0.172028        0.965608     -0.000151024    -0.000194661         0.120816       0.0796939       0.00010557    -5.03144e-05
                     0.000215985     0.000126113          0.95472       -0.200037      0.000119367    -7.92875e-05      -0.00968104        0.193803
281704                    0.1427      -0.0318217     -7.63708e-05    -5.93111e-05        -0.170621        0.964999      0.000195908     0.000200221
                    -2.81327e-05    -6.76195e-05        0.0881006         0.17371     -0.000207527    -0.000202954         0.955088       -0.200367
                       -0.171638        0.965679     -0.000151186    -0.000194804         0.120855       0.0795996      0.000105512    -5.04793e-05
                     0.000216035     0.000126175         0.954651       -0.200347      0.000119304    -7.94314e-05      -0.00956519        0.193833
281706                  0.142678      -0.0318337     -7.61146e-05    -5.92567e-05        -0.170231        0.965071      0.000196005     0.000200179
                    -2.80319e-05    -6.75474e-05        0.0881204        0.173727     -0.000207651    -0.000202884         0.955017       -0.200678
                       -0.171248         0.96575     -0.000151349    -0.000194946         0.120893       0.0795053      0.000105454    -5.06443e-05
                     0.000216086     0.000126237         0.954582       -0.200657       0.00011924    -7.95753e-05      -0.00944931        0.193863
281708                  0.142655      -0.0318457      -7.5858e-05    -5.92022e-05        -0.169841        0.965143      0.000196102     0.000200136
                    -2.79309e-05    -6.74755e-05        0.0881403        0.173745     -0.000207776    -0.000202814         0.954947        -0.20099
                       -0.170858        0.965821     -0.000151512    -0.000195089         0.120932        0.079411      0.000105396    -5.08093e-05
                     0.000216138     0.000126299         0.954513       -0.200967      0.000119177    -7.97192e-05       -0.0093334        0.193893
281710                  0.142632      -0.0318578      -7.5601e-05    -5.91476e-05        -0.169451        0.965214        0.0001962     0.000200093
                    -2.78298e-05    -6.74036e-05        0.0881601        0.173762     -0.000207901    -0.000202743         0.954876       -0.201302
                       -0.170467        0.965892     -0.000151675    -0.000195231          0.12097       0.0793167      0.000105338    -5.09742e-05
                     0.000216189     0.000126361         0.954444       -0.201277      0.000119114    -7.98631e-05      -0.00921745        0.193922
281712                   0.14261      -0.0318698     -7.53435e-05    -5.90928e-05         -0.16906        0.965286      0.000196297      0.00020005
                    -2.77284e-05    -6.73318e-05        0.0881799        0.173779     -0.000208026    -0.000202673         0.954806       -0.201613
                       -0.170077        0.965963     -0.000151839    -0.000195373         0.121008       0.0792223       0.00010528    -5.11391e-05
                     0.000216241     0.000126423         0.954375       -0.201587      0.000119051    -8.00071e-05      -0.00910147        0.193952
281714                  0.142587      -0.0318818     -7.50857e-05     -5.9038e-05         -0.16867        0.965357      0.000196394     0.000200007
                    -2.76268e-05      -6.726e-05        0.0881998        0.173796     -0.000208151    -0.000202602         0.954735       -0.201925
                       -0.169687        0.966034     -0.000152003    -0.000195514         0.121047       0.0791279      0.000105221    -5.13041e-05
                     0.000216292     0.000126485         0.954305       -0.201897      0.000118988     -8.0151e-05      -0.00898545        0.193982
281716                  0.142564      -0.0318938     -7.48275e-05     -5.8983e-05         -0.16828        0.965428      0.000196492     0.000199964
                     -2.7525e-05    -6.71883e-05        0.0882196        0.173814     -0.000208275    -0.000202531         0.954664       -0.202237
                       -0.169297        0.966104     -0.000152167    -0.000195655         0.121085       0.0790335      0.000105163     -5.1469e-05
                     0.000216344     0.000126546         0.954236       -0.202207      0.000118925     -8.0295e-05       -0.0088694        0.194011
281718                  0.142542      -0.0319058     -7.45689e-05    -5.89278e-05         -0.16789        0.965499      0.000196589     0.000199921
                     -2.7423e-05    -6.71166e-05        0.0882395        0.173831       -0.0002084    -0.000202461         0.954593       -0.202548
                       -0.168907        0.966175     -0.000152331    -0.000195796         0.121123       0.0789391      0.000105105    -5.16339e-05
                     0.000216397     0.000126608         0.954166       -0.202517      0.000118862     -8.0439e-05      -0.00875332        0.194041
281720                  0.142519      -0.0319177     -7.43099e-05    -5.88726e-05          -0.1675         0.96557      0.000196687     0.000199878
                    -2.73209e-05     -6.7045e-05        0.0882594        0.173848     -0.000208524     -0.00020239         0.954522        -0.20286
                       -0.168517        0.966245     -0.000152495    -0.000195937         0.121161       0.0788447      0.000105047    -5.17988e-05
                     0.000216449     0.000126669         0.954097       -0.202827      0.000118799    -8.05829e-05       -0.0086372         0.19407
281722                  0.142496      -0.0319297     -7.40506e-05    -5.88172e-05        -0.167109         0.96564      0.000196784     0.000199835
                    -2.72185e-05    -6.69735e-05        0.0882792        0.173866     -0.000208649    -0.000202319         0.954451       -0.203171
                       -0.168126        0.966315      -0.00015266    -0.000196077         0.121199       0.0787502      0.000104989    -5.19637e-05
                     0.000216501     0.000126731         0.954027       -0.203137      0.000118737    -8.07269e-05      -0.00852105        0.194099
281724                  0.142473      -0.0319417      -7.3791e-05    -5.87617e-05        -0.166719        0.965711      0.000196882     0.000199792
                    -2.71159e-05     -6.6902e-05        0.0882991        0.173883     -0.000208773    -0.000202248          0.95438       -0.203483
                       -0.167736        0.966385     -0.000152825    -0.000196217         0.121236       0.0786557       0.00010493    -5.21286e-05
                     0.000216554     0.000126792         0.953957       -0.203447      0.000118675    -8.08709e-05      -0.00840486        0.194129
281726                  0.142451      -0.0319536      -7.3531e-05    -5.87061e-05        -0.166329        0.965781       0.00019698     0.000199749
                    -2.70131e-05    -6.68306e-05        0.0883189          0.1739     -0.000208898    -0.000202177         0.954309       -0.203794
                       -0.167346        0.966454      -0.00015299    -0.000196357         0.121274       0.0785612      0.000104872    -5.22935e-05
                     0.000216607     0.000126854         0.953887       -0.203757      0.000118612    -8.10149e-05      -0.00828864        0.194158
281728                  0.142428      -0.0319655     -7.32706e-05    -5.86504e-05        -0.165938        0.965851      0.000197077     0.000199706
                    -2.69101e-05    -6.67593e-05        0.0883388        0.173918     -0.000209022    -0.000202106         0.954237       -0.204106
                       -0.166955        0.966524     -0.000153155    -0.000196496         0.121312       0.0784667      0.000104814    -5.24584e-05
                      0.00021666     0.000126915         0.953817       -0.204067       0.00011855    -8.11589e-05      -0.00817239        0.194187
281730                  0.142405      -0.0319775       -7.301e-05    -5.85945e-05        -0.165548        0.965921      0.000197175     0.000199663
                    -2.68069e-05     -6.6688e-05        0.0883587        0.173935     -0.000209146    -0.000202035         0.954166       -0.204417
                       -0.166565        0.966593     -0.000153321    -0.000196635         0.121349       0.0783721      0.000104755    -5.26233e-05
                     0.000216714     0.000126977         0.953747       -0.204377      0.000118488    -8.13029e-05       -0.0080561        0.194216
281732                  0.142383      -0.0319894      -7.2749e-05    -5.85386e-05        -0.165157        0.965991      0.000197273      0.00019962
                    -2.67036e-05    -6.66168e-05        0.0883785        0.173952      -0.00020927    -0.000201964         0.954094       -0.204728
                       -0.166175        0.966663     -0.000153487    -0.000196774         0.121387       0.0782776      0.000104697    -5.27882e-05
                     0.000216767     0.000127038         0.953676       -0.204686      0.000118426    -8.14468e-05      -0.00793977        0.194245
281734                   0.14236      -0.0320013     -7.24877e-05    -5.84825e-05        -0.164767         0.96606       0.00019737     0.000199577
                       -2.66e-05    -6.65456e-05        0.0883984        0.173969     -0.000209394    -0.000201893         0.954022        -0.20504
                       -0.165784        0.966732     -0.000153653    -0.000196913         0.121424        0.078183      0.000104638    -5.29531e-05
                     0.000216821     0.000127099         0.953606       -0.204996      0.000118364    -8.15908e-05      -0.00782342        0.194274
281736                  0.142337      -0.0320132     -7.22261e-05    -5.84264e-05        -0.164377         0.96613      0.000197468     0.000199534
                    -2.64963e-05    -6.64745e-05        0.0884183        0.173987     -0.000209518    -0.000201821         0.953951       -0.205351
                       -0.165394        0.966801     -0.000153819    -0.000197051         0.121462       0.0780884       0.00010458     -5.3118e-05
                     0.000216875      0.00012716         0.953536       -0.205306      0.000118303    -8.17347e-05      -0.00770703        0.194303
281738                  0.142314      -0.0320251     -7.19643e-05    -5.83701e-05        -0.163986        0.966199      0.000197566     0.000199491
                    -2.63924e-05    -6.64035e-05        0.0884382        0.174004     -0.000209642     -0.00020175         0.953879       -0.205662
                       -0.165003        0.966869     -0.000153986    -0.000197189         0.121499       0.0779938      0.000104521    -5.32829e-05
                     0.000216929     0.000127222         0.953465       -0.205616      0.000118241    -8.18787e-05       -0.0075906        0.194331
281740                  0.142292       -0.032037     -7.17021e-05    -5.83137e-05        -0.163595        0.966268      0.000197663     0.000199448
                    -2.62882e-05    -6.63325e-05         0.088458        0.174021     -0.000209766    -0.000201679         0.953807       -0.205974
                       -0.164613        0.966938     -0.000154152    -0.000197326         0.121536       0.0778991      0.000104462    -5.34478e-05
                     0.000216983     0.000127283         0.953394       -0.205925       0.00011818    -8.20226e-05      -0.00747415         0.19436
281742                  0.142269      -0.0320488     -7.14397e-05    -5.82573e-05        -0.163205        0.966337      0.000197761     0.000199405
                    -2.61839e-05    -6.62616e-05        0.0884779        0.174039      -0.00020989    -0.000201607         0.953734       -0.206285
                       -0.164222        0.967006     -0.000154319    -0.000197464         0.121573       0.0778045      0.000104403    -5.36127e-05
                     0.000217038     0.000127344         0.953324       -0.206235      0.000118118    -8.21665e-05      -0.00735766        0.194389
281744                  0.142246      -0.0320607      -7.1177e-05    -5.82007e-05        -0.162814        0.966406      0.000197858     0.000199361
                    -2.60795e-05    -6.61907e-05        0.0884978        0.174056     -0.000210014    -0.000201536         0.953662       -0.206596
                       -0.163831        0.967075     -0.000154486      -0.0001976          0.12161       0.0777098      0.000104344    -5.37775e-05
                     0.000217092     0.000127405         0.953253       -0.206545      0.000118057    -8.23104e-05      -0.00724113        0.194417
281746                  0.142223      -0.0320726      -7.0914e-05     -5.8144e-05        -0.162424        0.966475      0.000197956     0.000199318
                    -2.59748e-05    -6.61199e-05        0.0885177        0.174073     -0.000210138    -0.000201465          0.95359       -0.206907
                       -0.163441        0.967143     -0.000154653    -0.000197737         0.121647       0.0776151      0.000104285    -5.39424e-05
                     0.000217147     0.000127466         0.953182       -0.206854      0.000117996    -8.24543e-05      -0.00712457        0.194446
281748                  0.142201      -0.0320844     -7.06508e-05    -5.80873e-05        -0.162033        0.966543      0.000198053     0.000199275
                    -2.58699e-05    -6.60492e-05        0.0885376        0.174091     -0.000210261    -0.000201393         0.953517       -0.207219
                        -0.16305        0.967211     -0.000154821    -0.000197873         0.121684       0.0775203      0.000104226    -5.41073e-05
                     0.000217202     0.000127527         0.953111       -0.207164      0.000117935    -8.25981e-05      -0.00700798        0.194474
281750                  0.142178      -0.0320963     -7.03874e-05    -5.80304e-05        -0.161642        0.966612       0.00019815     0.000199232
                    -2.57649e-05    -6.59785e-05        0.0885574        0.174108     -0.000210385    -0.000201321         0.953445        -0.20753
                       -0.162659        0.967279     -0.000154989    -0.000198009         0.121721       0.0774256      0.000104167    -5.42722e-05
                     0.000217258     0.000127588         0.953039       -0.207474      0.000117874     -8.2742e-05      -0.00689135        0.194503
281752                  0.142155      -0.0321081     -7.01237e-05    -5.79734e-05        -0.161251         0.96668      0.000198248     0.000199189
                    -2.56597e-05    -6.59079e-05        0.0885773        0.174125     -0.000210509     -0.00020125         0.953372       -0.207841
                       -0.162269        0.967346     -0.000155157    -0.000198145         0.121758       0.0773308      0.000104108    -5.44371e-05
                     0.000217313     0.000127649         0.952968       -0.207783      0.000117813    -8.28858e-05       -0.0067747        0.194531
281754                  0.142132      -0.0321199     -6.98598e-05    -5.79164e-05        -0.160861        0.966748      0.000198345     0.000199145
                    -2.55544e-05    -6.58373e-05        0.0885972        0.174143     -0.000210632    -0.000201178         0.953299       -0.208152
                       -0.161878        0.967414     -0.000155325     -0.00019828         0.121795       0.0772361      0.000104048    -5.46019e-05
                     0.000217369      0.00012771         0.952897       -0.208093      0.000117752    -8.30296e-05        -0.006658        0.194559
281756                   0.14211      -0.0321317     -6.95956e-05    -5.78593e-05         -0.16047        0.966816      0.000198442     0.000199102
                    -2.54488e-05    -6.57668e-05        0.0886171         0.17416     -0.000210755    -0.000201106         0.953226       -0.208463
                       -0.161487        0.967481     -0.000155493    -0.000198415         0.121831       0.0771413      0.000103989    -5.47668e-05
                     0.000217425     0.000127771         0.952825       -0.208402      0.000117692    -8.31733e-05      -0.00654128        0.194587
281758                  0.142087      -0.0321435     -6.93313e-05    -5.78021e-05        -0.160079        0.966884      0.000198539     0.000199059
                    -2.53431e-05    -6.56964e-05         0.088637        0.174177     -0.000210879    -0.000201035         0.953153       -0.208774
                       -0.161096        0.967548     -0.000155661     -0.00019855         0.121868       0.0770465      0.000103929    -5.49317e-05
                     0.000217481     0.000127832         0.952754       -0.208712      0.000117631     -8.3317e-05      -0.00642452        0.194616
281760                  0.142064      -0.0321553     -6.90667e-05    -5.77448e-05        -0.159688        0.966951      0.000198636     0.000199015
                    -2.52372e-05     -6.5626e-05        0.0886569        0.174195     -0.000211002    -0.000200963          0.95308       -0.209085
                       -0.160705        0.967615      -0.00015583    -0.000198684         0.121904       0.0769516      0.000103869    -5.50966e-05
                     0.000217537     0.000127893         0.952682       -0.209021      0.000117571    -8.34607e-05      -0.00630773        0.194644
281762                  0.142041      -0.0321671     -6.88019e-05    -5.76874e-05        -0.159297        0.967019      0.000198733     0.000198972
                    -2.51311e-05    -6.55557e-05        0.0886768        0.174212     -0.000211125    -0.000200891         0.953007       -0.209396
                       -0.160315        0.967682     -0.000155999    -0.000198818         0.121941       0.0768568       0.00010381    -5.52614e-05
