! TOUCHSTONE file generated by CST MICROWAVE STUDIO
! Date and time: Wed Oct 15 17:30:31 2025
! Project name: Teste_Macro_Metasurface_Nanopilar.cst
! Parameters = {H=600; L_x=115; L_y=155; Lambda=1064; Max_L=200; Min_L=70; PathPara=1; Phi=0; Step_L=10; Theta=0; p=520; phaseX=180; phaseY=0}
! Header version: 2018
! Port assignment regex: !\s*Touchstone port\s*([0-9]+)\s*=\s*(CST MWS port|CST DS port)\s*([0-9]+|Zmin|Zmax)\s*\(\"(.*)\"\)(\s*mode\s*([0-9]+))?.*
! Touchstone port assignment:
! Touchstone port 1 = CST MWS port Zmax ("") mode 1
! Touchstone port 2 = CST MWS port Zmax ("") mode 2
! Touchstone port 3 = CST MWS port Zmin ("") mode 1
! Touchstone port 4 = CST MWS port Zmin ("") mode 2
! S-Parameters are not renormalized. Each port impedance will be approximated by the real part at minimum frequency. The values are described via the [Reference] keyword.
! Default impedance is overridden by [Reference]
[Version] 2.0
# GHz S RI R 376.73
[Number of Ports] 4
[Reference]
376.73 376.73 259.888 259.888 
[Number of Frequencies] 51
[Network Data]
281700                  0.136807        0.239768     -0.000584671    -0.000347169         0.824295       -0.484447     -0.000347283    -1.11705e-05
                    -0.000591488    -0.000389491        0.0620218    -0.000952686      0.000517405     5.60071e-05         0.560504        0.815641
                        0.824354       -0.484349      0.000450245     -8.2905e-05         0.144305        0.232781      0.000729427    -0.000290742
                    -0.000331813    -7.04402e-06         0.560583        0.815764      0.000950508     -7.0854e-05        0.0226848      -0.0547588
281702                   0.13684        0.239808     -0.000584836     -0.00034706         0.824113       -0.484725     -0.000347348    -1.10645e-05
                    -0.000591622    -0.000389419        0.0620124    -0.000934744      0.000517439      5.5895e-05         0.560816        0.815428
                        0.824172       -0.484627      0.000450343    -8.31396e-05         0.144487        0.232728      0.000729291    -0.000291207
                    -0.000331877    -6.96173e-06         0.560895         0.81555      0.000950312     -7.1225e-05        0.0226225      -0.0547739
281704                  0.136873        0.239849     -0.000585001    -0.000346952         0.823931       -0.485004     -0.000347412    -1.09588e-05
                    -0.000591756    -0.000389348         0.062003      -0.0009168      0.000517473     5.57827e-05         0.561129        0.815214
                        0.823991       -0.484906      0.000450441    -8.33745e-05          0.14467        0.232674      0.000729155     -0.00029167
                    -0.000331942    -6.87939e-06         0.561208        0.815336      0.000950116    -7.15961e-05        0.0225602      -0.0547889
281706                  0.136906        0.239889     -0.000585167    -0.000346844         0.823749       -0.485282     -0.000347476    -1.08535e-05
                    -0.000591891    -0.000389276        0.0619935    -0.000898852      0.000517506     5.56703e-05         0.561441           0.815
                        0.823809       -0.485184       0.00045054    -8.36099e-05         0.144852        0.232621      0.000729018    -0.000292134
                    -0.000332006    -6.79702e-06         0.561521        0.815122      0.000949919    -7.19673e-05        0.0224978      -0.0548039
281708                  0.136939         0.23993     -0.000585333    -0.000346737         0.823567        -0.48556      -0.00034754    -1.07486e-05
                    -0.000592025    -0.000389205        0.0619841    -0.000880902      0.000517538     5.55576e-05         0.561754        0.814786
                        0.823627       -0.485462      0.000450638    -8.38457e-05         0.145034        0.232567      0.000728881    -0.000292597
                    -0.000332071     -6.7146e-06         0.561833        0.814908      0.000949721    -7.23386e-05        0.0224355      -0.0548188
281710                  0.136973        0.239971       -0.0005855     -0.00034663         0.823385       -0.485838     -0.000347604     -1.0644e-05
                     -0.00059216    -0.000389134        0.0619747    -0.000862948       0.00051757     5.54446e-05         0.562066        0.814572
                        0.823445        -0.48574      0.000450737    -8.40819e-05         0.145216        0.232513      0.000728743    -0.000293059
                    -0.000332135    -6.63214e-06         0.562146        0.814694      0.000949521    -7.27103e-05        0.0223732      -0.0548336
281712                  0.137006        0.240011     -0.000585668    -0.000346523         0.823202       -0.486116     -0.000347667    -1.05397e-05
                    -0.000592295    -0.000389062        0.0619653    -0.000844992      0.000517602     5.53312e-05         0.562378        0.814357
                        0.823262       -0.486018      0.000450835    -8.43184e-05         0.145399        0.232459      0.000728605     -0.00029352
                    -0.000332199    -6.54965e-06         0.562458        0.814479      0.000949321    -7.30823e-05        0.0223108      -0.0548485
281714                  0.137039        0.240052     -0.000585836    -0.000346417          0.82302       -0.486394     -0.000347731    -1.04359e-05
                     -0.00059243    -0.000388991        0.0619559    -0.000827033      0.000517632     5.52174e-05          0.56269        0.814143
                         0.82308       -0.486296      0.000450933    -8.45554e-05         0.145581        0.232405      0.000728466    -0.000293981
                    -0.000332264    -6.46711e-06          0.56277        0.814265      0.000949119    -7.34549e-05        0.0222484      -0.0548632
281716                  0.137072        0.240093     -0.000586005    -0.000346312         0.822837       -0.486672     -0.000347794    -1.03324e-05
                    -0.000592565    -0.000388919        0.0619465    -0.000809071      0.000517662     5.51029e-05         0.563002        0.813928
                        0.822898       -0.486574      0.000451031    -8.47928e-05         0.145763        0.232351      0.000728327    -0.000294442
                    -0.000332328    -6.38454e-06         0.563082         0.81405      0.000948917    -7.38282e-05        0.0221861      -0.0548779
281718                  0.137105        0.240133     -0.000586174    -0.000346207         0.822655        -0.48695     -0.000347857    -1.02293e-05
                      -0.0005927    -0.000388848        0.0619371    -0.000791106      0.000517692     5.49877e-05         0.563314        0.813714
                        0.822715       -0.486852       0.00045113    -8.50306e-05         0.145945        0.232297      0.000728188    -0.000294902
                    -0.000332392    -6.30194e-06         0.563394        0.813836      0.000948713    -7.42023e-05        0.0221237      -0.0548925
281720                  0.137139        0.240174     -0.000586344    -0.000346102         0.822472       -0.487228      -0.00034792    -1.01266e-05
                    -0.000592836    -0.000388776        0.0619277    -0.000773138      0.000517721     5.48716e-05         0.563626        0.813499
                        0.822532       -0.487129      0.000451228    -8.52687e-05         0.146128        0.232242      0.000728049    -0.000295361
                    -0.000332457     -6.2193e-06         0.563706        0.813621      0.000948509    -7.45773e-05        0.0220613      -0.0549071
281722                  0.137172        0.240215     -0.000586515    -0.000345998         0.822289       -0.487505     -0.000347983    -1.00242e-05
                    -0.000592971    -0.000388704        0.0619184    -0.000755167       0.00051775     5.47546e-05         0.563938        0.813284
                         0.82235       -0.487407      0.000451326    -8.55073e-05          0.14631        0.232188      0.000727909     -0.00029582
                    -0.000332521    -6.13662e-06         0.564018        0.813406      0.000948304    -7.49533e-05        0.0219989      -0.0549216
281724                  0.137205        0.240255     -0.000586687    -0.000345895         0.822106       -0.487783     -0.000348045    -9.92217e-06
                    -0.000593107    -0.000388633         0.061909    -0.000737193      0.000517778     5.46365e-05          0.56425        0.813069
                        0.822167       -0.487685      0.000451424    -8.57462e-05         0.146492        0.232133      0.000727769    -0.000296279
                    -0.000332585    -6.05392e-06          0.56433        0.813191      0.000948098    -7.53305e-05        0.0219365      -0.0549361
281726                  0.137239        0.240296     -0.000586859    -0.000345792         0.821923       -0.488061     -0.000348108    -9.82053e-06
                    -0.000593243    -0.000388561        0.0618996    -0.000719216      0.000517806     5.45172e-05         0.564561        0.812854
                        0.821984       -0.487962      0.000451522    -8.59856e-05         0.146675        0.232078      0.000727628    -0.000296736
                    -0.000332649    -5.97118e-06         0.564642        0.812976      0.000947893     -7.5709e-05        0.0218741      -0.0549505
281728                  0.137272        0.240337     -0.000587031    -0.000345689         0.821739       -0.488338      -0.00034817    -9.71926e-06
                    -0.000593378    -0.000388489        0.0618903    -0.000701237      0.000517834     5.43966e-05         0.564873        0.812639
                        0.821801        -0.48824       0.00045162    -8.62253e-05         0.146857        0.232023      0.000727488    -0.000297193
                    -0.000332714    -5.88842e-06         0.564953        0.812761      0.000947686    -7.60888e-05        0.0218116      -0.0549648
281730                  0.137305        0.240378     -0.000587205    -0.000345587         0.821556       -0.488616     -0.000348233    -9.61837e-06
                    -0.000593514    -0.000388417         0.061881    -0.000683254      0.000517863     5.42747e-05         0.565184        0.812423
                        0.821617       -0.488518      0.000451719    -8.64654e-05         0.147039        0.231968      0.000727346     -0.00029765
                    -0.000332778    -5.80563e-06         0.565265        0.812545       0.00094748    -7.64699e-05        0.0217492      -0.0549791
281732                  0.137339        0.240419     -0.000587379    -0.000345485         0.821373       -0.488893     -0.000348295    -9.51785e-06
                    -0.000593651    -0.000388345        0.0618716    -0.000665269      0.000517892     5.41516e-05         0.565495        0.812208
                        0.821434       -0.488795      0.000451816    -8.67058e-05         0.147222        0.231913      0.000727205    -0.000298106
                    -0.000332842    -5.72281e-06         0.565576         0.81233      0.000947275    -7.68524e-05        0.0216867      -0.0549933
281734                  0.137372        0.240459     -0.000587553    -0.000345384         0.821189       -0.489171     -0.000348357    -9.41769e-06
                    -0.000593787    -0.000388273        0.0618623    -0.000647281      0.000517921     5.40271e-05         0.565807        0.811992
                        0.821251       -0.489072      0.000451914    -8.69467e-05         0.147404        0.231858      0.000727064    -0.000298561
                    -0.000332906    -5.63996e-06         0.565888        0.812114      0.000947069    -7.72362e-05        0.0216243      -0.0550075
281736                  0.137405          0.2405     -0.000587728    -0.000345283         0.821005       -0.489448     -0.000348419    -9.31792e-06
                    -0.000593923    -0.000388201         0.061853     -0.00062929      0.000517952     5.39016e-05         0.566118        0.811777
                        0.821067        -0.48935      0.000452012    -8.71879e-05         0.147587        0.231802      0.000726922    -0.000299016
                     -0.00033297    -5.55709e-06         0.566199        0.811899      0.000946865    -7.76212e-05        0.0215618      -0.0550216
281738                  0.137439        0.240541     -0.000587904    -0.000345183         0.820821       -0.489726     -0.000348481    -9.21851e-06
                     -0.00059406    -0.000388129        0.0618436    -0.000611296      0.000517984     5.37751e-05         0.566429        0.811561
                        0.820883       -0.489627       0.00045211    -8.74295e-05         0.147769        0.231747       0.00072678    -0.000299471
                    -0.000333034     -5.4742e-06          0.56651        0.811683      0.000946661    -7.80073e-05        0.0214993      -0.0550357
281740                  0.137472        0.240582      -0.00058808    -0.000345083         0.820638       -0.490003     -0.000348542    -9.11948e-06
                    -0.000594196    -0.000388056        0.0618343    -0.000593299      0.000518017     5.36478e-05          0.56674        0.811345
                        0.820699       -0.489904      0.000452208    -8.76715e-05         0.147951        0.231691      0.000726638    -0.000299924
                    -0.000333099    -5.39129e-06         0.566821        0.811467      0.000946459    -7.83944e-05        0.0214368      -0.0550497
281742                  0.137506        0.240623     -0.000588257    -0.000344983         0.820453        -0.49028     -0.000348604    -9.02083e-06
                    -0.000594333    -0.000387984         0.061825    -0.000575299      0.000518052     5.35201e-05         0.567051        0.811129
                        0.820516       -0.490182      0.000452306    -8.79139e-05         0.148134        0.231635      0.000726495    -0.000300377
                    -0.000333163    -5.30836e-06         0.567132        0.811251      0.000946258    -7.87822e-05        0.0213744      -0.0550636
281744                  0.137539        0.240664     -0.000588435    -0.000344884         0.820269       -0.490557     -0.000348666    -8.92255e-06
                     -0.00059447    -0.000387911        0.0618157    -0.000557296      0.000518088     5.33921e-05         0.567362        0.810913
                        0.820332       -0.490459      0.000452404    -8.81566e-05         0.148316        0.231579      0.000726353     -0.00030083
                    -0.000333227    -5.22541e-06         0.567443        0.811035      0.000946058    -7.91706e-05        0.0213118      -0.0550775
281746                  0.137572        0.240705     -0.000588613    -0.000344786         0.820085       -0.490834     -0.000348727    -8.82465e-06
                    -0.000594607    -0.000387839        0.0618065    -0.000539291      0.000518126     5.32643e-05         0.567672        0.810696
                        0.820147       -0.490736      0.000452501    -8.83997e-05         0.148499        0.231523       0.00072621    -0.000301282
                    -0.000333291    -5.14244e-06         0.567754        0.810818       0.00094586    -7.95593e-05        0.0212493      -0.0550914
281748                  0.137606        0.240746     -0.000588792    -0.000344687         0.819901       -0.491111     -0.000348788    -8.72712e-06
                    -0.000594743    -0.000387766        0.0617972    -0.000521282      0.000518165     5.31368e-05         0.567983         0.81048
                        0.819963       -0.491013      0.000452599    -8.86431e-05         0.148681        0.231467      0.000726067    -0.000301733
                    -0.000333355    -5.05946e-06         0.568064        0.810602      0.000945664     -7.9948e-05        0.0211868      -0.0551051
281750                  0.137639        0.240787     -0.000588972     -0.00034459         0.819716       -0.491388      -0.00034885    -8.62998e-06
                    -0.000594881    -0.000387693        0.0617879    -0.000503271      0.000518205       5.301e-05         0.568293        0.810264
                        0.819779        -0.49129      0.000452696    -8.88869e-05         0.148864        0.231411      0.000725924    -0.000302184
                    -0.000333419    -4.97646e-06         0.568375        0.810386      0.000945469    -8.03366e-05        0.0211243      -0.0551189
281752                  0.137673        0.240828     -0.000589152    -0.000344492         0.819531       -0.491665     -0.000348911    -8.53322e-06
                    -0.000595018     -0.00038762        0.0617786    -0.000485257      0.000518247     5.28841e-05         0.568604        0.810047
                        0.819594       -0.491567      0.000452794    -8.91311e-05         0.149046        0.231354      0.000725781    -0.000302634
                    -0.000333483    -4.89344e-06         0.568685        0.810169      0.000945276    -8.07247e-05        0.0210617      -0.0551325
281754                  0.137707        0.240869     -0.000589332    -0.000344395         0.819347       -0.491942     -0.000348972    -8.43685e-06
                    -0.000595155    -0.000387547        0.0617694     -0.00046724       0.00051829     5.27593e-05         0.568914         0.80983
                         0.81941       -0.491843      0.000452891    -8.93756e-05         0.149229        0.231298      0.000725639    -0.000303082
                    -0.000333547    -4.81042e-06         0.568996        0.809952      0.000945085    -8.11121e-05        0.0209992      -0.0551461
281756                   0.13774         0.24091     -0.000589513    -0.000344299         0.819162       -0.492219     -0.000349033    -8.34088e-06
                    -0.000595292    -0.000387474        0.0617601    -0.000449221      0.000518335     5.26358e-05         0.569224        0.809613
                        0.819225        -0.49212      0.000452989    -8.96205e-05         0.149411        0.231241      0.000725496     -0.00030353
                    -0.000333612    -4.72738e-06         0.569306        0.809736      0.000944896    -8.14983e-05        0.0209366      -0.0551597
281758                  0.137774        0.240951     -0.000589695    -0.000344203         0.818977       -0.492496     -0.000349094    -8.24532e-06
                     -0.00059543    -0.000387401        0.0617509    -0.000431198      0.000518379     5.25139e-05         0.569535        0.809397
                         0.81904       -0.492397      0.000453086    -8.98657e-05         0.149594        0.231184      0.000725356    -0.000303978
                    -0.000333676    -4.64432e-06         0.569616        0.809519      0.000944709    -8.18831e-05        0.0208741      -0.0551732
281760                  0.137807        0.240992     -0.000589877    -0.000344107         0.818792       -0.492772     -0.000349155    -8.15021e-06
                    -0.000595567    -0.000387327        0.0617416    -0.000413173      0.000518425     5.23937e-05         0.569845        0.809179
                        0.818855       -0.492674      0.000453183    -9.01112e-05         0.149776        0.231127      0.000725219    -0.000304427
                     -0.00033374    -4.56126e-06         0.569926        0.809302      0.000944525    -8.22658e-05        0.0208115      -0.0551866
281762                  0.137841        0.241033      -0.00059006    -0.000344012         0.818607       -0.493049     -0.000349215    -8.05563e-06
                    -0.000595705    -0.000387254        0.0617324    -0.000395145       0.00051847     5.22756e-05         0.570155        0.808962
                         0.81867        -0.49295       0.00045328    -9.03569e-05         0.149959         0.23107      0.000725079    -0.000304881
