! TOUCHSTONE file generated by CST MICROWAVE STUDIO
! Date and time: Wed Oct 15 17:31:25 2025
! Project name: Teste_Macro_Metasurface_Nanopilar.cst
! Parameters = {H=600; L_x=130; L_y=180; Lambda=1064; Max_L=200; Min_L=70; PathPara=1; Phi=0; Step_L=10; Theta=0; p=520; phaseX=180; phaseY=0}
! Header version: 2018
! Port assignment regex: !\s*Touchstone port\s*([0-9]+)\s*=\s*(CST MWS port|CST DS port)\s*([0-9]+|Zmin|Zmax)\s*\(\"(.*)\"\)(\s*mode\s*([0-9]+))?.*
! Touchstone port assignment:
! Touchstone port 1 = CST MWS port Zmax ("") mode 1
! Touchstone port 2 = CST MWS port Zmax ("") mode 2
! Touchstone port 3 = CST MWS port Zmin ("") mode 1
! Touchstone port 4 = CST MWS port Zmin ("") mode 2
! S-Parameters are not renormalized. Each port impedance will be approximated by the real part at minimum frequency. The values are described via the [Reference] keyword.
! Default impedance is overridden by [Reference]
[Version] 2.0
# GHz S RI R 376.73
[Number of Ports] 4
[Reference]
376.73 376.73 259.888 259.888 
[Number of Frequencies] 51
[Network Data]
281700                  0.163444      -0.0443571      0.000205864     2.43459e-05         0.672308        -0.71412      0.000306904     0.000254579
                     0.000163292      4.2783e-05         0.122208        0.189808     -9.59475e-05     0.000222925         0.874212       -0.418985
                        0.672613       -0.714336     -0.000267662     0.000411588       -0.0343025        0.160126     -6.95364e-05     7.97018e-05
                      0.00034883     0.000157554         0.873869       -0.418953      2.76447e-05     0.000281776        0.0729045        0.211256
281702                  0.163442      -0.0443253       0.00020565     2.41279e-05         0.672086       -0.714332      0.000307515     0.000254831
                     0.000163382      4.2562e-05         0.122228        0.189845     -9.56597e-05     0.000222988         0.874061       -0.419275
                        0.672391       -0.714547     -0.000267791     0.000411576       -0.0341701        0.160144     -7.01377e-05     7.84162e-05
                     0.000348776     0.000157778         0.873718       -0.419244      2.75664e-05     0.000281834        0.0730644        0.211244
281704                  0.163439      -0.0442934      0.000205436     2.39089e-05         0.671864       -0.714544      0.000308128     0.000255084
                     0.000163471     4.23412e-05         0.122249        0.189882     -9.53717e-05      0.00022305          0.87391       -0.419565
                        0.672169       -0.714759      -0.00026792     0.000411563       -0.0340377        0.160162     -7.07228e-05     7.71312e-05
                     0.000348724     0.000158002         0.873566       -0.419534      2.74886e-05     0.000281892        0.0732244        0.211232
281706                  0.163437      -0.0442616      0.000205223     2.36891e-05         0.671643       -0.714755      0.000308743     0.000255338
                     0.000163559     4.21208e-05         0.122269         0.18992     -9.50836e-05     0.000223111         0.873759       -0.419855
                        0.671946       -0.714971     -0.000268049      0.00041155       -0.0339053         0.16018      -7.1293e-05     7.58469e-05
                     0.000348671     0.000158226         0.873415       -0.419824       2.7411e-05     0.000281952        0.0733843         0.21122
281708                  0.163435      -0.0442298      0.000205011     2.34685e-05         0.671421       -0.714967      0.000309361     0.000255593
                     0.000163648     4.19006e-05         0.122289        0.189957     -9.47954e-05     0.000223171         0.873608       -0.420145
                        0.671724       -0.715182     -0.000268178     0.000411535       -0.0337729        0.160198     -7.18495e-05     7.45633e-05
                      0.00034862     0.000158449         0.873263       -0.420115      2.73339e-05     0.000282012        0.0735444        0.211207
281710                  0.163432       -0.044198      0.000204799      2.3247e-05         0.671199       -0.715178      0.000309981     0.000255849
                     0.000163736     4.16808e-05          0.12231        0.189994      -9.4507e-05      0.00022323         0.873457       -0.420435
                        0.671502       -0.715393     -0.000268308     0.000411519       -0.0336405        0.160216     -7.23935e-05     7.32804e-05
                     0.000348569     0.000158672         0.873111       -0.420405       2.7257e-05     0.000282073        0.0737044        0.211195
281712                   0.16343      -0.0441662      0.000204588     2.30246e-05         0.670977        -0.71539      0.000310602     0.000256106
                     0.000163824     4.14613e-05          0.12233        0.190031     -9.42185e-05     0.000223288         0.873306       -0.420724
                         0.67128       -0.715605     -0.000268438     0.000411502       -0.0335082        0.160234     -7.29265e-05      7.1998e-05
                     0.000348518     0.000158895         0.872959       -0.420695      2.71806e-05     0.000282135        0.0738645        0.211182
281714                  0.163428      -0.0441344      0.000204378     2.28015e-05         0.670755       -0.715601      0.000311227     0.000256364
                     0.000163912     4.12421e-05         0.122351        0.190069     -9.39299e-05     0.000223346         0.873154       -0.421014
                        0.671057       -0.715816     -0.000268567     0.000411485       -0.0333758        0.160252     -7.34498e-05     7.07157e-05
                     0.000348469     0.000159117         0.872807       -0.420985      2.71044e-05     0.000282198        0.0740246        0.211169
281716                  0.163425      -0.0441027      0.000204168     2.25775e-05         0.670533       -0.715812      0.000311853     0.000256624
                     0.000163999     4.10231e-05         0.122371        0.190106     -9.36411e-05     0.000223402         0.873003       -0.421304
                        0.670835       -0.716027     -0.000268698     0.000411466       -0.0332434        0.160269     -7.39649e-05     6.94335e-05
                      0.00034842     0.000159339         0.872655       -0.421275      2.70286e-05     0.000282262        0.0741847        0.211156
281718                  0.163423      -0.0440709      0.000203959     2.23528e-05         0.670311       -0.716024      0.000312481     0.000256885
                     0.000164086     4.08045e-05         0.122392        0.190143     -9.33523e-05     0.000223458         0.872851       -0.421593
                        0.670612       -0.716238     -0.000268828     0.000411445       -0.0331111        0.160287     -7.44732e-05     6.81507e-05
                     0.000348372     0.000159561         0.872503       -0.421565      2.69532e-05     0.000282327        0.0743449        0.211143
281720                  0.163421      -0.0440392      0.000203751     2.21273e-05         0.670089       -0.716235      0.000313112     0.000257148
                     0.000164173     4.05863e-05         0.122412        0.190181     -9.30632e-05     0.000223512         0.872699       -0.421883
                         0.67039       -0.716449     -0.000268958     0.000411424       -0.0329787        0.160304     -7.49764e-05      6.6867e-05
                     0.000348324     0.000159782          0.87235       -0.421855       2.6878e-05     0.000282393        0.0745051         0.21113
281722                  0.163418      -0.0440074      0.000203543      2.1901e-05         0.669867       -0.716446      0.000313745     0.000257412
                      0.00016426     4.03683e-05         0.122433        0.190218     -9.27741e-05     0.000223566         0.872547       -0.422172
                        0.670167        -0.71666     -0.000269089     0.000411402       -0.0328463        0.160322     -7.54762e-05     6.55818e-05
                     0.000348277     0.000160003         0.872198       -0.422145      2.68032e-05      0.00028246        0.0746653        0.211117
281724                  0.163416      -0.0439757      0.000203336      2.1674e-05         0.669644       -0.716657       0.00031438     0.000257677
                     0.000164346     4.01507e-05         0.122453        0.190255     -9.24849e-05     0.000223619         0.872395       -0.422461
                        0.669945       -0.716871      -0.00026922     0.000411379        -0.032714        0.160339     -7.59742e-05     6.42943e-05
                     0.000348231     0.000160224         0.872045       -0.422435      2.67288e-05     0.000282527        0.0748256        0.211104
281726                  0.163414       -0.043944      0.000203129     2.14463e-05         0.669422       -0.716867      0.000315018     0.000257945
                     0.000164432     3.99333e-05         0.122474        0.190293     -9.21955e-05     0.000223671         0.872243       -0.422751
                        0.669722       -0.717081     -0.000269351     0.000411354       -0.0325816        0.160356     -7.64724e-05     6.30039e-05
                     0.000348186     0.000160444         0.871892       -0.422725      2.66546e-05     0.000282596        0.0749859         0.21109
281728                  0.163411      -0.0439123      0.000202924     2.12178e-05           0.6692       -0.717078      0.000315657     0.000258214
                     0.000164517     3.97163e-05         0.122494         0.19033      -9.1906e-05     0.000223722         0.872091        -0.42304
                        0.669499       -0.717292     -0.000269482     0.000411329       -0.0324493        0.160373     -7.69726e-05     6.17095e-05
                     0.000348142     0.000160664          0.87174       -0.423015      2.65808e-05     0.000282665        0.0751463        0.211077
281730                  0.163409      -0.0438806      0.000202719     2.09887e-05         0.668977       -0.717289      0.000316299     0.000258486
                     0.000164602     3.94996e-05         0.122515        0.190368     -9.16165e-05     0.000223772         0.871938       -0.423329
                        0.669276       -0.717503     -0.000269613     0.000411302        -0.032317         0.16039     -7.74771e-05     6.04102e-05
                     0.000348098     0.000160883         0.871587       -0.423305      2.65073e-05     0.000282736        0.0753067        0.211063
281732                  0.163407      -0.0438489      0.000202514     2.07589e-05         0.668755         -0.7175      0.000316943     0.000258759
                     0.000164686     3.92832e-05         0.122536        0.190405     -9.13268e-05     0.000223821         0.871786       -0.423618
                        0.669053       -0.717713     -0.000269744     0.000411275       -0.0321846        0.160407      -7.7988e-05     5.91047e-05
                     0.000348056     0.000161103         0.871433       -0.423595      2.64341e-05     0.000282807        0.0754671        0.211049
281734                  0.163405      -0.0438172       0.00020231     2.05284e-05         0.668532        -0.71771       0.00031759     0.000259035
                     0.000164771     3.90671e-05         0.122556        0.190443      -9.1037e-05      0.00022387         0.871633       -0.423908
                        0.668831       -0.717924     -0.000269876     0.000411246       -0.0320523        0.160424     -7.85078e-05     5.77917e-05
                     0.000348014     0.000161321          0.87128       -0.423885      2.63612e-05     0.000282879        0.0756276        0.211035
281736                  0.163402      -0.0437855      0.000202107     2.02973e-05         0.668309       -0.717921      0.000318239     0.000259314
                     0.000164854     3.88513e-05         0.122577         0.19048     -9.07471e-05     0.000223917         0.871481       -0.424197
                        0.668608       -0.718134     -0.000270008     0.000411216         -0.03192         0.16044      -7.9039e-05     5.64698e-05
                     0.000347973      0.00016154         0.871127       -0.424174      2.62886e-05     0.000282952        0.0757881        0.211021
281738                    0.1634      -0.0437539      0.000201905     2.00655e-05         0.668087       -0.718131       0.00031889     0.000259595
                     0.000164938     3.86358e-05         0.122597        0.190518     -9.04571e-05     0.000223964         0.871328       -0.424486
                        0.668384       -0.718344     -0.000270139     0.000411185       -0.0317877        0.160457     -7.95846e-05     5.51373e-05
                     0.000347933     0.000161758         0.870973       -0.424464      2.62164e-05     0.000283026        0.0759487        0.211007
281740                  0.163398      -0.0437222      0.000201703     1.98331e-05         0.667864       -0.718341      0.000319543     0.000259879
                      0.00016502     3.84207e-05         0.122618        0.190555     -9.01671e-05     0.000224009         0.871175       -0.424775
                        0.668161       -0.718554     -0.000270271     0.000411152       -0.0316553        0.160473     -8.01476e-05     5.37922e-05
                     0.000347893     0.000161976          0.87082       -0.424754      2.61444e-05     0.000283101        0.0761093        0.210993
281742                  0.163396      -0.0436906      0.000201502     1.96001e-05         0.667641       -0.718551      0.000320199     0.000260166
                     0.000165103     3.82058e-05         0.122639        0.190593     -8.98769e-05     0.000224054         0.871022       -0.425064
                        0.667938       -0.718765     -0.000270403     0.000411119        -0.031523         0.16049     -8.07313e-05     5.24324e-05
                     0.000347855     0.000162193         0.870666       -0.425043      2.60727e-05     0.000283177        0.0762699        0.210979
281744                  0.163393      -0.0436589      0.000201301     1.93665e-05         0.667418       -0.718762      0.000320857     0.000260457
                     0.000165184     3.79912e-05         0.122659        0.190631     -8.95867e-05     0.000224098         0.870869       -0.425354
                        0.667715       -0.718975     -0.000270535     0.000411085       -0.0313907        0.160506     -8.13395e-05     5.10556e-05
                     0.000347818      0.00016241         0.870512       -0.425333      2.60014e-05     0.000283254        0.0764307        0.210965
281746                  0.163391      -0.0436273      0.000201102     1.91323e-05         0.667195       -0.718972      0.000321517     0.000260752
                     0.000165266     3.77769e-05          0.12268        0.190668     -8.92964e-05      0.00022414         0.870715       -0.425643
                        0.667492       -0.719185     -0.000270668     0.000411049       -0.0312584        0.160522     -8.19763e-05      4.9659e-05
                     0.000347782     0.000162627         0.870359       -0.425622      2.59303e-05     0.000283332        0.0765914         0.21095
281748                  0.163389      -0.0435957      0.000200903     1.88976e-05         0.666972       -0.719182       0.00032218     0.000261051
                     0.000165346     3.75629e-05         0.122701        0.190706      -8.9006e-05     0.000224182         0.870562       -0.425932
                        0.667268       -0.719394       -0.0002708     0.000411012       -0.0311262        0.160538      -8.2646e-05     4.82398e-05
                     0.000347746     0.000162843         0.870205       -0.425912      2.58595e-05     0.000283411        0.0767522        0.210936
281750                  0.163387      -0.0435641      0.000200704     1.86623e-05         0.666749       -0.719392      0.000322845     0.000261354
                     0.000165427     3.73491e-05         0.122721        0.190744     -8.87155e-05     0.000224223         0.870409       -0.426222
                        0.667045       -0.719604     -0.000270933     0.000410974       -0.0309939        0.160554     -8.33538e-05     4.67945e-05
                     0.000347712     0.000163059          0.87005       -0.426201       2.5789e-05      0.00028349        0.0769131        0.210921
281752                  0.163385      -0.0435325      0.000200507     1.84264e-05         0.666526       -0.719601      0.000323512     0.000261662
                     0.000165506     3.71357e-05         0.122742        0.190781     -8.84249e-05     0.000224264         0.870255       -0.426511
                        0.666821       -0.719814     -0.000271065     0.000410935       -0.0308616         0.16057     -8.41051e-05     4.53194e-05
                     0.000347679     0.000163274         0.869896       -0.426491      2.57188e-05     0.000283571         0.077074        0.210907
281754                  0.163383      -0.0435009      0.000200309       1.819e-05         0.666303       -0.719811      0.000324182     0.000261976
                     0.000165586     3.69225e-05         0.122763        0.190819     -8.81343e-05     0.000224303         0.870101         -0.4268
                        0.666598       -0.720024     -0.000271198     0.000410895       -0.0307293        0.160586     -8.49061e-05     4.38103e-05
                     0.000347647     0.000163489         0.869742        -0.42678      2.56489e-05     0.000283652         0.077235        0.210892
281756                   0.16338      -0.0434694      0.000200113     1.79531e-05          0.66608       -0.720021      0.000324854     0.000262296
                     0.000165664     3.67095e-05         0.122783        0.190857     -8.78436e-05     0.000224341         0.869948        -0.42709
                        0.666374       -0.720233     -0.000271331     0.000410854       -0.0305971        0.160602     -8.57637e-05     4.22625e-05
                     0.000347616     0.000163704         0.869587        -0.42707      2.55792e-05     0.000283735        0.0773961        0.210877
281758                  0.163378      -0.0434378      0.000199917     1.77157e-05         0.665857        -0.72023      0.000325528     0.000262622
                     0.000165742     3.64969e-05         0.122804        0.190895     -8.75529e-05     0.000224378         0.869794       -0.427379
                        0.666151       -0.720443     -0.000271463     0.000410811       -0.0304648        0.160618     -8.66854e-05     4.06709e-05
                     0.000347586     0.000163918         0.869433       -0.427359      2.55099e-05     0.000283818        0.0775572        0.210863
281760                  0.163376      -0.0434063      0.000199722     1.74778e-05         0.665633        -0.72044      0.000326205     0.000262955
                      0.00016582     3.62844e-05         0.122825        0.190933     -8.72621e-05     0.000224415          0.86964       -0.427669
                        0.665927       -0.720652     -0.000271596     0.000410767       -0.0303325        0.160633     -8.76796e-05     3.90298e-05
                     0.000347557     0.000164131         0.869278       -0.427648      2.54408e-05     0.000283903        0.0777184        0.210848
281762                  0.163374      -0.0433747      0.000199528     1.72394e-05          0.66541       -0.720649      0.000326883     0.000263296
                     0.000165896     3.60723e-05         0.122845         0.19097     -8.69712e-05      0.00022445         0.869485       -0.427959
                        0.665703       -0.720861     -0.000271729     0.000410722       -0.0302003        0.160649     -8.87554e-05     3.73329e-05
