! TOUCHSTONE file generated by CST MICROWAVE STUDIO
! Date and time: Wed Oct 15 17:34:32 2025
! Project name: Teste_Macro_Metasurface_Nanopilar.cst
! Parameters = {H=600; L_x=185; L_y=160; Lambda=1064; Max_L=200; Min_L=70; PathPara=1; Phi=0; Step_L=10; Theta=0; p=520; phaseX=180; phaseY=0}
! Header version: 2018
! Port assignment regex: !\s*Touchstone port\s*([0-9]+)\s*=\s*(CST MWS port|CST DS port)\s*([0-9]+|Zmin|Zmax)\s*\(\"(.*)\"\)(\s*mode\s*([0-9]+))?.*
! Touchstone port assignment:
! Touchstone port 1 = CST MWS port Zmax ("") mode 1
! Touchstone port 2 = CST MWS port Zmax ("") mode 2
! Touchstone port 3 = CST MWS port Zmin ("") mode 1
! Touchstone port 4 = CST MWS port Zmin ("") mode 2
! S-Parameters are not renormalized. Each port impedance will be approximated by the real part at minimum frequency. The values are described via the [Reference] keyword.
! Default impedance is overridden by [Reference]
[Version] 2.0
# GHz S RI R 376.73
[Number of Ports] 4
[Reference]
376.73 376.73 259.888 259.888 
[Number of Frequencies] 51
[Network Data]
281700                   0.17104       0.0392476     -0.000217585     0.000243908         0.511004        -0.83696       0.00012387    -0.000172181
                    -0.000280381     0.000198024         0.218542       0.0814766      2.93207e-05     0.000178801         0.289452       -0.924786
                         0.51097       -0.837205      -4.4196e-06     0.000178416         0.111684        0.133149       -3.949e-05    -0.000343809
                     0.000181133    -0.000220173         0.290434       -0.924905      2.76837e-05    -0.000404077         0.224327        0.055625
281702                  0.171037       0.0392436     -0.000217545      0.00024413         0.510755       -0.837112      0.000123798    -0.000172221
                    -0.000280136     0.000198172         0.218556        0.081479       2.9385e-05     0.000178854         0.289185       -0.924866
                        0.510721       -0.837357     -4.42331e-06     0.000178447         0.111758        0.133082      -3.9483e-05    -0.000343876
                     0.000180893    -0.000220382         0.290166       -0.924985      2.76876e-05    -0.000404126         0.224372       0.0555024
281704                  0.171033       0.0392395     -0.000217504     0.000244352         0.510507       -0.837263      0.000123726    -0.000172261
                     -0.00027989      0.00019832          0.21857       0.0814813      2.94494e-05     0.000178907         0.288918       -0.924946
                        0.510473       -0.837509     -4.42664e-06     0.000178479         0.111831        0.133016      -3.9476e-05    -0.000343944
                     0.000180654     -0.00022059         0.289899       -0.925065      2.76914e-05    -0.000404176         0.224417       0.0553797
281706                   0.17103       0.0392354     -0.000217464     0.000244574         0.510258       -0.837415      0.000123655    -0.000172302
                    -0.000279643     0.000198468         0.218584       0.0814836      2.95139e-05      0.00017896         0.288652       -0.925026
                        0.510225       -0.837661     -4.42959e-06     0.000178511         0.111905        0.132949      -3.9469e-05    -0.000344011
                     0.000180414    -0.000220797         0.289632       -0.925145      2.76952e-05    -0.000404225         0.224462        0.055257
281708                  0.171026       0.0392313     -0.000217423     0.000244795          0.51001       -0.837567      0.000123583    -0.000172342
                    -0.000279395     0.000198617         0.218598       0.0814859      2.95786e-05     0.000179012         0.288385       -0.925105
                        0.509977       -0.837813     -4.43214e-06     0.000178544         0.111978        0.132882      -3.9462e-05    -0.000344079
                     0.000180175    -0.000221005         0.289364       -0.925225      2.76989e-05    -0.000404274         0.224507       0.0551343
281710                  0.171023       0.0392273     -0.000217381     0.000245016         0.509761       -0.837718      0.000123511    -0.000172382
                    -0.000279147     0.000198766         0.218613       0.0814882      2.96433e-05     0.000179065         0.288118       -0.925185
                        0.509728       -0.837965     -4.43432e-06     0.000178577         0.112052        0.132816      -3.9455e-05    -0.000344146
                     0.000179935    -0.000221212         0.289097       -0.925304      2.77026e-05    -0.000404323         0.224552       0.0550116
281712                  0.171019       0.0392232      -0.00021734     0.000245238         0.509513        -0.83787      0.000123439    -0.000172421
                    -0.000278898     0.000198915         0.218627       0.0814905       2.9708e-05     0.000179117         0.287851       -0.925265
                         0.50948       -0.838117     -4.43611e-06      0.00017861         0.112125        0.132749      -3.9448e-05    -0.000344213
                     0.000179695    -0.000221419         0.288829       -0.925384      2.77062e-05    -0.000404373         0.224596       0.0548888
281714                  0.171015        0.039219     -0.000217298     0.000245459         0.509264       -0.838021      0.000123367    -0.000172461
                    -0.000278649     0.000199065         0.218641       0.0814928      2.97728e-05     0.000179169         0.287584       -0.925344
                        0.509231       -0.838269     -4.43751e-06     0.000178644         0.112198        0.132682      -3.9441e-05    -0.000344281
                     0.000179454    -0.000221626         0.288562       -0.925464      2.77097e-05    -0.000404422         0.224641        0.054766
281716                  0.171012       0.0392149     -0.000217255      0.00024568         0.509016       -0.838173      0.000123296      -0.0001725
                    -0.000278399     0.000199215         0.218655       0.0814951      2.98377e-05     0.000179221         0.287317       -0.925423
                        0.508983       -0.838421     -4.43853e-06     0.000178677         0.112271        0.132615     -3.94339e-05    -0.000344348
                     0.000179214    -0.000221832         0.288294       -0.925543      2.77132e-05    -0.000404471         0.224686       0.0546431
281718                  0.171008       0.0392108     -0.000217213     0.000245901         0.508767       -0.838324      0.000123224     -0.00017254
                    -0.000278148     0.000199365         0.218669       0.0814974      2.99025e-05     0.000179273          0.28705       -0.925503
                        0.508734       -0.838573     -4.43917e-06     0.000178712         0.112345        0.132548     -3.94269e-05    -0.000344415
                     0.000178974    -0.000222038         0.288027       -0.925622      2.77166e-05     -0.00040452          0.22473       0.0545202
281720                  0.171005       0.0392067      -0.00021717     0.000246122         0.508518       -0.838475      0.000123152    -0.000172579
                    -0.000277897     0.000199515         0.218683       0.0814997      2.99674e-05     0.000179325         0.286783       -0.925582
                        0.508486       -0.838724     -4.43942e-06     0.000178746         0.112418        0.132481     -3.94198e-05    -0.000344483
                     0.000178733    -0.000222244         0.287759       -0.925702      2.77199e-05    -0.000404569         0.224775       0.0543973
281722                  0.171001       0.0392025     -0.000217126     0.000246343         0.508269       -0.838626       0.00012308    -0.000172618
                    -0.000277645     0.000199665         0.218697        0.081502      3.00323e-05     0.000179377         0.286516       -0.925661
                        0.508237       -0.838876     -4.43929e-06     0.000178781         0.112491        0.132414     -3.94128e-05     -0.00034455
                     0.000178493     -0.00022245         0.287492       -0.925781      2.77232e-05    -0.000404618         0.224819       0.0542744
281724                  0.170997       0.0391984     -0.000217083     0.000246563          0.50802       -0.838778      0.000123008    -0.000172657
                    -0.000277393     0.000199816         0.218711       0.0815042      3.00972e-05     0.000179429         0.286249        -0.92574
                        0.507988       -0.839027     -4.43878e-06     0.000178817         0.112564        0.132347     -3.94057e-05    -0.000344617
                     0.000178252    -0.000222655         0.287224        -0.92586      2.77264e-05    -0.000404668         0.224863       0.0541514
281726                  0.170994       0.0391942     -0.000217039     0.000246784         0.507772       -0.838929      0.000122936    -0.000172696
                     -0.00027714     0.000199967         0.218725       0.0815065      3.01622e-05     0.000179481         0.285982       -0.925819
                        0.507739       -0.839179     -4.43788e-06     0.000178852         0.112637         0.13228     -3.93986e-05    -0.000344685
                     0.000178012     -0.00022286         0.286957       -0.925939      2.77294e-05    -0.000404717         0.224908       0.0540284
281728                   0.17099       0.0391901     -0.000216995     0.000247004         0.507523        -0.83908      0.000122864    -0.000172734
                    -0.000276886     0.000200118         0.218739       0.0815088      3.02271e-05     0.000179533         0.285715       -0.925898
                        0.507491        -0.83933     -4.43659e-06     0.000178888          0.11271        0.132213     -3.93915e-05    -0.000344752
                     0.000177771    -0.000223064         0.286689       -0.926018      2.77324e-05    -0.000404766         0.224952       0.0539054
281730                  0.170986       0.0391859     -0.000216951     0.000247224         0.507274        -0.83923      0.000122792    -0.000172773
                    -0.000276632     0.000200269         0.218753        0.081511       3.0292e-05     0.000179584         0.285448       -0.925977
                        0.507242       -0.839481     -4.43493e-06     0.000178924         0.112783        0.132146     -3.93844e-05    -0.000344819
                      0.00017753    -0.000223268         0.286422       -0.926097      2.77353e-05    -0.000404815         0.224996       0.0537824
281732                  0.170983       0.0391817     -0.000216906     0.000247445         0.507024       -0.839381       0.00012272    -0.000172811
                    -0.000276377     0.000200421         0.218767       0.0815133      3.03569e-05     0.000179636         0.285181       -0.926056
                        0.506993       -0.839633     -4.43288e-06     0.000178961         0.112855        0.132079     -3.93772e-05    -0.000344886
                     0.000177289    -0.000223472         0.286154       -0.926176      2.77381e-05    -0.000404864          0.22504       0.0536593
281734                  0.170979       0.0391775     -0.000216861     0.000247665         0.506775       -0.839532      0.000122648     -0.00017285
                    -0.000276122     0.000200573         0.218782       0.0815156      3.04219e-05     0.000179687         0.284914       -0.926135
                        0.506744       -0.839784     -4.43044e-06     0.000178998         0.112928        0.132011     -3.93701e-05    -0.000344954
                     0.000177049    -0.000223675         0.285886       -0.926255      2.77409e-05    -0.000404913         0.225084       0.0535362
281736                  0.170975       0.0391733     -0.000216816     0.000247885         0.506526       -0.839683      0.000122576    -0.000172888
                    -0.000275867     0.000200725         0.218796       0.0815178      3.04868e-05     0.000179739         0.284647       -0.926213
                        0.506495       -0.839935     -4.42763e-06     0.000179035         0.113001        0.131944     -3.93629e-05    -0.000345021
                     0.000176808    -0.000223877         0.285619       -0.926333      2.77435e-05    -0.000404961         0.225128        0.053413
281738                  0.170972       0.0391691      -0.00021677     0.000248105         0.506277       -0.839833      0.000122504    -0.000172926
                    -0.000275611     0.000200877          0.21881       0.0815201      3.05518e-05     0.000179791          0.28438       -0.926292
                        0.506246       -0.840086     -4.42443e-06     0.000179072         0.113073        0.131877     -3.93557e-05    -0.000345088
                     0.000176567     -0.00022408         0.285351       -0.926412       2.7746e-05     -0.00040501         0.225172       0.0532899
281740                  0.170968       0.0391649     -0.000216724     0.000248324         0.506028       -0.839984      0.000122432    -0.000172964
                    -0.000275354     0.000201029         0.218824       0.0815223      3.06168e-05     0.000179842         0.284112        -0.92637
                        0.505996       -0.840237     -4.42085e-06      0.00017911         0.113146        0.131809     -3.93485e-05    -0.000345155
                     0.000176325    -0.000224282         0.285084        -0.92649      2.77484e-05    -0.000405059         0.225216       0.0531667
281742                  0.170964       0.0391607     -0.000216678     0.000248544         0.505778       -0.840134       0.00012236    -0.000173001
                    -0.000275097     0.000201182         0.218838       0.0815246      3.06818e-05     0.000179894         0.283845       -0.926449
                        0.505747       -0.840388     -4.41688e-06     0.000179149         0.113219        0.131742     -3.93412e-05    -0.000345222
                     0.000176084    -0.000224483         0.284816       -0.926569      2.77507e-05    -0.000405108         0.225259       0.0530435
281744                  0.170961       0.0391565     -0.000216632     0.000248764         0.505529       -0.840285      0.000122288    -0.000173039
                     -0.00027484     0.000201334         0.218852       0.0815268      3.07468e-05     0.000179945         0.283578       -0.926527
                        0.505498       -0.840538     -4.41253e-06     0.000179187         0.113291        0.131674      -3.9334e-05     -0.00034529
                     0.000175843    -0.000224684         0.284548       -0.926647      2.77529e-05    -0.000405157         0.225303       0.0529202
281746                  0.170957       0.0391522     -0.000216585     0.000248983          0.50528       -0.840435      0.000122216    -0.000173076
                    -0.000274582     0.000201487         0.218866       0.0815291      3.08118e-05     0.000179997         0.283311       -0.926605
                        0.505249       -0.840689      -4.4078e-06     0.000179226         0.113364        0.131607     -3.93267e-05    -0.000345357
                     0.000175602    -0.000224884          0.28428       -0.926726       2.7755e-05    -0.000405206         0.225347       0.0527969
281748                  0.170953        0.039148     -0.000216538     0.000249203          0.50503       -0.840585      0.000122144    -0.000173114
                    -0.000274324      0.00020164          0.21888       0.0815313      3.08768e-05     0.000180048         0.283043       -0.926684
                        0.504999        -0.84084     -4.40269e-06     0.000179265         0.113436        0.131539     -3.93193e-05    -0.000345424
                     0.000175361    -0.000225084         0.284013       -0.926804       2.7757e-05    -0.000405254          0.22539       0.0526736
281750                  0.170949       0.0391438     -0.000216491     0.000249422         0.504781       -0.840736      0.000122072    -0.000173151
                    -0.000274065     0.000201793         0.218894       0.0815335      3.09418e-05       0.0001801         0.282776       -0.926762
                         0.50475        -0.84099     -4.39719e-06     0.000179304         0.113508        0.131472      -3.9312e-05    -0.000345491
                     0.000175119    -0.000225283         0.283745       -0.926882      2.77589e-05    -0.000405303         0.225434       0.0525503
281752                  0.170946       0.0391395     -0.000216443     0.000249641         0.504531       -0.840886         0.000122    -0.000173188
                    -0.000273806     0.000201947         0.218908       0.0815357      3.10068e-05     0.000180152         0.282509        -0.92684
                        0.504501       -0.841141     -4.39131e-06     0.000179344         0.113581        0.131404     -3.93046e-05    -0.000345558
                     0.000174878    -0.000225482         0.283477        -0.92696      2.77608e-05    -0.000405351         0.225477       0.0524269
281754                  0.170942       0.0391352     -0.000216395     0.000249861         0.504281       -0.841036      0.000121928    -0.000173225
                    -0.000273547       0.0002021         0.218922        0.081538      3.10717e-05     0.000180203         0.282242       -0.926918
                        0.504251       -0.841291     -4.38505e-06     0.000179384         0.113653        0.131336     -3.92972e-05    -0.000345625
                     0.000174636     -0.00022568         0.283209       -0.927038      2.77627e-05      -0.0004054          0.22552       0.0523035
281756                  0.170938        0.039131     -0.000216346      0.00025008         0.504032       -0.841186      0.000121856    -0.000173262
                    -0.000273287     0.000202254         0.218937       0.0815402      3.11362e-05     0.000180255         0.281974       -0.926995
                        0.504002       -0.841442     -4.37839e-06     0.000179425         0.113725        0.131268     -3.92897e-05    -0.000345692
                     0.000174394    -0.000225877         0.282942       -0.927116       2.7765e-05    -0.000405448         0.225563       0.0521801
281758                  0.170934       0.0391267     -0.000216297     0.000250299         0.503782       -0.841336      0.000121784    -0.000173299
                    -0.000273027     0.000202407         0.218951       0.0815424      3.11994e-05     0.000180306         0.281707       -0.927073
                        0.503752       -0.841592     -4.37132e-06     0.000179465         0.113797        0.131201     -3.92825e-05    -0.000345758
                     0.000174153    -0.000226074         0.282674       -0.927194      2.77681e-05    -0.000405495         0.225607       0.0520566
281760                   0.17093       0.0391224     -0.000216246     0.000250517         0.503532       -0.841486      0.000121712    -0.000173334
                    -0.000272767     0.000202561         0.218965       0.0815446       3.1266e-05     0.000180351         0.281439       -0.927151
                        0.503502       -0.841742     -4.36335e-06     0.000179507          0.11387        0.131133     -3.92788e-05     -0.00034583
                     0.000173911     -0.00022627         0.282406       -0.927271      2.77748e-05    -0.000405541          0.22565       0.0519331
281762                  0.170927       0.0391181      -0.00021619     0.000250735         0.503283       -0.841635      0.000121639    -0.000173371
                    -0.000272506     0.000202715         0.218979       0.0815468      3.13355e-05     0.000180406         0.281172       -0.927229
                        0.503253       -0.841893     -4.35554e-06     0.000179546         0.113942        0.131065     -3.92676e-05    -0.000345895
