! TOUCHSTONE file generated by CST MICROWAVE STUDIO
! Date and time: Wed Oct 15 17:28:42 2025
! Project name: Teste_Macro_Metasurface_Nanopilar.cst
! Parameters = {H=600; L_x=85; L_y=120; Lambda=1064; Max_L=200; Min_L=70; PathPara=1; Phi=0; Step_L=10; Theta=0; p=520; phaseX=180; phaseY=0}
! Header version: 2018
! Port assignment regex: !\s*Touchstone port\s*([0-9]+)\s*=\s*(CST MWS port|CST DS port)\s*([0-9]+|Zmin|Zmax)\s*\(\"(.*)\"\)(\s*mode\s*([0-9]+))?.*
! Touchstone port assignment:
! Touchstone port 1 = CST MWS port Zmax ("") mode 1
! Touchstone port 2 = CST MWS port Zmax ("") mode 2
! Touchstone port 3 = CST MWS port Zmin ("") mode 1
! Touchstone port 4 = CST MWS port Zmin ("") mode 2
! S-Parameters are not renormalized. Each port impedance will be approximated by the real part at minimum frequency. The values are described via the [Reference] keyword.
! Default impedance is overridden by [Reference]
[Version] 2.0
# GHz S RI R 376.73
[Number of Ports] 4
[Reference]
376.73 376.73 259.888 259.888 
[Number of Frequencies] 51
[Network Data]
281700                  0.113954       0.0545158     -0.000324233     -0.00014366        -0.961706       -0.221732      0.000321292    -0.000538756
                    -0.000227797    -0.000179287      -0.00595426      -0.0745661      0.000412188    -0.000332824        -0.239943       -0.966942
                       -0.961825       -0.221637      0.000466617    -0.000432734        -0.125827     0.000285027      0.000237724     0.000239258
                     0.000340328    -0.000423115        -0.239669       -0.966989      0.000183492     0.000174091        0.0294221       0.0689851
281702                  0.113969       0.0545132      -0.00032436    -0.000143623        -0.961777       -0.221413      0.000321149    -0.000538832
                    -0.000227839    -0.000179222      -0.00596594      -0.0745595      0.000412115    -0.000332938        -0.240187       -0.966882
                       -0.961896       -0.221318      0.000466582    -0.000432856         -0.12584     0.000359161      0.000237724     0.000239133
                      0.00034019    -0.000423224        -0.239913       -0.966929      0.000183516     0.000174022        0.0294436       0.0689698
281704                  0.113985       0.0545107     -0.000324487    -0.000143586        -0.961848       -0.221095      0.000321007    -0.000538907
                    -0.000227881    -0.000179157      -0.00597762       -0.074553      0.000412043    -0.000333053        -0.240432       -0.966821
                       -0.961967          -0.221      0.000466546    -0.000432978        -0.125853     0.000433309      0.000237725     0.000239007
                     0.000340052    -0.000423332        -0.240158       -0.966869      0.000183539     0.000173953         0.029465       0.0689546
281706                     0.114       0.0545081     -0.000324615    -0.000143549        -0.961919       -0.220776      0.000320865    -0.000538983
                    -0.000227923    -0.000179092       -0.0059893      -0.0745464       0.00041197    -0.000333167        -0.240676       -0.966761
                       -0.962038       -0.220681      0.000466511      -0.0004331        -0.125865     0.000507471      0.000237725     0.000238882
                     0.000339914    -0.000423441        -0.240402       -0.966808      0.000183563     0.000173883        0.0294864       0.0689393
281708                  0.114016       0.0545056     -0.000324742    -0.000143511         -0.96199       -0.220458      0.000320722    -0.000539059
                    -0.000227965    -0.000179027      -0.00600097      -0.0745398      0.000411897    -0.000333281        -0.240921         -0.9667
                       -0.962109       -0.220363      0.000466476    -0.000433222        -0.125878     0.000581647      0.000237725     0.000238756
                     0.000339776    -0.000423549        -0.240647       -0.966748      0.000183587     0.000173814        0.0295078        0.068924
281710                  0.114031        0.054503      -0.00032487    -0.000143473        -0.962061       -0.220139      0.000320579    -0.000539135
                    -0.000228007    -0.000178962      -0.00601265      -0.0745332      0.000411824    -0.000333396        -0.241165        -0.96664
                        -0.96218       -0.220044       0.00046644    -0.000433345        -0.125891     0.000655836      0.000237725     0.000238631
                     0.000339638    -0.000423657        -0.240891       -0.966687      0.000183611     0.000173745        0.0295292       0.0689088
281712                  0.114047       0.0545005     -0.000324998    -0.000143435        -0.962131       -0.219821      0.000320436    -0.000539211
                    -0.000228049    -0.000178897      -0.00602432      -0.0745267      0.000411751     -0.00033351        -0.241409       -0.966579
                        -0.96225       -0.219726      0.000466405    -0.000433468        -0.125903      0.00073004      0.000237726     0.000238505
                       0.0003395    -0.000423765        -0.241136       -0.966627      0.000183634     0.000173676        0.0295506       0.0688935
281714                  0.114062       0.0544979     -0.000325126    -0.000143397        -0.962202       -0.219502      0.000320294    -0.000539287
                    -0.000228091    -0.000178832        -0.006036      -0.0745201      0.000411678    -0.000333624        -0.241654       -0.966519
                       -0.962321       -0.219407       0.00046637    -0.000433591        -0.125916     0.000804258      0.000237726      0.00023838
                     0.000339362    -0.000423872         -0.24138       -0.966566      0.000183658     0.000173606         0.029572       0.0688782
281716                  0.114078       0.0544953     -0.000325254    -0.000143358        -0.962272       -0.219184       0.00032015    -0.000539363
                    -0.000228133    -0.000178767      -0.00604767      -0.0745135      0.000411604    -0.000333739        -0.241898       -0.966458
                       -0.962391       -0.219089      0.000466335    -0.000433714        -0.125928     0.000878489      0.000237727     0.000238254
                     0.000339224     -0.00042398        -0.241625       -0.966506      0.000183682     0.000173537        0.0295933       0.0688629
281718                  0.114093       0.0544927     -0.000325382    -0.000143319        -0.962342       -0.218865      0.000320007    -0.000539439
                    -0.000228175    -0.000178702      -0.00605934      -0.0745069      0.000411531    -0.000333853        -0.242143       -0.966397
                       -0.962462        -0.21877      0.000466299    -0.000433837         -0.12594     0.000952734      0.000237727     0.000238129
                     0.000339085    -0.000424088        -0.241869       -0.966445      0.000183705     0.000173468        0.0296147       0.0688476
281720                  0.114109       0.0544901      -0.00032551     -0.00014328        -0.962413       -0.218546      0.000319864    -0.000539515
                    -0.000228216    -0.000178637      -0.00607102      -0.0745003      0.000411458    -0.000333967        -0.242387       -0.966336
                       -0.962532       -0.218451      0.000466264    -0.000433961        -0.125953      0.00102699      0.000237728     0.000238003
                     0.000338947    -0.000424195        -0.242113       -0.966384      0.000183729     0.000173398        0.0296361       0.0688323
281722                  0.114124       0.0544876     -0.000325638     -0.00014324        -0.962483       -0.218227       0.00031972    -0.000539591
                    -0.000228258    -0.000178572      -0.00608269      -0.0744938      0.000411385    -0.000334081        -0.242631       -0.966275
                       -0.962602       -0.218133      0.000466229    -0.000434085        -0.125965      0.00110127      0.000237728     0.000237878
                     0.000338808    -0.000424302        -0.242358       -0.966323      0.000183752     0.000173329        0.0296574        0.068817
281724                   0.11414        0.054485     -0.000325767    -0.000143201        -0.962553       -0.217909      0.000319577    -0.000539667
                    -0.000228299    -0.000178507      -0.00609436      -0.0744872      0.000411312    -0.000334195        -0.242876       -0.966214
                       -0.962672       -0.217814      0.000466194    -0.000434209        -0.125977      0.00117555      0.000237729     0.000237752
                     0.000338669    -0.000424409        -0.242602       -0.966262      0.000183775      0.00017326        0.0296787       0.0688017
281726                  0.114155       0.0544824     -0.000325896    -0.000143161        -0.962623        -0.21759      0.000319433    -0.000539743
                     -0.00022834    -0.000178442      -0.00610603      -0.0744806      0.000411238    -0.000334309         -0.24312       -0.966153
                       -0.962742       -0.217495      0.000466159    -0.000434333         -0.12599      0.00124985      0.000237729     0.000237627
                      0.00033853    -0.000424516        -0.242846       -0.966201      0.000183798      0.00017319        0.0297001       0.0687864
281728                  0.114171       0.0544797     -0.000326024     -0.00014312        -0.962692       -0.217271      0.000319289    -0.000539819
                    -0.000228381    -0.000178377       -0.0061177       -0.074474      0.000411165    -0.000334423        -0.243364       -0.966092
                       -0.962812       -0.217176      0.000466123    -0.000434458        -0.126002      0.00132417       0.00023773     0.000237501
                      0.00033839    -0.000424623        -0.243091        -0.96614      0.000183822     0.000173121        0.0297214       0.0687711
281730                  0.114186       0.0544771     -0.000326153     -0.00014308        -0.962762       -0.216952      0.000319145    -0.000539895
                    -0.000228421    -0.000178312      -0.00612936      -0.0744674      0.000411092    -0.000334537        -0.243608       -0.966031
                       -0.962881       -0.216858      0.000466088    -0.000434582        -0.126014      0.00139849      0.000237731     0.000237376
                      0.00033825    -0.000424729        -0.243335       -0.966079      0.000183845     0.000173051        0.0297427       0.0687557
281732                  0.114202       0.0544745     -0.000326282    -0.000143039        -0.962832       -0.216634      0.000319001    -0.000539971
                    -0.000228461    -0.000178247      -0.00614103      -0.0744608      0.000411018    -0.000334651        -0.243853        -0.96597
                       -0.962951       -0.216539      0.000466053    -0.000434707        -0.126026      0.00147284      0.000237731      0.00023725
                     0.000338109    -0.000424836        -0.243579       -0.966018      0.000183868     0.000172982         0.029764       0.0687404
281734                  0.114217       0.0544719     -0.000326411    -0.000142998        -0.962901       -0.216315      0.000318857    -0.000540048
                    -0.000228501    -0.000178181       -0.0061527      -0.0744542      0.000410945    -0.000334765        -0.244097       -0.965909
                       -0.963021        -0.21622      0.000466017    -0.000434832        -0.126038      0.00154719      0.000237732     0.000237125
                     0.000337968    -0.000424943        -0.243823       -0.965956      0.000183891     0.000172912        0.0297853       0.0687251
281736                  0.114233       0.0544693      -0.00032654    -0.000142956        -0.962971       -0.215996      0.000318713    -0.000540124
                     -0.00022854    -0.000178115      -0.00616436      -0.0744476      0.000410872    -0.000334879        -0.244341       -0.965847
                        -0.96309       -0.215901      0.000465982    -0.000434958         -0.12605      0.00162156      0.000237733     0.000236999
                     0.000337826     -0.00042505        -0.244068       -0.965895      0.000183914     0.000172843        0.0298066       0.0687097
281738                  0.114248       0.0544666     -0.000326669    -0.000142914         -0.96304       -0.215677      0.000318569      -0.0005402
                    -0.000228579    -0.000178049      -0.00617603       -0.074441      0.000410798    -0.000334993        -0.244585       -0.965786
                       -0.963159       -0.215582      0.000465947    -0.000435083        -0.126062      0.00169594      0.000237733     0.000236874
                     0.000337684    -0.000425159        -0.244312       -0.965834      0.000183937     0.000172773        0.0298279       0.0686943
281740                  0.114264        0.054464     -0.000326799    -0.000142872        -0.963109       -0.215358      0.000318424    -0.000540276
                    -0.000228618    -0.000177981      -0.00618769      -0.0744344      0.000410725    -0.000335107         -0.24483       -0.965724
                       -0.963228       -0.215263      0.000465911    -0.000435209        -0.126074      0.00177034      0.000237734     0.000236749
                     0.000337541    -0.000425268        -0.244556       -0.965772       0.00018396     0.000172704        0.0298492        0.068679
281742                  0.114279       0.0544614     -0.000326928     -0.00014283        -0.963178       -0.215039      0.000318279    -0.000540352
                    -0.000228657    -0.000177912      -0.00619936      -0.0744278      0.000410651    -0.000335221        -0.245074       -0.965663
                       -0.963297       -0.214944      0.000465876    -0.000435335        -0.126086      0.00184475      0.000237735     0.000236623
                     0.000337399    -0.000425379          -0.2448       -0.965711      0.000183983     0.000172634        0.0298705       0.0686636
281744                  0.114295       0.0544587     -0.000327058    -0.000142788        -0.963247        -0.21472      0.000318135    -0.000540429
                    -0.000228697    -0.000177842      -0.00621102      -0.0744212      0.000410578    -0.000335334        -0.245318       -0.965601
                       -0.963366       -0.214625      0.000465841    -0.000435461        -0.126097      0.00191917      0.000237736     0.000236498
                     0.000337259    -0.000425491        -0.245045       -0.965649      0.000184006     0.000172564        0.0298918       0.0686483
281746                   0.11431       0.0544561     -0.000327187    -0.000142745        -0.963316       -0.214401       0.00031799    -0.000540505
                    -0.000228738    -0.000177772      -0.00622268      -0.0744146      0.000410504    -0.000335448        -0.245562        -0.96554
                       -0.963435       -0.214306      0.000465805    -0.000435587        -0.126109       0.0019936      0.000237737     0.000236372
                      0.00033712    -0.000425603        -0.245289       -0.965588      0.000184028     0.000172495         0.029913       0.0686329
281748                  0.114326       0.0544534     -0.000327317    -0.000142702        -0.963385       -0.214082      0.000317845    -0.000540581
                    -0.000228781    -0.000177703      -0.00623434       -0.074408       0.00041043    -0.000335562        -0.245806       -0.965478
                       -0.963504       -0.213987       0.00046577    -0.000435714        -0.126121      0.00206805      0.000237738     0.000236247
                     0.000336982    -0.000425715        -0.245533       -0.965526      0.000184051     0.000172425        0.0299343       0.0686175
281750                  0.114341       0.0544507     -0.000327447    -0.000142658        -0.963453       -0.213762        0.0003177    -0.000540657
                    -0.000228823    -0.000177634        -0.006246      -0.0744014      0.000410357    -0.000335676         -0.24605       -0.965416
                       -0.963573       -0.213668      0.000465734    -0.000435841        -0.126133      0.00214252      0.000237739     0.000236121
                     0.000336845    -0.000425825        -0.245777       -0.965464      0.000184074     0.000172355        0.0299555       0.0686021
281752                  0.114357       0.0544481     -0.000327577    -0.000142614        -0.963522       -0.213443      0.000317554    -0.000540734
                    -0.000228867    -0.000177565      -0.00625766      -0.0743948      0.000410283    -0.000335789        -0.246294       -0.965354
                       -0.963641       -0.213349      0.000465699    -0.000435968        -0.126144      0.00221699       0.00023774     0.000235996
                     0.000336708    -0.000425935        -0.246021       -0.965402      0.000184096     0.000172285        0.0299767       0.0685867
281754                  0.114372       0.0544454     -0.000327707     -0.00014257         -0.96359       -0.213124      0.000317409     -0.00054081
                     -0.00022891    -0.000177497      -0.00626932      -0.0743882      0.000410209    -0.000335903        -0.246538       -0.965292
                        -0.96371       -0.213029      0.000465663    -0.000436095        -0.126156      0.00229148      0.000237741      0.00023587
                     0.000336571    -0.000426043        -0.246265       -0.965341      0.000184119     0.000172216         0.029998       0.0685713
281756                  0.114388       0.0544427     -0.000327837    -0.000142526        -0.963659       -0.212805      0.000317263    -0.000540886
                    -0.000228953    -0.000177429      -0.00628098      -0.0743816      0.000410136    -0.000336017        -0.246783        -0.96523
                       -0.963778        -0.21271      0.000465628    -0.000436222        -0.126167      0.00236598      0.000237742     0.000235745
                     0.000336434    -0.000426151         -0.24651       -0.965279      0.000184141     0.000172146        0.0300192       0.0685559
281758                  0.114404       0.0544401     -0.000327968    -0.000142482        -0.963727       -0.212486      0.000317118    -0.000540962
                    -0.000228996    -0.000177362      -0.00629263       -0.074375      0.000410062     -0.00033613        -0.247027       -0.965168
                       -0.963846       -0.212391      0.000465592     -0.00043635        -0.126179       0.0024405      0.000237743     0.000235619
                     0.000336296    -0.000426259        -0.246754       -0.965217      0.000184164     0.000172076        0.0300404       0.0685405
281760                  0.114419       0.0544374     -0.000328099    -0.000142438        -0.963795       -0.212166      0.000316972    -0.000541039
                    -0.000229039    -0.000177295      -0.00630429      -0.0743684      0.000409988    -0.000336244        -0.247271       -0.965106
                       -0.963914       -0.212072      0.000465557    -0.000436479         -0.12619      0.00251503      0.000237744     0.000235494
                     0.000336159    -0.000426367        -0.246998       -0.965155      0.000184186     0.000172006        0.0300616       0.0685251
281762                  0.114435       0.0544347      -0.00032823    -0.000142394        -0.963863       -0.211847      0.000316826    -0.000541115
                    -0.000229081    -0.000177227      -0.00631595      -0.0743617      0.000409914    -0.000336357        -0.247515       -0.965044
                       -0.963982       -0.211752      0.000465522    -0.000436608        -0.126202      0.00258957      0.000237745     0.000235369
