! TOUCHSTONE file generated by CST MICROWAVE STUDIO
! Date and time: Wed Oct 15 17:30:55 2025
! Project name: Teste_Macro_Metasurface_Nanopilar.cst
! Parameters = {H=600; L_x=125; L_y=75; Lambda=1064; Max_L=200; Min_L=70; PathPara=1; Phi=0; Step_L=10; Theta=0; p=520; phaseX=180; phaseY=0}
! Header version: 2018
! Port assignment regex: !\s*Touchstone port\s*([0-9]+)\s*=\s*(CST MWS port|CST DS port)\s*([0-9]+|Zmin|Zmax)\s*\(\"(.*)\"\)(\s*mode\s*([0-9]+))?.*
! Touchstone port assignment:
! Touchstone port 1 = CST MWS port Zmax ("") mode 1
! Touchstone port 2 = CST MWS port Zmax ("") mode 2
! Touchstone port 3 = CST MWS port Zmin ("") mode 1
! Touchstone port 4 = CST MWS port Zmin ("") mode 2
! S-Parameters are not renormalized. Each port impedance will be approximated by the real part at minimum frequency. The values are described via the [Reference] keyword.
! Default impedance is overridden by [Reference]
[Version] 2.0
# GHz S RI R 376.73
[Number of Ports] 4
[Reference]
376.73 376.73 259.888 259.888 
[Number of Frequencies] 51
[Network Data]
281700                 0.0222579       -0.109028     -0.000484743    -4.95252e-05       -0.0189368       -0.993224      3.82608e-05    -5.92275e-05
                    -0.000490358     2.15466e-05         0.109464       0.0456856      0.000155927    -4.88283e-05        -0.924273       -0.351102
                      -0.0192163        -0.99316      0.000216911    -1.31795e-05        0.0263266        0.108223     -0.000160413     0.000412487
                     7.49664e-05    -0.000103462        -0.923978       -0.351496     -0.000180958     0.000513017        -0.112017      -0.0373345
281702                 0.0222455       -0.109027     -0.000484767    -4.94211e-05       -0.0191777        -0.99322      3.82142e-05    -5.92396e-05
                    -0.000490315     2.16646e-05         0.109477       0.0456853      0.000155876    -4.88448e-05        -0.924383       -0.350808
                      -0.0194573       -0.993156      0.000216915    -1.32136e-05        0.0263666        0.108209     -0.000160293     0.000412481
                     7.49704e-05    -0.000103477        -0.924088       -0.351202     -0.000180836     0.000513034         -0.11205      -0.0372723
281704                  0.022233       -0.109025     -0.000484791     -4.9317e-05       -0.0194186       -0.993216      3.81736e-05    -5.92486e-05
                    -0.000490273     2.17826e-05          0.10949        0.045685      0.000155825    -4.88615e-05        -0.924492       -0.350514
                      -0.0196983       -0.993152      0.000216919    -1.32476e-05        0.0264066        0.108195      -0.00016015       0.0004124
                     7.49744e-05    -0.000103493        -0.924198       -0.350907     -0.000180713     0.000513051        -0.112083        -0.03721
281706                 0.0222206       -0.109023     -0.000484815    -4.92129e-05       -0.0196594       -0.993211      3.81402e-05    -5.92498e-05
                     -0.00049023     2.19005e-05         0.109503       0.0456846      0.000155774    -4.88782e-05        -0.924602        -0.35022
                      -0.0199393       -0.993147      0.000216923    -1.32816e-05        0.0264465         0.10818     -0.000159902     0.000412304
                     7.49784e-05    -0.000103509        -0.924307       -0.350613      -0.00018059     0.000513067        -0.112116      -0.0371477
281708                 0.0222082       -0.109022     -0.000484838    -4.91087e-05       -0.0199003       -0.993207      3.81113e-05    -5.92347e-05
                    -0.000490187     2.20184e-05         0.109516       0.0456843      0.000155723     -4.8895e-05        -0.924711       -0.349926
                      -0.0201803       -0.993143      0.000216927    -1.33157e-05        0.0264865        0.108166     -0.000159607     0.000412291
                     7.49824e-05    -0.000103524        -0.924417       -0.350319     -0.000180468     0.000513084         -0.11215      -0.0370854
281710                 0.0221958        -0.10902     -0.000484862    -4.90045e-05       -0.0201411       -0.993203       3.8073e-05    -5.91958e-05
                    -0.000490145     2.21363e-05         0.109529       0.0456839      0.000155672    -4.89118e-05         -0.92482       -0.349631
                      -0.0204213       -0.993138      0.000216931    -1.33497e-05        0.0265265        0.108152     -0.000159341     0.000412329
                     7.49864e-05    -0.000103539        -0.924526       -0.350025     -0.000180345       0.0005131        -0.112183       -0.037023
281712                 0.0221833       -0.109018     -0.000484886    -4.89004e-05        -0.020382       -0.993198      3.80034e-05    -5.91443e-05
                    -0.000490102     2.22541e-05         0.109542       0.0456836      0.000155621    -4.89287e-05         -0.92493       -0.349337
                      -0.0206623       -0.993134      0.000216934    -1.33838e-05        0.0265665        0.108138     -0.000159103     0.000412378
                     7.49904e-05    -0.000103555        -0.924636       -0.349731     -0.000180222     0.000513115        -0.112216      -0.0369607
281714                 0.0221709       -0.109017     -0.000484909    -4.87962e-05       -0.0206228       -0.993194      3.79029e-05    -5.91105e-05
                    -0.000490059     2.23719e-05         0.109555       0.0456832       0.00015557    -4.89457e-05        -0.925039       -0.349043
                      -0.0209033       -0.993129      0.000216937    -1.34179e-05        0.0266064        0.108124     -0.000158883     0.000412425
                     7.49945e-05     -0.00010357        -0.924745       -0.349436     -0.000180099     0.000513131        -0.112249      -0.0368983
281716                 0.0221585       -0.109015     -0.000484932     -4.8692e-05       -0.0208637       -0.993189      3.77971e-05    -5.91054e-05
                    -0.000490015     2.24898e-05         0.109568       0.0456828      0.000155519    -4.89627e-05        -0.925148       -0.348748
                      -0.0211443       -0.993125      0.000216941    -1.34519e-05        0.0266464         0.10811     -0.000158671     0.000412469
                     7.49986e-05    -0.000103585        -0.924854       -0.349142     -0.000179977     0.000513146        -0.112282      -0.0368359
281718                 0.0221461       -0.109013     -0.000484956    -4.85877e-05       -0.0211045       -0.993185      3.77016e-05    -5.91175e-05
                    -0.000489972     2.26076e-05         0.109581       0.0456825      0.000155468    -4.89797e-05        -0.925257       -0.348454
                      -0.0213853        -0.99312      0.000216944     -1.3486e-05        0.0266863        0.108096     -0.000158464     0.000412509
                     7.50027e-05    -0.000103601        -0.924963       -0.348848     -0.000179854     0.000513162        -0.112315      -0.0367734
281720                 0.0221336       -0.109012     -0.000484979    -4.84835e-05       -0.0213454        -0.99318      3.76174e-05    -5.91354e-05
                    -0.000489929     2.27254e-05         0.109594       0.0456821      0.000155417    -4.89968e-05        -0.925365       -0.348159
                      -0.0216263       -0.993115      0.000216947    -1.35201e-05        0.0267263        0.108082      -0.00015826     0.000412546
                     7.50069e-05    -0.000103616        -0.925072       -0.348553     -0.000179731     0.000513177        -0.112348      -0.0367109
281722                 0.0221212        -0.10901     -0.000485002    -4.83792e-05       -0.0215862       -0.993175      3.75413e-05    -5.91539e-05
                    -0.000489885     2.28432e-05         0.109607       0.0456817      0.000155366     -4.9014e-05        -0.925474       -0.347865
                      -0.0218673       -0.993111       0.00021695    -1.35542e-05        0.0267662        0.108068     -0.000158058      0.00041258
                     7.50111e-05    -0.000103631        -0.925181       -0.348259     -0.000179609     0.000513191        -0.112381      -0.0366484
281724                 0.0221088       -0.109008     -0.000485025     -4.8275e-05       -0.0218271        -0.99317      3.74702e-05    -5.91711e-05
                    -0.000489842      2.2961e-05          0.10962       0.0456813      0.000155314    -4.90313e-05        -0.925583       -0.347571
                      -0.0221083       -0.993106      0.000216953    -1.35884e-05        0.0268061        0.108054     -0.000157856     0.000412613
                     7.50154e-05    -0.000103646        -0.925289       -0.347964     -0.000179486     0.000513206        -0.112414      -0.0365859
281726                 0.0220964       -0.109007     -0.000485048    -4.81707e-05       -0.0220679       -0.993166      3.74024e-05    -5.91868e-05
                    -0.000489798     2.30789e-05         0.109633        0.045681      0.000155263    -4.90485e-05        -0.925691       -0.347276
                      -0.0223493       -0.993101      0.000216956    -1.36225e-05         0.026846         0.10804     -0.000157655     0.000412645
                     7.50197e-05    -0.000103662        -0.925398        -0.34767     -0.000179363      0.00051322        -0.112447      -0.0365234
281728                  0.022084       -0.109005     -0.000485071    -4.80664e-05       -0.0223088       -0.993161      3.73365e-05    -5.92009e-05
                    -0.000489755     2.31967e-05         0.109646       0.0456806      0.000155212    -4.90659e-05          -0.9258       -0.346981
                      -0.0225903       -0.993096      0.000216958    -1.36567e-05        0.0268859        0.108025     -0.000157455     0.000412675
                     7.50241e-05    -0.000103677        -0.925507       -0.347375     -0.000179241     0.000513234         -0.11248      -0.0364608
281730                 0.0220715       -0.109003     -0.000485094    -4.79621e-05       -0.0225496       -0.993156      3.72719e-05    -5.92138e-05
                    -0.000489711     2.33145e-05         0.109659       0.0456802      0.000155161    -4.90833e-05        -0.925908       -0.346687
                      -0.0228313       -0.993091      0.000216961    -1.36908e-05        0.0269258        0.108011     -0.000157255     0.000412705
                     7.50286e-05    -0.000103692        -0.925615        -0.34708     -0.000179118     0.000513249        -0.112512      -0.0363982
281732                 0.0220591       -0.109001     -0.000485117    -4.78577e-05       -0.0227905       -0.993151      3.72082e-05    -5.92255e-05
                    -0.000489667     2.34324e-05         0.109672       0.0456798       0.00015511    -4.91007e-05        -0.926016       -0.346392
                      -0.0230723       -0.993086      0.000216963     -1.3725e-05        0.0269657        0.107997     -0.000157055     0.000412734
                     7.50332e-05    -0.000103707        -0.925724       -0.346786     -0.000178995     0.000513262        -0.112545      -0.0363356
281734                 0.0220467          -0.109     -0.000485139    -4.77534e-05       -0.0230313       -0.993146       3.7145e-05    -5.92364e-05
                    -0.000489624     2.35502e-05         0.109685       0.0456794      0.000155059    -4.91182e-05        -0.926124       -0.346097
                      -0.0233133       -0.993081      0.000216965    -1.37592e-05        0.0270056        0.107983     -0.000156856     0.000412762
                     7.50378e-05    -0.000103722        -0.925832       -0.346491     -0.000178873     0.000513276        -0.112578      -0.0362729
281736                 0.0220343       -0.108998     -0.000485162     -4.7649e-05       -0.0232722        -0.99314      3.70823e-05    -5.92465e-05
                     -0.00048958     2.36681e-05         0.109698        0.045679      0.000155008    -4.91357e-05        -0.926233       -0.345803
                      -0.0235543       -0.993075      0.000216967    -1.37934e-05        0.0270455        0.107968     -0.000156656     0.000412789
                     7.50425e-05    -0.000103738         -0.92594       -0.346196      -0.00017875      0.00051329        -0.112611      -0.0362103
281738                 0.0220218       -0.108996     -0.000485185    -4.75446e-05        -0.023513       -0.993135      3.70199e-05    -5.92559e-05
                    -0.000489536     2.37859e-05         0.109711       0.0456786      0.000154957    -4.91533e-05         -0.92634       -0.345508
                      -0.0237953        -0.99307      0.000216969    -1.38276e-05        0.0270854        0.107954     -0.000156457     0.000412816
                     7.50472e-05    -0.000103753        -0.926048       -0.345901     -0.000178628     0.000513303        -0.112643      -0.0361476
281740                 0.0220094       -0.108995     -0.000485207    -4.74403e-05       -0.0237539        -0.99313      3.69577e-05    -5.92647e-05
                    -0.000489492     2.39038e-05         0.109724       0.0456782      0.000154905    -4.91709e-05        -0.926448       -0.345213
                      -0.0240363       -0.993065      0.000216971    -1.38618e-05        0.0271253         0.10794     -0.000156257     0.000412843
                      7.5052e-05    -0.000103768        -0.926156       -0.345607     -0.000178505     0.000513316        -0.112676      -0.0360848
281742                  0.021997       -0.108993     -0.000485229    -4.73359e-05       -0.0239947       -0.993125      3.68956e-05    -5.92731e-05
                    -0.000489448     2.40217e-05         0.109737       0.0456778      0.000154854    -4.91886e-05        -0.926556       -0.344918
                      -0.0242773       -0.993059      0.000216973    -1.38961e-05        0.0271651        0.107926     -0.000156058     0.000412869
                     7.50569e-05    -0.000103784        -0.926264       -0.345312     -0.000178382     0.000513329        -0.112708      -0.0360221
281744                 0.0219846       -0.108991     -0.000485252    -4.72314e-05       -0.0242356       -0.993119      3.68337e-05    -5.92809e-05
                    -0.000489404     2.41395e-05          0.10975       0.0456774      0.000154803    -4.92064e-05        -0.926664       -0.344623
                      -0.0245183       -0.993054      0.000216974    -1.39304e-05         0.027205        0.107911     -0.000155859     0.000412894
                     7.50618e-05    -0.000103799        -0.926372       -0.345017      -0.00017826     0.000513342        -0.112741      -0.0359593
281746                 0.0219722        -0.10899     -0.000485274     -4.7127e-05       -0.0244764       -0.993114      3.67719e-05    -5.92882e-05
                     -0.00048936     2.42573e-05         0.109763       0.0456769      0.000154752    -4.92242e-05        -0.926771       -0.344328
                      -0.0247593       -0.993048      0.000216976    -1.39646e-05        0.0272448        0.107897     -0.000155659     0.000412919
                     7.50668e-05    -0.000103815         -0.92648       -0.344722     -0.000178137     0.000513354        -0.112774      -0.0358965
281748                 0.0219597       -0.108988     -0.000485296    -4.70227e-05       -0.0247173       -0.993108      3.67102e-05    -5.92951e-05
                    -0.000489316     2.43752e-05         0.109776       0.0456765      0.000154701     -4.9242e-05        -0.926879       -0.344033
                      -0.0250003       -0.993043      0.000216977    -1.39989e-05        0.0272846        0.107883      -0.00015546     0.000412943
                     7.50718e-05     -0.00010383        -0.926587       -0.344427     -0.000178015     0.000513367        -0.112806      -0.0358337
281750                 0.0219473       -0.108986     -0.000485319    -4.69185e-05       -0.0249581       -0.993103      3.66485e-05    -5.93015e-05
                    -0.000489272      2.4493e-05         0.109789       0.0456761       0.00015465      -4.926e-05        -0.926986       -0.343738
                      -0.0252413       -0.993037      0.000216979    -1.40333e-05        0.0273245        0.107868      -0.00015526     0.000412967
                     7.50769e-05    -0.000103846        -0.926695       -0.344132     -0.000177892     0.000513379        -0.112838      -0.0357709
281752                 0.0219349       -0.108984     -0.000485342    -4.68203e-05       -0.0251989       -0.993097      3.65867e-05    -5.93073e-05
                    -0.000489228     2.46109e-05         0.109802       0.0456757      0.000154598     -4.9278e-05        -0.927094       -0.343443
                      -0.0254823       -0.993032       0.00021698    -1.40677e-05        0.0273643        0.107854      -0.00015506      0.00041299
                     7.50822e-05    -0.000103862        -0.926802       -0.343837      -0.00017777      0.00051339        -0.112871       -0.035708
281754                 0.0219225       -0.108983     -0.000485359    -4.67085e-05       -0.0254398       -0.993092      3.65249e-05    -5.93124e-05
                    -0.000489184     2.47288e-05         0.109815       0.0456752      0.000154547    -4.92962e-05        -0.927201       -0.343148
                      -0.0257232       -0.993026      0.000216982    -1.41034e-05        0.0274041         0.10784      -0.00015486     0.000413013
                     7.50876e-05    -0.000103878         -0.92691       -0.343542     -0.000177647     0.000513402        -0.112903      -0.0356451
281756                 0.0219101       -0.108981     -0.000485382     -4.6604e-05       -0.0256806       -0.993086      3.64629e-05    -5.93165e-05
                     -0.00048914      2.4847e-05         0.109828       0.0456748      0.000154496    -4.93146e-05         -0.92731       -0.342853
                      -0.0259642        -0.99302      0.000216979    -1.41387e-05        0.0274439        0.107825     -0.000154659     0.000413034
                     7.50937e-05    -0.000103894        -0.927017       -0.343246     -0.000177525     0.000513413        -0.112936      -0.0355822
281758                 0.0218977       -0.108979     -0.000485404    -4.64995e-05       -0.0259215        -0.99308      3.64003e-05    -5.93192e-05
                    -0.000489095     2.49658e-05         0.109841       0.0456744      0.000154444    -4.93335e-05        -0.927415       -0.342558
                      -0.0262052       -0.993014       0.00021698    -1.41716e-05        0.0274837        0.107811     -0.000154457     0.000413053
                     7.51004e-05    -0.000103909        -0.927124       -0.342951     -0.000177402     0.000513422        -0.112968      -0.0355193
281760                 0.0218852       -0.108978     -0.000485425    -4.63949e-05       -0.0261623       -0.993074      3.63363e-05    -5.93193e-05
                    -0.000489049     2.50835e-05         0.109854       0.0456739      0.000154392    -4.93546e-05        -0.927522       -0.342263
                      -0.0264462       -0.993008       0.00021698    -1.42057e-05        0.0275235        0.107796      -0.00015425     0.000413067
                     7.51053e-05    -0.000103922        -0.927231       -0.342656     -0.000177278     0.000513425           -0.113      -0.0354563
281762                 0.0218728       -0.108976     -0.000485447    -4.62903e-05       -0.0264036       -0.993069      3.62673e-05    -5.93141e-05
                    -0.000489004     2.51994e-05         0.109867       0.0456735      0.000154295    -4.91219e-05        -0.927629       -0.341967
                      -0.0266872       -0.993002      0.000216981      -1.424e-05        0.0275635        0.107782     -0.000154026     0.000413071
