! TOUCHSTONE file generated by CST MICROWAVE STUDIO
! Date and time: Wed Oct 15 17:32:55 2025
! Project name: Teste_Macro_Metasurface_Nanopilar.cst
! Parameters = {H=600; L_x=160; L_y=75; Lambda=1064; Max_L=200; Min_L=70; PathPara=1; Phi=0; Step_L=10; Theta=0; p=520; phaseX=180; phaseY=0}
! Header version: 2018
! Port assignment regex: !\s*Touchstone port\s*([0-9]+)\s*=\s*(CST MWS port|CST DS port)\s*([0-9]+|Zmin|Zmax)\s*\(\"(.*)\"\)(\s*mode\s*([0-9]+))?.*
! Touchstone port assignment:
! Touchstone port 1 = CST MWS port Zmax ("") mode 1
! Touchstone port 2 = CST MWS port Zmax ("") mode 2
! Touchstone port 3 = CST MWS port Zmin ("") mode 1
! Touchstone port 4 = CST MWS port Zmin ("") mode 2
! S-Parameters are not renormalized. Each port impedance will be approximated by the real part at minimum frequency. The values are described via the [Reference] keyword.
! Default impedance is overridden by [Reference]
[Version] 2.0
# GHz S RI R 376.73
[Number of Ports] 4
[Reference]
376.73 376.73 259.888 259.888 
[Number of Frequencies] 51
[Network Data]
281700               -0.00124848      -0.0862146      3.08378e-05     0.000118529        -0.182384       -0.978461     -0.000163932     6.09106e-05
                      3.4334e-05     5.96374e-05       -0.0738384       0.0130307      0.000185548    -6.24292e-05         0.591314        0.792506
                       -0.182367       -0.978899      0.000225278    -0.000148216        0.0297983       0.0811233     -5.18253e-05     0.000150155
                    -0.000296165     6.66252e-05         0.591322        0.792182     -8.99895e-06     0.000240764       -0.0349999       0.0695392
281702               -0.00126044      -0.0862099      3.08462e-05     0.000118478        -0.182627       -0.978417     -0.000163877     6.09957e-05
                     3.43057e-05     5.96767e-05       -0.0738346       0.0130762      0.000185501     -6.2509e-05         0.591618        0.792278
                        -0.18261       -0.978854      0.000225255    -0.000148289        0.0298257       0.0811084     -5.17343e-05      0.00015023
                    -0.000296127     6.67841e-05         0.591627        0.791955     -8.92525e-06     0.000240722       -0.0349892       0.0695491
281704                -0.0012724      -0.0862053      0.000144332     5.88609e-05         -0.18287       -0.978372     -0.000163821     6.10811e-05
                     3.42855e-05     5.97338e-05       -0.0738278       0.0130908      0.000185456    -6.25776e-05         0.591922        0.792051
                       -0.182853       -0.978809      0.000140064    -3.41495e-05        0.0298531       0.0810936     -5.16438e-05     0.000150306
                    -0.000296215     6.69564e-05         0.591951        0.791728     -8.83868e-06     0.000240682       -0.0349784        0.069559
281706               -0.00128435      -0.0862006      0.000155173     7.12208e-05        -0.183113       -0.978327     -0.000163764     6.11667e-05
                     3.42454e-05       5.979e-05       -0.0737972       0.0131493       0.00018541     -6.2651e-05         0.592226        0.791823
                       -0.183096       -0.978763      0.000101531    -5.71613e-05        0.0298805       0.0810788     -5.15537e-05     0.000150383
                    -0.000296115     6.70626e-05         0.592276        0.791499     -8.75793e-06     0.000240645       -0.0349677        0.069569
281708               -0.00129631       -0.086196      0.000157226     7.45046e-05        -0.183356       -0.978282     -0.000163707     6.12527e-05
                     3.42071e-05     5.98382e-05       -0.0737934       0.0132017      0.000185364    -6.27245e-05         0.592531        0.791595
                       -0.183339       -0.978718      9.47146e-05     -6.5968e-05        0.0299078       0.0810639      -5.1464e-05     0.000150459
                     -0.00029608     6.72139e-05         0.592593        0.791269     -8.67791e-06     0.000240608        -0.034957       0.0695789
281710               -0.00130826      -0.0861913      0.000157878     7.57213e-05        -0.183599       -0.978237      -0.00016365     6.13391e-05
                     3.41711e-05     5.98852e-05       -0.0737901       0.0132493      0.000185318     -6.2798e-05         0.592834        0.791367
                       -0.183582       -0.978673       9.2588e-05    -6.94768e-05        0.0299352        0.081049     -5.13745e-05     0.000150537
                     -0.00029605     6.73645e-05         0.592904         0.79104     -8.59791e-06     0.000240571       -0.0349463       0.0695889
281712               -0.00132022      -0.0861866      0.000158119     7.62635e-05        -0.183842       -0.978192     -0.000163592     6.14257e-05
                     3.41362e-05      5.9932e-05       -0.0737865       0.0132957      0.000185272    -6.28715e-05         0.593138        0.791139
                       -0.183825       -0.978628      9.17166e-05    -7.11565e-05        0.0299625       0.0810342     -5.12853e-05     0.000150614
                    -0.000296022     6.75148e-05         0.593212        0.790811     -8.51782e-06     0.000240534       -0.0349355       0.0695989
281714               -0.00133217       -0.086182      0.000158202     7.65312e-05        -0.184085       -0.978146     -0.000163534     6.15128e-05
                     3.41019e-05     5.99789e-05       -0.0737828       0.0133416      0.000185227     -6.2945e-05         0.593442        0.790911
                       -0.184068       -0.978582      9.13089e-05    -7.20808e-05        0.0299899       0.0810193     -5.11961e-05     0.000150692
                    -0.000295994     6.76649e-05         0.593518        0.790583     -8.43763e-06     0.000240497       -0.0349248       0.0696089
281716               -0.00134413      -0.0861773      0.000158212     7.66703e-05        -0.184328       -0.978101     -0.000163476     6.16002e-05
                      3.4068e-05     6.00258e-05        -0.073779       0.0133873      0.000185181    -6.30185e-05         0.593746        0.790683
                       -0.184311       -0.978537      9.11072e-05    -7.26495e-05        0.0300172       0.0810044      -5.1107e-05     0.000150771
                    -0.000295967      6.7815e-05         0.593822        0.790354     -8.35732e-06      0.00024046       -0.0349141       0.0696189
281718               -0.00135608      -0.0861726      0.000158184      7.6743e-05        -0.184571       -0.978056     -0.000163418      6.1688e-05
                     3.40344e-05     6.00728e-05       -0.0737751        0.013433      0.000185135     -6.3092e-05         0.594049        0.790454
                       -0.184554       -0.978492      9.10084e-05    -7.30347e-05        0.0300445       0.0809895      -5.1018e-05     0.000150849
                    -0.000295939      6.7965e-05         0.594127        0.790126      -8.2769e-06     0.000240423       -0.0349033       0.0696289
281720               -0.00136804       -0.086168      0.000158137      7.6779e-05        -0.184814        -0.97801     -0.000163359     6.17761e-05
                     3.40012e-05     6.01198e-05       -0.0737713       0.0134785       0.00018509    -6.31654e-05         0.594353        0.790226
                       -0.184797       -0.978446      9.09653e-05    -7.33183e-05        0.0300718       0.0809746      -5.0929e-05     0.000150928
                    -0.000295912     6.81151e-05         0.594431        0.789897     -8.19636e-06     0.000240386       -0.0348926        0.069639
281722               -0.00137999      -0.0861633      0.000158077     7.67935e-05        -0.185057       -0.977965       -0.0001633     6.18646e-05
                     3.39682e-05     6.01668e-05       -0.0737674        0.013524      0.000185044    -6.32388e-05         0.594656        0.789997
                        -0.18504         -0.9784      9.09541e-05     -7.3543e-05        0.0300991       0.0809597       -5.084e-05     0.000151008
                    -0.000295885     6.82651e-05         0.594734        0.789668      -8.1157e-06     0.000240349       -0.0348819        0.069649
281724               -0.00139194      -0.0861586      0.000158011     7.67952e-05          -0.1853        -0.97792     -0.000163241     6.19534e-05
                     3.39356e-05     6.02137e-05       -0.0737634       0.0135695      0.000184999    -6.33122e-05         0.594959        0.789768
                       -0.185282       -0.978355       9.0962e-05    -7.37321e-05        0.0301264       0.0809448      -5.0751e-05     0.000151088
                    -0.000295858     6.84151e-05         0.595038        0.789439     -8.03494e-06     0.000240313       -0.0348712       0.0696591
281726                -0.0014039      -0.0861539       0.00015794     7.67887e-05        -0.185543       -0.977874     -0.000163182     6.20426e-05
                     3.39034e-05     6.02606e-05       -0.0737595        0.013615      0.000184953    -6.33856e-05         0.595263         0.78954
                       -0.185525       -0.978309      9.09817e-05     -7.3899e-05        0.0301537       0.0809298      -5.0662e-05     0.000151168
                    -0.000295831     6.85652e-05         0.595341        0.789211     -7.95405e-06     0.000240276       -0.0348604       0.0696692
281728               -0.00141585      -0.0861493      0.000157866     7.67772e-05        -0.185785       -0.977828     -0.000163123      6.2132e-05
                     3.38717e-05     6.03073e-05       -0.0737556       0.0136605      0.000184908    -6.34589e-05         0.595566        0.789311
                       -0.185768       -0.978263      9.10087e-05     -7.4052e-05         0.030181       0.0809149     -5.05729e-05     0.000151248
                    -0.000295804     6.87153e-05         0.595644        0.788982     -7.87306e-06      0.00024024       -0.0348497       0.0696793
281730                -0.0014278      -0.0861446       0.00015779     7.67623e-05        -0.186028       -0.977783     -0.000163064     6.22218e-05
                     3.38407e-05     6.03532e-05       -0.0737516        0.013706      0.000184863    -6.35322e-05         0.595869        0.789082
                       -0.186011       -0.978218      9.10405e-05     -7.4196e-05        0.0302083          0.0809     -5.04838e-05     0.000151328
                     -0.00029578     6.88656e-05         0.595947        0.788753     -7.79194e-06     0.000240204        -0.034839       0.0696894
281732               -0.00143975      -0.0861399      0.000157714     7.67453e-05        -0.186271       -0.977737     -0.000163005     6.23119e-05
                     3.38096e-05     6.03968e-05       -0.0737476       0.0137514      0.000184817    -6.36055e-05         0.596172        0.788852
                       -0.186254       -0.978172      9.10752e-05    -7.43342e-05        0.0302356        0.080885     -5.03947e-05     0.000151409
                    -0.000295764     6.90219e-05          0.59625        0.788523     -7.71072e-06     0.000240168       -0.0348282       0.0696995
281734                -0.0014517      -0.0861352      0.000157636     7.67269e-05        -0.186514       -0.977691     -0.000162945     6.24023e-05
                     3.37734e-05     6.04393e-05       -0.0737436       0.0137969      0.000184772    -6.36787e-05         0.596475        0.788623
                       -0.186497       -0.978126      9.11119e-05    -7.44685e-05        0.0302628         0.08087     -5.03056e-05      0.00015149
                    -0.000295705     6.91754e-05         0.596553        0.788294     -7.62938e-06     0.000240132       -0.0348175       0.0697096
281736               -0.00146364      -0.0861305      0.000157558     7.67075e-05        -0.186757       -0.977645     -0.000162886      6.2493e-05
                     3.37366e-05     6.04887e-05       -0.0737396       0.0138424      0.000184727     -6.3752e-05         0.596777        0.788394
                        -0.18674        -0.97808      9.11499e-05    -7.46005e-05        0.0302901       0.0808551     -5.02164e-05     0.000151571
                    -0.000295684     6.93191e-05         0.596855        0.788065     -7.54793e-06     0.000240096       -0.0348068       0.0697198
281738                -0.0014756      -0.0861259       0.00015748     7.66876e-05           -0.187         -0.9776     -0.000162826     6.25839e-05
                     3.37043e-05     6.05385e-05       -0.0737356       0.0138878      0.000184682    -6.38252e-05          0.59708        0.788164
                       -0.186982       -0.978034      9.11887e-05    -7.47309e-05        0.0303173       0.0808401     -5.01272e-05     0.000151653
                    -0.000295658     6.94684e-05         0.597158        0.787835     -7.46636e-06      0.00024006       -0.0347961       0.0697299
281740               -0.00148755      -0.0861212      0.000157401     7.66673e-05        -0.187243       -0.977554     -0.000162766     6.26751e-05
                      3.3673e-05     6.05869e-05       -0.0737316       0.0139333      0.000184637    -6.38984e-05         0.597382        0.787935
                       -0.187225       -0.977988      9.12279e-05    -7.48603e-05        0.0303446       0.0808251     -5.00381e-05     0.000151735
                    -0.000295631     6.96185e-05          0.59746        0.787606     -7.38468e-06     0.000240025       -0.0347853       0.0697401
281742                -0.0014995      -0.0861165      0.000157323     7.66468e-05        -0.187485       -0.977508     -0.000162706     6.27666e-05
                      3.3642e-05     6.06347e-05       -0.0737276       0.0139787      0.000184592    -6.39715e-05         0.597685        0.787705
                       -0.187468       -0.977941      9.12674e-05    -7.49891e-05        0.0303718       0.0808101     -4.99491e-05     0.000151817
                    -0.000295604     6.97687e-05         0.597763        0.787376     -7.30289e-06     0.000239989       -0.0347746       0.0697503
281744               -0.00151144      -0.0861118      0.000157244     7.66261e-05        -0.187728       -0.977461     -0.000162646     6.28584e-05
                     3.36111e-05     6.06821e-05       -0.0737235       0.0140242      0.000184547    -6.40446e-05         0.597987        0.787475
                       -0.187711       -0.977895       9.1307e-05    -7.51176e-05        0.0303991       0.0807951     -4.98602e-05     0.000151899
                    -0.000295576     6.99191e-05         0.598065        0.787146     -7.22099e-06     0.000239954       -0.0347639       0.0697605
281746               -0.00152339      -0.0861071      0.000157165     7.66054e-05        -0.187971       -0.977415     -0.000162585     6.29504e-05
                     3.35803e-05     6.07294e-05       -0.0737195       0.0140696      0.000184502    -6.41177e-05          0.59829        0.787245
                       -0.187954       -0.977849      9.13467e-05     -7.5246e-05        0.0304263       0.0807801     -4.97719e-05     0.000151982
                    -0.000295548     7.00696e-05         0.598367        0.786916     -7.13898e-06     0.000239919       -0.0347531       0.0697708
281748               -0.00153534      -0.0861024      0.000157087     7.65847e-05        -0.188214       -0.977369     -0.000162523     6.30424e-05
                     3.35495e-05     6.07766e-05       -0.0737154        0.014115      0.000184457    -6.41908e-05         0.598592        0.787015
                       -0.188196       -0.977802      9.13865e-05    -7.53743e-05        0.0304535        0.080765     -4.96849e-05     0.000152065
                     -0.00029552     7.02201e-05          0.59867        0.786686     -7.05685e-06     0.000239884       -0.0347424        0.069781
281750               -0.00154729      -0.0860978      0.000157008      7.6564e-05        -0.188457       -0.977323     -0.000162458     6.31335e-05
                      3.3519e-05     6.08237e-05       -0.0737113       0.0141605      0.000184412    -6.42638e-05         0.598894        0.786785
                       -0.188439       -0.977756      9.14261e-05    -7.55026e-05        0.0304807         0.08075     -4.96022e-05      0.00015215
                    -0.000295492     7.03707e-05         0.598972        0.786456     -6.97462e-06      0.00023985       -0.0347317       0.0697912
281752               -0.00155923      -0.0860931      0.000156929     7.65433e-05        -0.188699       -0.977277     -0.000162382       6.321e-05
                     3.34885e-05     6.08708e-05       -0.0737072       0.0142059      0.000184367    -6.43368e-05         0.599196        0.786554
                       -0.188682       -0.977709      9.14658e-05    -7.56309e-05        0.0305079        0.080735      -4.9544e-05     0.000152219
                    -0.000295463     7.05213e-05         0.599273        0.786225     -6.89227e-06     0.000239815       -0.0347209       0.0698015
281754               -0.00157118      -0.0860884       0.00015685     7.65226e-05        -0.188942        -0.97723     -0.000162373     6.32901e-05
                     3.34582e-05     6.09178e-05       -0.0737031       0.0142513      0.000184322    -6.44098e-05         0.599498        0.786324
                       -0.188925       -0.977663      9.15054e-05    -7.57593e-05        0.0305351       0.0807199     -4.93963e-05     0.000152274
                    -0.000295435      7.0672e-05         0.599575        0.785995     -6.80981e-06      0.00023978       -0.0347102       0.0698118
281756               -0.00158312      -0.0860837      0.000156772     7.65019e-05        -0.189185       -0.977184     -0.000162308     6.34042e-05
                     3.34281e-05     6.09649e-05        -0.073699       0.0142968      0.000184278    -6.44828e-05           0.5998        0.786094
                       -0.189167       -0.977616       9.1545e-05    -7.58878e-05        0.0305623       0.0807049     -4.93073e-05     0.000152377
                    -0.000295406     7.08228e-05         0.599877        0.785764     -6.72725e-06     0.000239746       -0.0346995       0.0698221
281758               -0.00159507       -0.086079      0.000156693     7.64812e-05        -0.189428       -0.977137     -0.000162244     6.35015e-05
                      3.3398e-05     6.10119e-05       -0.0736949       0.0143422      0.000184233    -6.45557e-05         0.600101        0.785863
                        -0.18941        -0.97757      9.15845e-05    -7.60162e-05        0.0305894       0.0806898     -4.92195e-05     0.000152465
                    -0.000295378     7.09735e-05         0.600179        0.785534     -6.64458e-06     0.000239712       -0.0346887       0.0698324
281760               -0.00160701      -0.0860743      0.000156614     7.64606e-05         -0.18967       -0.977091     -0.000162182     6.35965e-05
                     3.33682e-05     6.10588e-05       -0.0736908       0.0143876      0.000184189    -6.46286e-05         0.600403        0.785632
                       -0.189653       -0.977523       9.1624e-05    -7.61447e-05        0.0306166       0.0806747     -4.91306e-05      0.00015255
                    -0.000295349     7.11244e-05          0.60048        0.785303      -6.5618e-06     0.000239678        -0.034678       0.0698427
281762               -0.00161896      -0.0860696      0.000156535     7.64399e-05        -0.189913       -0.977044     -0.000162122     6.36909e-05
                     3.33385e-05     6.11058e-05       -0.0736866        0.014433      0.000184144    -6.47014e-05         0.600704        0.785401
                       -0.189896       -0.977476      9.16635e-05    -7.62732e-05        0.0306438       0.0806596     -4.90411e-05     0.000152634
