! TOUCHSTONE file generated by CST MICROWAVE STUDIO
! Date and time: Wed Oct 15 17:31:01 2025
! Project name: Teste_Macro_Metasurface_Nanopilar.cst
! Parameters = {H=600; L_x=125; L_y=120; Lambda=1064; Max_L=200; Min_L=70; PathPara=1; Phi=0; Step_L=10; Theta=0; p=520; phaseX=180; phaseY=0}
! Header version: 2018
! Port assignment regex: !\s*Touchstone port\s*([0-9]+)\s*=\s*(CST MWS port|CST DS port)\s*([0-9]+|Zmin|Zmax)\s*\(\"(.*)\"\)(\s*mode\s*([0-9]+))?.*
! Touchstone port assignment:
! Touchstone port 1 = CST MWS port Zmax ("") mode 1
! Touchstone port 2 = CST MWS port Zmax ("") mode 2
! Touchstone port 3 = CST MWS port Zmin ("") mode 1
! Touchstone port 4 = CST MWS port Zmin ("") mode 2
! S-Parameters are not renormalized. Each port impedance will be approximated by the real part at minimum frequency. The values are described via the [Reference] keyword.
! Default impedance is overridden by [Reference]
[Version] 2.0
# GHz S RI R 376.73
[Number of Ports] 4
[Reference]
376.73 376.73 259.888 259.888 
[Number of Frequencies] 51
[Network Data]
281700                 0.0578364      -0.0434486     -0.000793452     0.000320803         0.210153        0.965109      6.08775e-05    -0.000167953
                    -0.000788048     0.000363692        0.0191167     -0.00513256      8.26507e-05     0.000183625         0.518492        0.844641
                        0.210833        0.964936      0.000220752     0.000136933        0.0684985       0.0173877      -0.00084516     0.000401503
                     6.93717e-05    -0.000131993         0.518762        0.844776     -0.000830697     0.000278751        0.0120342      -0.0120427
281702                  0.057815       -0.043432     -0.000793261     0.000321468         0.210543        0.965026      6.08065e-05    -0.000167983
                    -0.000787902     0.000364313        0.0191101     -0.00510516      8.29952e-05      0.00018351         0.518821        0.844439
                        0.211222        0.964853      0.000221067      0.00013688        0.0684857       0.0173263     -0.000845317     0.000401573
                     6.92003e-05    -0.000132085         0.519093        0.844575     -0.000831192     0.000278523        0.0119972      -0.0120589
281704                 0.0577936      -0.0434154     -0.000793069     0.000322133         0.210933        0.964943      6.07351e-05    -0.000168013
                    -0.000787755     0.000364932        0.0191036     -0.00507776      8.33441e-05     0.000183393          0.51915        0.844238
                         0.21161        0.964769      0.000221383     0.000136826        0.0684727       0.0172649     -0.000845473     0.000401643
                     6.90283e-05    -0.000132179         0.519423        0.844374     -0.000831691     0.000278297        0.0119601       -0.012075
281706                 0.0577722      -0.0433987     -0.000792876     0.000322797         0.211323         0.96486      6.06635e-05    -0.000168043
                    -0.000787608      0.00036555        0.0190971     -0.00505036      8.36973e-05     0.000183272         0.519479        0.844036
                        0.211998        0.964686      0.000221699     0.000136773        0.0684597       0.0172035     -0.000845629     0.000401712
                     6.88554e-05    -0.000132275         0.519753        0.844172     -0.000832195     0.000278075         0.011923      -0.0120911
281708                 0.0577509      -0.0433821     -0.000792682     0.000323461         0.211713        0.964776      6.05914e-05    -0.000168073
                    -0.000787459     0.000366165        0.0190906     -0.00502296       8.4055e-05     0.000183148         0.519808        0.843833
                        0.212387        0.964602      0.000222016     0.000136719        0.0684467       0.0171421     -0.000845786     0.000401782
                     6.86818e-05    -0.000132374         0.520083        0.843971     -0.000832704     0.000277855        0.0118859      -0.0121071
281710                 0.0577295      -0.0433654     -0.000792488     0.000324124         0.212103        0.964693      6.05191e-05    -0.000168104
                    -0.000787309     0.000366778        0.0190841     -0.00499556      8.44171e-05      0.00018302         0.520137        0.843631
                        0.212775        0.964519      0.000222334     0.000136666        0.0684336       0.0170807     -0.000845943     0.000401851
                     6.85074e-05    -0.000132475         0.520413         0.84377     -0.000833217     0.000277639        0.0118487      -0.0121231
281712                 0.0577082      -0.0433488     -0.000792293     0.000324786         0.212493        0.964609      6.04463e-05    -0.000168135
                    -0.000787158      0.00036739        0.0190777     -0.00496815      8.47837e-05     0.000182888         0.520465        0.843429
                        0.213163        0.964435      0.000222652     0.000136612        0.0684205       0.0170194       -0.0008461     0.000401919
                     6.83322e-05    -0.000132579         0.520743        0.843568     -0.000833734     0.000277425        0.0118116      -0.0121391
281714                 0.0576868      -0.0433321     -0.000792098     0.000325448         0.212884        0.964525      6.03733e-05    -0.000168165
                    -0.000787006     0.000367999        0.0190712     -0.00494075      8.51549e-05     0.000182753         0.520794        0.843226
                        0.213552        0.964351      0.000222971     0.000136558        0.0684073       0.0169581     -0.000846257     0.000401987
                     6.81562e-05    -0.000132685         0.521072        0.843367     -0.000834256     0.000277214        0.0117744       -0.012155
281716                 0.0576655      -0.0433155     -0.000791901     0.000326109         0.213274        0.964441      6.02998e-05    -0.000168196
                    -0.000786853     0.000368607        0.0190647     -0.00491334      8.55306e-05     0.000182615         0.521123        0.843024
                         0.21394        0.964266       0.00022329     0.000136504         0.068394       0.0168968     -0.000846414     0.000402055
                     6.79794e-05    -0.000132793         0.521402        0.843165     -0.000834783     0.000277006        0.0117373      -0.0121709
281718                 0.0576442      -0.0432988     -0.000791704     0.000326769         0.213664        0.964357       6.0226e-05    -0.000168228
                    -0.000786699     0.000369212        0.0190583     -0.00488593       8.5911e-05     0.000182473         0.521451        0.842821
                        0.214328        0.964182       0.00022361      0.00013645        0.0683807       0.0168355     -0.000846571     0.000402123
                     6.78019e-05    -0.000132904         0.521732        0.842963     -0.000835314     0.000276802        0.0117001      -0.0121867
281720                 0.0576229      -0.0432821     -0.000791506     0.000327429         0.214054        0.964273      6.01518e-05    -0.000168259
                    -0.000786543     0.000369816        0.0190519     -0.00485852       8.6296e-05     0.000182327          0.52178        0.842618
                        0.214716        0.964098      0.000223931     0.000136396        0.0683673       0.0167743     -0.000846729      0.00040219
                     6.76236e-05    -0.000133017         0.522061        0.842761      -0.00083585     0.000276601        0.0116629      -0.0122025
281722                 0.0576015      -0.0432654     -0.000791307     0.000328089         0.214444        0.964188      6.00772e-05     -0.00016829
                    -0.000786387     0.000370418        0.0190454     -0.00483112      8.66857e-05     0.000182177         0.522108        0.842415
                        0.215104        0.964013      0.000224252     0.000136341        0.0683539       0.0167131     -0.000846886     0.000402257
                     6.74444e-05    -0.000133132         0.522391        0.842559     -0.000836391     0.000276403        0.0116257      -0.0122183
281724                 0.0575802      -0.0432487     -0.000791108     0.000328747         0.214834        0.964104      6.00022e-05    -0.000168322
                     -0.00078623     0.000371017         0.019039      -0.0048037      8.70801e-05     0.000182023         0.522436        0.842212
                        0.215492        0.963928      0.000224574     0.000136287        0.0683404       0.0166519     -0.000847044     0.000402323
                     6.72645e-05    -0.000133249          0.52272        0.842357     -0.000836936     0.000276209        0.0115884       -0.012234
281726                 0.0575589       -0.043232     -0.000790908     0.000329405         0.215224        0.964019       5.9927e-05    -0.000168353
                    -0.000786072     0.000371615        0.0190326     -0.00477629      8.74793e-05     0.000181865         0.522764        0.842009
                         0.21588        0.963843      0.000224897     0.000136232        0.0683269       0.0165907     -0.000847202     0.000402389
                     6.70838e-05    -0.000133369         0.523049        0.842154     -0.000837486     0.000276019        0.0115512      -0.0122497
281728                 0.0575377      -0.0432153     -0.000790707     0.000330063         0.215614        0.963934      5.98519e-05    -0.000168385
                    -0.000785912     0.000372211        0.0190262     -0.00474888      8.78834e-05     0.000181704         0.523092        0.841806
                        0.216268        0.963758       0.00022522     0.000136178        0.0683133       0.0165296      -0.00084736     0.000402455
                     6.69023e-05    -0.000133491         0.523378        0.841952     -0.000838042     0.000275832        0.0115139      -0.0122653
281730                 0.0575164      -0.0431985     -0.000790506      0.00033072         0.216005        0.963849      5.97764e-05    -0.000168417
                    -0.000785752     0.000372805        0.0190198     -0.00472147      8.82922e-05     0.000181538          0.52342        0.841602
                        0.216656        0.963673      0.000225544     0.000136123        0.0682997       0.0164685     -0.000847518      0.00040252
                     6.67199e-05    -0.000133616         0.523708        0.841749     -0.000838602     0.000275649        0.0114767      -0.0122809
281732                 0.0574951      -0.0431818     -0.000790303     0.000331376         0.216395        0.963764      5.97005e-05    -0.000168449
                    -0.000785591     0.000373398        0.0190134     -0.00469405      8.87059e-05     0.000181368         0.523748        0.841398
                        0.217044        0.963587      0.000225869     0.000136068         0.068286       0.0164074     -0.000847676     0.000402585
                     6.65368e-05    -0.000133742         0.524037        0.841547     -0.000839167      0.00027547        0.0114394      -0.0122964
281734                 0.0574738      -0.0431651       -0.0007901     0.000332031         0.216785        0.963679      5.96241e-05    -0.000168482
                    -0.000785428     0.000373988         0.019007     -0.00466664      8.91246e-05     0.000181194         0.524076        0.841195
                        0.217432        0.963501      0.000226194     0.000136013        0.0682723       0.0163463     -0.000847834     0.000402649
                     6.63528e-05    -0.000133871         0.524365        0.841344     -0.000839738     0.000275295        0.0114021      -0.0123119
281736                 0.0574526      -0.0431483     -0.000789897     0.000332686         0.217175        0.963594      5.95474e-05    -0.000168514
                    -0.000785265     0.000374576        0.0190007     -0.00463922      8.95481e-05     0.000181015         0.524404        0.840991
                        0.217819        0.963416      0.000226519     0.000135958        0.0682585       0.0162853     -0.000847992     0.000402713
                      6.6168e-05    -0.000134002         0.524694        0.841141     -0.000840313     0.000275124        0.0113648      -0.0123274
281738                 0.0574313      -0.0431316     -0.000789692      0.00033334         0.217566        0.963508      5.94702e-05    -0.000168547
                      -0.0007851     0.000375163        0.0189943      -0.0046118      8.99766e-05     0.000180832         0.524731        0.840787
                        0.218207         0.96333      0.000226846     0.000135903        0.0682446       0.0162243     -0.000848151     0.000402777
                     6.59824e-05    -0.000134135         0.525023        0.840938     -0.000840894     0.000274958        0.0113274      -0.0123428
281740                 0.0574101      -0.0431148     -0.000789487     0.000333994         0.217956        0.963422      5.93927e-05     -0.00016858
                    -0.000784935     0.000375747         0.018988     -0.00458438      9.04101e-05     0.000180645         0.525059        0.840583
                        0.218595        0.963243      0.000227173     0.000135848        0.0682307       0.0161633      -0.00084831      0.00040284
                     6.57959e-05    -0.000134271         0.525352        0.840735      -0.00084148     0.000274796        0.0112901      -0.0123582
281742                 0.0573889       -0.043098     -0.000789281     0.000334647         0.218346        0.963336      5.93148e-05    -0.000168613
                    -0.000784768      0.00037633        0.0189816     -0.00455696      9.08487e-05     0.000180453         0.525386        0.840379
                        0.218982        0.963157        0.0002275     0.000135793        0.0682167       0.0161023     -0.000848468     0.000402902
                     6.56086e-05    -0.000134408          0.52568        0.840531     -0.000842071     0.000274638        0.0112527      -0.0123735
281744                 0.0573676      -0.0430813     -0.000789075     0.000335299         0.218737         0.96325      5.92366e-05    -0.000168646
                    -0.000784601     0.000376911        0.0189753     -0.00452954      9.12922e-05     0.000180257         0.525714        0.840174
                         0.21937        0.963071      0.000227828     0.000135738        0.0682027       0.0160414     -0.000848627     0.000402965
                     6.54204e-05    -0.000134548         0.526009        0.840328     -0.000842667     0.000274485        0.0112154      -0.0123888
281746                 0.0573464      -0.0430645     -0.000788867     0.000335951         0.219127        0.963164       5.9158e-05     -0.00016868
                    -0.000784432     0.000377489         0.018969     -0.00450212      9.17409e-05     0.000180056         0.526041         0.83997
                        0.219758        0.962984      0.000228157     0.000135682        0.0681886       0.0159805     -0.000848786     0.000403027
                     6.52314e-05     -0.00013469         0.526337        0.840124     -0.000843269     0.000274337         0.011178      -0.0124041
281748                 0.0573252      -0.0430477      -0.00078866     0.000336601         0.219517        0.963078      5.90791e-05    -0.000168713
                    -0.000784262     0.000378066        0.0189627      -0.0044747      9.21946e-05      0.00017985         0.526368        0.839765
                        0.220145        0.962897      0.000228486     0.000135627        0.0681745       0.0159196     -0.000848945     0.000403088
                     6.50416e-05    -0.000134834         0.526666        0.839921     -0.000843876     0.000274194        0.0111406      -0.0124193
281750                  0.057304      -0.0430309     -0.000788451     0.000337252         0.219908        0.962992      5.89998e-05    -0.000168747
                    -0.000784092     0.000378642        0.0189564     -0.00444727      9.26535e-05     0.000179639         0.526695         0.83956
                        0.220532         0.96281      0.000228815     0.000135572        0.0681603       0.0158587     -0.000849104     0.000403149
                     6.48509e-05     -0.00013498         0.526994        0.839717     -0.000844488     0.000274055        0.0111032      -0.0124344
281752                 0.0572828      -0.0430141     -0.000788242     0.000337901         0.220298        0.962905      5.89201e-05    -0.000168781
                     -0.00078392     0.000379215        0.0189501     -0.00441985      9.31175e-05     0.000179424         0.527022        0.839356
                         0.22092        0.962723      0.000229146     0.000135516        0.0681461       0.0157979     -0.000849263      0.00040321
                     6.46593e-05    -0.000135128         0.527322        0.839513     -0.000845106     0.000273922        0.0110658      -0.0124496
281754                 0.0572616      -0.0429973     -0.000788032      0.00033855         0.220689        0.962818      5.88401e-05    -0.000168815
                    -0.000783747     0.000379786        0.0189438     -0.00439242      9.35866e-05     0.000179203         0.527349        0.839151
                        0.221307        0.962636      0.000229476      0.00013546        0.0681318       0.0157371     -0.000849423      0.00040327
                     6.44669e-05    -0.000135279          0.52765        0.839309     -0.000845729     0.000273795        0.0110283      -0.0124646
281756                 0.0572404      -0.0429804     -0.000787821     0.000339198         0.221079        0.962731      5.87597e-05    -0.000168849
                    -0.000783574     0.000380356        0.0189375     -0.00436499       9.4061e-05     0.000178978         0.527676        0.838946
                        0.221695        0.962549      0.000229808     0.000135405        0.0681174       0.0156763     -0.000849582      0.00040333
                     6.42736e-05    -0.000135431         0.527978        0.839105     -0.000846359     0.000273672        0.0109909      -0.0124797
281758                 0.0572193      -0.0429636      -0.00078761     0.000339846          0.22147        0.962644      5.86789e-05    -0.000168884
                    -0.000783399     0.000380923        0.0189312     -0.00433756      9.45405e-05     0.000178747         0.528003         0.83874
                        0.222082        0.962461      0.000230139     0.000135349         0.068103       0.0156155     -0.000849741     0.000403389
                     6.40795e-05    -0.000135586         0.528306        0.838901     -0.000846993     0.000273556        0.0109534      -0.0124947
281760                 0.0571981      -0.0429468     -0.000787398     0.000340492          0.22186        0.962557      5.85978e-05    -0.000168918
                    -0.000783223     0.000381489         0.018925     -0.00431013      9.50252e-05     0.000178511          0.52833        0.838535
                        0.222469        0.962373      0.000230472     0.000135293        0.0680886       0.0155548     -0.000849901     0.000403448
                     6.38845e-05    -0.000135743         0.528634        0.838696     -0.000847634     0.000273445        0.0109159      -0.0125096
281762                 0.0571769      -0.0429299     -0.000787185     0.000341138         0.222251         0.96247      5.85163e-05    -0.000168953
                    -0.000783046     0.000382053        0.0189187      -0.0042827      9.55152e-05      0.00017827         0.528656         0.83833
                        0.222856        0.962285      0.000230805     0.000135237         0.068074       0.0154941      -0.00085006     0.000403506
