! TOUCHSTONE file generated by CST MICROWAVE STUDIO
! Date and time: Wed Oct 15 17:34:39 2025
! Project name: Teste_Macro_Metasurface_Nanopilar.cst
! Parameters = {H=600; L_x=190; L_y=80; Lambda=1064; Max_L=200; Min_L=70; PathPara=1; Phi=0; Step_L=10; Theta=0; p=520; phaseX=180; phaseY=0}
! Header version: 2018
! Port assignment regex: !\s*Touchstone port\s*([0-9]+)\s*=\s*(CST MWS port|CST DS port)\s*([0-9]+|Zmin|Zmax)\s*\(\"(.*)\"\)(\s*mode\s*([0-9]+))?.*
! Touchstone port assignment:
! Touchstone port 1 = CST MWS port Zmax ("") mode 1
! Touchstone port 2 = CST MWS port Zmax ("") mode 2
! Touchstone port 3 = CST MWS port Zmin ("") mode 1
! Touchstone port 4 = CST MWS port Zmin ("") mode 2
! S-Parameters are not renormalized. Each port impedance will be approximated by the real part at minimum frequency. The values are described via the [Reference] keyword.
! Default impedance is overridden by [Reference]
[Version] 2.0
# GHz S RI R 376.73
[Number of Ports] 4
[Reference]
376.73 376.73 259.888 259.888 
[Number of Frequencies] 51
[Network Data]
281700                -0.0372111      -0.0204611     -4.27543e-05     0.000184066        -0.513694       -0.856296     -0.000195829    -0.000416389
                    -0.000130935     0.000179121         0.142098        0.339702     -0.000203003     8.47338e-05         0.786339        -0.48367
                       -0.513957       -0.855088       -0.0002806     0.000135322      0.000644689       0.0430048     -0.000143685    -2.26069e-05
                     -0.00022702    -0.000284468         0.786236       -0.483188     -1.98782e-05     -0.00024386         0.241134        0.275471
281702                -0.0372197      -0.0204482     -4.25807e-05      0.00018405         -0.51392       -0.856162     -0.000196065    -0.000416298
                    -0.000130868      0.00017918         0.142159        0.339753     -0.000203012     8.47159e-05         0.786133       -0.483951
                       -0.514183       -0.854952      -0.00028065     0.000135549      0.000652007       0.0430061     -0.000143727    -2.28235e-05
                    -0.000227143    -0.000284429          0.78603        -0.48347     -1.98474e-05    -0.000243776          0.24136        0.275366
281704                -0.0372283      -0.0204353     -4.24076e-05     0.000184034        -0.514147       -0.856027     -0.000196299    -0.000416209
                    -0.000130801     0.000179239          0.14222        0.339804     -0.000203022     8.46979e-05         0.785927       -0.484231
                        -0.51441       -0.854816     -0.000280699     0.000135776      0.000659327       0.0430073     -0.000143769    -2.30394e-05
                    -0.000227265     -0.00028439         0.785823       -0.483751     -1.98166e-05    -0.000243691         0.241586         0.27526
281706                -0.0372369      -0.0204223     -4.22349e-05     0.000184018        -0.514373       -0.855893     -0.000196533     -0.00041612
                    -0.000130735     0.000179297          0.14228        0.339854     -0.000203031     8.46798e-05         0.785721       -0.484512
                       -0.514636       -0.854679     -0.000280748     0.000136003      0.000666647       0.0430085     -0.000143812    -2.32545e-05
                    -0.000227388    -0.000284351         0.785617       -0.484033     -1.97857e-05    -0.000243608         0.241813        0.275154
281708                -0.0372455      -0.0204094     -4.20626e-05     0.000184002          -0.5146       -0.855759     -0.000196766    -0.000416033
                    -0.000130668     0.000179356         0.142341        0.339905     -0.000203041     8.46615e-05         0.785514       -0.484793
                       -0.514862       -0.854543     -0.000280797      0.00013623      0.000673969       0.0430097     -0.000143856     -2.3469e-05
                    -0.000227511    -0.000284312          0.78541       -0.484314     -1.97547e-05    -0.000243524         0.242039        0.275047
281710                -0.0372541      -0.0203964     -4.18909e-05     0.000183985        -0.514826       -0.855625     -0.000196998    -0.000415945
                    -0.000130601     0.000179415         0.142402        0.339955     -0.000203051     8.46431e-05         0.785308       -0.485073
                       -0.515089       -0.854406     -0.000280844     0.000136457      0.000681291        0.043011       -0.0001439    -2.36827e-05
                    -0.000227633    -0.000284272         0.785203       -0.484595     -1.97237e-05    -0.000243442         0.242265        0.274941
281712                -0.0372626      -0.0203835     -4.17196e-05     0.000183969        -0.515052        -0.85549      -0.00019723    -0.000415858
                    -0.000130534     0.000179473         0.142463        0.340006     -0.000203061     8.46246e-05         0.785101       -0.485353
                       -0.515315        -0.85427     -0.000280891     0.000136685      0.000688614       0.0430122     -0.000143945    -2.38958e-05
                    -0.000227756    -0.000284233         0.784996       -0.484876     -1.96927e-05     -0.00024336         0.242491        0.274834
281714                -0.0372712      -0.0203705     -4.15487e-05     0.000183953        -0.515278       -0.855356     -0.000197461    -0.000415772
                    -0.000130467     0.000179532         0.142524        0.340057     -0.000203071     8.46059e-05         0.784894       -0.485634
                       -0.515541       -0.854133     -0.000280938     0.000136912      0.000695937       0.0430134      -0.00014399    -2.41083e-05
                    -0.000227878    -0.000284193         0.784788       -0.485157     -1.96616e-05    -0.000243279         0.242717        0.274728
281716                -0.0372798      -0.0203576     -4.13784e-05     0.000183936        -0.515505       -0.855221     -0.000197692    -0.000415686
                      -0.0001304      0.00017959         0.142585        0.340107     -0.000203082     8.45872e-05         0.784687       -0.485914
                       -0.515767       -0.853996     -0.000280984     0.000137139      0.000703262       0.0430147     -0.000144035    -2.43202e-05
                    -0.000228001    -0.000284154         0.784581       -0.485438     -1.96305e-05    -0.000243198         0.242944        0.274621
281718                -0.0372884      -0.0203446     -4.12084e-05      0.00018392        -0.515731       -0.855087     -0.000197922      -0.0004156
                    -0.000130333     0.000179648         0.142646        0.340158     -0.000203093     8.45683e-05          0.78448       -0.486194
                       -0.515993       -0.853859     -0.000281029     0.000137366      0.000710588       0.0430159     -0.000144082    -2.45315e-05
                    -0.000228123    -0.000284114         0.784374       -0.485719     -1.95994e-05    -0.000243118          0.24317        0.274514
281720                 -0.037297      -0.0203317      -4.1039e-05     0.000183903        -0.515957       -0.854952     -0.000198152    -0.000415515
                    -0.000130266     0.000179707         0.142707        0.340209     -0.000203104     8.45493e-05         0.784273       -0.486474
                       -0.516219       -0.853722     -0.000281073     0.000137594      0.000717914       0.0430171     -0.000144128    -2.47422e-05
                    -0.000228246    -0.000284074         0.784166       -0.485999     -1.95683e-05    -0.000243038         0.243396        0.274407
281722                -0.0373056      -0.0203187       -4.087e-05     0.000183886        -0.516183       -0.854817     -0.000198382     -0.00041543
                    -0.000130199     0.000179765         0.142768        0.340259     -0.000203115     8.45302e-05         0.784065       -0.486754
                       -0.516446       -0.853585     -0.000281117     0.000137821      0.000725241       0.0430184     -0.000144176    -2.49524e-05
                    -0.000228368    -0.000284034         0.783958        -0.48628     -1.95373e-05     -0.00024296         0.243622        0.274299
281724                -0.0373142      -0.0203058     -4.07014e-05      0.00018387        -0.516409       -0.854683     -0.000198611    -0.000415345
                    -0.000130132     0.000179824         0.142829         0.34031     -0.000203126      8.4511e-05         0.783858       -0.487034
                       -0.516672       -0.853448     -0.000281161     0.000138048      0.000732569       0.0430196     -0.000144223    -2.51622e-05
                    -0.000228491    -0.000283995         0.783751       -0.486561     -1.95063e-05    -0.000242882         0.243848        0.274192
281726                -0.0373228      -0.0202928     -4.05334e-05     0.000183853        -0.516635       -0.854548     -0.000198841     -0.00041526
                    -0.000130065     0.000179882         0.142891        0.340361     -0.000203138     8.44918e-05         0.783651       -0.487314
                       -0.516898       -0.853311     -0.000281203     0.000138276      0.000739898       0.0430209     -0.000144271    -2.53714e-05
                    -0.000228613    -0.000283954         0.783543       -0.486841     -1.94756e-05    -0.000242805         0.244074        0.274084
281728                -0.0373313      -0.0202799     -4.03657e-05     0.000183836        -0.516861       -0.854413     -0.000199069    -0.000415175
                    -0.000129998      0.00017994         0.142952        0.340412     -0.000203149     8.44726e-05         0.783443       -0.487594
                       -0.517124       -0.853174     -0.000281246     0.000138503      0.000747228       0.0430221      -0.00014432    -2.55801e-05
                    -0.000228735    -0.000283914         0.783335       -0.487121     -1.94451e-05    -0.000242729           0.2443        0.273976
281730                -0.0373399      -0.0202669     -4.01986e-05     0.000183819        -0.517087       -0.854278     -0.000199298    -0.000415091
                    -0.000129931     0.000179999         0.143013        0.340462     -0.000203161     8.44533e-05         0.783235       -0.487873
                        -0.51735       -0.853037     -0.000281287     0.000138731      0.000754559       0.0430234     -0.000144369    -2.57884e-05
                    -0.000228858    -0.000283874         0.783126       -0.487402     -1.94152e-05    -0.000242654         0.244526        0.273868
281732                -0.0373485       -0.020254     -4.00319e-05     0.000183802        -0.517313       -0.854143     -0.000199527    -0.000415006
                    -0.000129863     0.000180057         0.143074        0.340513     -0.000203173     8.44343e-05         0.783027       -0.488153
                       -0.517575         -0.8529     -0.000281328     0.000138959       0.00076189       0.0430246     -0.000144419    -2.59963e-05
                     -0.00022898    -0.000283834         0.782918       -0.487682     -1.93862e-05     -0.00024258         0.244752         0.27376
281734                -0.0373571       -0.020241     -3.98656e-05     0.000183785        -0.517539       -0.854008     -0.000199755    -0.000414922
                    -0.000129796     0.000180115         0.143135        0.340564     -0.000203185     8.44158e-05         0.782819       -0.488432
                       -0.517801       -0.852763     -0.000281368     0.000139186      0.000769222       0.0430259     -0.000144469    -2.62037e-05
                    -0.000229103    -0.000283793          0.78271       -0.487962     -1.93594e-05     -0.00024251         0.244978        0.273651
281736                -0.0373656       -0.020228     -3.96998e-05     0.000183768        -0.517765       -0.853873     -0.000199983    -0.000414837
                    -0.000129729     0.000180173         0.143196        0.340614     -0.000203197     8.43987e-05         0.782611       -0.488712
                       -0.518027       -0.852625     -0.000281408     0.000139414      0.000776555       0.0430271     -0.000144519    -2.64108e-05
                    -0.000229225    -0.000283753         0.782501       -0.488242     -1.93381e-05    -0.000242446         0.245204        0.273543
281738                -0.0373742      -0.0202151     -3.95345e-05      0.00018375         -0.51799       -0.853738     -0.000200211    -0.000414753
                    -0.000129661     0.000180231         0.143258        0.340665     -0.000203207     8.43891e-05         0.782403       -0.488991
                       -0.518253       -0.852488     -0.000281447     0.000139642      0.000783888       0.0430284      -0.00014457    -2.66175e-05
                    -0.000229348    -0.000283712         0.782293       -0.488522     -1.93419e-05    -0.000242414          0.24543        0.273434
281740                -0.0373828      -0.0202021     -3.93696e-05     0.000183733        -0.518217       -0.853603     -0.000200439    -0.000414668
                    -0.000129594     0.000180289         0.143319        0.340716     -0.000203193     8.43069e-05         0.782194        -0.48927
                       -0.518479        -0.85235     -0.000281486     0.000139869      0.000791263       0.0430298     -0.000144621    -2.68237e-05
                     -0.00022947    -0.000283672         0.782084       -0.488802     -1.89275e-05    -0.000242121         0.245656        0.273325
281742                -0.0373913      -0.0201891     -3.92052e-05     0.000183716        -0.518442       -0.853467     -0.000200667    -0.000414584
                    -0.000129526     0.000180347          0.14338        0.340767     -0.000203236     8.43165e-05         0.781986        -0.48955
                       -0.518704       -0.852213     -0.000281524     0.000140097      0.000798568       0.0430309     -0.000144673    -2.70296e-05
                    -0.000229592    -0.000283631         0.781875       -0.489082     -1.91603e-05    -0.000242153         0.245882        0.273216
281744                -0.0373999      -0.0201762     -3.90412e-05     0.000183698        -0.518668       -0.853332     -0.000200895    -0.000414499
                    -0.000129459     0.000180406         0.143442        0.340817      -0.00020325     8.43013e-05         0.781777       -0.489829
                        -0.51893       -0.852075     -0.000281561     0.000140325      0.000805901       0.0430322     -0.000144725    -2.72352e-05
                    -0.000229715     -0.00028359         0.781666       -0.489362     -1.91509e-05    -0.000242098         0.246108        0.273107
281746                -0.0374085      -0.0201632     -3.88777e-05     0.000183681        -0.518894       -0.853197     -0.000201122    -0.000414415
                    -0.000129391     0.000180464         0.143503        0.340868     -0.000203264     8.42826e-05         0.781568       -0.490108
                       -0.519156       -0.851937     -0.000281598     0.000140553      0.000813238       0.0430334     -0.000144777    -2.74403e-05
                    -0.000229837    -0.000283549         0.781457       -0.489641     -1.91269e-05    -0.000242033         0.246334        0.272997
281748                 -0.037417      -0.0201502     -3.87147e-05     0.000183663        -0.519119       -0.853061      -0.00020135     -0.00041433
                    -0.000129324     0.000180522         0.143564        0.340919     -0.000203278     8.42629e-05          0.78136       -0.490387
                       -0.519381         -0.8518     -0.000281634     0.000140781      0.000820577       0.0430347      -0.00014483    -2.76449e-05
                    -0.000229959    -0.000283508         0.781248       -0.489921     -1.90988e-05    -0.000241966         0.246559        0.272888
281750                -0.0374256      -0.0201372     -3.85522e-05     0.000183644        -0.519345       -0.852926     -0.000201577    -0.000414246
                    -0.000129256      0.00018058         0.143626         0.34097     -0.000203292     8.42426e-05         0.781151       -0.490665
                       -0.519607       -0.851662     -0.000281671      0.00014101      0.000827916        0.043036     -0.000144884     -2.7849e-05
                    -0.000230082    -0.000283467         0.781038       -0.490201     -1.90689e-05    -0.000241897         0.246785        0.272778
281752                -0.0374342      -0.0201243     -3.83905e-05     0.000183624         -0.51957        -0.85279     -0.000201805    -0.000414161
                    -0.000129188     0.000180637         0.143687         0.34102     -0.000203307      8.4222e-05         0.780941       -0.490944
                       -0.519833       -0.851524     -0.000281709     0.000141239      0.000835256       0.0430372     -0.000144939     -2.8052e-05
                    -0.000230204    -0.000283426         0.780829        -0.49048     -1.90381e-05    -0.000241829         0.247011        0.272668
281754                -0.0374427      -0.0201113     -3.82205e-05     0.000183623        -0.519796       -0.852655     -0.000202032    -0.000414076
                     -0.00012912     0.000180695         0.143749        0.341071     -0.000203321     8.42011e-05         0.780732       -0.491223
                       -0.520058       -0.851386     -0.000281736     0.000141458      0.000842597       0.0430385     -0.000144997    -2.82533e-05
                    -0.000230326    -0.000283384         0.780619       -0.490759     -1.90068e-05    -0.000241761         0.247237        0.272558
281756                -0.0374513      -0.0200983     -3.80655e-05     0.000183596        -0.520021       -0.852519     -0.000202259    -0.000413992
                    -0.000129053     0.000180753          0.14381        0.341122     -0.000203336       8.418e-05         0.780523       -0.491501
                       -0.520284       -0.851248     -0.000281771     0.000141691      0.000849939       0.0430398     -0.000145077    -2.84613e-05
                    -0.000230449    -0.000283343          0.78041       -0.491039      -1.8975e-05    -0.000241693         0.247462        0.272447
281758                -0.0374598      -0.0200853     -3.79051e-05     0.000183577        -0.520247       -0.852384     -0.000202487    -0.000413908
                    -0.000128985     0.000180811         0.143872        0.341173     -0.000203351     8.41588e-05         0.780313        -0.49178
                       -0.520509        -0.85111     -0.000281805     0.000141919      0.000857282       0.0430411     -0.000145096     -2.8695e-05
                    -0.000230571    -0.000283302           0.7802       -0.491318     -1.89431e-05    -0.000241626         0.247688        0.272337
281760                -0.0374684      -0.0200723     -3.77449e-05     0.000183559        -0.520472       -0.852248     -0.000202719    -0.000413825
                    -0.000128917     0.000180869         0.143933        0.341223     -0.000203367     8.41374e-05         0.780104       -0.492058
                       -0.520735       -0.850972     -0.000281838     0.000142148      0.000864626       0.0430423     -0.000145147    -2.88858e-05
                    -0.000230693     -0.00028326          0.77999       -0.491597     -1.89109e-05    -0.000241559         0.247914        0.272226
281762                -0.0374769      -0.0200594      -3.7585e-05      0.00018354        -0.520698       -0.852112     -0.000202944    -0.000413726
                    -0.000128849     0.000180927         0.143995        0.341274     -0.000203382     8.41159e-05         0.779894       -0.492337
                        -0.52096       -0.850834      -0.00028187     0.000142376      0.000871971       0.0430436     -0.000145202    -2.90855e-05
