! TOUCHSTONE file generated by CST MICROWAVE STUDIO
! Date and time: Wed Oct 15 17:35:07 2025
! Project name: Teste_Macro_Metasurface_Nanopilar.cst
! Parameters = {H=600; L_x=195; L_y=170; Lambda=1064; Max_L=200; Min_L=70; PathPara=1; Phi=0; Step_L=10; Theta=0; p=520; phaseX=180; phaseY=0}
! Header version: 2018
! Port assignment regex: !\s*Touchstone port\s*([0-9]+)\s*=\s*(CST MWS port|CST DS port)\s*([0-9]+|Zmin|Zmax)\s*\(\"(.*)\"\)(\s*mode\s*([0-9]+))?.*
! Touchstone port assignment:
! Touchstone port 1 = CST MWS port Zmax ("") mode 1
! Touchstone port 2 = CST MWS port Zmax ("") mode 2
! Touchstone port 3 = CST MWS port Zmin ("") mode 1
! Touchstone port 4 = CST MWS port Zmin ("") mode 2
! S-Parameters are not renormalized. Each port impedance will be approximated by the real part at minimum frequency. The values are described via the [Reference] keyword.
! Default impedance is overridden by [Reference]
[Version] 2.0
# GHz S RI R 376.73
[Number of Ports] 4
[Reference]
376.73 376.73 259.888 259.888 
[Number of Frequencies] 51
[Network Data]
281700                  0.267205        0.140903      4.96107e-05     2.94454e-05         0.356352       -0.880595     -0.000522962    -0.000184612
                     4.36719e-05    -3.49697e-05         0.250759       0.0911183     -0.000648808     1.02489e-06       0.00650159       -0.959583
                        0.356467       -0.880559     -0.000565784    -2.25005e-06         0.288717       0.0838402      8.43174e-05    -0.000292448
                    -0.000468584    -0.000199365       0.00672655       -0.959574      9.80156e-05      -0.0003234         0.250018      -0.0870876
281702                  0.267217         0.14089      4.93564e-05     2.94958e-05          0.35611       -0.880542     -0.000527393     -0.00025622
                     4.27627e-05    -3.60237e-05         0.250762        0.091109     -0.000762768     3.23291e-05       0.00618303       -0.959592
                        0.356216       -0.880661      -0.00056606    -2.43337e-06         0.288766       0.0836977      0.000224233    -0.000163527
                    -0.000469082    -0.000199566       0.00643418       -0.959577      0.000251616    -0.000526375          0.24997      -0.0872297
281704                  0.267229        0.140877      4.92902e-05     2.95424e-05         0.355841       -0.880602     -0.000521512    -0.000273887
                     4.23573e-05    -3.67314e-05         0.250764       0.0910997     -0.000770092     3.42774e-05       0.00587345       -0.959583
                        0.355965       -0.880763     -0.000566335    -2.51654e-06         0.288814       0.0835553      0.000253094    -0.000159583
                    -0.000470151    -0.000200028       0.00614185       -0.959579      0.000244367    -0.000508307         0.249922      -0.0873717
281706                  0.267241        0.140865      4.92887e-05     2.95568e-05          0.35558       -0.880686     -0.000517989    -0.000281347
                     4.21736e-05    -3.71049e-05         0.250767       0.0910904     -0.000771944      3.5393e-05       0.00557729       -0.959573
                        0.355714       -0.880864     -0.000566598    -2.51817e-06         0.288861       0.0834126      0.000263547     -0.00015867
                    -0.000472729    -0.000200908       0.00584957       -0.959581      0.000242123    -0.000503202         0.249874      -0.0875136
281708                  0.267252        0.140852      4.93133e-05     2.95492e-05         0.355322       -0.880779     -0.000515779    -0.000285328
                     4.20654e-05    -3.72251e-05          0.25077        0.091081     -0.000772272     3.62935e-05       0.00528624       -0.959567
                        0.355463       -0.880965     -0.000566843    -2.45403e-06         0.288906       0.0832691      0.000268381    -0.000157917
                    -0.000481166    -0.000201118       0.00555733       -0.959583       0.00024109    -0.000500945         0.249826      -0.0876554
281710                  0.267264         0.14084      4.93502e-05     2.95275e-05         0.355067       -0.880875     -0.000514294     -0.00028773
                     4.19674e-05    -3.71687e-05         0.250772       0.0910716     -0.000771963     3.71059e-05       0.00499627       -0.959565
                        0.355212       -0.881067     -0.000567066    -2.33705e-06         0.288949       0.0831244      0.000270796    -0.000157092
                    -0.000486013     -0.00016818       0.00526513       -0.959585      0.000240537    -0.000499772         0.249778      -0.0877971
281712                  0.267275        0.140828      4.93936e-05     2.94966e-05         0.354814       -0.880973     -0.000513242    -0.000289284
                     4.18534e-05    -3.69926e-05         0.250775       0.0910621     -0.000771328     3.78731e-05       0.00470622       -0.959565
                         0.35496       -0.881167     -0.000567268    -2.17764e-06         0.288992        0.082978      0.000271957    -0.000156191
                    -0.000459992    -0.000180569       0.00497297       -0.959586      0.000240225    -0.000499125          0.24973      -0.0879387
281714                  0.267287        0.140816      4.94407e-05     2.94594e-05         0.354561       -0.881072     -0.000512467    -0.000290333
                      4.1715e-05    -3.67362e-05         0.250778       0.0910527     -0.000770504     3.86136e-05       0.00441586       -0.959566
                        0.354708       -0.881268     -0.000567448    -1.98412e-06         0.289035       0.0828299      0.000272389    -0.000155236
                    -0.000460059    -0.000187224       0.00468085       -0.959588      0.000240051    -0.000498771         0.249682      -0.0880801
281716                  0.267298        0.140803      4.94901e-05     2.94176e-05         0.354309       -0.881172      -0.00051188    -0.000291056
                     4.15517e-05    -3.64264e-05          0.25078       0.0910432      -0.00076956     3.93369e-05       0.00412517       -0.959567
                        0.354457       -0.881368     -0.000567607    -1.76312e-06         0.289079       0.0826802      0.000272363    -0.000154245
                    -0.000460653    -0.000189449       0.00438877       -0.959589      0.000239967    -0.000498598         0.249633      -0.0882214
281718                   0.26731        0.140791       4.9541e-05     2.93725e-05         0.354057       -0.881272     -0.000511426    -0.000291557
                     4.13654e-05    -3.60815e-05         0.250783       0.0910337     -0.000768537     4.00484e-05        0.0038342       -0.959569
                        0.354205       -0.881468     -0.000567747    -1.51993e-06         0.289123       0.0825294      0.000272032    -0.000153232
                     -0.00046099    -0.000190397       0.00409672        -0.95959      0.000239943    -0.000498541         0.249585      -0.0883624
281720                  0.267321        0.140779      4.95928e-05     2.93249e-05         0.353806       -0.881373     -0.000511071    -0.000291901
                     4.11594e-05    -3.57138e-05         0.250785       0.0910242     -0.000767457     4.07514e-05       0.00354301       -0.959571
                        0.353952       -0.881568     -0.000567869    -1.25873e-06         0.289168        0.082378      0.000271489    -0.000152206
                    -0.000461145    -0.000190829       0.00380471       -0.959591      0.000239966    -0.000498565         0.249537      -0.0885032
281722                  0.267332        0.140767      4.96453e-05     2.92752e-05         0.353554       -0.881473     -0.000510789    -0.000292128
                     4.09368e-05    -3.53321e-05         0.250788       0.0910146     -0.000766337     4.14483e-05       0.00325164       -0.959573
                          0.3537       -0.881667     -0.000567975    -9.82917e-07         0.289215       0.0822264      0.000270796    -0.000151175
                    -0.000461186    -0.000191005       0.00351272       -0.959592      0.000240023    -0.000498644         0.249489      -0.0886435
281724                  0.267344        0.140755      4.96982e-05     2.92239e-05         0.353303       -0.881574     -0.000510566    -0.000292268
                     4.07007e-05    -3.49426e-05          0.25079       0.0910051     -0.000765186     4.21407e-05       0.00296012       -0.959574
                        0.353448       -0.881766     -0.000568066    -6.95176e-07         0.289262       0.0820749      0.000269992    -0.000150143
                    -0.000461154    -0.000191036       0.00322077       -0.959593      0.000240109    -0.000498763         0.249441      -0.0887833
281726                  0.267355        0.140743      4.97514e-05     2.91713e-05         0.353052       -0.881674     -0.000510388    -0.000292339
                     4.04535e-05    -3.45495e-05         0.250793       0.0909955     -0.000764012     4.28301e-05       0.00266849       -0.959576
                        0.353195       -0.881864     -0.000568143    -3.97695e-07          0.28931       0.0819236      0.000269105    -0.000149114
                    -0.000461073    -0.000190979       0.00292883       -0.959594      0.000240218    -0.000498909         0.249393      -0.0889222
281728                  0.267367        0.140731      4.98048e-05     2.91175e-05         0.352801       -0.881775     -0.000510248    -0.000292357
                     4.01974e-05     -3.4156e-05         0.250795        0.090986     -0.000762819     4.35176e-05       0.00237676       -0.959578
                        0.352943       -0.881962     -0.000568208    -9.22476e-08         0.289358       0.0817727      0.000268157    -0.000148091
                    -0.000460957    -0.000190864       0.00263692       -0.959595      0.000240349    -0.000499076         0.249346      -0.0890596
281730                  0.267378        0.140719      4.98584e-05     2.90628e-05          0.35255       -0.881875     -0.000510139    -0.000292333
                     3.99344e-05    -3.37644e-05         0.250798       0.0909764      -0.00076161     4.42042e-05       0.00208495       -0.959579
                        0.352691        -0.88206     -0.000568262     2.19722e-07         0.289406       0.0816221      0.000267161    -0.000147076
                    -0.000460817    -0.000190708       0.00234502       -0.959595      0.000240498    -0.000499254         0.249298      -0.0891944
281732                   0.26739        0.140706       4.9912e-05     2.90073e-05         0.352299       -0.881976     -0.000510056    -0.000292273
                     3.96658e-05    -3.33764e-05           0.2508       0.0909668      -0.00076039     4.48911e-05       0.00179308       -0.959581
                        0.352439       -0.882157     -0.000568306     5.37026e-07         0.289455       0.0814718      0.000266129    -0.000146072
                    -0.000460658    -0.000190523       0.00205313       -0.959596      0.000240665     -0.00049944         0.249249      -0.0893248
281734                  0.267401        0.140694      4.99656e-05     2.89511e-05         0.352048       -0.882076     -0.000509996    -0.000292185
                      3.9393e-05    -3.29932e-05         0.250803       0.0909572     -0.000759159     4.55794e-05       0.00150115       -0.959582
                        0.352187       -0.882254     -0.000568341     8.58684e-07         0.289503       0.0813219      0.000265069    -0.000145079
                    -0.000460486    -0.000190316       0.00176125       -0.959596      0.000240847    -0.000499628         0.249193      -0.0894499
281736                  0.267413        0.140682      5.00192e-05     2.88943e-05         0.351797       -0.882176     -0.000509956    -0.000292074
                     3.91172e-05    -3.26159e-05         0.250805       0.0909477     -0.000757919     4.62702e-05       0.00120918       -0.959583
                        0.351935       -0.882351     -0.000568367     1.18388e-06         0.289552       0.0811722      0.000263989    -0.000144099
                    -0.000460304    -0.000190094       0.00146938       -0.959596      0.000241044    -0.000499813         0.249121      -0.0895778
281738                  0.267424         0.14067      5.00728e-05     2.88369e-05         0.351546       -0.882277     -0.000509933    -0.000291943
                     3.88391e-05    -3.22451e-05         0.250808       0.0909381     -0.000756672     4.69648e-05      0.000917165       -0.959584
                        0.351683       -0.882448     -0.000568386     1.51194e-06           0.2896       0.0810228      0.000262893    -0.000143133
                    -0.000460114    -0.000189859       0.00117751       -0.959597      0.000241255    -0.000499993         0.249044      -0.0897267
281740                  0.267436        0.140658      5.01264e-05      2.8779e-05         0.351295       -0.882377     -0.000509927    -0.000291795
                     3.85595e-05    -3.18813e-05          0.25081       0.0909285     -0.000755418     4.76647e-05      0.000625118       -0.959585
                        0.351431       -0.882545     -0.000568398     1.84228e-06         0.289649       0.0808735      0.000261786    -0.000142182
                    -0.000459918    -0.000189614      0.000885634       -0.959597      0.000241479    -0.000500162         0.248983      -0.0898867
281742                  0.267447        0.140646      5.01799e-05     2.87206e-05         0.351044       -0.882477     -0.000509936    -0.000291634
                     3.82791e-05    -3.15251e-05         0.250813       0.0909189     -0.000754159     4.83716e-05      0.000333041       -0.959585
                         0.35118       -0.882642     -0.000568405     2.17442e-06         0.289697       0.0807245       0.00026067    -0.000141248
                    -0.000459717    -0.000189361      0.000593752       -0.959597      0.000241715    -0.000500318         0.248933      -0.0900416
281744                  0.267459        0.140634      5.02333e-05     2.86617e-05         0.350793       -0.882576      -0.00050996    -0.000291462
                     3.79985e-05    -3.11769e-05         0.250815       0.0909093     -0.000752895     4.90874e-05      4.09401e-05       -0.959586
                        0.350928       -0.882739     -0.000568405     2.50795e-06         0.289745       0.0805757       0.00025955    -0.000140332
                    -0.000459514    -0.000189102      0.000301859       -0.959597      0.000241961    -0.000500455         0.248885      -0.0901904
281746                   0.26747        0.140622      5.02866e-05     2.86025e-05         0.350542       -0.882676     -0.000509998     -0.00029128
                      3.7718e-05    -3.08369e-05         0.250818       0.0908997     -0.000751627     4.98145e-05     -0.000251183       -0.959586
                        0.350676       -0.882835     -0.000568401     2.84249e-06         0.289792        0.080427      0.000258427    -0.000139435
                    -0.000459308    -0.000188838      9.95259e-06       -0.959597      0.000242216     -0.00050057         0.248837      -0.0903357
281748                  0.267482         0.14061      5.03399e-05     2.85429e-05         0.350292       -0.882775     -0.000510052     -0.00029109
                     3.74382e-05    -3.05056e-05          0.25082       0.0908901     -0.000750356     5.05556e-05     -0.000543325       -0.959586
                        0.350425       -0.882932     -0.000568393     3.17775e-06          0.28984       0.0802785      0.000257303    -0.000138559
                      -0.0004591    -0.000188569     -0.000281972       -0.959596      0.000242477    -0.000500657         0.248789       -0.090479
281750                  0.267493        0.140598       5.0393e-05      2.8483e-05         0.350041       -0.882874     -0.000510121    -0.000290894
                     3.71594e-05    -3.01832e-05         0.250822       0.0908805     -0.000749083      5.1314e-05     -0.000835483       -0.959586
                        0.350173       -0.883029     -0.000568381     3.51344e-06         0.289887       0.0801302       0.00025618    -0.000137707
                    -0.000458892    -0.000188297     -0.000573918       -0.959596       0.00024274    -0.000500713         0.248739      -0.0906211
281752                  0.267505        0.140585       5.0446e-05     2.84227e-05          0.34979       -0.882973     -0.000510208    -0.000290694
                      3.6882e-05    -2.98701e-05         0.250825       0.0908709      -0.00074781     5.20938e-05      -0.00112766       -0.959586
                        0.349921       -0.883127     -0.000568365     3.84933e-06         0.289934       0.0799821      0.000255059    -0.000136881
                    -0.000458684    -0.000188022     -0.000865887       -0.959596      0.000243003    -0.000500733         0.248689      -0.0907626
281754                  0.267516        0.140573      5.04989e-05     2.83621e-05         0.349539       -0.883072     -0.000510313    -0.000290489
                     3.66064e-05    -2.95668e-05         0.250827       0.0908612     -0.000746539     5.28996e-05      -0.00141984       -0.959586
                        0.349669       -0.883224     -0.000568347     4.18518e-06          0.28998       0.0798341      0.000253942    -0.000136085
                    -0.000458477    -0.000187744      -0.00115788       -0.959595      0.000243258    -0.000500713         0.248638      -0.0909036
281756                  0.267527        0.140561      5.05517e-05     2.83012e-05         0.349288       -0.883171     -0.000510441    -0.000290282
                     3.63332e-05    -2.92737e-05          0.25083       0.0908516     -0.000745274     5.37371e-05      -0.00171204       -0.959585
                        0.349417       -0.883321     -0.000568326     4.52081e-06         0.290026       0.0796862       0.00025283    -0.000135324
                    -0.000458271    -0.000187465      -0.00144991       -0.959595        0.0002435    -0.000500648         0.248586      -0.0910443
281758                  0.267539        0.140549      5.06044e-05     2.82401e-05         0.349037       -0.883269     -0.000510596    -0.000290074
                     3.60628e-05    -2.89914e-05         0.250832        0.090842      -0.00074402     5.46132e-05      -0.00200424       -0.959585
                        0.349165       -0.883419     -0.000568303     4.85603e-06          0.29007       0.0795381      0.000251725    -0.000134606
                    -0.000458067    -0.000187183      -0.00174196       -0.959594      0.000243719    -0.000500534         0.248534      -0.0911848
281760                   0.26755        0.140537      5.06569e-05     2.81786e-05         0.348786       -0.883367     -0.000510782    -0.000289866
                      3.5796e-05    -2.87206e-05         0.250834       0.0908324     -0.000742784     5.55357e-05      -0.00229645       -0.959584
                        0.348913       -0.883516     -0.000568279     5.19067e-06         0.290115       0.0793895      0.000250627    -0.000133941
                    -0.000457866      -0.0001869      -0.00203404       -0.959593      0.000243905    -0.000500371         0.248482      -0.0913251
281762                  0.267562        0.140525      5.07093e-05     2.81169e-05         0.348534       -0.883464     -0.000511011    -0.000289658
                     3.55338e-05    -2.84622e-05         0.250837       0.0908228     -0.000741579     5.65132e-05      -0.00258867       -0.959583
                        0.348661       -0.883614     -0.000568254     5.52458e-06         0.290158       0.0792399      0.000249539    -0.000133344
