! TOUCHSTONE file generated by CST MICROWAVE STUDIO
! Date and time: Wed Oct 15 17:29:31 2025
! Project name: Teste_Macro_Metasurface_Nanopilar.cst
! Parameters = {H=600; L_x=100; L_y=95; Lambda=1064; Max_L=200; Min_L=70; PathPara=1; Phi=0; Step_L=10; Theta=0; p=520; phaseX=180; phaseY=0}
! Header version: 2018
! Port assignment regex: !\s*Touchstone port\s*([0-9]+)\s*=\s*(CST MWS port|CST DS port)\s*([0-9]+|Zmin|Zmax)\s*\(\"(.*)\"\)(\s*mode\s*([0-9]+))?.*
! Touchstone port assignment:
! Touchstone port 1 = CST MWS port Zmax ("") mode 1
! Touchstone port 2 = CST MWS port Zmax ("") mode 2
! Touchstone port 3 = CST MWS port Zmin ("") mode 1
! Touchstone port 4 = CST MWS port Zmin ("") mode 2
! S-Parameters are not renormalized. Each port impedance will be approximated by the real part at minimum frequency. The values are described via the [Reference] keyword.
! Default impedance is overridden by [Reference]
[Version] 2.0
# GHz S RI R 376.73
[Number of Ports] 4
[Reference]
376.73 376.73 259.888 259.888 
[Number of Frequencies] 51
[Network Data]
281700               -0.00795935      -0.0458252      0.000295504      0.00014433        -0.370022       -0.926397      1.35882e-05     8.90335e-05
                     0.000336617     7.89415e-05      -0.00691276       -0.023546     -2.93765e-05     0.000112053         -0.47624       -0.877227
                        -0.36983       -0.926104     -6.59158e-05     0.000114782        0.0255531       0.0391265     -0.000152746    -0.000412279
                    -6.81831e-05     0.000134618        -0.476675         -0.8772     -7.53802e-05    -0.000458661        0.0157648       0.0191766
281702               -0.00796878      -0.0458163      0.000295587     0.000144362        -0.370264         -0.9263      1.35862e-05     8.90767e-05
                     0.000336661     7.90005e-05      -0.00691997      -0.0235351     -2.93557e-05     0.000112043        -0.476476         -0.8771
                       -0.370072       -0.926008     -6.58621e-05      0.00011476        0.0255605       0.0391132     -0.000152941    -0.000412462
                     -6.8133e-05     0.000134601         -0.47691       -0.877073     -7.55649e-05    -0.000458716         0.015762       0.0191683
281704               -0.00797821      -0.0458074       0.00029567     0.000144395        -0.370506       -0.926204      1.35843e-05     8.91198e-05
                     0.000336705     7.90597e-05      -0.00692718      -0.0235241      -2.9335e-05     0.000112032        -0.476711       -0.876972
                       -0.370314       -0.925911     -6.58086e-05     0.000114737        0.0255679       0.0390999     -0.000153135    -0.000412645
                    -6.80827e-05     0.000134584        -0.477146       -0.876945     -7.57498e-05    -0.000458771        0.0157591       0.0191599
281706               -0.00798764      -0.0457984      0.000295753     0.000144427        -0.370747       -0.926107      1.35823e-05     8.91628e-05
                     0.000336748      7.9119e-05      -0.00693439      -0.0235132     -2.93142e-05     0.000112021        -0.476946       -0.876844
                       -0.370556       -0.925815     -6.57551e-05     0.000114715        0.0255753       0.0390866      -0.00015333    -0.000412827
                    -6.80322e-05     0.000134566        -0.477381       -0.876817     -7.59347e-05    -0.000458825        0.0157562       0.0191516
281708               -0.00799707      -0.0457895      0.000295836      0.00014446        -0.370989        -0.92601      1.35804e-05     8.92058e-05
                     0.000336791     7.91785e-05      -0.00694159      -0.0235023     -2.92935e-05      0.00011201        -0.477181       -0.876716
                       -0.370798       -0.925719     -6.57017e-05     0.000114692        0.0255827       0.0390733     -0.000153525     -0.00041301
                    -6.79813e-05     0.000134549        -0.477616       -0.876689     -7.61198e-05     -0.00045888        0.0157534       0.0191433
281710               -0.00800649      -0.0457806      0.000295918     0.000144493        -0.371231       -0.925914      1.35785e-05     8.92488e-05
                     0.000336834     7.92382e-05       -0.0069488      -0.0234913     -2.92729e-05     0.000111998        -0.477416       -0.876588
                       -0.371039       -0.925622     -6.56484e-05     0.000114669        0.0255901         0.03906      -0.00015372    -0.000413193
                    -6.79302e-05     0.000134531        -0.477852        -0.87656     -7.63051e-05    -0.000458934        0.0157505        0.019135
281712               -0.00801591      -0.0457717      0.000296001     0.000144526        -0.371473       -0.925817      1.35766e-05     8.92916e-05
                     0.000336877      7.9298e-05        -0.006956      -0.0234804     -2.92522e-05     0.000111987        -0.477652        -0.87646
                       -0.371281       -0.925526     -6.55951e-05     0.000114647        0.0255975       0.0390467     -0.000153915    -0.000413376
                    -6.78789e-05     0.000134513        -0.478087       -0.876432     -7.64904e-05    -0.000458988        0.0157476       0.0191267
281714               -0.00802534      -0.0457628      0.000296084     0.000144559        -0.371714        -0.92572      1.35746e-05     8.93344e-05
                      0.00033692      7.9358e-05       -0.0069632      -0.0234694     -2.92317e-05     0.000111976        -0.477887       -0.876332
                       -0.371523       -0.925429     -6.55418e-05     0.000114624        0.0256048       0.0390334     -0.000154111    -0.000413558
                    -6.78273e-05     0.000134494        -0.478322       -0.876304     -7.66759e-05    -0.000459043        0.0157447       0.0191184
281716               -0.00803476      -0.0457539      0.000296166     0.000144592        -0.371956       -0.925623      1.35727e-05      8.9377e-05
                     0.000336962     7.94182e-05       -0.0069704      -0.0234585     -2.92112e-05     0.000111965        -0.478122       -0.876204
                       -0.371764       -0.925332     -6.54885e-05     0.000114601        0.0256122       0.0390201     -0.000154306     -0.00041374
                    -6.77754e-05     0.000134476        -0.478557       -0.876176     -7.68615e-05    -0.000459097        0.0157418       0.0191101
281718               -0.00804418      -0.0457449      0.000296248     0.000144625        -0.372198       -0.925526      1.35708e-05     8.94195e-05
                     0.000337004     7.94786e-05       -0.0069776      -0.0234475     -2.91907e-05     0.000111954        -0.478357       -0.876076
                       -0.372006       -0.925236     -6.54351e-05     0.000114578        0.0256195       0.0390069     -0.000154501    -0.000413923
                    -6.77233e-05     0.000134457        -0.478792       -0.876047     -7.70473e-05    -0.000459151        0.0157389       0.0191018
281720                -0.0080536       -0.045736      0.000296331     0.000144658        -0.372439       -0.925429      1.35688e-05     8.94618e-05
                     0.000337046     7.95391e-05       -0.0069848      -0.0234366     -2.91703e-05     0.000111942        -0.478592       -0.875947
                       -0.372247       -0.925139     -6.53816e-05     0.000114555        0.0256269       0.0389936     -0.000154696    -0.000414104
                     -6.7671e-05     0.000134439        -0.479027       -0.875919     -7.72331e-05    -0.000459206         0.015736       0.0190935
281722               -0.00806302      -0.0457271      0.000296413     0.000144691        -0.372681       -0.925332      1.35669e-05     8.95038e-05
                     0.000337087     7.95998e-05      -0.00699199      -0.0234256     -2.91499e-05     0.000111931        -0.478827       -0.875819
                       -0.372489       -0.925042     -6.53281e-05     0.000114532        0.0256342       0.0389803     -0.000154891    -0.000414286
                    -6.76183e-05      0.00013442        -0.479263        -0.87579     -7.74191e-05     -0.00045926        0.0157331       0.0190852
281724               -0.00807244      -0.0457182      0.000296495     0.000144723        -0.372923       -0.925235      1.35649e-05     8.95455e-05
                     0.000337129     7.96606e-05      -0.00699919      -0.0234147     -2.91295e-05     0.000111919        -0.479062       -0.875691
                       -0.372731       -0.924945     -6.52744e-05     0.000114509        0.0256415        0.038967     -0.000155086    -0.000414466
                    -6.75655e-05       0.0001344        -0.479498       -0.875662     -7.76051e-05    -0.000459315        0.0157302       0.0190769
281726               -0.00808186      -0.0457092      0.000296577     0.000144756        -0.373164       -0.925137      1.35629e-05     8.95865e-05
                      0.00033717     7.97217e-05      -0.00700638      -0.0234037     -2.91091e-05     0.000111907        -0.479296       -0.875562
                       -0.372972       -0.924848     -6.52207e-05     0.000114486        0.0256489       0.0389537     -0.000155281    -0.000414645
                    -6.75124e-05     0.000134381        -0.479733       -0.875533     -7.77912e-05     -0.00045937        0.0157273       0.0190687
281728               -0.00809127      -0.0457003      0.000296659     0.000144788        -0.373406        -0.92504      1.35609e-05     8.96265e-05
                     0.000337211     7.97829e-05      -0.00701357      -0.0233927     -2.90887e-05     0.000111895        -0.479531       -0.875434
                       -0.373214       -0.924751     -6.51669e-05     0.000114463        0.0256562       0.0389404     -0.000155475    -0.000414822
                     -6.7459e-05     0.000134361        -0.479968       -0.875404     -7.79772e-05    -0.000459425        0.0157244       0.0190604
281730               -0.00810069      -0.0456914      0.000296741      0.00014482        -0.373647       -0.924943      1.35586e-05     8.96644e-05
                     0.000337252     7.98442e-05      -0.00702076      -0.0233818     -2.90681e-05     0.000111883        -0.479766       -0.875305
                       -0.373455       -0.924654      -6.5113e-05      0.00011444        0.0256635       0.0389271     -0.000155669    -0.000414995
                    -6.74054e-05     0.000134342        -0.480202       -0.875276     -7.81628e-05    -0.000459482        0.0157215       0.0190521
281732                -0.0081101      -0.0456824      0.000296823     0.000144852        -0.373889       -0.924845      1.35558e-05     8.96973e-05
                     0.000337292     7.99057e-05      -0.00702794      -0.0233708     -2.90473e-05      0.00011187        -0.480001       -0.875176
                       -0.373697       -0.924557     -6.50591e-05     0.000114417        0.0256708       0.0389138     -0.000155861    -0.000415156
                    -6.73515e-05     0.000134322        -0.480437       -0.875147      -7.8347e-05     -0.00045954        0.0157186       0.0190439
281734               -0.00811951      -0.0456735      0.000296905     0.000144884         -0.37413       -0.924748      1.35494e-05     8.97092e-05
                     0.000337332     7.99674e-05      -0.00703513      -0.0233598     -2.90262e-05     0.000111857        -0.480236       -0.875047
                       -0.373938        -0.92446     -6.50051e-05     0.000114395        0.0256781       0.0389006     -0.000156054    -0.000415274
                    -6.72974e-05     0.000134302        -0.480672       -0.875018     -7.85268e-05    -0.000459601        0.0157156       0.0190357
281736               -0.00812893      -0.0456646      0.000296987     0.000144915        -0.374372        -0.92465      1.30354e-05     9.01819e-05
                     0.000337373     8.00293e-05      -0.00704231      -0.0233489     -2.90048e-05     0.000111845         -0.48047       -0.874918
                       -0.374179       -0.924362     -6.49512e-05     0.000114372        0.0256854       0.0388873     -0.000156955    -0.000415291
                    -6.72431e-05     0.000134281        -0.480907       -0.874889     -7.86933e-05     -0.00045966        0.0157127       0.0190277
281738               -0.00813834      -0.0456556      0.000297069     0.000144947        -0.374613       -0.924553      1.35498e-05     8.99101e-05
                     0.000337412     8.00913e-05       -0.0070495      -0.0233379     -2.89829e-05     0.000111832        -0.480705        -0.87479
                       -0.374421       -0.924265     -6.48972e-05      0.00011435        0.0256927        0.038874     -0.000156534    -0.000415895
                    -6.71885e-05     0.000134261        -0.481142        -0.87476     -7.88536e-05    -0.000459687        0.0157098        0.019019
281740               -0.00814775      -0.0456467      0.000297151     0.000144978        -0.374854       -0.924455      1.35501e-05     8.99261e-05
                     0.000337452     8.01535e-05      -0.00705668      -0.0233269     -2.89608e-05      0.00011182         -0.48094       -0.874661
                       -0.374662       -0.924168     -6.48432e-05     0.000114327        0.0256999       0.0388607     -0.000156691    -0.000416022
                    -6.71336e-05      0.00013424        -0.481377       -0.874631     -7.90561e-05     -0.00045971        0.0157068       0.0190109
281742               -0.00815716      -0.0456377      0.000297234      0.00014501        -0.375096       -0.924357      1.35485e-05     8.99595e-05
                     0.000337491     8.02159e-05      -0.00706386       -0.023316     -2.89385e-05     0.000111808        -0.481175       -0.874532
                       -0.374904        -0.92407     -6.47891e-05     0.000114305        0.0257072       0.0388474     -0.000156877    -0.000416185
                    -6.70785e-05     0.000134219        -0.481611       -0.874502     -7.92605e-05    -0.000459759        0.0157039       0.0190027
281744               -0.00816657      -0.0456288      0.000297316     0.000145041        -0.375337       -0.924259      1.35468e-05     8.99973e-05
                     0.000337531     8.02784e-05      -0.00707104       -0.023305     -2.89162e-05     0.000111796        -0.481409       -0.874403
                       -0.375145       -0.923973     -6.47351e-05     0.000114283        0.0257145       0.0388341     -0.000157068    -0.000416358
                    -6.70232e-05     0.000134198        -0.481846       -0.874372     -7.94565e-05    -0.000459814        0.0157009       0.0189945
281746               -0.00817597      -0.0456199      0.000297398     0.000145072        -0.375578       -0.924162      1.35449e-05      9.0037e-05
                      0.00033757     8.03411e-05      -0.00707821       -0.023294      -2.8894e-05     0.000111785        -0.481644       -0.874274
                       -0.375386       -0.923875     -6.46811e-05     0.000114261        0.0257217       0.0388209     -0.000157262    -0.000416535
                    -6.69676e-05     0.000134177        -0.482081       -0.874243     -7.96486e-05    -0.000459868         0.015698       0.0189863
281748               -0.00818538      -0.0456109       0.00029748     0.000145103         -0.37582       -0.924064      1.35431e-05     9.00776e-05
                     0.000337609     8.04039e-05      -0.00708539      -0.0232831      -2.8872e-05     0.000111773        -0.481878       -0.874145
                       -0.375627       -0.923777      -6.4627e-05     0.000114239         0.025729       0.0388076     -0.000157457    -0.000416714
                    -6.69118e-05     0.000134155        -0.482315       -0.874114      -7.9839e-05    -0.000459922         0.015695       0.0189781
281750               -0.00819478       -0.045602      0.000297563     0.000145133        -0.376061       -0.923966      1.35412e-05     9.01186e-05
                     0.000337647     8.04669e-05      -0.00709256      -0.0232721       -2.885e-05     0.000111762        -0.482113       -0.874016
                       -0.375869        -0.92368      -6.4573e-05     0.000114217        0.0257362       0.0387943     -0.000157652    -0.000416895
                    -6.68558e-05     0.000134133         -0.48255       -0.873984     -8.00287e-05    -0.000459976         0.015692       0.0189699
281752               -0.00820419       -0.045593      0.000297645     0.000145164        -0.376302       -0.923867      1.35394e-05     9.01599e-05
                     0.000337686     8.05301e-05      -0.00709973      -0.0232611     -2.88283e-05     0.000111751        -0.482347       -0.873886
                        -0.37611       -0.923582     -6.45189e-05     0.000114195        0.0257434        0.038781     -0.000157848    -0.000417076
                    -6.67995e-05     0.000134112        -0.482785       -0.873855     -8.02179e-05    -0.000460029         0.015689       0.0189617
281754               -0.00821359      -0.0455841      0.000297727     0.000145195        -0.376543       -0.923769      1.35376e-05     9.02013e-05
                     0.000337724     8.05935e-05       -0.0071069      -0.0232501     -2.88066e-05      0.00011174        -0.482582       -0.873757
                       -0.376351       -0.923484     -6.44648e-05     0.000114173        0.0257507       0.0387678     -0.000158044    -0.000417258
                     -6.6743e-05      0.00013409        -0.483019       -0.873725      -8.0407e-05    -0.000460082        0.0156861       0.0189535
281756               -0.00822299      -0.0455751      0.000297809     0.000145225        -0.376785       -0.923671      1.35357e-05     9.02429e-05
                     0.000337762      8.0657e-05      -0.00711407      -0.0232391      -2.8785e-05     0.000111728        -0.482816       -0.873628
                       -0.376592       -0.923386     -6.44108e-05     0.000114151        0.0257579       0.0387545      -0.00015824     -0.00041744
                    -6.66863e-05     0.000134067        -0.483254       -0.873596     -8.05961e-05    -0.000460134        0.0156831       0.0189454
281758               -0.00823239      -0.0455662      0.000297892     0.000145256        -0.377026       -0.923573      1.35339e-05     9.02845e-05
                       0.0003378     8.07205e-05      -0.00712124      -0.0232282     -2.87634e-05     0.000111717        -0.483051       -0.873498
                       -0.376833       -0.923288     -6.43566e-05     0.000114129        0.0257651       0.0387412     -0.000158437    -0.000417622
                    -6.66295e-05     0.000134046        -0.483488       -0.873466     -8.07853e-05    -0.000460186        0.0156801       0.0189372
281760               -0.00824179      -0.0455572      0.000297974     0.000145286        -0.377267       -0.923475      1.35321e-05     9.03261e-05
                     0.000337837     8.07839e-05       -0.0071284      -0.0232172     -2.87418e-05     0.000111706        -0.483285       -0.873368
                       -0.377075        -0.92319     -6.43025e-05     0.000114107        0.0257723        0.038728     -0.000158633    -0.000417804
                    -6.65674e-05     0.000134032        -0.483723       -0.873336     -8.09745e-05    -0.000460238        0.0156771        0.018929
281762               -0.00825119      -0.0455482      0.000298056     0.000145316        -0.377508       -0.923376      1.35302e-05     9.03677e-05
                     0.000337874     8.08483e-05      -0.00713557      -0.0232062     -2.87202e-05     0.000111694        -0.483519       -0.873239
                       -0.377316       -0.923092     -6.42483e-05     0.000114086        0.0257795       0.0387147      -0.00015883    -0.000417987
