! TOUCHSTONE file generated by CST MICROWAVE STUDIO
! Date and time: Wed Oct 15 17:28:42 2025
! Project name: Teste_Macro_Metasurface_Nanopilar.cst
! Parameters = {H=600; L_x=85; L_y=115; Lambda=1064; Max_L=200; Min_L=70; PathPara=1; Phi=0; Step_L=10; Theta=0; p=520; phaseX=180; phaseY=0}
! Header version: 2018
! Port assignment regex: !\s*Touchstone port\s*([0-9]+)\s*=\s*(CST MWS port|CST DS port)\s*([0-9]+|Zmin|Zmax)\s*\(\"(.*)\"\)(\s*mode\s*([0-9]+))?.*
! Touchstone port assignment:
! Touchstone port 1 = CST MWS port Zmax ("") mode 1
! Touchstone port 2 = CST MWS port Zmax ("") mode 2
! Touchstone port 3 = CST MWS port Zmin ("") mode 1
! Touchstone port 4 = CST MWS port Zmin ("") mode 2
! S-Parameters are not renormalized. Each port impedance will be approximated by the real part at minimum frequency. The values are described via the [Reference] keyword.
! Default impedance is overridden by [Reference]
[Version] 2.0
# GHz S RI R 376.73
[Number of Ports] 4
[Reference]
376.73 376.73 259.888 259.888 
[Number of Frequencies] 51
[Network Data]
281700                 0.0545097       0.0499718      0.000544903     0.000182063        -0.839879       -0.530892      -0.00025839     0.000261765
                     0.000527411     2.40765e-05     -0.000988473      -0.0802361      -0.00033694     0.000188973        -0.203076       -0.974904
                       -0.840206       -0.530691     -0.000307144     8.83019e-05       -0.0685251      -0.0266245      0.000100703    -0.000537454
                    -0.000366385     0.000484198        -0.203429        -0.97481      7.72834e-05    -0.000529853        0.0310017       0.0742085
281702                 0.0545187        0.049981      0.000544864     0.000181925        -0.840039       -0.530635     -0.000258345     0.000261932
                     0.000527332     2.39414e-05      -0.00100025      -0.0802306     -0.000336843     0.000189063        -0.203321       -0.974853
                       -0.840367       -0.530434     -0.000307183     8.84191e-05       -0.0685535      -0.0265868      0.000100559    -0.000537341
                    -0.000366179     0.000484374        -0.203674       -0.974759      7.70783e-05    -0.000529771        0.0310259       0.0741926
281704                 0.0545276       0.0499901      0.000544824     0.000181787        -0.840199       -0.530379       -0.0002583     0.000262099
                     0.000527253     2.38062e-05      -0.00101202       -0.080225     -0.000336746     0.000189154        -0.203566       -0.974803
                       -0.840527       -0.530177     -0.000307221     8.85363e-05       -0.0685819      -0.0265491      0.000100416    -0.000537228
                    -0.000365972      0.00048455        -0.203919       -0.974708      7.68729e-05    -0.000529689        0.0310501       0.0741766
281706                 0.0545365       0.0499993      0.000544785     0.000181649         -0.84036       -0.530122     -0.000258255     0.000262267
                     0.000527174     2.36712e-05       -0.0010238      -0.0802195     -0.000336649     0.000189246         -0.20381       -0.974752
                       -0.840687       -0.529921      -0.00030726     8.86535e-05       -0.0686102      -0.0265114      0.000100272    -0.000537114
                    -0.000365766     0.000484726        -0.204165       -0.974657       7.6667e-05    -0.000529607        0.0310743       0.0741606
281708                 0.0545455       0.0500084      0.000544745     0.000181511         -0.84052       -0.529865      -0.00025821     0.000262434
                     0.000527094     2.35361e-05      -0.00103557      -0.0802139     -0.000336553     0.000189338        -0.204055       -0.974701
                       -0.840847       -0.529664     -0.000307298     8.87706e-05       -0.0686386      -0.0264737      0.000100128    -0.000536999
                    -0.000365559     0.000484902         -0.20441       -0.974605      7.64608e-05    -0.000529525        0.0310985       0.0741447
281710                 0.0545544       0.0500176      0.000544706     0.000181373         -0.84068       -0.529608     -0.000258164     0.000262601
                     0.000527015     2.34012e-05      -0.00104734      -0.0802084     -0.000336456      0.00018943          -0.2043        -0.97465
                       -0.841008       -0.529407     -0.000307336     8.88877e-05       -0.0686669       -0.026436       9.9985e-05    -0.000536884
                    -0.000365352     0.000485077        -0.204655       -0.974554      7.62543e-05    -0.000529443        0.0311227       0.0741287
281712                 0.0545634       0.0500267      0.000544666     0.000181236         -0.84084       -0.529351     -0.000258118     0.000262768
                     0.000526936     2.32662e-05      -0.00105912      -0.0802028      -0.00033636     0.000189523        -0.204544       -0.974599
                       -0.841168        -0.52915     -0.000307375     8.90047e-05       -0.0686952      -0.0263982      9.98417e-05    -0.000536768
                    -0.000365145     0.000485253          -0.2049       -0.974502      7.60473e-05    -0.000529361        0.0311468       0.0741127
281714                 0.0545723       0.0500359      0.000544626     0.000181098           -0.841       -0.529094     -0.000258072     0.000262935
                     0.000526857     2.31313e-05      -0.00107089      -0.0801973     -0.000336263     0.000189616        -0.204789       -0.974548
                       -0.841327       -0.528893     -0.000307413     8.91217e-05       -0.0687234      -0.0263604      9.96986e-05    -0.000536652
                    -0.000364937     0.000485428        -0.205145       -0.974451        7.584e-05    -0.000529279         0.031171       0.0740967
281716                 0.0545813        0.050045      0.000544586      0.00018096         -0.84116       -0.528837     -0.000258026     0.000263102
                     0.000526777     2.29965e-05      -0.00108266      -0.0801917     -0.000336166     0.000189709        -0.205034       -0.974497
                       -0.841487       -0.528636     -0.000307451     8.92387e-05       -0.0687517      -0.0263226      9.95556e-05    -0.000536534
                     -0.00036473     0.000485603         -0.20539       -0.974399      7.56323e-05    -0.000529198        0.0311952       0.0740807
281718                 0.0545902       0.0500542      0.000544546     0.000180822         -0.84132        -0.52858      -0.00025798     0.000263269
                     0.000526698     2.28617e-05      -0.00109443      -0.0801862     -0.000336069     0.000189802        -0.205279       -0.974446
                       -0.841647       -0.528379     -0.000307489     8.93557e-05       -0.0687799      -0.0262848      9.94127e-05    -0.000536417
                    -0.000364522     0.000485778        -0.205635       -0.974348      7.54243e-05    -0.000529116        0.0312193       0.0740647
281720                 0.0545992       0.0500633      0.000544506     0.000180684         -0.84148       -0.528323     -0.000257934     0.000263436
                     0.000526619      2.2727e-05       -0.0011062      -0.0801806     -0.000335972     0.000189896        -0.205523       -0.974395
                       -0.841807       -0.528122     -0.000307527     8.94726e-05       -0.0688081      -0.0262469        9.927e-05    -0.000536298
                    -0.000364314     0.000485953         -0.20588       -0.974296      7.52159e-05    -0.000529034        0.0312434       0.0740487
281722                 0.0546082       0.0500725      0.000544466     0.000180547         -0.84164       -0.528066     -0.000257887     0.000263603
                     0.000526539     2.25923e-05      -0.00111797      -0.0801751     -0.000335875      0.00018999        -0.205768       -0.974344
                       -0.841966       -0.527865     -0.000307565     8.95895e-05       -0.0688363       -0.026209      9.91275e-05    -0.000536179
                    -0.000364106     0.000486128        -0.206125       -0.974244      7.50071e-05    -0.000528952        0.0312676       0.0740327
281724                 0.0546172       0.0500816      0.000544426     0.000180409        -0.841799       -0.527809      -0.00025784      0.00026377
                      0.00052646     2.24577e-05      -0.00112974      -0.0801695     -0.000335778     0.000190084        -0.206012       -0.974293
                       -0.842126       -0.527607     -0.000307603     8.97064e-05       -0.0688645      -0.0261711      9.89852e-05    -0.000536059
                    -0.000363897     0.000486302         -0.20637       -0.974192       7.4798e-05    -0.000528869        0.0312917       0.0740167
281726                 0.0546261       0.0500907      0.000544386     0.000180271        -0.841959       -0.527551     -0.000257793     0.000263937
                      0.00052638     2.23232e-05      -0.00114151      -0.0801639     -0.000335681     0.000190179        -0.206257       -0.974241
                       -0.842285        -0.52735     -0.000307641     8.98232e-05       -0.0688926      -0.0261332       9.8843e-05    -0.000535939
                    -0.000363689     0.000486477        -0.206615        -0.97414      7.45886e-05    -0.000528787        0.0313158       0.0740006
281728                 0.0546351       0.0500999      0.000544345     0.000180133        -0.842118       -0.527294     -0.000257746     0.000264104
                     0.000526301     2.21887e-05      -0.00115328      -0.0801584     -0.000335583     0.000190273        -0.206502        -0.97419
                       -0.842445       -0.527093     -0.000307679       8.994e-05       -0.0689208      -0.0260953       9.8701e-05    -0.000535817
                     -0.00036348     0.000486651         -0.20686       -0.974088      7.43788e-05    -0.000528705        0.0313399       0.0739846
281730                 0.0546441        0.050109      0.000544305     0.000179996        -0.842278       -0.527036     -0.000257699      0.00026427
                     0.000526221     2.20544e-05      -0.00116504      -0.0801528     -0.000335486     0.000190368        -0.206746       -0.974139
                       -0.842604       -0.526835     -0.000307717     9.00569e-05       -0.0689489      -0.0260573      9.85592e-05    -0.000535696
                    -0.000363272     0.000486825        -0.207105       -0.974036      7.41687e-05    -0.000528622         0.031364       0.0739686
281732                 0.0546531       0.0501181      0.000544265     0.000179858        -0.842437       -0.526779     -0.000257651     0.000264437
                     0.000526141     2.19203e-05      -0.00117681      -0.0801472     -0.000335388     0.000190462        -0.206991       -0.974087
                       -0.842763       -0.526578     -0.000307755     9.01737e-05        -0.068977      -0.0260193      9.84176e-05    -0.000535573
                    -0.000363063     0.000486999         -0.20735       -0.973984      7.39583e-05    -0.000528539        0.0313881       0.0739525
281734                  0.054662       0.0501273      0.000544224      0.00017972        -0.842596       -0.526521     -0.000257604     0.000264604
                     0.000526062     2.17863e-05      -0.00118857      -0.0801417      -0.00033529     0.000190557        -0.207235       -0.974036
                       -0.842923        -0.52632     -0.000307793     9.02904e-05        -0.069005      -0.0259813      9.82762e-05     -0.00053545
                    -0.000362854     0.000487172        -0.207595       -0.973932      7.37476e-05    -0.000528456        0.0314122       0.0739364
281736                  0.054671       0.0501364      0.000544184     0.000179582        -0.842755       -0.526264     -0.000257556      0.00026477
                     0.000525982     2.16525e-05      -0.00120034      -0.0801361     -0.000335192     0.000190652         -0.20748       -0.973984
                       -0.843082       -0.526063     -0.000307831     9.04072e-05       -0.0690331      -0.0259433       9.8135e-05    -0.000535326
                    -0.000362645     0.000487345         -0.20784        -0.97388      7.35366e-05    -0.000528373        0.0314362       0.0739204
281738                   0.05468       0.0501455      0.000544143     0.000179445        -0.842914       -0.526006     -0.000257508     0.000264937
                     0.000525903      2.1519e-05       -0.0012121      -0.0801305     -0.000335094     0.000190747        -0.207725       -0.973932
                       -0.843241       -0.525805     -0.000307868      9.0524e-05       -0.0690611      -0.0259052      9.79941e-05    -0.000535202
                    -0.000362436     0.000487518        -0.208084       -0.973827      7.33253e-05     -0.00052829        0.0314603       0.0739043
281740                  0.054689       0.0501546      0.000544103     0.000179307        -0.843073       -0.525749     -0.000257459     0.000265103
                     0.000525823     2.13858e-05      -0.00122387       -0.080125     -0.000334996     0.000190842        -0.207969       -0.973881
                         -0.8434       -0.525548     -0.000307906     9.06407e-05       -0.0690891      -0.0258671      9.78534e-05    -0.000535076
                    -0.000362227      0.00048769        -0.208329       -0.973775      7.31137e-05    -0.000528207        0.0314844       0.0738882
281742                  0.054698       0.0501638      0.000544062     0.000179169        -0.843232       -0.525491     -0.000257411      0.00026527
                     0.000525744      2.1253e-05      -0.00123563      -0.0801194     -0.000334897     0.000190937        -0.208214       -0.973829
                       -0.843558        -0.52529     -0.000307944     9.07575e-05       -0.0691171       -0.025829      9.77131e-05     -0.00053495
                    -0.000362019     0.000487862        -0.208574       -0.973723      7.29019e-05    -0.000528123        0.0315084       0.0738721
281744                  0.054707       0.0501729      0.000544021     0.000179031        -0.843391       -0.525233     -0.000257362     0.000265436
                     0.000525664     2.11207e-05      -0.00124739      -0.0801138     -0.000334799     0.000191032        -0.208458       -0.973777
                       -0.843717       -0.525032     -0.000307982     9.08742e-05       -0.0691451      -0.0257909      9.75731e-05    -0.000534823
                     -0.00036181     0.000488033        -0.208819        -0.97367      7.26898e-05    -0.000528039        0.0315324        0.073856
281746                  0.054716        0.050182      0.000543981     0.000178894         -0.84355       -0.524975     -0.000257313     0.000265603
                     0.000525585     2.09888e-05      -0.00125916      -0.0801083       -0.0003347     0.000191127        -0.208703       -0.973725
                       -0.843876       -0.524774     -0.000308019      9.0991e-05        -0.069173      -0.0257528      9.74337e-05    -0.000534696
                    -0.000361601     0.000488203        -0.209064       -0.973618      7.24774e-05    -0.000527955        0.0315565       0.0738399
281748                  0.054725       0.0501911       0.00054394     0.000178756        -0.843709       -0.524717     -0.000257264     0.000265769
                     0.000525505     2.08576e-05      -0.00127092      -0.0801027     -0.000334601     0.000191223        -0.208947       -0.973673
                       -0.844035       -0.524517     -0.000308057     9.11077e-05       -0.0692009      -0.0257146       9.7295e-05    -0.000534567
                    -0.000361392     0.000488372        -0.209309       -0.973565      7.22649e-05     -0.00052787        0.0315805       0.0738238
281750                 0.0547341       0.0502002      0.000543899     0.000178618        -0.843867       -0.524459     -0.000257214     0.000265935
                     0.000525426     2.07269e-05      -0.00128268      -0.0800971     -0.000334502     0.000191318        -0.209192       -0.973621
                       -0.844193       -0.524259     -0.000308094     9.12244e-05       -0.0692288      -0.0256764      9.71577e-05    -0.000534436
                    -0.000361182     0.000488541        -0.209554       -0.973512      7.20521e-05    -0.000527786        0.0316045       0.0738077
281752                 0.0547431       0.0502094      0.000543858      0.00017848        -0.844026       -0.524201     -0.000257162     0.000266102
                     0.000525346     2.05968e-05      -0.00129444      -0.0800915     -0.000334403     0.000191413        -0.209436       -0.973569
                       -0.844352       -0.524001     -0.000308132     9.13412e-05       -0.0692567      -0.0256382      9.70244e-05    -0.000534299
                    -0.000360973     0.000488709        -0.209798        -0.97346      7.18391e-05    -0.000527701        0.0316285       0.0737916
281754                 0.0547521       0.0502185      0.000543818     0.000178343        -0.844184       -0.523943     -0.000257108     0.000266273
                     0.000525266     2.04673e-05       -0.0013062      -0.0800859     -0.000334304     0.000191508        -0.209681       -0.973517
                        -0.84451       -0.523743      -0.00030817     9.14579e-05       -0.0692846         -0.0256      9.69016e-05    -0.000534104
                    -0.000360763     0.000488876        -0.210043       -0.973407       7.1626e-05    -0.000527615        0.0316525       0.0737754
281756                 0.0547611       0.0502276      0.000543777     0.000178205        -0.844343       -0.523685     -0.000257079     0.000266447
                     0.000525187     2.03383e-05      -0.00131796      -0.0800804     -0.000334205     0.000191603        -0.209925       -0.973464
                       -0.844668       -0.523485     -0.000308207     9.15747e-05       -0.0693124      -0.0255617      9.66928e-05    -0.000534073
                    -0.000360553     0.000489043        -0.210288       -0.973354      7.14126e-05     -0.00052753        0.0316765       0.0737593
281758                 0.0547701       0.0502367      0.000543736     0.000178067        -0.844501       -0.523427     -0.000257025     0.000266601
                     0.000525107     2.02098e-05      -0.00132972      -0.0800748     -0.000334105     0.000191698         -0.21017       -0.973412
                       -0.844827       -0.523226     -0.000308244     9.16914e-05       -0.0693402      -0.0255235       9.6576e-05    -0.000533934
                    -0.000360342     0.000489209        -0.210533       -0.973301      7.11992e-05    -0.000527444        0.0317005       0.0737431
281760                 0.0547792       0.0502458      0.000543695      0.00017793        -0.844659       -0.523169     -0.000256973     0.000266766
                     0.000525027     2.00815e-05      -0.00134147      -0.0800692     -0.000334006     0.000191793        -0.210414        -0.97336
                       -0.844985       -0.522968     -0.000308282     9.18081e-05        -0.069368      -0.0254852      9.64426e-05      -0.0005338
                    -0.000360131     0.000489375        -0.210778       -0.973248      7.09856e-05    -0.000527358        0.0317245        0.073727
281762                 0.0547882       0.0502549      0.000543654     0.000177792        -0.844818       -0.522911     -0.000256921     0.000266931
                     0.000524947     1.99535e-05      -0.00135323      -0.0800636     -0.000333906     0.000191888        -0.210658       -0.973307
                       -0.845143        -0.52271     -0.000308319     9.19248e-05       -0.0693958      -0.0254468      9.63065e-05    -0.000533666
