! TOUCHSTONE file generated by CST MICROWAVE STUDIO
! Date and time: Wed Oct 15 17:34:38 2025
! Project name: Teste_Macro_Metasurface_Nanopilar.cst
! Parameters = {H=600; L_x=190; L_y=75; Lambda=1064; Max_L=200; Min_L=70; PathPara=1; Phi=0; Step_L=10; Theta=0; p=520; phaseX=180; phaseY=0}
! Header version: 2018
! Port assignment regex: !\s*Touchstone port\s*([0-9]+)\s*=\s*(CST MWS port|CST DS port)\s*([0-9]+|Zmin|Zmax)\s*\(\"(.*)\"\)(\s*mode\s*([0-9]+))?.*
! Touchstone port assignment:
! Touchstone port 1 = CST MWS port Zmax ("") mode 1
! Touchstone port 2 = CST MWS port Zmax ("") mode 2
! Touchstone port 3 = CST MWS port Zmin ("") mode 1
! Touchstone port 4 = CST MWS port Zmin ("") mode 2
! S-Parameters are not renormalized. Each port impedance will be approximated by the real part at minimum frequency. The values are described via the [Reference] keyword.
! Default impedance is overridden by [Reference]
[Version] 2.0
# GHz S RI R 376.73
[Number of Ports] 4
[Reference]
376.73 376.73 259.888 259.888 
[Number of Frequencies] 51
[Network Data]
281700                -0.0183939      -0.0637427      0.000276098    -8.10933e-05         -0.31852       -0.944662      7.12084e-05     0.000169878
                     0.000268419    -0.000102361         0.064841        0.264875     -2.23736e-05    -6.06225e-06          0.92692       -0.233728
                       -0.318512       -0.944537     -9.41141e-05    -7.70297e-05        0.0238932       0.0621638     -3.18717e-05     0.000212555
                     2.30032e-05     7.24327e-05         0.926937       -0.233636      3.95205e-05     0.000397641        0.0708333        0.262194
281702                -0.0184051      -0.0637353      0.000276095    -8.11243e-05         -0.31876       -0.944582      7.13332e-05     0.000169845
                      0.00026839    -0.000102369         0.064877        0.264914     -2.24264e-05    -6.10018e-06         0.926823       -0.234058
                       -0.318752       -0.944457     -9.41551e-05    -7.69997e-05        0.0239112       0.0621526     -3.18147e-05     0.000212598
                     2.29992e-05     7.24332e-05          0.92684       -0.233966      3.98013e-05     0.000397467        0.0710097        0.262195
281704                -0.0184163      -0.0637279      0.000276092    -8.11553e-05        -0.318999       -0.944502      7.14579e-05     0.000169811
                     0.000268361    -0.000102377         0.064913        0.264954     -2.24792e-05    -6.13803e-06         0.926726       -0.234388
                       -0.318991       -0.944376      -9.4196e-05    -7.69696e-05        0.0239292       0.0621414     -3.17576e-05     0.000212641
                     2.29953e-05     7.24336e-05         0.926743       -0.234296      4.00826e-05     0.000397293        0.0711861        0.262195
281706                -0.0184274      -0.0637205      0.000276089    -8.11863e-05        -0.319239       -0.944421      7.15825e-05     0.000169778
                     0.000268332    -0.000102385         0.064949        0.264994     -2.25321e-05     -6.1758e-06         0.926628       -0.234718
                        -0.31923       -0.944295     -9.42369e-05    -7.69395e-05        0.0239473       0.0621303     -3.17004e-05     0.000212684
                     2.29914e-05      7.2434e-05         0.926646       -0.234627      4.03645e-05     0.000397118        0.0713626        0.262196
281708                -0.0184386      -0.0637131      0.000276086    -8.12172e-05        -0.319478       -0.944341      7.17071e-05     0.000169744
                     0.000268302    -0.000102394         0.064985        0.265033     -2.25851e-05    -6.21349e-06         0.926531       -0.235048
                       -0.319469       -0.944214     -9.42778e-05    -7.69094e-05        0.0239653       0.0621191     -3.16432e-05     0.000212726
                     2.29876e-05     7.24345e-05         0.926548       -0.234957      4.06469e-05     0.000396942        0.0715391        0.262196
281710                -0.0184498      -0.0637057      0.000276083    -8.12481e-05        -0.319718        -0.94426      7.18316e-05      0.00016971
                     0.000268273    -0.000102402         0.065021        0.265073     -2.26382e-05    -6.25109e-06         0.926433       -0.235378
                       -0.319709       -0.944133     -9.43187e-05    -7.68793e-05        0.0239833       0.0621079     -3.15858e-05     0.000212769
                     2.29837e-05     7.24349e-05         0.926451       -0.235287      4.09299e-05     0.000396765        0.0717156        0.262196
281712                 -0.018461      -0.0636983       0.00027608     -8.1279e-05        -0.319957        -0.94418      7.19561e-05     0.000169676
                     0.000268244     -0.00010241        0.0650571        0.265113     -2.26914e-05     -6.2886e-06         0.926335       -0.235708
                       -0.319948       -0.944052     -9.43595e-05    -7.68491e-05        0.0240013       0.0620967     -3.15283e-05     0.000212811
                     2.29799e-05     7.24353e-05         0.926353       -0.235617      4.12134e-05     0.000396588        0.0718922        0.262196
281714                -0.0184722      -0.0636909      0.000276077    -8.13099e-05        -0.320197       -0.944099      7.20804e-05     0.000169642
                     0.000268214    -0.000102418        0.0650931        0.265153     -2.27447e-05    -6.32603e-06         0.926237       -0.236038
                       -0.320187       -0.943971     -9.44003e-05    -7.68189e-05        0.0240193       0.0620856     -3.14708e-05     0.000212854
                     2.29761e-05     7.24357e-05         0.926256       -0.235947      4.14975e-05     0.000396409        0.0720688        0.262196
281716                -0.0184834      -0.0636835      0.000276074    -8.13407e-05        -0.320436       -0.944018      7.22047e-05     0.000169607
                     0.000268185    -0.000102426        0.0651292        0.265192      -2.2798e-05    -6.36338e-06         0.926139       -0.236368
                       -0.320426        -0.94389     -9.44411e-05    -7.67886e-05        0.0240373       0.0620744     -3.14131e-05     0.000212896
                     2.29724e-05     7.24362e-05         0.926158       -0.236277      4.17822e-05      0.00039623        0.0722455        0.262196
281718                -0.0184945      -0.0636761      0.000276071    -8.13715e-05        -0.320676       -0.943937       7.2329e-05     0.000169572
                     0.000268156    -0.000102434        0.0651652        0.265232     -2.28514e-05    -6.40065e-06         0.926041       -0.236698
                       -0.320665       -0.943809     -9.44819e-05    -7.67584e-05        0.0240553       0.0620632     -3.13553e-05     0.000212938
                     2.29687e-05     7.24366e-05          0.92606       -0.236607      4.20674e-05      0.00039605        0.0724221        0.262196
281720                -0.0185057      -0.0636686      0.000276068    -8.14023e-05        -0.320915       -0.943856      7.24531e-05     0.000169537
                     0.000268126    -0.000102442        0.0652013        0.265272     -2.29049e-05    -6.43783e-06         0.925943       -0.237028
                       -0.320905       -0.943728     -9.45227e-05    -7.67281e-05        0.0240733        0.062052     -3.12974e-05      0.00021298
                      2.2965e-05      7.2437e-05         0.925962       -0.236937      4.23532e-05     0.000395869        0.0725988        0.262196
281722                -0.0185169      -0.0636612      0.000276065     -8.1433e-05        -0.321154       -0.943776      7.25772e-05     0.000169502
                     0.000268097     -0.00010245        0.0652374        0.265312     -2.29585e-05    -6.47492e-06         0.925845       -0.237357
                       -0.321144       -0.943646     -9.45634e-05    -7.66978e-05        0.0240913       0.0620408     -3.12393e-05     0.000213022
                     2.29613e-05     7.24374e-05         0.925863       -0.237267      4.26395e-05     0.000395687        0.0727756        0.262195
281724                -0.0185281      -0.0636538      0.000276062    -8.14637e-05        -0.321394       -0.943695      7.27012e-05     0.000169467
                     0.000268067    -0.000102458        0.0652735        0.265351     -2.30122e-05    -6.51193e-06         0.925746       -0.237687
                       -0.321383       -0.943565     -9.46041e-05    -7.66674e-05        0.0241092       0.0620296     -3.11811e-05     0.000213064
                     2.29576e-05     7.24378e-05         0.925765       -0.237597      4.29265e-05     0.000395505        0.0729523        0.262194
281726                -0.0185393      -0.0636464       0.00027606    -8.14944e-05        -0.321633       -0.943614      7.28251e-05     0.000169432
                     0.000268037    -0.000102465        0.0653096        0.265391      -2.3066e-05    -6.54886e-06         0.925647       -0.238017
                       -0.321622       -0.943483     -9.46447e-05    -7.66371e-05        0.0241272       0.0620184     -3.11227e-05     0.000213106
                      2.2954e-05     7.24382e-05         0.925667       -0.237927       4.3214e-05     0.000395321        0.0731291        0.262194
281728                -0.0185504       -0.063639      0.000276057     -8.1525e-05        -0.321872       -0.943532       7.2949e-05     0.000169396
                     0.000268008    -0.000102473        0.0653457        0.265431     -2.31199e-05     -6.5857e-06         0.925549       -0.238346
                       -0.321861       -0.943402     -9.46854e-05    -7.66067e-05        0.0241452       0.0620071     -3.10642e-05     0.000213148
                     2.29504e-05     7.24386e-05         0.925568       -0.238257       4.3502e-05     0.000395137         0.073306        0.262193
281730                -0.0185616      -0.0636315      0.000276054    -8.15556e-05        -0.322112       -0.943451      7.30728e-05      0.00016936
                     0.000267978    -0.000102481        0.0653818        0.265471     -2.31738e-05    -6.62246e-06          0.92545       -0.238676
                         -0.3221        -0.94332      -9.4726e-05    -7.65764e-05        0.0241631       0.0619959     -3.10056e-05      0.00021319
                     2.29469e-05      7.2439e-05         0.925469       -0.238587      4.37907e-05     0.000394952        0.0734828        0.262192
281732                -0.0185728      -0.0636241      0.000276051    -8.15861e-05        -0.322351        -0.94337      7.31964e-05     0.000169324
                     0.000267948    -0.000102489         0.065418         0.26551     -2.32278e-05    -6.65913e-06         0.925351       -0.239006
                       -0.322339       -0.943239     -9.47666e-05     -7.6546e-05        0.0241811       0.0619847     -3.09468e-05     0.000213232
                     2.29433e-05     7.24394e-05         0.925371       -0.238917      4.40799e-05     0.000394766        0.0736597        0.262191
281734                 -0.018584      -0.0636167      0.000276048    -8.16166e-05         -0.32259       -0.943289      7.33201e-05     0.000169288
                     0.000267918    -0.000102497        0.0654541         0.26555      -2.3282e-05    -6.69572e-06         0.925251       -0.239335
                       -0.322578       -0.943157     -9.48071e-05    -7.65157e-05         0.024199       0.0619735     -3.08879e-05     0.000213273
                     2.29398e-05     7.24398e-05         0.925272       -0.239246      4.43697e-05     0.000394579        0.0738367         0.26219
281736                -0.0185951      -0.0636093      0.000276045    -8.16471e-05        -0.322829       -0.943207      7.34436e-05     0.000169251
                     0.000267889    -0.000102505        0.0654903         0.26559     -2.33362e-05    -6.73223e-06         0.925152       -0.239665
                       -0.322817       -0.943075     -9.48476e-05    -7.64854e-05         0.024217       0.0619622     -3.08288e-05     0.000213315
                     2.29364e-05     7.24402e-05         0.925173       -0.239576      4.46602e-05     0.000394391        0.0740136        0.262189
281738                -0.0186063      -0.0636018      0.000276042    -8.16776e-05        -0.323069       -0.943126      7.35671e-05     0.000169215
                     0.000267859    -0.000102512        0.0655264         0.26563     -2.33905e-05    -6.76865e-06         0.925053       -0.239994
                       -0.323056       -0.942994     -9.48881e-05    -7.64551e-05        0.0242349        0.061951     -3.07696e-05     0.000213357
                     2.29329e-05     7.24406e-05         0.925073       -0.239906      4.49511e-05     0.000394202        0.0741906        0.262187
281740                -0.0186175      -0.0635944      0.000276039    -8.17079e-05        -0.323308       -0.943044      7.36904e-05     0.000169178
                     0.000267829     -0.00010252        0.0655626        0.265669     -2.34449e-05    -6.80498e-06         0.924953       -0.240324
                       -0.323295       -0.942912     -9.49286e-05     -7.6425e-05        0.0242528       0.0619398     -3.07102e-05     0.000213399
                     2.29295e-05      7.2441e-05         0.924974       -0.240236      4.52427e-05     0.000394012        0.0743676        0.262186
281742                -0.0186287       -0.063587      0.000276037    -8.17383e-05        -0.323547       -0.942963      7.38137e-05     0.000169141
                     0.000267799    -0.000102528        0.0655988        0.265709     -2.34994e-05    -6.84123e-06         0.924854       -0.240653
                       -0.323534        -0.94283     -9.49691e-05    -7.63948e-05        0.0242708       0.0619285     -3.06507e-05      0.00021344
                     2.29261e-05     7.24414e-05         0.924875       -0.240565      4.55349e-05     0.000393822        0.0745447        0.262184
281744                -0.0186398      -0.0635796      0.000276034    -8.17686e-05        -0.323786       -0.942881       7.3937e-05     0.000169104
                     0.000267769    -0.000102536         0.065635        0.265749     -2.35539e-05    -6.87739e-06         0.924754       -0.240982
                       -0.323773       -0.942748     -9.50096e-05    -7.63649e-05        0.0242887       0.0619173     -3.05911e-05     0.000213482
                     2.29227e-05     7.24418e-05         0.924775       -0.240895      4.58277e-05     0.000393631        0.0747218        0.262183
281746                 -0.018651      -0.0635721      0.000276031    -8.17988e-05        -0.324025         -0.9428      7.40601e-05     0.000169067
                     0.000267739    -0.000102543        0.0656712        0.265789     -2.36086e-05    -6.91347e-06         0.924654       -0.241312
                       -0.324012       -0.942666     -9.50501e-05    -7.63351e-05        0.0243066       0.0619061     -3.05314e-05     0.000213524
                     2.29194e-05     7.24422e-05         0.924675       -0.241224      4.61211e-05     0.000393439        0.0748989        0.262181
281748                -0.0186622      -0.0635647      0.000276029     -8.1829e-05        -0.324264       -0.942718      7.41832e-05      0.00016903
                     0.000267709    -0.000102551        0.0657074        0.265829     -2.36633e-05    -6.94946e-06         0.924554       -0.241641
                        -0.32425       -0.942584     -9.50908e-05    -7.63055e-05        0.0243245       0.0618948     -3.04715e-05     0.000213566
                     2.29161e-05     7.24425e-05         0.924576       -0.241554       4.6415e-05     0.000393245        0.0750761        0.262179
281750                -0.0186733      -0.0635573      0.000276026    -8.18592e-05        -0.324503       -0.942636      7.43062e-05     0.000168992
                     0.000267679    -0.000102559        0.0657437        0.265868     -2.37182e-05    -6.98537e-06         0.924454        -0.24197
                       -0.324489       -0.942502     -9.51318e-05    -7.62761e-05        0.0243424       0.0618835     -3.04116e-05     0.000213608
                     2.29128e-05     7.24429e-05         0.924476       -0.241883      4.67096e-05     0.000393052        0.0752533        0.262177
281752                -0.0186845      -0.0635498      0.000276023    -8.18893e-05        -0.324742       -0.942554      7.44292e-05     0.000168955
                     0.000267648    -0.000102566        0.0657799        0.265908     -2.37731e-05    -7.02119e-06         0.924354         -0.2423
                       -0.324728       -0.942419     -9.51733e-05     -7.6247e-05        0.0243603       0.0618723     -3.03515e-05      0.00021365
                     2.29095e-05     7.24433e-05         0.924376       -0.242213      4.70048e-05     0.000392857        0.0754305        0.262175
281754                -0.0186957      -0.0635424      0.000276021    -8.19193e-05        -0.324981       -0.942472       7.4552e-05     0.000168917
                     0.000267618    -0.000102574        0.0658162        0.265948     -2.38282e-05    -7.05693e-06         0.924253       -0.242629
                       -0.324967       -0.942337     -9.52156e-05    -7.62179e-05        0.0243782        0.061861     -3.02914e-05     0.000213691
                     2.29063e-05     7.24436e-05         0.924275       -0.242542      4.73006e-05     0.000392661        0.0756077        0.262172
281756                -0.0187068      -0.0635349      0.000276018    -8.19493e-05        -0.325221        -0.94239      7.46749e-05     0.000168879
                     0.000267588    -0.000102581        0.0658524        0.265988     -2.38833e-05    -7.09258e-06         0.924153       -0.242958
                       -0.325206       -0.942255     -9.52589e-05    -7.61884e-05        0.0243961       0.0618498     -3.02311e-05     0.000213733
                     2.29031e-05      7.2444e-05         0.924175       -0.242871      4.75971e-05     0.000392464         0.075785         0.26217
281758                 -0.018718      -0.0635275      0.000276016    -8.19792e-05         -0.32546       -0.942308      7.47976e-05     0.000168841
                     0.000267558    -0.000102589        0.0658887        0.266028     -2.39385e-05    -7.12815e-06         0.924052       -0.243287
                       -0.325444       -0.942172     -9.53031e-05    -7.61578e-05         0.024414       0.0618385     -3.01708e-05     0.000213775
                     2.28999e-05     7.24444e-05         0.924075       -0.243201      4.78941e-05     0.000392267        0.0759623        0.262168
281760                -0.0187292      -0.0635201      0.000276013     -8.2009e-05        -0.325699       -0.942226      7.49203e-05     0.000168803
                     0.000267527    -0.000102596         0.065925        0.266067     -2.39938e-05    -7.16363e-06         0.923951       -0.243616
                       -0.325683        -0.94209     -9.53475e-05    -7.61255e-05        0.0244319       0.0618272     -3.01104e-05     0.000213817
                     2.28968e-05     7.24447e-05         0.923974        -0.24353      4.81918e-05     0.000392068        0.0761396        0.262165
281762                -0.0187403      -0.0635126      0.000276011    -8.20387e-05        -0.325938       -0.942144      7.50429e-05     0.000168765
                     0.000267497    -0.000102604        0.0659613        0.266107     -2.40492e-05    -7.19902e-06         0.923851       -0.243945
                       -0.325922       -0.942007     -9.53909e-05    -7.60915e-05        0.0244498       0.0618159       -3.005e-05      0.00021386
