! TOUCHSTONE file generated by CST MICROWAVE STUDIO
! Date and time: Wed Oct 15 17:32:43 2025
! Project name: Teste_Macro_Metasurface_Nanopilar.cst
! Parameters = {H=600; L_x=155; L_y=110; Lambda=1064; Max_L=200; Min_L=70; PathPara=1; Phi=0; Step_L=10; Theta=0; p=520; phaseX=180; phaseY=0}
! Header version: 2018
! Port assignment regex: !\s*Touchstone port\s*([0-9]+)\s*=\s*(CST MWS port|CST DS port)\s*([0-9]+|Zmin|Zmax)\s*\(\"(.*)\"\)(\s*mode\s*([0-9]+))?.*
! Touchstone port assignment:
! Touchstone port 1 = CST MWS port Zmax ("") mode 1
! Touchstone port 2 = CST MWS port Zmax ("") mode 2
! Touchstone port 3 = CST MWS port Zmin ("") mode 1
! Touchstone port 4 = CST MWS port Zmin ("") mode 2
! S-Parameters are not renormalized. Each port impedance will be approximated by the real part at minimum frequency. The values are described via the [Reference] keyword.
! Default impedance is overridden by [Reference]
[Version] 2.0
# GHz S RI R 376.73
[Number of Ports] 4
[Reference]
376.73 376.73 259.888 259.888 
[Number of Frequencies] 51
[Network Data]
281700                  0.126146      -0.0305259     -4.62526e-05    -0.000466762       -0.0199109        0.982217      0.000439384     7.24004e-05
                    -5.11042e-05    -0.000501745         0.116427        0.205369     -0.000317435     -0.00018845         0.890667       -0.376762
                      -0.0198003        0.982076     -0.000298549    -0.000188087         0.122525       0.0370593      0.000658187    -0.000326137
                     0.000355935      0.00015108         0.890553       -0.376946      0.000563154    -0.000212016        0.0676117        0.224716
281702                  0.126123      -0.0305302     -4.62341e-05    -0.000466833        -0.019515        0.982228      0.000445188     7.42826e-05
                    -5.12933e-05    -0.000501856         0.116451        0.205395     -0.000317585    -0.000188212         0.890545       -0.377036
                      -0.0194048        0.982086      -0.00029874    -0.000187755         0.122531       0.0369638      0.000667069    -0.000316734
                     0.000356113     0.000151064         0.890421       -0.377238      0.000563099    -0.000212479        0.0677631        0.224706
281704                    0.1261      -0.0305345     -4.62203e-05    -0.000466903       -0.0191192        0.982238      0.000450797     7.60345e-05
                    -5.14817e-05    -0.000501966         0.116474        0.205421     -0.000317735    -0.000187973         0.890421        -0.37731
                      -0.0190092        0.982096     -0.000298926    -0.000187423         0.122537       0.0368683      0.000675345    -0.000307398
                     0.000356291      0.00015105         0.890288        -0.37753      0.000563044    -0.000212941        0.0679145        0.224697
281706                  0.126078      -0.0305387     -4.62111e-05    -0.000466971       -0.0187233        0.982248      0.000456206     7.76596e-05
                    -5.16693e-05    -0.000502076         0.116498        0.205447     -0.000317884    -0.000187735         0.890296       -0.377585
                      -0.0186137        0.982106     -0.000299107    -0.000187091         0.122544       0.0367729      0.000683034    -0.000298176
                     0.000356468     0.000151038         0.890156       -0.377821      0.000562989    -0.000213403         0.068066        0.224687
281708                  0.126055       -0.030543     -4.62066e-05    -0.000467039       -0.0183274        0.982258      0.000461407     7.91616e-05
                    -5.18563e-05    -0.000502185         0.116522        0.205473     -0.000318032    -0.000187496         0.890171        -0.37786
                      -0.0182181        0.982116     -0.000299281    -0.000186761          0.12255       0.0366774       0.00069016     -0.00028911
                     0.000356645     0.000151028         0.890023       -0.378113      0.000562934    -0.000213865        0.0682174        0.224677
281710                  0.126032      -0.0305472     -4.62069e-05    -0.000467105       -0.0179316        0.982268      0.000466397     8.05445e-05
                    -5.20425e-05    -0.000502293         0.116546        0.205499     -0.000318181    -0.000187258         0.890044       -0.378136
                      -0.0178225        0.982125     -0.000299451    -0.000186432         0.122556       0.0365819      0.000696747    -0.000280241
                     0.000356821      0.00015102         0.889891       -0.378405      0.000562878    -0.000214326        0.0683688        0.224667
281712                  0.126009      -0.0305515      -4.6212e-05    -0.000467171       -0.0175357        0.982278       0.00047117     8.18129e-05
                     -5.2228e-05    -0.000502401         0.116569        0.205526     -0.000318328    -0.000187019         0.889916       -0.378412
                       -0.017427        0.982135     -0.000299614    -0.000186103         0.122562       0.0364865      0.000702822    -0.000271603
                     0.000356996     0.000151013         0.889758       -0.378696      0.000562822    -0.000214787        0.0685202        0.224657
281714                  0.125986      -0.0305557      -4.6222e-05    -0.000467235       -0.0171399        0.982288      0.000475724     8.29714e-05
                    -5.24128e-05    -0.000502509         0.116593        0.205552     -0.000318476     -0.00018678         0.889788       -0.378689
                      -0.0170314        0.982144     -0.000299772    -0.000185777         0.122568        0.036391      0.000708413    -0.000263227
                     0.000357171     0.000151008         0.889625       -0.378988      0.000562766    -0.000215248        0.0686717        0.224646
281716                  0.125963      -0.0305599      -4.6237e-05    -0.000467297        -0.016744        0.982297      0.000480056     8.40253e-05
                    -5.25968e-05    -0.000502616         0.116617        0.205578     -0.000318623    -0.000186542         0.889658       -0.378967
                      -0.0166358        0.982153     -0.000299923    -0.000185452         0.122573       0.0362956      0.000713547    -0.000255142
                     0.000357345     0.000151005         0.889492        -0.37928       0.00056271    -0.000215709        0.0688231        0.224636
281718                   0.12594      -0.0305641      -4.6257e-05    -0.000467357       -0.0163481        0.982306      0.000484163     8.49795e-05
                    -5.27801e-05    -0.000502723         0.116641        0.205604     -0.000318769    -0.000186303         0.889528       -0.379245
                      -0.0162402        0.982162     -0.000300069    -0.000185128         0.122579       0.0362001      0.000718254     -0.00024737
                     0.000357518     0.000151003         0.889359       -0.379571      0.000562654    -0.000216169        0.0689745        0.224625
281720                  0.125917      -0.0305683      -4.6282e-05    -0.000467416       -0.0159522        0.982315      0.000488045     8.58395e-05
                    -5.29626e-05    -0.000502829         0.116665         0.20563     -0.000318915    -0.000186064         0.889397       -0.379524
                      -0.0158447        0.982171     -0.000300209    -0.000184808         0.122585       0.0361047      0.000722563    -0.000239933
                     0.000357691     0.000151003         0.889226       -0.379863      0.000562598    -0.000216628        0.0691258        0.224614
281722                  0.125894      -0.0305725     -4.63121e-05    -0.000467473       -0.0155564        0.982324      0.000491702     8.66107e-05
                    -5.31443e-05    -0.000502935         0.116689        0.205656     -0.000319061    -0.000185825         0.889265       -0.379803
                      -0.0154491         0.98218     -0.000300343    -0.000184489         0.122591       0.0360093      0.000726501    -0.000232846
                     0.000357863     0.000151005         0.889093       -0.380154      0.000562541    -0.000217088        0.0692772        0.224603
281724                  0.125871      -0.0305767     -4.63472e-05    -0.000467528       -0.0151605        0.982333      0.000495132     8.72985e-05
                    -5.33253e-05     -0.00050304         0.116712        0.205682     -0.000319206    -0.000185587         0.889132       -0.380084
                      -0.0150535        0.982188     -0.000300471    -0.000184173         0.122596       0.0359139      0.000730097    -0.000226125
                     0.000358033     0.000151008         0.888959       -0.380446      0.000562484    -0.000217547        0.0694286        0.224591
281726                  0.125848      -0.0305809     -4.63874e-05    -0.000467581       -0.0147646        0.982342      0.000498338     8.79086e-05
                    -5.35055e-05    -0.000503145         0.116736        0.205709     -0.000319351    -0.000185348         0.888999       -0.380365
                      -0.0146579        0.982196     -0.000300592    -0.000183861         0.122601       0.0358184      0.000733378    -0.000219781
                     0.000358203     0.000151013         0.888826       -0.380738      0.000562427    -0.000218006        0.0695799         0.22458
281728                  0.125825      -0.0305851     -4.64327e-05    -0.000467632       -0.0143687         0.98235      0.000501322     8.84464e-05
                     -5.3685e-05     -0.00050325          0.11676        0.205735     -0.000319495    -0.000185109         0.888865       -0.380646
                      -0.0142623        0.982205     -0.000300708    -0.000183551         0.122607        0.035723      0.000736368    -0.000213821
                     0.000358372      0.00015102         0.888692       -0.381029      0.000562369    -0.000218464        0.0697312        0.224568
281730                  0.125802      -0.0305892      -4.6483e-05     -0.00046768       -0.0139728        0.982359      0.000504085     8.89172e-05
                    -5.38637e-05    -0.000503355         0.116784        0.205761     -0.000319639     -0.00018487         0.888731       -0.380929
                      -0.0138667        0.982213     -0.000300818    -0.000183246         0.122612       0.0356276      0.000739092    -0.000208251
                      0.00035854     0.000151028         0.888558       -0.381321      0.000562311    -0.000218922        0.0698825        0.224556
281732                  0.125779      -0.0305934     -4.65384e-05    -0.000467726       -0.0135769        0.982367      0.000506631     8.93265e-05
                    -5.40416e-05    -0.000503459         0.116808        0.205787     -0.000319782    -0.000184632         0.888596       -0.381212
                       -0.013471         0.98222     -0.000300922    -0.000182944         0.122617       0.0355322      0.000741574    -0.000203076
                     0.000358707     0.000151038         0.888424       -0.381612      0.000562253    -0.000219379        0.0700337        0.224544
281734                  0.125756      -0.0305975     -4.65988e-05    -0.000467769       -0.0131811        0.982375      0.000508963     8.96795e-05
                    -5.42187e-05    -0.000503562         0.116832        0.205813     -0.000319925    -0.000184393         0.888461       -0.381496
                      -0.0130754        0.982228     -0.000301019    -0.000182646         0.122623       0.0354368      0.000743836    -0.000198296
                     0.000358873     0.000151049          0.88829       -0.381904      0.000562195    -0.000219836        0.0701849        0.224532
281736                  0.125733      -0.0306016     -4.66642e-05    -0.000467809       -0.0127852        0.982382      0.000511087     8.99812e-05
                     -5.4395e-05    -0.000503666         0.116855        0.205839     -0.000320068    -0.000184154         0.888325       -0.381781
                      -0.0126798        0.982236     -0.000301111    -0.000182353         0.122628       0.0353414      0.000745897    -0.000193912
                     0.000359038     0.000151061         0.888156       -0.382195      0.000562136    -0.000220293        0.0703361         0.22452
281738                   0.12571      -0.0306057     -4.67345e-05    -0.000467847       -0.0123893         0.98239      0.000513007     9.02366e-05
                    -5.45706e-05    -0.000503769         0.116879        0.205866     -0.000320209    -0.000183915         0.888189       -0.382066
                      -0.0122842        0.982243     -0.000301197    -0.000182064         0.122633        0.035246      0.000747777    -0.000189921
                     0.000359202     0.000151076         0.888022       -0.382487      0.000562077    -0.000220749        0.0704873        0.224508
281740                  0.125687      -0.0306099     -4.68097e-05    -0.000467882       -0.0119934        0.982398      0.000514729     9.04505e-05
                    -5.47453e-05    -0.000503871         0.116903        0.205892     -0.000320351    -0.000183676         0.888052       -0.382352
                      -0.0118886         0.98225     -0.000301277    -0.000181781         0.122638       0.0351506      0.000749493    -0.000186317
                     0.000359365     0.000151091         0.887887       -0.382778      0.000562018    -0.000221205        0.0706384        0.224495
281742                  0.125664       -0.030614     -4.68897e-05    -0.000467913       -0.0115975        0.982405      0.000516259     9.06276e-05
                    -5.49193e-05    -0.000503974         0.116927        0.205918     -0.000320492    -0.000183437         0.887916       -0.382639
                      -0.0114929        0.982257     -0.000301351    -0.000181503         0.122642       0.0350552      0.000751063    -0.000183096
                     0.000359526     0.000151108         0.887753        -0.38307      0.000561958     -0.00022166        0.0707896        0.224483
281744                  0.125641      -0.0306181     -4.69743e-05    -0.000467942       -0.0112016        0.982412      0.000517606     9.07721e-05
                    -5.50924e-05    -0.000504076         0.116951        0.205944     -0.000320633    -0.000183198         0.887779       -0.382926
                      -0.0110973        0.982264     -0.000301419    -0.000181231         0.122647       0.0349598      0.000752501    -0.000180248
                     0.000359686     0.000151127         0.887618       -0.383361      0.000561898    -0.000222115        0.0709407         0.22447
281746                  0.125619      -0.0306221     -4.70636e-05    -0.000467967       -0.0108057        0.982419      0.000518776     9.08885e-05
                    -5.52648e-05    -0.000504178         0.116975        0.205971     -0.000320773     -0.00018296         0.887642       -0.383214
                      -0.0107017        0.982271     -0.000301482    -0.000180965         0.122652       0.0348645      0.000753822    -0.000177763
                     0.000359845     0.000151146         0.887483       -0.383653      0.000561838    -0.000222569        0.0710918        0.224458
281748                  0.125596      -0.0306262     -4.71574e-05     -0.00046799       -0.0104098        0.982426       0.00051978      9.0981e-05
                    -5.54363e-05     -0.00050428         0.116999        0.205997     -0.000320912    -0.000182721         0.887504       -0.383502
                      -0.0103061        0.982278     -0.000301539    -0.000180705         0.122656       0.0347691      0.000755041    -0.000175628
                     0.000360003     0.000151167         0.887348       -0.383944      0.000561777    -0.000223023        0.0712429        0.224445
281750                  0.125573      -0.0306303     -4.72555e-05    -0.000468008       -0.0100139        0.982433      0.000520626     9.10536e-05
                    -5.56071e-05    -0.000504381         0.117023        0.206023     -0.000321051    -0.000182482         0.887367       -0.383791
                     -0.00991042        0.982284     -0.000301591    -0.000180452         0.122661       0.0346737       0.00075617    -0.000173826
                      0.00036016      0.00015119         0.887213       -0.384236      0.000561716    -0.000223476         0.071394        0.224432
281752                   0.12555      -0.0306343     -4.73579e-05    -0.000468024      -0.00961798        0.982439      0.000521327     9.11103e-05
                     -5.5777e-05    -0.000504482         0.117047        0.206049      -0.00032119    -0.000182243         0.887229       -0.384081
                     -0.00951478         0.98229     -0.000301637    -0.000180206         0.122665       0.0345784      0.000757223    -0.000172339
                     0.000360315     0.000151213         0.887078       -0.384527      0.000561655    -0.000223929        0.0715451        0.224419
281754                  0.125527      -0.0306384     -4.74643e-05    -0.000468036      -0.00922208        0.982446      0.000521895     9.11552e-05
                    -5.59461e-05    -0.000504583          0.11707        0.206076     -0.000321328    -0.000182004         0.887092       -0.384371
                     -0.00911914        0.982296     -0.000301678    -0.000179967          0.12267        0.034483      0.000758213    -0.000171142
                     0.000360469     0.000151238         0.886943       -0.384819      0.000561593    -0.000224381        0.0716963        0.224406
281756                  0.125504      -0.0306424     -4.75747e-05    -0.000468045      -0.00882618        0.982452      0.000522347     9.11927e-05
                    -5.61144e-05    -0.000504684         0.117094        0.206102     -0.000321466    -0.000181765         0.886954       -0.384661
                      -0.0087235        0.982302     -0.000301714    -0.000179735         0.122674       0.0343877      0.000759157    -0.000170205
                     0.000360621     0.000151264         0.886807        -0.38511       0.00056153    -0.000224832        0.0718475        0.224393
281758                  0.125481      -0.0306464     -4.76888e-05     -0.00046805      -0.00843028        0.982458      0.000522699     9.12272e-05
                    -5.62819e-05    -0.000504785         0.117118        0.206128     -0.000321603    -0.000181526         0.886817       -0.384951
                     -0.00832785        0.982308     -0.000301746    -0.000179511         0.122678       0.0342924      0.000760072     -0.00016949
                     0.000360772     0.000151291         0.886672       -0.385402      0.000561467    -0.000225283        0.0719988        0.224381
281760                  0.125458      -0.0306505     -4.78064e-05    -0.000468052      -0.00803438        0.982464      0.000522976     9.12642e-05
                    -5.64486e-05    -0.000504886         0.117142        0.206155      -0.00032174    -0.000181286          0.88668       -0.385242
                      -0.0079322        0.982314     -0.000301773    -0.000179295         0.122683        0.034197      0.000760978    -0.000168948
                     0.000360922      0.00015132         0.886536       -0.385693      0.000561404    -0.000225734        0.0721502        0.224368
281762                  0.125435      -0.0306545     -4.79274e-05     -0.00046805      -0.00763848         0.98247      0.000523205       9.131e-05
                    -5.66144e-05    -0.000504986         0.117166        0.206181     -0.000321877    -0.000181047         0.886543       -0.385533
                     -0.00753655        0.982319     -0.000301795    -0.000179087         0.122687       0.0341017      0.000761902    -0.000168514
