! TOUCHSTONE file generated by CST MICROWAVE STUDIO
! Date and time: Wed Oct 15 17:34:21 2025
! Project name: Teste_Macro_Metasurface_Nanopilar.cst
! Parameters = {H=600; L_x=185; L_y=75; Lambda=1064; Max_L=200; Min_L=70; PathPara=1; Phi=0; Step_L=10; Theta=0; p=520; phaseX=180; phaseY=0}
! Header version: 2018
! Port assignment regex: !\s*Touchstone port\s*([0-9]+)\s*=\s*(CST MWS port|CST DS port)\s*([0-9]+|Zmin|Zmax)\s*\(\"(.*)\"\)(\s*mode\s*([0-9]+))?.*
! Touchstone port assignment:
! Touchstone port 1 = CST MWS port Zmax ("") mode 1
! Touchstone port 2 = CST MWS port Zmax ("") mode 2
! Touchstone port 3 = CST MWS port Zmin ("") mode 1
! Touchstone port 4 = CST MWS port Zmin ("") mode 2
! S-Parameters are not renormalized. Each port impedance will be approximated by the real part at minimum frequency. The values are described via the [Reference] keyword.
! Default impedance is overridden by [Reference]
[Version] 2.0
# GHz S RI R 376.73
[Number of Ports] 4
[Reference]
376.73 376.73 259.888 259.888 
[Number of Frequencies] 51
[Network Data]
281700                -0.0161136      -0.0669284     -0.000127767     0.000265356        -0.296325       -0.951325      -0.00029038    -0.000242495
                    -8.77344e-05     0.000363518        0.0417652        0.223833     -0.000343719    -0.000102088         0.963891      -0.0827807
                       -0.296605       -0.951571     -0.000181978       3.425e-06        0.0246924       0.0645803      0.000344181    -0.000313699
                    -0.000319368    -0.000264243         0.963786      -0.0829945      0.000328116     -0.00032265     -0.000883287        0.227128
281702                -0.0161249      -0.0669211     -0.000127771     0.000265455        -0.296565        -0.95125      -0.00029046    -0.000242475
                    -8.76202e-05     0.000363538        0.0417941        0.223865     -0.000343728    -0.000101932         0.963853      -0.0831209
                       -0.296845       -0.951496     -0.000181921     3.42611e-06        0.0247117       0.0645683      0.000344122    -0.000313755
                    -0.000319502    -0.000264186         0.963748      -0.0833337      0.000328042    -0.000322699     -0.000745332        0.227164
281704                -0.0161362      -0.0669139     -0.000127776     0.000265555        -0.296805       -0.951175      -0.00029054    -0.000242455
                     -8.7506e-05     0.000363557         0.041823        0.223897     -0.000343738    -0.000101776         0.963815       -0.083461
                       -0.297085       -0.951421     -0.000181864     3.42668e-06        0.0247309       0.0645563      0.000344063    -0.000313812
                    -0.000319636     -0.00026413          0.96371       -0.083673      0.000327967    -0.000322748     -0.000607331        0.227201
281706                -0.0161475      -0.0669066      -0.00012778     0.000265656        -0.297045         -0.9511      -0.00029062    -0.000242435
                    -8.73917e-05     0.000363577         0.041852        0.223929     -0.000343747     -0.00010162         0.963777      -0.0838012
                       -0.297326       -0.951347     -0.000181807     3.42671e-06          0.02475       0.0645443      0.000344005     -0.00031387
                     -0.00031977    -0.000264074         0.963672      -0.0840122      0.000327893    -0.000322796     -0.000469282        0.227238
281708                -0.0161588      -0.0668993     -0.000127784     0.000265756        -0.297285       -0.951025     -0.000290699    -0.000242415
                    -8.72772e-05     0.000363597        0.0418809        0.223961     -0.000343755    -0.000101464         0.963739      -0.0841413
                       -0.297566       -0.951272     -0.000181751      3.4262e-06        0.0247692       0.0645323      0.000343946    -0.000313927
                    -0.000319904    -0.000264017         0.963634      -0.0843514      0.000327817    -0.000322844     -0.000331187        0.227274
281710                -0.0161701       -0.066892     -0.000127788     0.000265857        -0.297525        -0.95095     -0.000290779    -0.000242394
                    -8.71627e-05     0.000363617        0.0419099        0.223993     -0.000343764    -0.000101308           0.9637      -0.0844814
                       -0.297806       -0.951197     -0.000181695     3.42514e-06        0.0247884       0.0645203      0.000343888    -0.000313985
                    -0.000320038     -0.00026396         0.963596      -0.0846906      0.000327742    -0.000322892     -0.000193045        0.227311
281712                -0.0161814      -0.0668848     -0.000127791     0.000265958        -0.297764       -0.950874      -0.00029086    -0.000242372
                     -8.7048e-05     0.000363637        0.0419389        0.224025     -0.000343772    -0.000101152         0.963662      -0.0848214
                       -0.298046       -0.951121      -0.00018164     3.42355e-06        0.0248076       0.0645083       0.00034383    -0.000314043
                    -0.000320172    -0.000263903         0.963558      -0.0850298      0.000327666    -0.000322938     -5.48554e-05        0.227347
281714                -0.0161927      -0.0668775     -0.000127794      0.00026606        -0.298004       -0.950799      -0.00029094     -0.00024235
                    -8.69332e-05     0.000363657        0.0419678        0.224057      -0.00034378    -0.000100997         0.963623      -0.0851615
                       -0.298286       -0.951046     -0.000181585     3.42142e-06        0.0248268       0.0644962      0.000343771    -0.000314101
                    -0.000320305    -0.000263846         0.963519       -0.085369       0.00032759    -0.000322985      8.33808e-05        0.227384
281716                 -0.016204      -0.0668702     -0.000127797     0.000266162        -0.298244       -0.950724      -0.00029102    -0.000242328
                    -8.68184e-05     0.000363677        0.0419968        0.224089     -0.000343787    -0.000100841         0.963585      -0.0855015
                       -0.298526       -0.950971      -0.00018153     3.41876e-06        0.0248459       0.0644842      0.000343713    -0.000314159
                    -0.000320439    -0.000263789         0.963481      -0.0857082      0.000327514     -0.00032303      0.000221664         0.22742
281718                -0.0162153      -0.0668629       -0.0001278     0.000266264        -0.298484       -0.950648       -0.0002911    -0.000242304
                    -8.67034e-05     0.000363697        0.0420258        0.224121     -0.000343795    -0.000100685         0.963546      -0.0858416
                       -0.298766       -0.950896     -0.000181476     3.41556e-06        0.0248651       0.0644722      0.000343655    -0.000314219
                    -0.000320572    -0.000263731         0.963442      -0.0860473      0.000327437    -0.000323076      0.000359994        0.227456
281720                -0.0162266      -0.0668556     -0.000127802     0.000266367        -0.298724       -0.950573     -0.000291179    -0.000242279
                    -8.65884e-05     0.000363717        0.0420548        0.224153     -0.000343802    -0.000100529         0.963507      -0.0861816
                       -0.299006        -0.95082     -0.000181423     3.41184e-06        0.0248842       0.0644601      0.000343598    -0.000314279
                    -0.000320706    -0.000263674         0.963404      -0.0863864       0.00032736     -0.00032312      0.000498371        0.227492
281722                -0.0162379      -0.0668483     -0.000127804      0.00026647        -0.298964       -0.950498     -0.000291259    -0.000242253
                    -8.64732e-05     0.000363737        0.0420838        0.224185     -0.000343809    -0.000100373         0.963468      -0.0865216
                       -0.299247       -0.950745     -0.000181369     3.40758e-06        0.0249034       0.0644481       0.00034354     -0.00031434
                    -0.000320839    -0.000263616         0.963365      -0.0867256      0.000327283    -0.000323165      0.000636794        0.227528
281724                -0.0162492      -0.0668411     -0.000127806     0.000266573        -0.299203       -0.950422     -0.000291338    -0.000242224
                    -8.63579e-05     0.000363757        0.0421128        0.224217     -0.000343815    -0.000100217         0.963429      -0.0868615
                       -0.299487        -0.95067     -0.000181317      3.4028e-06        0.0249225        0.064436      0.000343484    -0.000314403
                    -0.000320972    -0.000263558         0.963326      -0.0870647      0.000327205    -0.000323208      0.000775265        0.227564
281726                -0.0162605      -0.0668338     -0.000127807     0.000266677        -0.299443       -0.950346     -0.000291416     -0.00024219
                    -8.62426e-05     0.000363777        0.0421418        0.224249     -0.000343821    -0.000100061         0.963389      -0.0872015
                       -0.299727       -0.950594     -0.000181265     3.39749e-06        0.0249417        0.064424      0.000343429    -0.000314469
                    -0.000321105      -0.0002635         0.963287      -0.0874038      0.000327128    -0.000323251      0.000913783          0.2276
281728                -0.0162718      -0.0668265     -0.000127808     0.000266781        -0.299683       -0.950271     -0.000291492    -0.000242148
                    -8.61271e-05     0.000363797        0.0421708        0.224281     -0.000343827    -9.99056e-05          0.96335      -0.0875414
                       -0.299967       -0.950519     -0.000181213     3.39165e-06        0.0249608       0.0644119      0.000343378    -0.000314541
                    -0.000321237    -0.000263442         0.963247      -0.0877428      0.000327049    -0.000323294       0.00105235        0.227636
281730                -0.0162831      -0.0668192     -0.000127809     0.000266885        -0.299923       -0.950195      -0.00029156    -0.000242087
                    -8.60115e-05     0.000363817        0.0421998        0.224313     -0.000343833    -9.97499e-05         0.963311      -0.0878813
                       -0.300207       -0.950443     -0.000181162      3.3853e-06        0.0249799       0.0643998      0.000343334    -0.000314624
                     -0.00032137    -0.000263384         0.963208      -0.0880819      0.000326971    -0.000323336       0.00119096        0.227672
281732                -0.0162944      -0.0668119     -0.000127809      0.00026699        -0.300162       -0.950119     -0.000291588    -0.000241973
                    -8.58959e-05     0.000363837        0.0422288        0.224345     -0.000343839    -9.95941e-05         0.963271      -0.0882211
                       -0.300446       -0.950367     -0.000181111     3.37843e-06        0.0249991       0.0643878       0.00034332    -0.000314736
                    -0.000321502    -0.000263325         0.963168       -0.088421      0.000326892    -0.000323377       0.00132964        0.227707
281734                -0.0163057      -0.0668046      -0.00012781     0.000267095        -0.300402       -0.950043     -0.000291139    -0.000241869
                    -8.57801e-05     0.000363857        0.0422578        0.224377     -0.000343844    -9.94384e-05         0.963237      -0.0885605
                       -0.300686       -0.950291     -0.000181061     3.37104e-06        0.0250182       0.0643757      0.000343541    -0.000314887
                    -0.000321635    -0.000263266         0.963129        -0.08876      0.000326813    -0.000323418       0.00146796        0.227742
281736                -0.0163169      -0.0667973      -0.00012781       0.0002672        -0.300642       -0.949967     -0.000291678    -0.000242476
                    -8.56642e-05     0.000363877        0.0422869        0.224409     -0.000343848    -9.92827e-05         0.963192      -0.0889013
                       -0.300926       -0.950216     -0.000181011     3.36313e-06        0.0250373       0.0643636      0.000343254     -0.00031433
                    -0.000321767    -0.000263208         0.963089       -0.089099      0.000326733    -0.000323457         0.001607        0.227778
281738                -0.0163282        -0.06679     -0.000127809     0.000267305        -0.300881       -0.949891     -0.000291878    -0.000242305
                    -8.55483e-05     0.000363897        0.0423159        0.224441     -0.000343853     -9.9127e-05         0.963151       -0.089241
                       -0.301166        -0.95014     -0.000180961     3.35471e-06        0.0250564       0.0643515      0.000343053    -0.000314585
                    -0.000321899    -0.000263149         0.963049       -0.089438      0.000326653    -0.000323496       0.00174582        0.227814
281740                -0.0163395      -0.0667827     -0.000127809     0.000267411        -0.301121       -0.949815      -0.00029198    -0.000242228
                    -8.54322e-05     0.000363917         0.042345        0.224473     -0.000343857    -9.89713e-05         0.963111      -0.0895809
                       -0.301406       -0.950064     -0.000180913     3.34577e-06        0.0250755       0.0643394      0.000342984    -0.000314705
                    -0.000322031     -0.00026309         0.963009       -0.089777      0.000326573    -0.000323534       0.00188467        0.227849
281742                -0.0163508      -0.0667754     -0.000127808     0.000267517        -0.301361       -0.949739     -0.000292068    -0.000242179
                    -8.53161e-05     0.000363937         0.042374        0.224505     -0.000343861    -9.88157e-05         0.963071      -0.0899207
                       -0.301646       -0.949988     -0.000180864     3.33633e-06        0.0250946       0.0643274      0.000342924     -0.00031479
                    -0.000322163    -0.000263031         0.962969       -0.090116      0.000326492    -0.000323569       0.00202356        0.227884
281744                -0.0163621      -0.0667681     -0.000127806     0.000267624          -0.3016       -0.949663     -0.000292153    -0.000242141
                    -8.51998e-05     0.000363957        0.0424031        0.224537     -0.000343865    -9.86599e-05         0.963031      -0.0902605
                       -0.301886       -0.949912     -0.000180816     3.32638e-06        0.0251137       0.0643153      0.000342865    -0.000314863
                    -0.000322295    -0.000262971         0.962929      -0.0904549       0.00032641    -0.000323596       0.00216249        0.227919
281746                -0.0163734      -0.0667608     -0.000127805      0.00026773         -0.30184       -0.949587     -0.000292236    -0.000242109
                    -8.50835e-05     0.000363977        0.0424321        0.224569     -0.000343868    -9.85038e-05          0.96299      -0.0906003
                       -0.302126       -0.949836     -0.000180769     3.31592e-06        0.0251327       0.0643032      0.000342806    -0.000314929
                    -0.000322426    -0.000262912         0.962889      -0.0907939      0.000326256    -0.000323796       0.00230148        0.227955
281748                -0.0163847      -0.0667535     -0.000127803     0.000267837        -0.302079       -0.949511     -0.000292319     -0.00024208
                    -8.49671e-05     0.000363997        0.0424612        0.224601     -0.000343872    -9.83474e-05         0.962949        -0.09094
                       -0.302365       -0.949759     -0.000180722     3.30496e-06        0.0251518       0.0642911      0.000342747    -0.000314993
                    -0.000322557    -0.000262852         0.962848      -0.0911328      0.000326251    -0.000323709        0.0024405         0.22799
281750                 -0.016396      -0.0667462     -0.000127801     0.000267945        -0.302319       -0.949434     -0.000292402    -0.000242053
                    -8.48505e-05     0.000364018        0.0424903        0.224633     -0.000343876    -9.81924e-05         0.962909      -0.0912798
                       -0.302605       -0.949683     -0.000180676      3.2935e-06        0.0251709       0.0642789      0.000342688    -0.000315055
                    -0.000322689    -0.000262793         0.962807      -0.0914717      0.000326169    -0.000323737       0.00257957        0.228024
281752                -0.0164072      -0.0667389     -0.000127798     0.000268052        -0.302558       -0.949358     -0.000292485    -0.000242028
                    -8.47339e-05     0.000364038        0.0425193        0.224665     -0.000343878    -9.80374e-05         0.962868      -0.0916195
                       -0.302845       -0.949607      -0.00018063     3.28153e-06        0.0251899       0.0642668      0.000342628    -0.000315115
                     -0.00032282    -0.000262733         0.962767      -0.0918106      0.000326087     -0.00032377       0.00271869        0.228059
281754                -0.0164185      -0.0667316     -0.000127796      0.00026816        -0.302798       -0.949282     -0.000292568    -0.000242003
                    -8.46172e-05     0.000364058        0.0425484        0.224697     -0.000343881    -9.78822e-05         0.962827      -0.0919592
                       -0.303085        -0.94953     -0.000180584     3.26907e-06         0.025209       0.0642547      0.000342569    -0.000315175
                    -0.000322951    -0.000262673         0.962726      -0.0921495      0.000326005    -0.000323803       0.00285786        0.228094
281756                -0.0164298      -0.0667243     -0.000127793     0.000268268        -0.303037       -0.949205     -0.000292651    -0.000241978
                    -8.45004e-05     0.000364078        0.0425775        0.224729     -0.000343883    -9.77269e-05         0.962786       -0.092299
                       -0.303324       -0.949454     -0.000180539     3.25611e-06         0.025228       0.0642426      0.000342509    -0.000315234
                    -0.000323082    -0.000262612         0.962685      -0.0924884      0.000325922    -0.000323837       0.00299707        0.228129
281758                -0.0164411       -0.066717     -0.000127789     0.000268377        -0.303277       -0.949128     -0.000292735    -0.000241954
                    -8.43835e-05     0.000364098        0.0426066        0.224761     -0.000343884    -9.75716e-05         0.962745      -0.0926386
                       -0.303564       -0.949377     -0.000180495     3.24266e-06        0.0252471       0.0642305      0.000342449    -0.000315293
                    -0.000323213    -0.000262552         0.962644      -0.0928273       0.00032584     -0.00032387       0.00313632        0.228163
281760                -0.0164524      -0.0667097     -0.000127786     0.000268486        -0.303516       -0.949052     -0.000292818    -0.000241931
                    -8.42667e-05     0.000364118        0.0426357        0.224793     -0.000343886    -9.74163e-05         0.962703      -0.0929783
                       -0.303804       -0.949301     -0.000180451     3.22871e-06        0.0252661       0.0642183      0.000342388    -0.000315351
                    -0.000323344    -0.000262492         0.962603      -0.0931661      0.000325756    -0.000323903       0.00327562        0.228198
281762                -0.0164637      -0.0667024     -0.000127782     0.000268595        -0.303756       -0.948975     -0.000292902    -0.000241908
                    -8.41502e-05     0.000364138        0.0426648        0.224825     -0.000343887    -9.72611e-05         0.962662       -0.093318
                       -0.304044       -0.949224     -0.000180407     3.21427e-06        0.0252852       0.0642062      0.000342328    -0.000315409
