! TOUCHSTONE file generated by CST MICROWAVE STUDIO
! Date and time: Wed Oct 15 17:32:52 2025
! Project name: Teste_Macro_Metasurface_Nanopilar.cst
! Parameters = {H=600; L_x=155; L_y=180; Lambda=1064; Max_L=200; Min_L=70; PathPara=1; Phi=0; Step_L=10; Theta=0; p=520; phaseX=180; phaseY=0}
! Header version: 2018
! Port assignment regex: !\s*Touchstone port\s*([0-9]+)\s*=\s*(CST MWS port|CST DS port)\s*([0-9]+|Zmin|Zmax)\s*\(\"(.*)\"\)(\s*mode\s*([0-9]+))?.*
! Touchstone port assignment:
! Touchstone port 1 = CST MWS port Zmax ("") mode 1
! Touchstone port 2 = CST MWS port Zmax ("") mode 2
! Touchstone port 3 = CST MWS port Zmin ("") mode 1
! Touchstone port 4 = CST MWS port Zmin ("") mode 2
! S-Parameters are not renormalized. Each port impedance will be approximated by the real part at minimum frequency. The values are described via the [Reference] keyword.
! Default impedance is overridden by [Reference]
[Version] 2.0
# GHz S RI R 376.73
[Number of Ports] 4
[Reference]
376.73 376.73 259.888 259.888 
[Number of Frequencies] 51
[Network Data]
281700                  0.194818       0.0628971     -1.06961e-05    -7.21402e-05         0.412755       -0.883808      0.000153376     7.19966e-05
                     3.39983e-05     4.22479e-05         0.172574       0.0262509      0.000144388     0.000204717         0.640067       -0.743284
                        0.412863       -0.883869      0.000119978     5.27309e-05         0.171932        0.106378     -0.000100165     7.62734e-05
                     3.46812e-05    -9.43937e-05         0.640305       -0.743403     -0.000142858    -1.12004e-05        0.0511422        0.163858
281702                  0.194831       0.0629051     -1.09168e-05    -7.21223e-05         0.412502       -0.883927      0.000153228     7.18564e-05
                     3.19597e-05     4.10793e-05         0.172576       0.0262601      0.000143506     0.000204572          0.63985       -0.743471
                        0.412606       -0.883983      0.000120128     5.27844e-05         0.172007        0.106282     -0.000100011     7.60023e-05
                     3.70019e-05    -9.32545e-05         0.640087        -0.74359     -0.000143633    -1.29786e-05        0.0512477        0.163829
281704                  0.194843       0.0629131     -1.11353e-05    -7.21033e-05         0.412248       -0.884047       0.00015308     7.17173e-05
                     2.99899e-05     3.98867e-05         0.172578       0.0262693      0.000142617      0.00020451         0.639632       -0.743658
                         0.41235       -0.884096      0.000120273      5.2834e-05         0.172083        0.106187     -9.98608e-05     7.57363e-05
                      3.9254e-05    -9.20785e-05         0.639868       -0.743776     -0.000144367    -1.48032e-05        0.0513531        0.163801
281706                  0.194855        0.062921     -1.13516e-05    -7.20834e-05         0.411994       -0.884166      0.000152933     7.15794e-05
                     2.80879e-05     3.86718e-05          0.17258       0.0262785      0.000141719     0.000204541         0.639415       -0.743845
                        0.412093        -0.88421      0.000120413       5.288e-05         0.172159        0.106091     -9.97151e-05     7.54753e-05
                     4.14388e-05     -9.0866e-05         0.639649       -0.743963     -0.000145056    -1.66743e-05        0.0514586        0.163772
281708                  0.194867        0.062929     -1.15658e-05    -7.20625e-05          0.41174       -0.884286      0.000152786     7.14425e-05
                     2.62526e-05      3.7436e-05         0.172582       0.0262877      0.000140813     0.000204676         0.639197       -0.744032
                        0.411837       -0.884323      0.000120549     5.29225e-05         0.172234        0.105996     -9.95735e-05      7.5219e-05
                     4.35571e-05    -8.96177e-05         0.639431        -0.74415     -0.000145695    -1.85915e-05         0.051564        0.163743
281710                   0.19488       0.0629369     -1.17779e-05    -7.20408e-05         0.411486       -0.884405       0.00015264     7.13067e-05
                     2.44831e-05      3.6181e-05         0.172585       0.0262969      0.000139899     0.000204928          0.63898       -0.744219
                         0.41158       -0.884436      0.000120679     5.29617e-05         0.172309          0.1059     -9.94359e-05     7.49674e-05
                     4.56095e-05    -8.83341e-05         0.639212       -0.744337     -0.000146279    -2.05544e-05        0.0516694        0.163714
281712                  0.194892       0.0629449     -1.19879e-05    -7.20181e-05         0.411232       -0.884525      0.000152493      7.1172e-05
                     2.27784e-05      3.4908e-05         0.172587        0.026306      0.000138977     0.000205312         0.638762       -0.744406
                        0.411323       -0.884549      0.000120805     5.29977e-05         0.172384        0.105805     -9.93019e-05     7.47205e-05
                     4.75966e-05    -8.70163e-05         0.638993       -0.744523     -0.000146803    -2.25626e-05        0.0517748        0.163686
281714                  0.194904       0.0629528     -1.21959e-05    -7.19947e-05         0.410977       -0.884644      0.000152348     7.10384e-05
                     2.11374e-05     3.36188e-05         0.172589       0.0263152       0.00013805     0.000205847         0.638544       -0.744593
                        0.411066       -0.884662      0.000120926     5.30308e-05         0.172459        0.105709     -9.91716e-05      7.4478e-05
                     4.95187e-05    -8.56654e-05         0.638774        -0.74471     -0.000147261    -2.46152e-05        0.0518802        0.163657
281716                  0.194916       0.0629607     -1.24018e-05    -7.19704e-05         0.410723       -0.884763      0.000152203     7.09059e-05
                     1.95592e-05     3.23148e-05         0.172591       0.0263244       0.00013712     0.000206555         0.638326        -0.74478
                        0.410809       -0.884775      0.000121043      5.3061e-05         0.172534        0.105614     -9.90447e-05     7.42399e-05
                     5.13759e-05    -8.42827e-05         0.638555       -0.744896     -0.000147647    -2.67115e-05        0.0519855        0.163628
281718                  0.194929       0.0629687     -1.26058e-05    -7.19454e-05         0.410468       -0.884883      0.000152058     7.07743e-05
                     1.80429e-05     3.09976e-05         0.172593       0.0263335      0.000136192     0.000207461         0.638108       -0.744966
                        0.410552       -0.884888      0.000121155     5.30886e-05         0.172609        0.105518     -9.89211e-05     7.40061e-05
                     5.31684e-05    -8.28697e-05         0.638336       -0.745083     -0.000147952    -2.88505e-05        0.0520908        0.163599
281720                  0.194941       0.0629766     -1.28078e-05    -7.19197e-05         0.410212       -0.885003      0.000151914     7.06438e-05
                     1.65873e-05     2.96686e-05         0.172596       0.0263427      0.000135274       0.0002086          0.63789       -0.745153
                        0.410294          -0.885      0.000121263     5.31136e-05         0.172684        0.105422     -9.88006e-05     7.37764e-05
                     5.48961e-05    -8.14282e-05         0.638117       -0.745269     -0.000148167    -3.10309e-05        0.0521961         0.16357
281722                  0.194953       0.0629845     -1.30078e-05    -7.18932e-05         0.409957       -0.885122       0.00015177     7.05143e-05
                     1.51916e-05     2.83295e-05         0.172598       0.0263518      0.000134377     0.000210007         0.637672        -0.74534
                        0.410037       -0.885113      0.000121367     5.31361e-05         0.172759        0.105327     -9.86832e-05     7.35509e-05
                      5.6559e-05    -7.99598e-05         0.637898       -0.745455     -0.000148282    -3.32514e-05        0.0523014         0.16354
281724                  0.194965       0.0629925      -1.3206e-05    -7.18662e-05           0.4097       -0.885242      0.000151627     7.03858e-05
                     1.38548e-05      2.6982e-05           0.1726        0.026361      0.000133519      0.00021173         0.637454       -0.745526
                        0.409779       -0.885226      0.000121466     5.31564e-05         0.172833        0.105231     -9.85687e-05     7.33293e-05
                      5.8157e-05    -7.84667e-05         0.637679       -0.745642     -0.000148283    -3.55106e-05        0.0524066        0.163511
281726                  0.194978       0.0630004     -1.34022e-05    -7.18384e-05         0.409444       -0.885362      0.000151484     7.02583e-05
                     1.25758e-05     2.56276e-05         0.172602       0.0263701      0.000132725     0.000213825         0.637236       -0.745712
                        0.409522       -0.885338      0.000121561     5.31744e-05         0.172908        0.105136      -9.8457e-05     7.31116e-05
                     5.96901e-05    -7.69508e-05          0.63746       -0.745828     -0.000148154    -3.78071e-05        0.0525119        0.163482
281728                   0.19499       0.0630084     -1.35966e-05    -7.18101e-05         0.409187       -0.885482      0.000151342     7.01318e-05
                     1.13539e-05     2.42682e-05         0.172604       0.0263792      0.000132036     0.000216355         0.637018       -0.745899
                        0.409264        -0.88545      0.000121653     5.31904e-05         0.172982         0.10504     -9.83479e-05     7.28977e-05
                     6.11583e-05    -7.54144e-05         0.637241       -0.746014     -0.000147875    -4.01395e-05        0.0526171        0.163453
281730                  0.195002       0.0630164     -1.37892e-05    -7.17812e-05         0.408929       -0.885603      0.000151201     7.00063e-05
                     1.01881e-05     2.29053e-05         0.172606       0.0263884       0.00013151     0.000219398           0.6368       -0.746085
                        0.409007       -0.885562       0.00012174     5.32045e-05         0.173057        0.104945     -9.82415e-05     7.26875e-05
                     6.25614e-05    -7.38597e-05         0.637021         -0.7462     -0.000147418    -4.25067e-05        0.0527222        0.163423
281732                  0.195014       0.0630243       -1.398e-05    -7.17517e-05          0.40867       -0.885723       0.00015106     6.98818e-05
                     9.07744e-06     2.15407e-05         0.172609       0.0263975      0.000131236     0.000223035         0.636581       -0.746271
                        0.408749       -0.885675      0.000121823     5.32166e-05         0.173131        0.104849     -9.81375e-05      7.2481e-05
                     6.38994e-05    -7.22892e-05         0.636802       -0.746386     -0.000146749    -4.49089e-05        0.0528274        0.163394
281734                  0.195026       0.0630323      -1.4169e-05    -7.17217e-05          0.40841       -0.885844       0.00015092     6.97583e-05
                     8.02124e-06     2.01762e-05         0.172611       0.0264066      0.000131342     0.000227343         0.636363       -0.746457
                        0.408491       -0.885787      0.000121903      5.3227e-05         0.173205        0.104753     -9.80359e-05      7.2278e-05
                     6.51723e-05    -7.07053e-05         0.636583       -0.746572     -0.000145817    -4.73479e-05        0.0529325        0.163364
281736                  0.195039       0.0630403     -1.43563e-05    -7.16912e-05          0.40815       -0.885965      0.000150781     6.96359e-05
                     7.01869e-06     1.88135e-05         0.172613       0.0264157      0.000132009     0.000232373         0.636144       -0.746643
                        0.408233       -0.885898      0.000121979     5.32358e-05         0.173279        0.104658     -9.79366e-05     7.20785e-05
                     6.63801e-05    -6.91104e-05         0.636363       -0.746757     -0.000144552    -4.98298e-05        0.0530376        0.163334
281738                  0.195051       0.0630482     -1.45418e-05    -7.16603e-05         0.407888       -0.886086      0.000150642     6.95145e-05
                     6.06908e-06     1.74543e-05         0.172615       0.0264248      0.000133479     0.000238099         0.635926       -0.746829
                        0.407975        -0.88601      0.000122051     5.32429e-05         0.173353        0.104562     -9.78394e-05     7.18824e-05
                     6.75228e-05    -6.75069e-05         0.636144       -0.746943     -0.000142849    -5.23695e-05        0.0531427        0.163305
281740                  0.195063       0.0630562     -1.47257e-05    -7.16289e-05         0.407625       -0.886207      0.000150505     6.93941e-05
                     5.17176e-06     1.61001e-05         0.172617       0.0264339      0.000136027     0.000244318         0.635707       -0.747015
                        0.407717       -0.886122       0.00012212     5.32485e-05         0.173427        0.104466     -9.77444e-05     7.16896e-05
                     6.86004e-05    -6.58973e-05         0.635924       -0.747129      -0.00014054    -5.50017e-05        0.0532477        0.163275
281742                  0.195075       0.0630641     -1.49078e-05     -7.1597e-05         0.407362       -0.886327      0.000150368     6.92749e-05
                     4.32608e-06     1.47526e-05          0.17262        0.026443      0.000139847     0.000250499         0.635489       -0.747201
                        0.407458       -0.886234      0.000122185     5.32527e-05         0.173501        0.104371     -9.76515e-05     7.15001e-05
                     6.96131e-05    -6.42839e-05         0.635705       -0.747314     -0.000137355    -5.78069e-05        0.0533527        0.163245
281744                  0.195088       0.0630721     -1.50884e-05    -7.15647e-05           0.4071       -0.886445      0.000150232     6.91568e-05
                     3.53142e-06     1.34133e-05         0.172622       0.0264521      0.000144748     0.000255589          0.63527       -0.747387
                          0.4072       -0.886345      0.000122247     5.32556e-05         0.173575        0.104275     -9.75604e-05     7.13137e-05
                     7.05608e-05    -6.26689e-05         0.635485         -0.7475     -0.000132809    -6.09848e-05        0.0534577        0.163215
281746                    0.1951       0.0630801     -1.52673e-05    -7.15321e-05         0.406843       -0.886559      0.000150096     6.90398e-05
                     2.78717e-06     1.20834e-05         0.172624       0.0264612      0.000149599     0.000257907         0.635051       -0.747573
                        0.406941       -0.886457      0.000122305     5.32572e-05         0.173649        0.104179     -9.74713e-05     7.11305e-05
                     7.14439e-05    -6.10545e-05         0.635266       -0.747685     -0.000125991    -6.50837e-05        0.0535627        0.163186
281748                  0.195112        0.063088     -1.54446e-05    -7.14991e-05         0.406595       -0.886669      0.000149962     6.89239e-05
                     2.09269e-06     1.07642e-05         0.172626       0.0264702      0.000151814     0.000255279         0.634833       -0.747758
                        0.406683       -0.886568      0.000122361     5.32576e-05         0.173723        0.104084     -9.73839e-05     7.09503e-05
                     7.22625e-05    -5.94426e-05         0.635046       -0.747871     -0.000115073    -7.18599e-05        0.0536677        0.163156
281750                  0.195124        0.063096     -1.56203e-05    -7.14657e-05         0.406359       -0.886772      0.000149828     6.88091e-05
                     1.44729e-06     9.45692e-06         0.172628       0.0264793      0.000147996     0.000245086         0.634614       -0.747944
                        0.406424        -0.88668      0.000122413     5.32568e-05         0.173797        0.103988     -9.72983e-05     7.07731e-05
                     7.30171e-05    -5.78349e-05         0.634826       -0.748056     -9.70311e-05    -8.82054e-05        0.0537726        0.163125
281752                  0.195136       0.0631039     -1.57944e-05     -7.1432e-05         0.406135       -0.886867      0.000149695     6.86955e-05
                     8.50237e-07     8.16257e-06         0.172631       0.0264884       0.00013766     0.000223964         0.634395        -0.74813
                        0.406165       -0.886791      0.000122461      5.3255e-05         0.173871        0.103893     -9.72143e-05     7.05989e-05
                     7.37082e-05     -5.6233e-05         0.634606       -0.748241     -8.33995e-05    -0.000141126        0.0538775        0.163095
281754                  0.195148       0.0631119      -1.5967e-05     -7.1398e-05         0.405913       -0.886954      0.000149563      6.8583e-05
                     3.00728e-07     6.88212e-06         0.172633       0.0264974      0.000128864     0.000191294         0.634176       -0.748315
                        0.405907       -0.886902      0.000122507     5.32521e-05         0.173945        0.103797     -9.71319e-05     7.04275e-05
                     7.43364e-05    -5.46384e-05         0.634387       -0.748427      -0.00016229    -0.000185266        0.0539824        0.163065
281756                  0.195161       0.0631198     -1.61381e-05    -7.13637e-05         0.405683       -0.887039      0.000149432     6.84716e-05
                    -2.02118e-07     5.61647e-06         0.172635       0.0265065      0.000131566     0.000157971         0.633957         -0.7485
                        0.405648       -0.887014       0.00012255     5.32482e-05         0.174019        0.103702      -9.7051e-05     7.02589e-05
                     7.49027e-05    -5.30522e-05         0.634167       -0.748612     -0.000196875    -0.000136391        0.0540872        0.163035
281758                  0.195173       0.0631278     -1.63076e-05     -7.1329e-05         0.405443        -0.88713      0.000149302     6.83613e-05
                    -6.59255e-07     4.36643e-06         0.172637       0.0265155      0.000141619     0.000136633         0.633738       -0.748686
                        0.405389       -0.887125       0.00012259     5.32435e-05         0.174092        0.103607     -9.69716e-05     7.00931e-05
                     7.54082e-05    -5.14755e-05         0.633947       -0.748797     -0.000190808    -0.000113062         0.054192        0.163005
281760                  0.195185       0.0631357     -1.64755e-05     -7.1294e-05         0.405196       -0.887229      0.000149172     6.82522e-05
                    -1.07171e-06     3.13279e-06          0.17264       0.0265246      0.000150306     0.000126887         0.633519       -0.748871
                         0.40513       -0.887236      0.000122627     5.32378e-05         0.174165        0.103512     -9.68935e-05       6.993e-05
                     7.58543e-05    -4.99092e-05         0.633727       -0.748982     -0.000183309    -0.000104764        0.0542969        0.162974
281762                  0.195197       0.0631436      -1.6642e-05    -7.12583e-05         0.404944       -0.887335      0.000149043     6.81441e-05
                    -1.44059e-06     1.91626e-06         0.172642       0.0265336      0.000155201     0.000123367           0.6333       -0.749056
                         0.40487       -0.887347      0.000122661     5.32314e-05         0.174236        0.103416     -9.68168e-05     6.97695e-05
