! TOUCHSTONE file generated by CST MICROWAVE STUDIO
! Date and time: Wed Oct 15 17:28:45 2025
! Project name: Teste_Macro_Metasurface_Nanopilar.cst
! Parameters = {H=600; L_x=85; L_y=140; Lambda=1064; Max_L=200; Min_L=70; PathPara=1; Phi=0; Step_L=10; Theta=0; p=520; phaseX=180; phaseY=0}
! Header version: 2018
! Port assignment regex: !\s*Touchstone port\s*([0-9]+)\s*=\s*(CST MWS port|CST DS port)\s*([0-9]+|Zmin|Zmax)\s*\(\"(.*)\"\)(\s*mode\s*([0-9]+))?.*
! Touchstone port assignment:
! Touchstone port 1 = CST MWS port Zmax ("") mode 1
! Touchstone port 2 = CST MWS port Zmax ("") mode 2
! Touchstone port 3 = CST MWS port Zmin ("") mode 1
! Touchstone port 4 = CST MWS port Zmin ("") mode 2
! S-Parameters are not renormalized. Each port impedance will be approximated by the real part at minimum frequency. The values are described via the [Reference] keyword.
! Default impedance is overridden by [Reference]
[Version] 2.0
# GHz S RI R 376.73
[Number of Ports] 4
[Reference]
376.73 376.73 259.888 259.888 
[Number of Frequencies] 51
[Network Data]
281700                0.00112532       -0.108963     -0.000279691      0.00059958      -0.00516791        0.984699     -0.000134896     7.43957e-06
                    -0.000240697     0.000370086        -0.022974      -0.0437007      0.000155019     4.72559e-06        -0.380846       -0.921759
                     -0.00510022        0.984391      0.000209466     -2.3212e-06      -0.00287941        0.109709      0.000467093     0.000287104
                     -0.00020016     9.78407e-05        -0.381587       -0.921797      0.000409038      0.00034144        0.0144544       0.0475971
281702                0.00109114       -0.108934     -0.000279481     0.000599716      -0.00476815        0.984705     -0.000134877     7.47651e-06
                    -0.000240574      0.00037018       -0.0229832      -0.0436902      0.000155016     4.62779e-06        -0.381086        -0.92166
                     -0.00470036        0.984396      0.000209506    -2.41046e-06      -0.00282458         0.10968      0.000467193     0.000286931
                    -0.000200155     9.79002e-05        -0.381827       -0.921698       0.00040918     0.000341348        0.0144652       0.0475887
281704                0.00105697       -0.108904     -0.000279271     0.000599851      -0.00436839         0.98471     -0.000134857     7.51344e-06
                     -0.00024045     0.000370274       -0.0229925      -0.0436798      0.000155013        4.53e-06        -0.381325       -0.921561
                     -0.00430049        0.984401      0.000209545    -2.49974e-06      -0.00276979        0.109652      0.000467294     0.000286758
                    -0.000200151     9.79598e-05        -0.382067       -0.921599      0.000409322     0.000341257         0.014476       0.0475803
281706                0.00102281       -0.108874     -0.000279061     0.000599987      -0.00396862        0.984715     -0.000134837     7.55034e-06
                    -0.000240327     0.000370369       -0.0230017      -0.0436693       0.00015501     4.43222e-06        -0.381565       -0.921462
                     -0.00390062        0.984406      0.000209585    -2.58904e-06      -0.00271503        0.109623      0.000467395     0.000286584
                    -0.000200146     9.80193e-05        -0.382307         -0.9215      0.000409464     0.000341165        0.0144868       0.0475719
281708               0.000988667       -0.108844     -0.000278851     0.000600122      -0.00356886         0.98472     -0.000134817     7.58721e-06
                    -0.000240203     0.000370463       -0.0230109      -0.0436588      0.000155006     4.33444e-06        -0.381805       -0.921363
                     -0.00350074        0.984411      0.000209625    -2.67836e-06      -0.00266032        0.109595      0.000467495     0.000286411
                    -0.000200142     9.80788e-05        -0.382547       -0.921401      0.000409607     0.000341073        0.0144976       0.0475635
281710                0.00095453       -0.108814     -0.000278641     0.000600257      -0.00316909        0.984724     -0.000134797     7.62406e-06
                     -0.00024008     0.000370557       -0.0230201      -0.0436484      0.000155003     4.23666e-06        -0.382044       -0.921264
                     -0.00310087        0.984415      0.000209665     -2.7677e-06      -0.00260564        0.109567      0.000467595     0.000286238
                    -0.000200137     9.81383e-05        -0.382787       -0.921302      0.000409749     0.000340982        0.0145083       0.0475551
281712               0.000920404       -0.108784     -0.000278431     0.000600393      -0.00276932        0.984729     -0.000134777     7.66089e-06
                    -0.000239956     0.000370651       -0.0230293      -0.0436379      0.000154999      4.1389e-06        -0.382284       -0.921165
                     -0.00270099         0.98442      0.000209704    -2.85705e-06      -0.00255099        0.109538      0.000467696     0.000286064
                    -0.000200132     9.81978e-05        -0.383027       -0.921202      0.000409891      0.00034089        0.0145191       0.0475468
281714               0.000886288       -0.108754     -0.000278221     0.000600528      -0.00236955        0.984733     -0.000134757     7.69769e-06
                    -0.000239832     0.000370746       -0.0230386      -0.0436274      0.000154995     4.04114e-06        -0.382524       -0.921065
                     -0.00230111        0.984424      0.000209744    -2.94643e-06      -0.00249639         0.10951      0.000467796      0.00028589
                    -0.000200127     9.82573e-05        -0.383267       -0.921103      0.000410034     0.000340797        0.0145298       0.0475384
281716               0.000852182       -0.108723     -0.000278011     0.000600662      -0.00196977        0.984738     -0.000134737     7.73447e-06
                    -0.000239708      0.00037084       -0.0230478       -0.043617      0.000154991     3.94338e-06        -0.382763       -0.920966
                     -0.00190123        0.984428      0.000209783    -3.03582e-06      -0.00244182        0.109481      0.000467896     0.000285717
                    -0.000200122     9.83168e-05        -0.383507       -0.921003      0.000410176     0.000340705        0.0145406         0.04753
281718               0.000818087       -0.108693     -0.000277801     0.000600797         -0.00157        0.984742     -0.000134717     7.77122e-06
                    -0.000239584     0.000370934        -0.023057      -0.0436065      0.000154987     3.84564e-06        -0.383003       -0.920867
                     -0.00150135        0.984432      0.000209823    -3.12523e-06      -0.00238729        0.109452      0.000467996     0.000285543
                    -0.000200117     9.83763e-05        -0.383747       -0.920904      0.000410319     0.000340613        0.0145513       0.0475216
281720               0.000784003       -0.108663      -0.00027759     0.000600932      -0.00117022        0.984745     -0.000134696     7.80795e-06
                    -0.000239459     0.000371028       -0.0230662       -0.043596      0.000154982     3.74791e-06        -0.383242       -0.920767
                     -0.00110147        0.984435      0.000209862    -3.21467e-06       -0.0023328        0.109424      0.000468096     0.000285369
                    -0.000200113     9.84358e-05        -0.383987       -0.920804      0.000410461      0.00034052        0.0145621       0.0475132
281722                0.00074993       -0.108633      -0.00027738     0.000601066     -0.000770441        0.984749     -0.000134676     7.84465e-06
                    -0.000239333     0.000371123       -0.0230754      -0.0435855      0.000154978     3.65018e-06        -0.383482       -0.920667
                    -0.000701587        0.984439      0.000209902    -3.30412e-06      -0.00227835        0.109395      0.000468196     0.000285195
                    -0.000200108     9.84954e-05        -0.384227       -0.920704      0.000410604     0.000340428        0.0145728       0.0475048
281724               0.000715869       -0.108603      -0.00027717       0.0006012     -0.000370661        0.984753     -0.000134656     7.88133e-06
                    -0.000239204     0.000371217       -0.0230846      -0.0435751      0.000154973     3.55247e-06        -0.383721       -0.920568
                    -0.000301707        0.984442      0.000209941    -3.39359e-06      -0.00222393        0.109366      0.000468296     0.000285021
                    -0.000200106      9.8555e-05        -0.384467       -0.920605      0.000410747     0.000340335        0.0145836       0.0474964
281726               0.000681823       -0.108573      -0.00027696     0.000601334      2.91206e-05        0.984756     -0.000134636     7.91798e-06
                    -0.000239066     0.000371313       -0.0230938      -0.0435646      0.000154968     3.45476e-06        -0.383961       -0.920468
                     9.81616e-05        0.984445      0.000209981    -3.48308e-06      -0.00216955        0.109338      0.000468396     0.000284847
                    -0.000200108     9.86148e-05        -0.384707       -0.920505      0.000410889     0.000340242        0.0145943        0.047488
281728                0.00064783       -0.108543     -0.000276749     0.000601468      0.000428903        0.984759     -0.000134616     7.95461e-06
                    -0.000238871     0.000371408        -0.023103      -0.0435541      0.000154963     3.35707e-06          -0.3842       -0.920368
                     0.000497932        0.984448       0.00021002    -3.57259e-06      -0.00211521        0.109309      0.000468496     0.000284673
                    -0.000200161     9.86781e-05        -0.384947       -0.920405      0.000411032     0.000340149         0.014605       0.0474797
281730                0.00061369       -0.108513     -0.000276539     0.000601602      0.000828687        0.984762     -0.000134595     7.99122e-06
                    -0.000238967     0.000371443       -0.0231123      -0.0435436      0.000154957     3.25939e-06         -0.38444       -0.920269
                     0.000898132        0.984452      0.000210059    -3.66212e-06      -0.00206091         0.10928      0.000468595     0.000284499
                    -0.000200036     9.87319e-05        -0.385187       -0.920305      0.000411175     0.000340056        0.0146157       0.0474713
281732                0.00057969       -0.108483     -0.000276329     0.000601736       0.00122847        0.984765     -0.000134575     8.02781e-06
                    -0.000238774     0.000371574       -0.0231215      -0.0435331      0.000154952     3.16173e-06        -0.384679       -0.920169
                      0.00129795        0.984454      0.000210099    -3.75167e-06      -0.00200664        0.109252      0.000468695     0.000284325
                    -0.000200053     9.87918e-05        -0.385427       -0.920205      0.000411318     0.000339963        0.0146265       0.0474629
281734               0.000545684       -0.108453     -0.000276118     0.000601869       0.00162826        0.984768     -0.000134554     8.06438e-06
                    -0.000238637     0.000371673       -0.0231307      -0.0435227      0.000154946     3.06408e-06        -0.384918       -0.920069
                      0.00169782        0.984457      0.000210138    -3.84124e-06      -0.00195241        0.109223      0.000468794     0.000284152
                    -0.000200052     9.88514e-05        -0.385666       -0.920105      0.000411461     0.000339869        0.0146372       0.0474545
281736               0.000511684       -0.108422     -0.000275908     0.000602002       0.00202805        0.984771     -0.000134534     8.10097e-06
                    -0.000238508     0.000371768       -0.0231399      -0.0435122       0.00015494     2.96644e-06        -0.385158       -0.919969
                      0.00209771        0.984459      0.000210177    -3.93082e-06      -0.00189822        0.109194      0.000468892     0.000283979
                    -0.000200048     9.89109e-05        -0.385906       -0.920005      0.000411604     0.000339776        0.0146479       0.0474461
281738               0.000477694       -0.108392     -0.000275697     0.000602136       0.00242783        0.984773     -0.000134513      8.1376e-06
                    -0.000238383     0.000371862       -0.0231491      -0.0435017      0.000154934     2.86881e-06        -0.385397       -0.919869
                      0.00249761        0.984461      0.000210216    -4.02043e-06      -0.00184407        0.109165      0.000468989     0.000283807
                    -0.000200042     9.89704e-05        -0.386146       -0.919904      0.000411747     0.000339682        0.0146586       0.0474377
281740               0.000443714       -0.108362     -0.000275487     0.000602269       0.00282762        0.984775     -0.000134492     8.17441e-06
                    -0.000238258     0.000371956       -0.0231583      -0.0434912      0.000154928     2.77121e-06        -0.385637       -0.919767
                      0.00289751        0.984463      0.000210255    -4.11006e-06      -0.00178996        0.109136      0.000469078     0.000283638
                    -0.000200036     9.90299e-05        -0.386386       -0.919804       0.00041189     0.000339588        0.0146692       0.0474293
281742               0.000409744       -0.108332     -0.000275276     0.000602402       0.00322741        0.984777      -0.00013447     8.21175e-06
                    -0.000238135     0.000372049       -0.0231675      -0.0434807      0.000154922     2.67361e-06        -0.385876       -0.919668
                      0.00329741        0.984465      0.000210294     -4.1997e-06      -0.00173588        0.109107      0.000469149     0.000283434
                    -0.000200029     9.90893e-05        -0.386625       -0.919704      0.000412033     0.000339494          0.01468       0.0474209
281744               0.000375785       -0.108302     -0.000275065     0.000602534        0.0036272        0.984779     -0.000134447     8.25104e-06
                    -0.000238012     0.000372142       -0.0231767      -0.0434702      0.000154915     2.57604e-06        -0.386115       -0.919568
                      0.00369731        0.984467      0.000210333    -4.28937e-06      -0.00168184        0.109078      0.000469284     0.000283247
                    -0.000200022     9.91487e-05        -0.386865       -0.919603      0.000412177       0.0003394        0.0146907       0.0474126
281746               0.000341835       -0.108272     -0.000274855     0.000602667         0.004027        0.984781     -0.000134428     8.29607e-06
                    -0.000237889     0.000372235       -0.0231859      -0.0434597      0.000154908     2.47848e-06        -0.386354       -0.919467
                      0.00409721        0.984469      0.000210372    -4.37906e-06      -0.00162784        0.109049      0.000469391      0.00028308
                    -0.000200015     9.92081e-05        -0.387105       -0.919503       0.00041232     0.000339306        0.0147013       0.0474042
281748               0.000307896       -0.108241     -0.000274644     0.000602799       0.00442679        0.984783      -0.00013442     8.33355e-06
                    -0.000237767     0.000372328        -0.023195      -0.0434492      0.000154901     2.38094e-06        -0.386593       -0.919367
                      0.00449711         0.98447      0.000210411    -4.46876e-06      -0.00157388         0.10902      0.000469491     0.000282908
                    -0.000200008     9.92676e-05        -0.387344       -0.919402      0.000412463     0.000339212         0.014712       0.0473958
281750               0.000273968       -0.108211     -0.000274433     0.000602932       0.00482658        0.984784     -0.000134402     8.36275e-06
                    -0.000237645     0.000372421       -0.0232042      -0.0434387      0.000154894     2.28341e-06        -0.386832       -0.919267
                      0.00489702        0.984471       0.00021045    -4.55849e-06      -0.00151995        0.108991      0.000469591     0.000282734
                         -0.0002      9.9327e-05        -0.387584       -0.919302      0.000412607     0.000339117        0.0147227       0.0473874
281752               0.000240049       -0.108181     -0.000274223     0.000603064       0.00522638        0.984785     -0.000134381     8.39584e-06
                    -0.000237523     0.000372514       -0.0232134      -0.0434282      0.000154887     2.18591e-06        -0.387071       -0.919166
                      0.00529692        0.984472      0.000210489    -4.64823e-06      -0.00146606        0.108962      0.000469691      0.00028256
                    -0.000199992     9.93864e-05        -0.387824       -0.919201       0.00041275     0.000339023        0.0147334        0.047379
281754               0.000206142       -0.108151     -0.000274012     0.000603196       0.00562617        0.984786     -0.000134359     8.43065e-06
                    -0.000237401     0.000372606       -0.0232226      -0.0434178      0.000154879     2.08842e-06        -0.387311       -0.919066
                      0.00569683        0.984473      0.000210528      -4.738e-06      -0.00141221        0.108933       0.00046979     0.000282384
                    -0.000199984     9.94458e-05        -0.388063       -0.919101      0.000412894     0.000338928         0.014744       0.0473706
281756               0.000172244        -0.10812     -0.000273801     0.000603328       0.00602596        0.984787     -0.000134338     8.46608e-06
                     -0.00023728     0.000372699       -0.0232318      -0.0434073      0.000154872     1.99095e-06         -0.38755       -0.918965
                      0.00609674        0.984474      0.000210567    -4.82778e-06       -0.0013584        0.108904      0.000469889     0.000282208
                    -0.000199975     9.95051e-05        -0.388303          -0.919      0.000413037     0.000338833        0.0147547       0.0473622
281758               0.000138358        -0.10809      -0.00027359     0.000603459       0.00642576        0.984788     -0.000134317     8.50176e-06
                    -0.000237158     0.000372791        -0.023241      -0.0433968      0.000154864     1.89349e-06        -0.387789       -0.918864
                      0.00649665        0.984475      0.000210606    -4.91759e-06      -0.00130463        0.108875      0.000469988     0.000282032
                    -0.000199967     9.95645e-05        -0.388542       -0.918899      0.000413181     0.000338738        0.0147654       0.0473538
281760               0.000104481        -0.10806     -0.000273379     0.000603591       0.00682555        0.984789     -0.000134297     8.53752e-06
                    -0.000237037     0.000372883       -0.0232502      -0.0433863      0.000154856     1.79605e-06        -0.388028       -0.918763
                      0.00689655        0.984475      0.000210644    -5.00741e-06      -0.00125089        0.108846      0.000470087     0.000281856
                    -0.000199958     9.96239e-05        -0.388782       -0.918798      0.000413325     0.000338643         0.014776       0.0473454
281762               7.06151e-05        -0.10803     -0.000273169     0.000603722       0.00722535        0.984789     -0.000134276     8.57331e-06
                    -0.000236916     0.000372976       -0.0232594      -0.0433758      0.000154847     1.69861e-06        -0.388267       -0.918663
                      0.00729646        0.984475      0.000210683    -5.09726e-06      -0.00119719        0.108817      0.000470186     0.000281679
