! TOUCHSTONE file generated by CST MICROWAVE STUDIO
! Date and time: Wed Oct 15 17:34:00 2025
! Project name: Teste_Macro_Metasurface_Nanopilar.cst
! Parameters = {H=600; L_x=175; L_y=185; Lambda=1064; Max_L=200; Min_L=70; PathPara=1; Phi=0; Step_L=10; Theta=0; p=520; phaseX=180; phaseY=0}
! Header version: 2018
! Port assignment regex: !\s*Touchstone port\s*([0-9]+)\s*=\s*(CST MWS port|CST DS port)\s*([0-9]+|Zmin|Zmax)\s*\(\"(.*)\"\)(\s*mode\s*([0-9]+))?.*
! Touchstone port assignment:
! Touchstone port 1 = CST MWS port Zmax ("") mode 1
! Touchstone port 2 = CST MWS port Zmax ("") mode 2
! Touchstone port 3 = CST MWS port Zmin ("") mode 1
! Touchstone port 4 = CST MWS port Zmin ("") mode 2
! S-Parameters are not renormalized. Each port impedance will be approximated by the real part at minimum frequency. The values are described via the [Reference] keyword.
! Default impedance is overridden by [Reference]
[Version] 2.0
# GHz S RI R 376.73
[Number of Ports] 4
[Reference]
376.73 376.73 259.888 259.888 
[Number of Frequencies] 51
[Network Data]
281700                  0.199554       0.0691641       0.00010823     0.000161656         0.128789       -0.964295      0.000704147     0.000419552
                    -2.23722e-05     0.000317606         0.155621        0.764815     -0.000455301     0.000292981         0.328988       -0.263142
                        0.128822       -0.964682      0.000156342     0.000380971         0.208904      -0.0126124     -0.000411364     0.000850078
                     0.000558188     0.000669877         0.328439        -0.26274      -0.00102066     0.000667117         0.396742        0.678798
281702                  0.199541       0.0691527      0.000110558     0.000160568         0.128488       -0.964336      0.000705807     0.000416646
                    -1.53901e-05     0.000315649         0.157619        0.763786     -0.000449805     0.000298751         0.330567       -0.264575
                        0.128518       -0.964723      0.000156061     0.000380328          0.20888      -0.0127345     -0.000412796     0.000849144
                     0.000563929     0.000666339         0.330025       -0.264125      -0.00101406     0.000672919         0.398432        0.677054
281704                  0.199527       0.0691413      0.000112876     0.000159416         0.128186       -0.964376      0.000707396      0.00041379
                    -8.60538e-06     0.000313422         0.159604         0.76275     -0.000444105     0.000304344         0.332132       -0.266009
                        0.128213       -0.964765      0.000155748      0.00037965         0.208856      -0.0128565     -0.000414184     0.000848157
                     0.000569632     0.000662694           0.3316       -0.265516       -0.0010074     0.000678619         0.400108        0.675309
281706                  0.199514       0.0691299      0.000115181     0.000158198         0.127885       -0.964417      0.000708913     0.000410984
                    -2.03064e-06     0.000310945         0.161574        0.761706     -0.000438203     0.000309754         0.333683       -0.267445
                        0.127909       -0.964805      0.000155397     0.000378936         0.208833      -0.0129785     -0.000415522     0.000847116
                     0.000575295      0.00065894         0.333164       -0.266914       -0.0010007     0.000684218         0.401769        0.673562
281708                    0.1995       0.0691185      0.000117472     0.000156916         0.127583       -0.964457      0.000710361     0.000408229
                     4.32324e-06     0.000308234         0.163531        0.760657     -0.000432105     0.000314975          0.33522       -0.268881
                        0.127604       -0.964845      0.000154999     0.000378183         0.208809      -0.0131004     -0.000416806     0.000846022
                     0.000580917     0.000655075         0.334716       -0.268318     -0.000993954     0.000689718         0.403416        0.671814
281710                  0.199487       0.0691071      0.000119747     0.000155568         0.127281       -0.964498      0.000711738     0.000405524
                     1.04472e-05     0.000305311         0.165474        0.759601     -0.000425815     0.000320002         0.336742       -0.270318
                        0.127299       -0.964884      0.000154546     0.000377389         0.208785      -0.0132223     -0.000418032     0.000844875
                     0.000586498     0.000651097         0.336255       -0.269729     -0.000987163     0.000695121         0.405048        0.670065
281712                  0.199473       0.0690957      0.000122006     0.000154155         0.126979       -0.964538      0.000713048     0.000402872
                      1.6334e-05     0.000302193         0.167404        0.758539     -0.000419336     0.000324832         0.338251       -0.271756
                        0.126995       -0.964922      0.000154025     0.000376553         0.208761      -0.0133442     -0.000419193     0.000843674
                     0.000592037     0.000647002         0.337783       -0.271147     -0.000980333     0.000700429         0.406666        0.668314
281714                   0.19946       0.0690843      0.000124246     0.000152676         0.126678       -0.964579       0.00071429     0.000400272
                     2.19778e-05       0.0002989         0.169321        0.757471      -0.00041267     0.000329462         0.339746       -0.273196
                        0.126692       -0.964959      0.000153423     0.000375676         0.208736       -0.013466     -0.000420285     0.000842421
                     0.000597533     0.000642786         0.339299        -0.27257     -0.000973466     0.000705647         0.408269        0.666563
281716                  0.199446       0.0690729      0.000126466     0.000151131         0.126376       -0.964619      0.000715465     0.000397724
                     2.73741e-05     0.000295451         0.171224        0.756397     -0.000405823     0.000333888         0.341227       -0.274636
                        0.126389       -0.964996      0.000152724     0.000374759         0.208712      -0.0135878     -0.000421302     0.000841116
                     0.000602988     0.000638443         0.340803       -0.273999     -0.000966568     0.000710778         0.409858         0.66481
281718                  0.199433       0.0690614      0.000128665      0.00014952         0.126074       -0.964659      0.000716575      0.00039523
                       3.252e-05     0.000291863         0.173113        0.755317     -0.000398795     0.000338112         0.342694       -0.276078
                        0.126088       -0.965033      0.000151906     0.000373807         0.208688      -0.0137096     -0.000422238     0.000839761
                     0.000608402     0.000633964         0.342294       -0.275434     -0.000959641      0.00071583         0.411433        0.663057
281720                  0.199419         0.06905      0.000130843     0.000147843         0.125772         -0.9647      0.000717619     0.000392789
                     3.74134e-05     0.000288153          0.17499        0.754232     -0.000391589     0.000342132         0.344148        -0.27752
                        0.125787       -0.965071      0.000150949      0.00037283         0.208663      -0.0138313     -0.000423086     0.000838357
                     0.000613778     0.000629337         0.343773       -0.276874      -0.00095269     0.000720812         0.412994        0.661302
281722                  0.199406       0.0690386      0.000132999     0.000146098          0.12547        -0.96474        0.0007186     0.000390403
                     4.20532e-05     0.000284338         0.176852        0.753142     -0.000384206     0.000345951         0.345589       -0.278964
                        0.125487       -0.965109      0.000149825     0.000371844         0.208638       -0.013953     -0.000423841     0.000836907
                     0.000619118     0.000624545         0.345239       -0.278319     -0.000945721     0.000725735          0.41454        0.659547
281724                  0.199392       0.0690272      0.000135132     0.000144287         0.125168        -0.96478      0.000719518      0.00038807
                     4.64387e-05     0.000280435         0.178702        0.752046     -0.000376649     0.000349574         0.347017        -0.28041
                        0.125187       -0.965147      0.000148507     0.000370874         0.208613      -0.0140746     -0.000424495     0.000835413
                     0.000624427     0.000619561         0.346693       -0.279769     -0.000938739     0.000730617         0.416072        0.657791
281726                  0.199379       0.0690158      0.000137243     0.000142406         0.124866        -0.96482      0.000720373     0.000385792
                     5.05698e-05     0.000276458         0.180539        0.750945     -0.000368916     0.000353006         0.348431       -0.281856
                        0.124886       -0.965186      0.000146967     0.000369957         0.208589      -0.0141962      -0.00042504      0.00083388
                     0.000629707     0.000614347         0.348133       -0.281223     -0.000931752     0.000735482         0.417591        0.656035
281728                  0.199365       0.0690044      0.000139332     0.000140455         0.124564        -0.96486      0.000721166     0.000383569
                     5.44463e-05     0.000272422         0.182362         0.74984     -0.000361008     0.000356255         0.349832       -0.283304
                        0.124586       -0.965226      0.000145181     0.000369143         0.208563      -0.0143178     -0.000425471      0.00083231
                     0.000634962     0.000608843         0.349561       -0.282683     -0.000924769     0.000740369         0.419095        0.654278
281730                  0.199352        0.068993      0.000141401     0.000138432         0.124262       -0.964899      0.000721899     0.000381401
                     5.80677e-05     0.000268341         0.184173        0.748729     -0.000352926     0.000359332         0.351221       -0.284753
                        0.124285       -0.965265      0.000143136     0.000368501         0.208538      -0.0144393      -0.00042578      0.00083071
                     0.000640183     0.000602951         0.350975       -0.284146     -0.000917799      0.00074534         0.420585         0.65252
281732                  0.199338       0.0689816      0.000143451     0.000136333          0.12396       -0.964939      0.000722571     0.000379287
                     6.14326e-05     0.000264226          0.18597        0.747614     -0.000344668     0.000362252         0.352596       -0.286204
                        0.123984       -0.965305      0.000140837     0.000368117         0.208513      -0.0145608     -0.000425959     0.000829085
                     0.000645337     0.000596515         0.352377       -0.285614     -0.000910854     0.000750499         0.422062        0.650762
281734                  0.199324       0.0689701      0.000145484     0.000134154         0.123658       -0.964979      0.000723185     0.000377229
                     6.45381e-05     0.000260091         0.187755        0.746494     -0.000336235     0.000365031         0.353959       -0.287656
                        0.123682       -0.965344      0.000138322     0.000368087         0.208488      -0.0146823        -0.000426     0.000827442
                     0.000650311     0.000589265         0.353765       -0.287085     -0.000903938     0.000756042         0.423525        0.649004
281736                  0.199311       0.0689587      0.000147505     0.000131888         0.123356       -0.965019      0.000723739     0.000375226
                     6.73788e-05     0.000255948         0.189526         0.74537     -0.000327628     0.000367691         0.355309       -0.289109
                        0.123381       -0.965383      0.000135668     0.000368506         0.208462      -0.0148038     -0.000425898     0.000825788
                     0.000654755     0.000580762         0.355139        -0.28856     -0.000897012     0.000762372         0.424974        0.647245
281738                  0.199297       0.0689473      0.000149516     0.000129526         0.123054       -0.965058      0.000724236     0.000373278
                     6.99458e-05     0.000251808         0.191285        0.744242      -0.00031885     0.000370258         0.356646       -0.290564
                        0.123079       -0.965422      0.000132999     0.000369446         0.208437      -0.0149252     -0.000425644     0.000824132
                     0.000657625     0.000570431           0.3565       -0.290038     -0.000889809     0.000770453         0.426409        0.645487
281740                  0.199284       0.0689359      0.000151525     0.000127055         0.122751       -0.965098      0.000724676     0.000371386
                     7.22242e-05     0.000247684         0.193031         0.74311     -0.000309906     0.000372762         0.357972       -0.292021
                        0.122777       -0.965462      0.000130476     0.000370934         0.208411      -0.0150466     -0.000425232     0.000822484
                     0.000656196     0.000558569         0.357848        -0.29152     -0.000880547      0.00078295         0.427831        0.643727
281742                   0.19927       0.0689244      0.000153538     0.000124454         0.122449       -0.965137      0.000725059     0.000369549
                     7.41905e-05     0.000243589         0.194764        0.741974     -0.000300807     0.000375237         0.359285        -0.29348
                        0.122475         -0.9655      0.000128272     0.000372928         0.208385      -0.0151679     -0.000424656     0.000820853
                     0.000647347     0.000550594         0.359182       -0.293004      -0.00085407     0.000803182         0.429239        0.641968
281744                  0.199256        0.068913      0.000155563     0.000121695         0.122147       -0.965177      0.000725386     0.000367767
                     7.58073e-05      0.00023954         0.196484        0.740834     -0.000291567     0.000377723         0.360585        -0.29494
                        0.122173       -0.965539      0.000126539     0.000375312          0.20836      -0.0152893      -0.00042391     0.000819253
                     0.000639093     0.000554641         0.360502       -0.294491     -0.000815596     0.000767039         0.430633        0.640209
281746                  0.199242       0.0689016      0.000157608      0.00011873         0.121845       -0.965216      0.000725658     0.000366041
                      7.7014e-05     0.000235561         0.198192         0.73969     -0.000282209     0.000380261         0.361874       -0.296403
                         0.12187       -0.965578      0.000125368     0.000377918         0.208334      -0.0154106      -0.00042299     0.000817695
                     0.000641811     0.000561703         0.361808        -0.29598     -0.000833911     0.000755625         0.432015         0.63845
281748                  0.199229       0.0688901      0.000159676     0.000115485         0.121542       -0.965255      0.000725875      0.00036437
                     7.77104e-05     0.000231688         0.199887        0.738543     -0.000272767     0.000382896         0.363151       -0.297867
                        0.121568       -0.965616      0.000124774     0.000380561         0.208308      -0.0155319     -0.000421892     0.000816194
                     0.000649448      0.00056341           0.3631       -0.297472     -0.000836421     0.000761279         0.433383        0.636691
281750                  0.199215       0.0688787      0.000161753     0.000111836          0.12124       -0.965294      0.000726039     0.000362755
                     7.77233e-05     0.000227988         0.201569        0.737392     -0.000263284     0.000385673         0.364416       -0.299335
                        0.121265       -0.965654      0.000124702     0.000383075         0.208282      -0.0156532     -0.000420613     0.000814763
                     0.000656938     0.000561245         0.364378       -0.298965     -0.000833058     0.000766763         0.434737        0.634932
281752                  0.199201       0.0688673      0.000163773     0.000107572         0.120938       -0.965334       0.00072615     0.000361195
                     7.67338e-05       0.0002246         0.203239        0.736238     -0.000253819     0.000388633         0.365668       -0.300805
                        0.120963       -0.965692      0.000125047      0.00038534         0.208255      -0.0157744     -0.000419152     0.000813418
                     0.000663336      0.00055728         0.365642       -0.300461     -0.000827672     0.000771467         0.436078        0.633173
281754                  0.199187       0.0688558      0.000165503     0.000102334         0.120635       -0.965373      0.000726208     0.000359692
                     7.41006e-05     0.000221869         0.204896        0.735081     -0.000244443     0.000391807         0.366909       -0.302279
                         0.12066        -0.96573      0.000125689     0.000387294         0.208229      -0.0158957     -0.000417511     0.000812174
                     0.000668766     0.000552516         0.366892       -0.301958     -0.000821391     0.000775621         0.437407        0.631414
281756                  0.199173       0.0688443      0.000166196     9.56029e-05         0.120333       -0.965412      0.000726214     0.000358245
                     6.83737e-05     0.000220846         0.206541        0.733921     -0.000235241     0.000395215         0.368137       -0.303756
                        0.120357       -0.965768       0.00012651     0.000388916         0.208203      -0.0160169     -0.000415691     0.000811047
                     0.000673451     0.000547382         0.368126       -0.303456     -0.000814633       0.0007794         0.438721        0.629656
281758                  0.199159       0.0688329      0.000163727     8.73328e-05         0.120031       -0.965451       0.00072617     0.000356856
                     5.58794e-05     0.000225967         0.208172        0.732758      -0.00022631     0.000398857         0.369351       -0.305238
                        0.120054       -0.965805      0.000127411     0.000390222         0.208176      -0.0161382     -0.000413698     0.000810049
                     0.000677555     0.000542071         0.369346       -0.304956      -0.00080758     0.000782913         0.440023        0.627898
281760                  0.199146       0.0688214      0.000154935     8.14471e-05         0.119728        -0.96549      0.000726076     0.000355526
                     3.48613e-05      0.00026684          0.20979        0.731593     -0.000217752     0.000402707         0.370551       -0.306723
                        0.119751       -0.965842      0.000128317     0.000391246         0.208149      -0.0162594     -0.000411539     0.000809195
                     0.000681184     0.000536679         0.370551       -0.306456     -0.000800322     0.000786233         0.441312        0.626141
281762                  0.199132       0.0688099      0.000145428     8.58778e-05         0.119426       -0.965528      0.000725934     0.000354257
                     0.000152482     0.000303638         0.211394        0.730426      -0.00020967     0.000406715         0.371735       -0.308213
                        0.119449        -0.96588      0.000129172     0.000392028         0.208123      -0.0163807     -0.000409225     0.000808493
