! TOUCHSTONE file generated by CST MICROWAVE STUDIO
! Date and time: Wed Oct 15 17:32:00 2025
! Project name: Teste_Macro_Metasurface_Nanopilar.cst
! Parameters = {H=600; L_x=140; L_y=180; Lambda=1064; Max_L=200; Min_L=70; PathPara=1; Phi=0; Step_L=10; Theta=0; p=520; phaseX=180; phaseY=0}
! Header version: 2018
! Port assignment regex: !\s*Touchstone port\s*([0-9]+)\s*=\s*(CST MWS port|CST DS port)\s*([0-9]+|Zmin|Zmax)\s*\(\"(.*)\"\)(\s*mode\s*([0-9]+))?.*
! Touchstone port assignment:
! Touchstone port 1 = CST MWS port Zmax ("") mode 1
! Touchstone port 2 = CST MWS port Zmax ("") mode 2
! Touchstone port 3 = CST MWS port Zmin ("") mode 1
! Touchstone port 4 = CST MWS port Zmin ("") mode 2
! S-Parameters are not renormalized. Each port impedance will be approximated by the real part at minimum frequency. The values are described via the [Reference] keyword.
! Default impedance is overridden by [Reference]
[Version] 2.0
# GHz S RI R 376.73
[Number of Ports] 4
[Reference]
376.73 376.73 259.888 259.888 
[Number of Frequencies] 51
[Network Data]
281700                  0.171797       0.0131537      0.000609271     -0.00106136         0.564312       -0.802515      0.000107192     0.000993608
                     0.000580883     -0.00110138         0.296601       -0.186357      0.000526466     0.000861568         0.895867       -0.208547
                         0.56435       -0.803066      0.000559529     0.000944318        0.0697292        0.153229      -0.00161204    -0.000235383
                     0.000150311     0.000993829         0.895749       -0.209148      -0.00158377    -0.000318805        -0.327971      -0.0628817
281702                  0.171804       0.0131722      0.000608527     -0.00106099         0.564073       -0.802681      0.000107738     0.000992744
                     0.000580049     -0.00110103         0.296383       -0.186206      0.000526476     0.000860482         0.895861       -0.209102
                        0.564111       -0.803232      0.000559726     0.000943036        0.0698403        0.153188      -0.00161133    -0.000233909
                     0.000150784     0.000992914         0.895743       -0.209704       -0.0015829    -0.000317559        -0.327803      -0.0624072
281704                  0.171811       0.0131907      0.000607785     -0.00106061         0.563835       -0.802848      0.000108283     0.000991882
                     0.000579217     -0.00110068         0.296165       -0.186056      0.000526485     0.000859397         0.895855       -0.209657
                        0.563872       -0.803398      0.000559922     0.000941757        0.0699513        0.153147      -0.00161062    -0.000232437
                     0.000151254     0.000991999         0.895736       -0.210259      -0.00158204    -0.000316316        -0.327635      -0.0619336
281706                  0.171817       0.0132093      0.000607044     -0.00106023         0.563596       -0.803014      0.000108827      0.00099102
                     0.000578385     -0.00110034         0.295948       -0.185905      0.000526492     0.000858313         0.895848       -0.210211
                        0.563633       -0.803564      0.000560117      0.00094048        0.0700623        0.153106       -0.0016099    -0.000230967
                     0.000151722     0.000991084         0.895728       -0.210814      -0.00158118    -0.000315076        -0.327466      -0.0614607
281708                  0.171824       0.0132278      0.000606304     -0.00105986         0.563357       -0.803181      0.000109368     0.000990158
                     0.000577554     -0.00109999         0.295731       -0.185755      0.000526499      0.00085723          0.89584       -0.210765
                        0.563394        -0.80373       0.00056031     0.000939205        0.0701733        0.153065      -0.00160919    -0.000229501
                     0.000152188      0.00099017          0.89572       -0.211368      -0.00158031    -0.000313838        -0.327297      -0.0609887
281710                   0.17183       0.0132463      0.000605566     -0.00105948         0.563118       -0.803347      0.000109907     0.000989298
                     0.000576724     -0.00109965         0.295515       -0.185605      0.000526504     0.000856148         0.895832       -0.211318
                        0.563155       -0.803896      0.000560503     0.000937931        0.0702842        0.153024      -0.00160848    -0.000228038
                     0.000152652     0.000989256         0.895712       -0.211922      -0.00157945    -0.000312603        -0.327128      -0.0605174
281712                  0.171837       0.0132648      0.000604828     -0.00105911         0.562879       -0.803513      0.000110445     0.000988438
                     0.000575895      -0.0010993         0.295299       -0.185455      0.000526508     0.000855067         0.895824       -0.211871
                        0.562916       -0.804062      0.000560694      0.00093666        0.0703951        0.152982      -0.00160776    -0.000226577
                     0.000153113     0.000988343         0.895703       -0.212475      -0.00157859     -0.00031137        -0.326959      -0.0600469
281714                  0.171844       0.0132833      0.000604092     -0.00105873          0.56264       -0.803679      0.000110981     0.000987579
                     0.000575067     -0.00109896         0.295084       -0.185305      0.000526512     0.000853986         0.895815       -0.212424
                        0.562676       -0.804228      0.000560884      0.00093539         0.070506        0.152941      -0.00160705    -0.000225119
                     0.000153572     0.000987429         0.895693       -0.213029      -0.00157772     -0.00031014        -0.326789      -0.0595772
281716                   0.17185       0.0133018      0.000603357     -0.00105836         0.562401       -0.803845      0.000111515     0.000986721
                     0.000574239     -0.00109862         0.294869       -0.185155      0.000526514     0.000852906         0.895805       -0.212976
                        0.562437       -0.804394      0.000561073     0.000934122        0.0706169        0.152899      -0.00160633    -0.000223664
                     0.000154028     0.000986516         0.895683       -0.213581      -0.00157686    -0.000308913         -0.32662      -0.0591083
281718                  0.171857       0.0133203      0.000602623     -0.00105798         0.562162       -0.804011      0.000112048     0.000985864
                     0.000573412     -0.00109828         0.294655       -0.185005      0.000526516     0.000851827         0.895795       -0.213528
                        0.562197       -0.804559       0.00056126     0.000932856        0.0707277        0.152858      -0.00160562    -0.000222212
                     0.000154482     0.000985603         0.895672       -0.214133        -0.001576    -0.000307688        -0.326449      -0.0586402
281720                  0.171863       0.0133389       0.00060189     -0.00105761         0.561923       -0.804177      0.000112578     0.000985007
                     0.000572587     -0.00109794         0.294441       -0.184855      0.000526518     0.000850749         0.895785       -0.214079
                        0.561958       -0.804725      0.000561447     0.000931592        0.0708385        0.152816       -0.0016049    -0.000220762
                     0.000154933      0.00098469         0.895661       -0.214685      -0.00157513    -0.000306465        -0.326279      -0.0581729
281722                   0.17187       0.0133574      0.000601159     -0.00105724         0.561684       -0.804343      0.000113107     0.000984151
                     0.000571761      -0.0010976         0.294227       -0.184705      0.000526519     0.000849671         0.895774        -0.21463
                        0.561718        -0.80489      0.000561632      0.00093033        0.0709492        0.152775      -0.00160419    -0.000219316
                     0.000155382     0.000983777         0.895649       -0.215237      -0.00157427    -0.000305245        -0.326108      -0.0577063
281724                  0.171877       0.0133759      0.000600428     -0.00105687         0.561445       -0.804509      0.000113634     0.000983296
                     0.000570937     -0.00109727         0.294014       -0.184556      0.000526521     0.000848594         0.895762       -0.215181
                        0.561479       -0.805055      0.000561816     0.000929069          0.07106        0.152733      -0.00160347    -0.000217872
                     0.000155828     0.000982864         0.895637       -0.215788      -0.00157341    -0.000304027        -0.325937      -0.0572405
281726                  0.171883       0.0133944      0.000599699     -0.00105649         0.561206       -0.804674      0.000114159     0.000982442
                     0.000570113     -0.00109694         0.293801       -0.184406      0.000526522     0.000847517          0.89575       -0.215731
                        0.561239        -0.80522      0.000561998     0.000927811        0.0711707        0.152691      -0.00160275    -0.000216431
                     0.000156272     0.000981951         0.895624       -0.216338      -0.00157255    -0.000302812        -0.325766      -0.0567755
281728                   0.17189        0.013413      0.000598971     -0.00105612         0.560966        -0.80484      0.000114683     0.000981589
                      0.00056929      -0.0010966         0.293589       -0.184257      0.000526524     0.000846442         0.895737        -0.21628
                        0.560999       -0.805386       0.00056218     0.000926554        0.0712813        0.152649      -0.00160204    -0.000214993
                     0.000156714     0.000981038         0.895611       -0.216888      -0.00157168    -0.000301599        -0.325594      -0.0563113
281730                  0.171896       0.0134315      0.000598245     -0.00105575         0.560727       -0.805005      0.000115204     0.000980736
                     0.000568468     -0.00109627         0.293377       -0.184107      0.000526526     0.000845367         0.895724        -0.21683
                         0.56076       -0.805551       0.00056236     0.000925299         0.071392        0.152607      -0.00160132    -0.000213557
                     0.000157153     0.000980125         0.895597       -0.217438      -0.00157082    -0.000300388        -0.325422      -0.0558478
281732                  0.171903         0.01345      0.000597519     -0.00105538         0.560488       -0.805171      0.000115724     0.000979885
                     0.000567646     -0.00109594         0.293166       -0.183958      0.000526529     0.000844293         0.895711       -0.217379
                         0.56052       -0.805716      0.000562539     0.000924045        0.0715026        0.152565       -0.0016006    -0.000212125
                     0.000157589     0.000979213         0.895583       -0.217987      -0.00156996    -0.000299179         -0.32525      -0.0553852
281734                  0.171909       0.0134685      0.000596795       -0.001055         0.560248       -0.805336      0.000116242     0.000979034
                     0.000566825     -0.00109562         0.292955       -0.183809      0.000526533      0.00084322         0.895697       -0.217927
                         0.56028        -0.80588      0.000562716     0.000922793        0.0716131        0.152523      -0.00159988    -0.000210695
                     0.000158023     0.000978299         0.895568       -0.218536       -0.0015691    -0.000297972        -0.325077      -0.0549233
281736                  0.171916       0.0134869      0.000596072     -0.00105463         0.560009       -0.805501      0.000116758     0.000978184
                     0.000566004     -0.00109529         0.292745        -0.18366      0.000526538     0.000842149         0.895682       -0.218475
                         0.56004       -0.806045      0.000562893     0.000921543        0.0717237        0.152481      -0.00159917    -0.000209269
                     0.000158454     0.000977386         0.895552       -0.219085      -0.00156824    -0.000296767        -0.324905      -0.0544621
281738                  0.171922       0.0135053      0.000595351     -0.00105426         0.559769       -0.805667      0.000117272     0.000977335
                     0.000565184     -0.00109497         0.292535       -0.183511      0.000526545     0.000841079         0.895667       -0.219023
                          0.5598        -0.80621      0.000563068     0.000920295        0.0718342        0.152439      -0.00159845    -0.000207845
                     0.000158882     0.000976473         0.895537       -0.219633      -0.00156738    -0.000295564        -0.324732      -0.0540018
281740                  0.171929       0.0135235       0.00059463     -0.00105389          0.55953       -0.805832      0.000117784     0.000976487
                     0.000564365     -0.00109465         0.292325       -0.183362      0.000526553     0.000840011         0.895651        -0.21957
                         0.55956       -0.806375      0.000563241     0.000919049        0.0719447        0.152397      -0.00159773    -0.000206424
                     0.000159308      0.00097556          0.89552        -0.22018      -0.00156652    -0.000294363        -0.324558      -0.0535422
281742                  0.171935       0.0135415      0.000593911     -0.00105352          0.55929       -0.805997      0.000118294      0.00097564
                     0.000563546     -0.00109433         0.292116       -0.183213      0.000526562     0.000838946         0.895635       -0.220116
                         0.55932        -0.80654      0.000563413     0.000917804        0.0720551        0.152354      -0.00159701    -0.000205007
                     0.000159731     0.000974646         0.895503       -0.220728      -0.00156566    -0.000293163        -0.324385      -0.0530834
281744                  0.171942       0.0135594      0.000593193     -0.00105315          0.55905       -0.806162      0.000118802     0.000974794
                     0.000562728     -0.00109402         0.291907       -0.183064      0.000526573     0.000837884         0.895618       -0.220663
                         0.55908       -0.806704      0.000563584     0.000916561        0.0721655        0.152312      -0.00159629    -0.000203593
                     0.000160152     0.000973732         0.895486       -0.221274       -0.0015648    -0.000291964        -0.324211      -0.0526253
281746                  0.171949       0.0135778      0.000592476     -0.00105277         0.558811       -0.806327      0.000119308     0.000973949
                     0.000561911      -0.0010937         0.291699       -0.182915      0.000526586     0.000836824         0.895601       -0.221209
                         0.55884       -0.806869      0.000563754     0.000915319        0.0722759        0.152269      -0.00159557    -0.000202182
                      0.00016057     0.000972818         0.895468       -0.221821      -0.00156394    -0.000290766        -0.324037       -0.052168
281748                  0.171957       0.0135967       0.00059176      -0.0010524         0.558571       -0.806491      0.000119811     0.000973105
                     0.000561094     -0.00109339         0.291491       -0.182767        0.0005266     0.000835768         0.895583       -0.221754
                          0.5586       -0.807033      0.000563922     0.000914079        0.0723862        0.152227      -0.00159485    -0.000200776
                     0.000160986     0.000971904          0.89545       -0.222367      -0.00156308     -0.00028957        -0.323862      -0.0517115
281750                  0.171963       0.0136155      0.000591045     -0.00105203         0.558331       -0.806656      0.000120311     0.000972263
                     0.000560278     -0.00109309         0.291283       -0.182618      0.000526615     0.000834716         0.895565       -0.222299
                         0.55836       -0.807198      0.000564089     0.000912841        0.0724966        0.152184      -0.00159413    -0.000199374
                       0.0001614      0.00097099         0.895431       -0.222912      -0.00156222    -0.000288374        -0.323688      -0.0512557
281752                   0.17197       0.0136343      0.000590332     -0.00105166         0.558091       -0.806821      0.000120807     0.000971424
                     0.000559463     -0.00109278         0.291076        -0.18247       0.00052663     0.000833669         0.895547       -0.222844
                         0.55812       -0.807362      0.000564255     0.000911605        0.0726069        0.152141       -0.0015934    -0.000197977
                     0.000161811     0.000970077         0.895411       -0.223457      -0.00156137    -0.000287179        -0.323513      -0.0508007
281754                  0.171977       0.0136529       0.00058962     -0.00105129         0.557852       -0.806985      0.000121298     0.000970589
                     0.000558649     -0.00109247          0.29087       -0.182322      0.000526646     0.000832625         0.895527       -0.223388
                         0.55788       -0.807527      0.000564419      0.00091037        0.0727171        0.152099      -0.00159268    -0.000196589
                     0.000162221     0.000969164         0.895392       -0.224002      -0.00156051    -0.000285984        -0.323338      -0.0503464
281756                  0.171983       0.0136715      0.000588909     -0.00105092         0.557612        -0.80715      0.000121784     0.000969761
                     0.000557836     -0.00109217         0.290664       -0.182173      0.000526662     0.000831587         0.895508       -0.223932
                         0.55764       -0.807691      0.000564581     0.000909136        0.0728273        0.152056      -0.00159195    -0.000195214
                     0.000162629     0.000968251         0.895371       -0.224546      -0.00155965     -0.00028479        -0.323162      -0.0498929
281758                   0.17199       0.0136901      0.000588199     -0.00105055         0.557372       -0.807314      0.000122263     0.000968951
                     0.000557025     -0.00109186         0.290458       -0.182025      0.000526677     0.000830553         0.895488       -0.224476
                          0.5574       -0.807856      0.000564743     0.000907905        0.0729375        0.152013      -0.00159123    -0.000193864
                     0.000163036      0.00096734          0.89535        -0.22509      -0.00155879    -0.000283595        -0.322986      -0.0494401
281760                  0.171996       0.0137086      0.000587491     -0.00105018         0.557132       -0.807479      0.000122755     0.000968184
                     0.000556216     -0.00109156         0.290253       -0.181877      0.000526691     0.000829523         0.895468       -0.225019
                         0.55716        -0.80802      0.000564903     0.000906675        0.0730477         0.15197      -0.00159053    -0.000192569
                     0.000163444     0.000966431         0.895329       -0.225634      -0.00155793    -0.000282399         -0.32281       -0.048988
281762                  0.172003       0.0137271      0.000586783     -0.00104981         0.556892       -0.807643      0.000123354     0.000967432
                      0.00055541     -0.00109125         0.290048       -0.181729      0.000526703     0.000828499         0.895446        -0.22556
                         0.55692       -0.808184      0.000565061     0.000905447        0.0731578        0.151927      -0.00159004    -0.000191292
