! TOUCHSTONE file generated by CST MICROWAVE STUDIO
! Date and time: Wed Oct 15 17:27:57 2025
! Project name: Teste_Macro_Metasurface_Nanopilar.cst
! Parameters = {H=600; L_x=70; L_y=170; Lambda=1064; Max_L=200; Min_L=70; PathPara=1; Phi=0; Step_L=10; Theta=0; p=520; phaseX=180; phaseY=0}
! Header version: 2018
! Port assignment regex: !\s*Touchstone port\s*([0-9]+)\s*=\s*(CST MWS port|CST DS port)\s*([0-9]+|Zmin|Zmax)\s*\(\"(.*)\"\)(\s*mode\s*([0-9]+))?.*
! Touchstone port assignment:
! Touchstone port 1 = CST MWS port Zmax ("") mode 1
! Touchstone port 2 = CST MWS port Zmax ("") mode 2
! Touchstone port 3 = CST MWS port Zmin ("") mode 1
! Touchstone port 4 = CST MWS port Zmin ("") mode 2
! S-Parameters are not renormalized. Each port impedance will be approximated by the real part at minimum frequency. The values are described via the [Reference] keyword.
! Default impedance is overridden by [Reference]
[Version] 2.0
# GHz S RI R 376.73
[Number of Ports] 4
[Reference]
376.73 376.73 259.888 259.888 
[Number of Frequencies] 51
[Network Data]
281700                -0.0840706       0.0369766     -7.83558e-05     0.000517341         0.656703        0.737429        -6.51e-05    -7.36051e-05
                     -8.3677e-05     0.000493124        0.0119501       -0.101021     -9.66234e-07     2.33135e-05       -0.0881038       -0.990247
                        0.656471        0.737275     -4.20601e-05    -0.000106769       -0.0475461       0.0817122      0.000422595     0.000247167
                    -6.29474e-05    -3.14074e-05       -0.0883809       -0.990576      0.000496862     0.000216738        0.0295558       0.0974572
281702                -0.0840617       0.0370228     -7.81488e-05     0.000517443         0.656983        0.737185     -6.51731e-05    -7.35075e-05
                    -8.35782e-05     0.000493167         0.011938       -0.101018     -9.87915e-07     2.33621e-05       -0.0883454       -0.990226
                         0.65675        0.737025     -4.20789e-05    -0.000106727        -0.047529       0.0817338      0.000422727     0.000247067
                     -6.2958e-05    -3.13741e-05       -0.0886228       -0.990555      0.000496966      0.00021656        0.0295908       0.0974422
281704                -0.0840528       0.0370689     -7.79418e-05     0.000517545         0.657264         0.73693     -6.52463e-05    -7.34096e-05
                    -8.34797e-05     0.000493212        0.0119258       -0.101016      -1.0099e-06      2.3411e-05        -0.088587       -0.990205
                        0.657029        0.736774     -4.20979e-05    -0.000106686       -0.0475119       0.0817555      0.000422858     0.000246968
                    -6.29684e-05    -3.13411e-05       -0.0888647       -0.990534      0.000497071     0.000216382        0.0296258       0.0974271
281706                -0.0840439        0.037115      -7.7735e-05     0.000517647         0.657543        0.736679     -6.53195e-05    -7.33112e-05
                    -8.33814e-05     0.000493256        0.0119136       -0.101013     -1.03221e-06     2.34604e-05       -0.0888287       -0.990184
                        0.657307        0.736524     -4.21171e-05    -0.000106645       -0.0474947       0.0817772       0.00042299     0.000246868
                    -6.29785e-05    -3.13085e-05       -0.0891065       -0.990512      0.000497175     0.000216203        0.0296608       0.0974121
281708                 -0.084035       0.0371611     -7.75282e-05     0.000517749         0.657821        0.736429     -6.53928e-05    -7.32124e-05
                    -8.32834e-05     0.000493301        0.0119014        -0.10101     -1.05488e-06     2.35103e-05       -0.0890703       -0.990162
                        0.657586        0.736274     -4.21365e-05    -0.000106604       -0.0474776       0.0817988      0.000423122     0.000246768
                    -6.29885e-05    -3.12762e-05       -0.0893484       -0.990491      0.000497279     0.000216025        0.0296958        0.097397
281710                -0.0840261       0.0372072     -7.73214e-05     0.000517851           0.6581        0.736179     -6.54662e-05    -7.31133e-05
                    -8.31855e-05     0.000493347        0.0118892       -0.101007     -1.07791e-06     2.35606e-05       -0.0893119       -0.990141
                        0.657864        0.736023     -4.21561e-05    -0.000106562       -0.0474605       0.0818205      0.000423253     0.000246667
                    -6.29982e-05    -3.12441e-05       -0.0895903       -0.990469      0.000497384     0.000215845        0.0297308       0.0973819
281712                -0.0840171       0.0372533     -7.71147e-05     0.000517953         0.658379        0.735929     -6.55397e-05    -7.30138e-05
                    -8.30879e-05     0.000493392         0.011877       -0.101004     -1.10136e-06     2.36115e-05       -0.0895535       -0.990119
                        0.658142        0.735773      -4.2176e-05    -0.000106521       -0.0474434       0.0818422      0.000423385     0.000246567
                    -6.30078e-05    -3.12124e-05       -0.0898322       -0.990448      0.000497488     0.000215666        0.0297658       0.0973669
281714                -0.0840082       0.0372994     -7.69081e-05     0.000518054         0.658657        0.735679     -6.56132e-05     -7.2914e-05
                    -8.29904e-05     0.000493438        0.0118648       -0.101001     -1.12523e-06     2.36628e-05        -0.089795       -0.990098
                        0.658421        0.735522      -4.2196e-05     -0.00010648       -0.0474262       0.0818639      0.000423517     0.000246467
                    -6.30173e-05    -3.11809e-05        -0.090074       -0.990426      0.000497592     0.000215486        0.0298007       0.0973518
281716                -0.0839992       0.0373455     -7.67016e-05     0.000518156         0.658936        0.735428     -6.56869e-05     -7.2814e-05
                    -8.28931e-05     0.000493484        0.0118527       -0.100999     -1.14958e-06     2.37147e-05       -0.0900366       -0.990076
                        0.658699        0.735271     -4.22163e-05    -0.000106438       -0.0474091       0.0818856      0.000423648     0.000246366
                    -6.30266e-05    -3.11498e-05       -0.0903159       -0.990404      0.000497696     0.000215306        0.0298357       0.0973366
281718                -0.0839903       0.0373916     -7.64951e-05     0.000518258         0.659214        0.735178     -6.57606e-05    -7.27137e-05
                     -8.2796e-05     0.000493531        0.0118405       -0.100996     -1.17442e-06     2.37672e-05       -0.0902782       -0.990055
                        0.658977         0.73502     -4.22368e-05    -0.000106397       -0.0473919       0.0819073       0.00042378     0.000246266
                    -6.30357e-05    -3.11189e-05       -0.0905578       -0.990383        0.0004978     0.000215125        0.0298707       0.0973215
281720                -0.0839813       0.0374377     -7.62886e-05     0.000518359         0.659493        0.734927     -6.58344e-05    -7.26132e-05
                     -8.2699e-05     0.000493577        0.0118283       -0.100993      -1.1998e-06     2.38201e-05       -0.0905198       -0.990033
                        0.659254        0.734769     -4.22575e-05    -0.000106355       -0.0473747       0.0819291      0.000423911     0.000246165
                    -6.30447e-05    -3.10882e-05       -0.0907996       -0.990361      0.000497904     0.000214945        0.0299056       0.0973064
281722                -0.0839723       0.0374837     -7.60823e-05     0.000518461         0.659771        0.734677     -6.59082e-05    -7.25124e-05
                    -8.26022e-05     0.000493624        0.0118161        -0.10099     -1.22574e-06     2.38736e-05       -0.0907614       -0.990011
                        0.659532        0.734518     -4.22784e-05    -0.000106314       -0.0473575       0.0819508      0.000424043     0.000246064
                    -6.30536e-05    -3.10578e-05       -0.0910415       -0.990339      0.000498007     0.000214763        0.0299406       0.0972912
281724                -0.0839633       0.0375298      -7.5876e-05     0.000518562         0.660049        0.734426     -6.59822e-05    -7.24115e-05
                    -8.25055e-05     0.000493671        0.0118039       -0.100987     -1.25226e-06     2.39275e-05       -0.0910029       -0.989989
                         0.65981        0.734267     -4.22995e-05    -0.000106273       -0.0473404       0.0819726      0.000424174     0.000245963
                    -6.30624e-05    -3.10277e-05       -0.0912833       -0.990317      0.000498111     0.000214582        0.0299755       0.0972761
281726                -0.0839543       0.0375759     -7.56697e-05     0.000518664         0.660327        0.734175     -6.60561e-05    -7.23104e-05
                    -8.24089e-05     0.000493718        0.0117918       -0.100985     -1.27937e-06     2.39819e-05       -0.0912445       -0.989967
                        0.660087        0.734015     -4.23208e-05    -0.000106231       -0.0473232       0.0819944      0.000424305     0.000245862
                    -6.30711e-05    -3.09978e-05       -0.0915252       -0.990295      0.000498214       0.0002144        0.0300105       0.0972609
281728                -0.0839453       0.0376219     -7.54635e-05     0.000518765         0.660605        0.733924     -6.61302e-05    -7.22092e-05
                    -8.23124e-05     0.000493765        0.0117796       -0.100982     -1.30705e-06     2.40365e-05        -0.091486       -0.989945
                        0.660365        0.733764     -4.23423e-05     -0.00010619       -0.0473059       0.0820161      0.000424437     0.000245761
                    -6.30798e-05    -3.09682e-05        -0.091767       -0.990273      0.000498318     0.000214218        0.0300454       0.0972457
281730                -0.0839363        0.037668     -7.52574e-05     0.000518867         0.660883        0.733673     -6.62042e-05    -7.21079e-05
                    -8.22161e-05     0.000493812        0.0117674       -0.100979     -1.33525e-06     2.40913e-05       -0.0917276       -0.989923
                        0.660642        0.733512      -4.2364e-05    -0.000106148       -0.0472887       0.0820379      0.000424568      0.00024566
                    -6.30883e-05    -3.09387e-05       -0.0920088       -0.990251      0.000498421     0.000214036        0.0300803       0.0972305
281732                -0.0839273       0.0377141     -7.50513e-05     0.000518968         0.661161        0.733422     -6.62783e-05    -7.20065e-05
                    -8.21198e-05     0.000493859        0.0117552       -0.100976     -1.36391e-06     2.41463e-05       -0.0919691       -0.989901
                         0.66092        0.733261     -4.23859e-05    -0.000106107       -0.0472715       0.0820597      0.000424699     0.000245558
                    -6.30967e-05    -3.09095e-05       -0.0922506       -0.990229      0.000498523     0.000213853        0.0301152       0.0972153
281734                -0.0839182       0.0377601     -7.48453e-05     0.000519069         0.661439         0.73317     -6.63523e-05    -7.19051e-05
                    -8.20236e-05     0.000493907         0.011743       -0.100973     -1.39289e-06     2.42011e-05       -0.0922107       -0.989879
                        0.661197        0.733009     -4.24081e-05    -0.000106065       -0.0472542       0.0820816      0.000424831     0.000245457
                    -6.31051e-05    -3.08805e-05       -0.0924925       -0.990207      0.000498626     0.000213671        0.0301501       0.0972001
281736                -0.0839092       0.0378062     -7.46394e-05     0.000519171         0.661717        0.732919     -6.64263e-05    -7.18036e-05
                    -8.19275e-05     0.000493954        0.0117308        -0.10097     -1.42203e-06     2.42557e-05       -0.0924522       -0.989857
                        0.661474        0.732757     -4.24304e-05    -0.000106024        -0.047237       0.0821034      0.000424962     0.000245355
                    -6.31135e-05    -3.08516e-05       -0.0927343       -0.990184      0.000498728     0.000213489         0.030185       0.0971848
281738                -0.0839001       0.0378522     -7.44335e-05     0.000519272         0.661994        0.732667     -6.65002e-05    -7.17022e-05
                    -8.18314e-05     0.000494001        0.0117187       -0.100968     -1.45114e-06     2.43099e-05       -0.0926938       -0.989835
                        0.661751        0.732505      -4.2453e-05    -0.000105982       -0.0472197       0.0821252      0.000425093     0.000245253
                    -6.31218e-05    -3.08229e-05       -0.0929761       -0.990162      0.000498831     0.000213307        0.0302199       0.0971696
281740                 -0.083891       0.0378983     -7.42278e-05     0.000519373         0.662272        0.732416      -6.6574e-05    -7.16008e-05
                    -8.17353e-05     0.000494049        0.0117065       -0.100965     -1.47998e-06     2.43635e-05       -0.0929353       -0.989813
                        0.662028        0.732253     -4.24758e-05    -0.000105941       -0.0472024       0.0821471      0.000425224     0.000245151
                      -6.313e-05    -3.07944e-05       -0.0932179        -0.99014      0.000498932     0.000213125        0.0302548       0.0971543
281742                -0.0838819       0.0379443     -7.40222e-05     0.000519474         0.662549        0.732164     -6.66476e-05    -7.14996e-05
                    -8.16393e-05     0.000494096        0.0116943       -0.100962     -1.50831e-06     2.44166e-05       -0.0931768        -0.98979
                        0.662304        0.732001      -4.2499e-05    -0.000105899       -0.0471852       0.0821689      0.000425355     0.000245049
                    -6.31383e-05    -3.07659e-05       -0.0934597       -0.990117      0.000499034     0.000212944        0.0302896       0.0971391
281744                -0.0838728       0.0379903     -7.38169e-05     0.000519575         0.662827        0.731912     -6.67209e-05    -7.13985e-05
                    -8.15431e-05     0.000494143        0.0116821       -0.100959     -1.53592e-06      2.4469e-05       -0.0934183       -0.989768
                        0.662581        0.731748     -4.25226e-05    -0.000105858       -0.0471679       0.0821908      0.000425485     0.000244947
                    -6.31467e-05    -3.07374e-05       -0.0937015       -0.990095      0.000499136     0.000212763        0.0303245       0.0971238
281746                -0.0838637       0.0380364     -7.36126e-05     0.000519676         0.663104         0.73166     -6.67937e-05    -7.12978e-05
                    -8.14468e-05      0.00049419          0.01167       -0.100956     -1.56261e-06     2.45206e-05       -0.0936598       -0.989745
                        0.662858        0.731496     -4.25472e-05    -0.000105816       -0.0471505       0.0822127      0.000425616     0.000244844
                    -6.31552e-05    -3.07086e-05       -0.0939433       -0.990072      0.000499237     0.000212583        0.0303594       0.0971085
281748                -0.0838546       0.0380824     -7.34156e-05     0.000519775         0.663381        0.731408     -6.68658e-05    -7.11977e-05
                    -8.13497e-05     0.000494235        0.0116578       -0.100953     -1.58825e-06     2.45715e-05       -0.0939014       -0.989723
                        0.663134        0.731244     -4.25796e-05    -0.000105774       -0.0471332       0.0822346      0.000425746     0.000244742
                    -6.31642e-05    -3.06789e-05       -0.0941851       -0.990049      0.000499338     0.000212404        0.0303942       0.0970932
281750                -0.0838455       0.0381284     -7.31895e-05     0.000519879         0.663658        0.731156     -6.69365e-05    -7.10987e-05
                    -8.12496e-05     0.000494275        0.0116456       -0.100951     -1.61278e-06     2.46218e-05       -0.0941429         -0.9897
                         0.66341        0.730991     -4.25824e-05    -0.000105733       -0.0471159       0.0822565      0.000425875     0.000244638
                    -6.31757e-05    -3.06446e-05       -0.0944268       -0.990027      0.000499439     0.000212225        0.0304291       0.0970778
281752                -0.0838365       0.0381744     -7.29889e-05     0.000519979         0.663935        0.730904     -6.70044e-05    -7.10019e-05
                    -8.12262e-05      0.00049439        0.0116334       -0.100948     -1.63621e-06     2.46714e-05       -0.0943844       -0.989678
                        0.663687        0.730739     -4.26112e-05    -0.000105691       -0.0470986       0.0822784      0.000426003     0.000244534
                    -6.31885e-05    -3.07763e-05       -0.0946686       -0.990004       0.00049954     0.000212048        0.0304639       0.0970625
281754                -0.0838272       0.0382204     -7.27844e-05      0.00052008         0.664212        0.730651     -6.70652e-05    -7.09107e-05
                    -8.10748e-05     0.000494395        0.0116212       -0.100945     -1.65864e-06     2.47204e-05       -0.0946259       -0.989655
                        0.663963        0.730486     -4.26363e-05     -0.00010565       -0.0470812       0.0823003      0.000426126     0.000244426
                    -6.31802e-05     -3.0616e-05       -0.0949104       -0.989981      0.000499641      0.00021187        0.0304987       0.0970472
281756                -0.0838181       0.0382665     -7.25793e-05      0.00052018         0.664488        0.730399     -6.70933e-05    -7.08426e-05
                    -8.09759e-05     0.000494439        0.0116091       -0.100942     -1.68019e-06     2.47689e-05       -0.0948674       -0.989632
                        0.664239        0.730233     -4.26609e-05    -0.000105608       -0.0470639       0.0823223      0.000426223     0.000244295
                    -6.31901e-05    -3.05834e-05       -0.0951522       -0.989958      0.000499742     0.000211694        0.0305335       0.0970318
281758                -0.0838089       0.0383125      -7.2374e-05     0.000520281         0.664765        0.730146     -6.75136e-05    -7.00684e-05
                    -8.08792e-05     0.000494485        0.0115969       -0.100939     -1.70104e-06      2.4817e-05       -0.0951085        -0.98961
                        0.664515         0.72998     -4.26855e-05    -0.000105566       -0.0470465       0.0823442      0.000426482     0.000244271
                    -6.31986e-05    -3.05548e-05       -0.0953939       -0.989935      0.000499842     0.000211517        0.0305684       0.0970165
281760                -0.0837997       0.0383585     -7.21686e-05     0.000520382         0.665042        0.729894     -6.73846e-05    -7.05124e-05
                    -8.07833e-05     0.000494532        0.0115847       -0.100936     -1.72139e-06     2.48646e-05       -0.0953503       -0.989586
                        0.664791        0.729727     -4.27101e-05    -0.000105525       -0.0470291       0.0823662      0.000426562     0.000244145
                    -6.32068e-05    -3.05273e-05       -0.0956357       -0.989912      0.000499943     0.000211342        0.0306032       0.0970011
281762                -0.0837906       0.0384045     -7.19633e-05     0.000520482         0.665318        0.729641     -6.74319e-05    -7.04385e-05
                    -8.06876e-05     0.000494579        0.0115725       -0.100934     -1.74142e-06      2.4912e-05       -0.0955917       -0.989564
                        0.665066        0.729473     -4.27348e-05    -0.000105483       -0.0470117       0.0823882      0.000426684     0.000244037
