! TOUCHSTONE file generated by CST MICROWAVE STUDIO
! Date and time: Wed Oct 15 17:29:33 2025
! Project name: Teste_Macro_Metasurface_Nanopilar.cst
! Parameters = {H=600; L_x=100; L_y=115; Lambda=1064; Max_L=200; Min_L=70; PathPara=1; Phi=0; Step_L=10; Theta=0; p=520; phaseX=180; phaseY=0}
! Header version: 2018
! Port assignment regex: !\s*Touchstone port\s*([0-9]+)\s*=\s*(CST MWS port|CST DS port)\s*([0-9]+|Zmin|Zmax)\s*\(\"(.*)\"\)(\s*mode\s*([0-9]+))?.*
! Touchstone port assignment:
! Touchstone port 1 = CST MWS port Zmax ("") mode 1
! Touchstone port 2 = CST MWS port Zmax ("") mode 2
! Touchstone port 3 = CST MWS port Zmin ("") mode 1
! Touchstone port 4 = CST MWS port Zmin ("") mode 2
! S-Parameters are not renormalized. Each port impedance will be approximated by the real part at minimum frequency. The values are described via the [Reference] keyword.
! Default impedance is overridden by [Reference]
[Version] 2.0
# GHz S RI R 376.73
[Number of Ports] 4
[Reference]
376.73 376.73 259.888 259.888 
[Number of Frequencies] 51
[Network Data]
281700                  0.133189       0.0588796     -0.000165101    -0.000309184        -0.983003       0.0269603     -6.40429e-06    -9.02272e-05
                    -0.000163176    -0.000242646      -0.00158326       0.0420482     -7.91744e-05    -0.000162782        -0.749775       -0.655877
                        -0.98269       0.0269635      2.52188e-05    -1.75582e-05        -0.128832       0.0668044      0.000302624    -0.000134014
                      0.00012258    -7.58697e-05        -0.750004       -0.655858      0.000261158     -0.00010278        -0.041359       0.0081184
281702                  0.133206       0.0588702     -0.000165103    -0.000309056        -0.982991       0.0273061     -6.44412e-06     -9.0244e-05
                    -0.000163232    -0.000242484      -0.00158029       0.0420639       -7.919e-05    -0.000162668        -0.749966       -0.655656
                       -0.982679       0.0273092      2.49071e-05    -1.75387e-05        -0.128802       0.0668865      0.000302632    -0.000134162
                     0.000122426      -7.592e-05        -0.750196       -0.655637      0.000261075    -0.000102832       -0.0413703      0.00814178
281704                  0.133222       0.0588608     -0.000165106    -0.000308927        -0.982979        0.027652     -6.48401e-06    -9.02612e-05
                    -0.000163287    -0.000242322      -0.00157731       0.0420795     -7.92055e-05    -0.000162553        -0.750158       -0.655436
                       -0.982667        0.027655       2.4596e-05      -1.752e-05        -0.128772       0.0669686      0.000302639     -0.00013431
                     0.000122271      -7.597e-05        -0.750387       -0.655417      0.000260992    -0.000102884       -0.0413817      0.00816517
281706                  0.133239       0.0588514     -0.000165108    -0.000308798        -0.982967       0.0279978     -6.52399e-06    -9.02789e-05
                    -0.000163343    -0.000242161      -0.00157433       0.0420952      -7.9221e-05    -0.000162439        -0.750349       -0.655215
                       -0.982655       0.0280007      2.42858e-05    -1.75024e-05        -0.128742       0.0670507      0.000302646    -0.000134459
                     0.000122117    -7.60197e-05        -0.750578       -0.655196      0.000260909    -0.000102936        -0.041393      0.00818858
281708                  0.133255       0.0588419     -0.000165111    -0.000308669        -0.982955       0.0283437     -6.56408e-06     -9.0297e-05
                    -0.000163398       -0.000242      -0.00157134       0.0421109     -7.92365e-05    -0.000162325        -0.750541       -0.654995
                       -0.982643       0.0283465      2.39763e-05    -1.74857e-05        -0.128712       0.0671328      0.000302653    -0.000134608
                     0.000121963     -7.6069e-05         -0.75077       -0.654975      0.000260827    -0.000102988       -0.0414043        0.008212
281710                  0.133272       0.0588325     -0.000165113     -0.00030854        -0.982942       0.0286895     -6.60431e-06    -9.03155e-05
                    -0.000163454    -0.000241839      -0.00156835       0.0421265     -7.92519e-05    -0.000162211        -0.750732       -0.654774
                        -0.98263       0.0286922      2.36676e-05    -1.74699e-05        -0.128682       0.0672149      0.000302658    -0.000134758
                     0.000121809    -7.61179e-05        -0.750961       -0.654755      0.000260744     -0.00010304       -0.0414156      0.00823544
281712                  0.133288       0.0588231     -0.000165116     -0.00030841         -0.98293       0.0290354     -6.64472e-06    -9.03345e-05
                    -0.000163509    -0.000241679      -0.00156536       0.0421422     -7.92674e-05    -0.000162098        -0.750923       -0.654553
                       -0.982618        0.029038      2.33597e-05    -1.74551e-05        -0.128652       0.0672969      0.000302663    -0.000134907
                     0.000121656    -7.61665e-05        -0.751152       -0.654534      0.000260661    -0.000103091       -0.0414269      0.00825888
281714                  0.133305       0.0588136     -0.000165118    -0.000308281        -0.982917       0.0293813     -6.68535e-06    -9.03539e-05
                    -0.000163564    -0.000241519      -0.00156236       0.0421579      -7.9283e-05    -0.000161984        -0.751114       -0.654332
                       -0.982606       0.0293838      2.30526e-05    -1.74412e-05        -0.128622        0.067379      0.000302668    -0.000135058
                     0.000121502    -7.62148e-05        -0.751343       -0.654313      0.000260578    -0.000103143       -0.0414382      0.00828234
281716                  0.133321       0.0588041     -0.000165121    -0.000308152        -0.982905       0.0297271     -6.72623e-06    -9.03738e-05
                    -0.000163618    -0.000241361      -0.00155936       0.0421735     -7.92986e-05    -0.000161871        -0.751305       -0.654112
                       -0.982593       0.0297295      2.27464e-05    -1.74283e-05        -0.128591        0.067461      0.000302672    -0.000135208
                     0.000121349    -7.62627e-05        -0.751534       -0.654092      0.000260495    -0.000103195       -0.0414495      0.00830582
281718                  0.133337       0.0587947     -0.000165124    -0.000308022        -0.982892        0.030073     -6.76739e-06    -9.03941e-05
                    -0.000163672    -0.000241204      -0.00155635       0.0421892     -7.93143e-05    -0.000161758        -0.751496       -0.653891
                        -0.98258       0.0300753       2.2441e-05    -1.74162e-05        -0.128561        0.067543      0.000302675    -0.000135359
                     0.000121196    -7.63103e-05        -0.751725       -0.653871      0.000260413    -0.000103246       -0.0414607       0.0083293
281720                  0.133354       0.0587852     -0.000165126    -0.000307892        -0.982879       0.0304189     -6.80887e-06    -9.04149e-05
                    -0.000163725     -0.00024105      -0.00155333       0.0422049     -7.93303e-05    -0.000161645        -0.751687        -0.65367
                       -0.982568       0.0304211      2.21365e-05    -1.74051e-05        -0.128531        0.067625      0.000302677     -0.00013551
                     0.000121043    -7.63576e-05        -0.751916        -0.65365       0.00026033    -0.000103297       -0.0414719       0.0083528
281722                   0.13337       0.0587757     -0.000165129    -0.000307763        -0.982866       0.0307648      -6.8507e-06     -9.0436e-05
                    -0.000163775      -0.0002409      -0.00155031       0.0422205     -7.93466e-05    -0.000161533        -0.751878       -0.653449
                       -0.982555       0.0307668      2.18329e-05    -1.73949e-05          -0.1285        0.067707      0.000302679    -0.000135661
                      0.00012089    -7.64045e-05        -0.752107       -0.653429      0.000260247    -0.000103349       -0.0414832      0.00837631
281724                  0.133387       0.0587663     -0.000165132    -0.000307633        -0.982853       0.0311106     -6.89293e-06    -9.04576e-05
                    -0.000163818    -0.000240754      -0.00154729       0.0422362     -7.93633e-05     -0.00016142        -0.752069       -0.653228
                       -0.982542       0.0311126      2.15302e-05    -1.73857e-05         -0.12847        0.067789       0.00030268    -0.000135812
                     0.000120737     -7.6451e-05        -0.752298       -0.653208      0.000260164      -0.0001034       -0.0414944      0.00839983
281726                  0.133403       0.0587568     -0.000165135    -0.000307503        -0.982839       0.0314565     -6.93558e-06    -9.04796e-05
                    -0.000163844    -0.000240611      -0.00154426       0.0422519     -7.93805e-05    -0.000161308         -0.75226       -0.653007
                       -0.982528       0.0314584      2.12284e-05    -1.73773e-05        -0.128439       0.0678709       0.00030268    -0.000135963
                     0.000120585    -7.64972e-05        -0.752489       -0.652987      0.000260081    -0.000103451       -0.0415056      0.00842337
281728                   0.13342       0.0587473     -0.000165138    -0.000307373        -0.982826       0.0318024     -6.97869e-06    -9.05019e-05
                    -0.000163843    -0.000240442      -0.00154123       0.0422675     -7.93987e-05    -0.000161195         -0.75245       -0.652785
                       -0.982515       0.0318042      2.09275e-05    -1.73698e-05        -0.128408       0.0679529       0.00030268    -0.000136115
                     0.000120433    -7.65431e-05        -0.752679       -0.652766      0.000259998    -0.000103502       -0.0415168      0.00844692
281730                  0.133436       0.0587378     -0.000165142    -0.000307243        -0.982812       0.0321483     -7.02228e-06    -9.05245e-05
                    -0.000163866    -0.000240221      -0.00153819       0.0422832     -7.94181e-05    -0.000161083        -0.752641       -0.652564
                       -0.982502         0.03215      2.06276e-05    -1.73633e-05        -0.128378       0.0680348      0.000302679    -0.000136266
                      0.00012028    -7.65886e-05         -0.75287       -0.652544      0.000259915    -0.000103553       -0.0415279      0.00847048
281732                  0.133453       0.0587283     -0.000165145    -0.000307113        -0.982799       0.0324942     -7.06638e-06    -9.05475e-05
                    -0.000163943    -0.000240014      -0.00153514       0.0422988     -7.94395e-05    -0.000160971        -0.752832       -0.652343
                       -0.982488       0.0324958      2.03287e-05    -1.73576e-05        -0.128347       0.0681167      0.000302677    -0.000136418
                     0.000120129    -7.66337e-05        -0.753061       -0.652323      0.000259831    -0.000103604       -0.0415391      0.00849405
281734                  0.133469       0.0587188     -0.000165148    -0.000306982        -0.982785         0.03284     -7.11102e-06    -9.05707e-05
                    -0.000164023     -0.00023984       -0.0015321       0.0423145     -7.94641e-05    -0.000160859        -0.753022       -0.652121
                       -0.982474       0.0328416      2.00307e-05    -1.73528e-05        -0.128316       0.0681986      0.000302674    -0.000136569
                     0.000119977    -7.66784e-05        -0.753251       -0.652102      0.000259746    -0.000103655       -0.0415503      0.00851764
281736                  0.133485       0.0587092     -0.000165152    -0.000306852        -0.982771       0.0331859     -7.15621e-06    -9.05942e-05
                    -0.000164094    -0.000239677      -0.00152904       0.0423302     -7.94945e-05    -0.000160749        -0.753213         -0.6519
                       -0.982461       0.0331874      1.97338e-05     -1.7349e-05        -0.128285       0.0682805      0.000302671    -0.000136721
                     0.000119826    -7.67228e-05        -0.753441        -0.65188      0.000259658    -0.000103707       -0.0415614      0.00854124
281738                  0.133502       0.0586997     -0.000165156    -0.000306721        -0.982757       0.0335317     -7.20198e-06    -9.06178e-05
                    -0.000164158    -0.000239517      -0.00152598       0.0423458     -7.95371e-05    -0.000160641        -0.753403       -0.651679
                       -0.982447       0.0335332      1.94378e-05     -1.7346e-05        -0.128254       0.0683624      0.000302667    -0.000136872
                     0.000119675    -7.67668e-05        -0.753632       -0.651659      0.000259567    -0.000103759       -0.0415725      0.00856485
281740                  0.133518       0.0586902     -0.000165159    -0.000306591        -0.982743       0.0338774     -7.24832e-06    -9.06417e-05
                    -0.000164218    -0.000239358      -0.00152292       0.0423615     -7.96084e-05    -0.000160556        -0.753593       -0.651457
                       -0.982433        0.033879      1.91429e-05    -1.73438e-05        -0.128223       0.0684443      0.000302663    -0.000137023
                     0.000119524    -7.68103e-05        -0.753822       -0.651437       0.00025947    -0.000103814       -0.0415836      0.00858848
281742                  0.133535       0.0586807     -0.000165163     -0.00030646         -0.98273       0.0342206     -7.29524e-06    -9.06657e-05
                    -0.000164276      -0.0002392      -0.00151986       0.0423772     -7.96792e-05    -0.000160617        -0.753784       -0.651235
                       -0.982418       0.0342248      1.88491e-05    -1.73426e-05        -0.128192       0.0685262      0.000302658    -0.000137174
                     0.000119374    -7.68533e-05        -0.754012       -0.651215      0.000259366    -0.000103875       -0.0415947      0.00861212
281744                  0.133551       0.0586711     -0.000165168    -0.000306329        -0.982714       0.0345703     -7.34274e-06    -9.06898e-05
                    -0.000164333    -0.000239041      -0.00151678       0.0423928      -7.9422e-05    -0.000160538        -0.753974       -0.651014
                       -0.982404       0.0345706      1.85563e-05    -1.73424e-05        -0.128161        0.068608      0.000302652    -0.000137325
                     0.000119226    -7.68958e-05        -0.754203       -0.650994      0.000259261    -0.000103942       -0.0416058      0.00863577
281746                  0.133568       0.0586616     -0.000165172    -0.000306198          -0.9827       0.0349159     -7.39082e-06    -9.07139e-05
                     -0.00016439    -0.000238883      -0.00151371       0.0424085     -7.94218e-05    -0.000160303        -0.754164       -0.650792
                        -0.98239       0.0349165      1.82647e-05    -1.73431e-05         -0.12813       0.0686898      0.000302646    -0.000137476
                     0.000119079    -7.69375e-05        -0.754393       -0.650772      0.000259167    -0.000104009       -0.0416169      0.00865944
281748                  0.133584        0.058652     -0.000165176    -0.000306067        -0.982685       0.0352617     -7.43944e-06    -9.07381e-05
                    -0.000164447    -0.000238725      -0.00151063       0.0424241     -7.94579e-05    -0.000160151        -0.754354        -0.65057
                       -0.982375       0.0352623      1.79743e-05     -1.7345e-05        -0.128099       0.0687716      0.000302639    -0.000137627
                     0.000118938    -7.69782e-05        -0.754583        -0.65055      0.000259084    -0.000104068       -0.0416279      0.00868312
281750                  0.133601       0.0586425     -0.000165181    -0.000305935         -0.98267       0.0356076     -7.48858e-06    -9.07623e-05
                    -0.000164506    -0.000238569      -0.00150754       0.0424398     -7.94881e-05    -0.000160022        -0.754544       -0.650348
                       -0.982361       0.0356081      1.76854e-05    -1.73489e-05        -0.128068       0.0688534      0.000302631    -0.000137777
                     0.000118828     -7.7025e-05        -0.754773       -0.650328      0.000259007    -0.000104118        -0.041639      0.00870681
281752                  0.133617       0.0586329     -0.000165185    -0.000305804        -0.982656       0.0359535     -7.53817e-06    -9.07865e-05
                     -0.00016457    -0.000238418      -0.00150444       0.0424555     -7.95138e-05    -0.000159901        -0.754734       -0.650126
                       -0.982346        0.035954      1.73978e-05    -1.73607e-05        -0.128036       0.0689352      0.000302623    -0.000137928
                     0.000118559    -7.71568e-05        -0.754963       -0.650106      0.000258931    -0.000104164         -0.04165      0.00873051
281754                  0.133634       0.0586233      -0.00016519    -0.000305672        -0.982641       0.0362994     -7.58816e-06    -9.08106e-05
                    -0.000164655    -0.000238291      -0.00150135       0.0424711     -7.95366e-05    -0.000159784        -0.754924       -0.649904
                       -0.982331       0.0362997      1.70934e-05    -1.73412e-05        -0.128005        0.069017      0.000302615    -0.000138078
                     0.000118433    -7.71299e-05        -0.755152       -0.649884      0.000258855    -0.000104209        -0.041661      0.00875423
281756                   0.13365       0.0586137     -0.000165195    -0.000305541        -0.982625       0.0366453     -7.63841e-06    -9.08346e-05
                    -0.000164269    -0.000238356      -0.00149825       0.0424868     -7.95576e-05    -0.000159669        -0.755114       -0.649682
                       -0.982316       0.0366456       1.6817e-05    -1.73506e-05        -0.127974       0.0690987      0.000302606    -0.000138228
                     0.000118293    -7.71618e-05        -0.755342       -0.649662      0.000258778    -0.000104254        -0.041672      0.00877796
281758                  0.133666       0.0586042     -0.000165199    -0.000305409         -0.98261       0.0369912     -7.68876e-06    -9.08586e-05
                    -0.000164611    -0.000237883      -0.00149515       0.0425025     -7.95772e-05    -0.000159554        -0.755303        -0.64946
                       -0.982301       0.0369915      1.65333e-05    -1.73573e-05        -0.127942       0.0691805      0.000302597    -0.000138378
                     0.000118148    -7.71992e-05        -0.755532        -0.64944      0.000258699      -0.0001043        -0.041683      0.00880171
281760                  0.133683       0.0585946     -0.000165205    -0.000305279        -0.982595       0.0373371     -7.73889e-06    -9.08823e-05
                    -0.000164699    -0.000237733      -0.00149204       0.0425181     -7.95958e-05    -0.000159439        -0.755493       -0.649238
                       -0.982285       0.0373373      1.62499e-05     -1.7364e-05        -0.127911       0.0692622      0.000302588    -0.000138529
                     0.000118001    -7.72377e-05        -0.755722       -0.649218       0.00025862    -0.000104347        -0.041694      0.00882546
281762                  0.133699        0.058585     -0.000165212    -0.000305147        -0.982579       0.0376831     -7.78835e-06    -9.09057e-05
                    -0.000164762    -0.000237577      -0.00148892       0.0425338     -7.96136e-05    -0.000159325        -0.755683       -0.649016
                        -0.98227       0.0376832      1.59672e-05    -1.73711e-05        -0.127879       0.0693439      0.000302579    -0.000138679
