! TOUCHSTONE file generated by CST MICROWAVE STUDIO
! Date and time: Wed Oct 15 17:32:48 2025
! Project name: Teste_Macro_Metasurface_Nanopilar.cst
! Parameters = {H=600; L_x=155; L_y=150; Lambda=1064; Max_L=200; Min_L=70; PathPara=1; Phi=0; Step_L=10; Theta=0; p=520; phaseX=180; phaseY=0}
! Header version: 2018
! Port assignment regex: !\s*Touchstone port\s*([0-9]+)\s*=\s*(CST MWS port|CST DS port)\s*([0-9]+|Zmin|Zmax)\s*\(\"(.*)\"\)(\s*mode\s*([0-9]+))?.*
! Touchstone port assignment:
! Touchstone port 1 = CST MWS port Zmax ("") mode 1
! Touchstone port 2 = CST MWS port Zmax ("") mode 2
! Touchstone port 3 = CST MWS port Zmin ("") mode 1
! Touchstone port 4 = CST MWS port Zmin ("") mode 2
! S-Parameters are not renormalized. Each port impedance will be approximated by the real part at minimum frequency. The values are described via the [Reference] keyword.
! Default impedance is overridden by [Reference]
[Version] 2.0
# GHz S RI R 376.73
[Number of Ports] 4
[Reference]
376.73 376.73 259.888 259.888 
[Number of Frequencies] 51
[Network Data]
281700                  0.264548       -0.187385      0.000266327    -0.000880259         0.890082       -0.281815       7.5994e-05      0.00120537
                     0.000187847    -0.000826245         0.206504       -0.123532      0.000468771      0.00113292         0.859126       -0.434769
                        0.890067       -0.282012      0.000378991      0.00112867        -0.311181      -0.0205241     -0.000848012     -0.00116019
                     0.000180759      0.00113294         0.859631       -0.434728     -0.000895634     -0.00121682        -0.216722       0.0817388
281702                  0.264411       -0.187267      0.000265909    -0.000880267         0.890012       -0.282274      7.68203e-05       0.0012052
                      0.00018763    -0.000826441         0.206453       -0.123459      0.000468943      0.00113253          0.85898       -0.435109
                        0.889998        -0.28247      0.000379457      0.00112834        -0.311029      -0.0201763     -0.000848972     -0.00115936
                     0.000181355      0.00113307         0.859485       -0.435068     -0.000896214     -0.00121585        -0.216571       0.0819156
281704                  0.264274       -0.187148      0.000265491    -0.000880276         0.889943       -0.282732      7.76464e-05      0.00120503
                     0.000187413    -0.000826636         0.206402       -0.123386      0.000469114      0.00113213         0.858834       -0.435449
                        0.889928       -0.282927      0.000379923      0.00112801        -0.310876      -0.0198291     -0.000849927     -0.00115852
                     0.000181949      0.00113319         0.859339       -0.435408     -0.000896791     -0.00121488         -0.21642       0.0820923
281706                  0.264138       -0.187029      0.000265074    -0.000880284         0.889873        -0.28319      7.84724e-05      0.00120485
                     0.000187195    -0.000826832         0.206351       -0.123312      0.000469283      0.00113173         0.858688       -0.435789
                        0.889858       -0.283384      0.000380388      0.00112769        -0.310723      -0.0194822     -0.000850881     -0.00115767
                     0.000182543      0.00113331         0.859192       -0.435748     -0.000897363      -0.0012139        -0.216269       0.0822687
281708                  0.264001       -0.186911      0.000264656    -0.000880291         0.889802       -0.283647      7.92982e-05      0.00120468
                     0.000186978    -0.000827026           0.2063       -0.123239      0.000469451      0.00113133         0.858542       -0.436129
                        0.889788       -0.283841      0.000380854      0.00112736         -0.31057      -0.0191358     -0.000851838     -0.00115681
                     0.000183135      0.00113344         0.859045       -0.436088     -0.000897931     -0.00121291        -0.216118       0.0824449
281710                  0.263865       -0.186792      0.000264239    -0.000880298         0.889732       -0.284104      8.01238e-05      0.00120451
                     0.000186761     -0.00082722         0.206249       -0.123166      0.000469618      0.00113092         0.858396       -0.436468
                        0.889717       -0.284298       0.00038132      0.00112703        -0.310416      -0.0187899     -0.000852801     -0.00115595
                     0.000183726      0.00113356         0.858899       -0.436428     -0.000898496     -0.00121191        -0.215966        0.082621
281712                  0.263729       -0.186674      0.000263822    -0.000880304         0.889661       -0.284562      8.09492e-05      0.00120433
                     0.000186543    -0.000827414         0.206198       -0.123093      0.000469783      0.00113051          0.85825       -0.436808
                        0.889646       -0.284754      0.000381785       0.0011267        -0.310263      -0.0184443     -0.000853773     -0.00115508
                     0.000184315      0.00113368         0.858752       -0.436767     -0.000899056     -0.00121091        -0.215815       0.0827968
281714                  0.263593       -0.186555      0.000263405     -0.00088031          0.88959       -0.285018      8.17744e-05      0.00120415
                     0.000186326    -0.000827608         0.206147        -0.12302      0.000469946       0.0011301         0.858103       -0.437147
                        0.889575        -0.28521       0.00038225      0.00112637        -0.310109      -0.0180992     -0.000854751     -0.00115422
                     0.000184904       0.0011338         0.858605       -0.437107     -0.000899612     -0.00120989        -0.215664       0.0829724
281716                  0.263458       -0.186437      0.000262988    -0.000880316         0.889519       -0.285475      8.25993e-05      0.00120398
                     0.000186108    -0.000827801         0.206097       -0.122947      0.000470108      0.00112968         0.857957       -0.437487
                        0.889504       -0.285666      0.000382716      0.00112604        -0.309955      -0.0177546     -0.000855731     -0.00115336
                     0.000185491      0.00113392         0.858457       -0.437446     -0.000900165     -0.00120887        -0.215513       0.0831478
281718                  0.263323       -0.186319      0.000262571    -0.000880321         0.889447       -0.285931      8.34239e-05       0.0012038
                     0.000185891    -0.000827993         0.206046       -0.122874      0.000470267      0.00112926          0.85781       -0.437826
                        0.889432       -0.286122      0.000383181      0.00112571        -0.309801      -0.0174103     -0.000856711     -0.00115251
                     0.000186077      0.00113404          0.85831       -0.437785     -0.000900713     -0.00120784        -0.215361        0.083323
281720                  0.263188       -0.186201      0.000262154    -0.000880325         0.889375       -0.286387      8.42481e-05      0.00120362
                     0.000185673    -0.000828185         0.205996       -0.122801      0.000470424      0.00112883         0.857663       -0.438165
                         0.88936       -0.286577      0.000383646      0.00112538        -0.309647      -0.0170665     -0.000857689     -0.00115165
                     0.000186661      0.00113416         0.858163       -0.438124     -0.000901257      -0.0012068         -0.21521       0.0834981
281722                  0.263053       -0.186083      0.000261738     -0.00088033         0.889303       -0.286843      8.50719e-05      0.00120343
                     0.000185456    -0.000828377         0.205945       -0.122729      0.000470579      0.00112841         0.857516       -0.438504
                        0.889288       -0.287032      0.000384111      0.00112505        -0.309492      -0.0167232     -0.000858665      -0.0011508
                     0.000187244      0.00113428         0.858015       -0.438463     -0.000901796     -0.00120575        -0.215058       0.0836729
281724                  0.262918       -0.185965      0.000261321    -0.000880333          0.88923       -0.287299      8.58951e-05      0.00120325
                     0.000185238    -0.000828568         0.205895       -0.122656      0.000470732      0.00112797         0.857369       -0.438842
                        0.889215       -0.287487      0.000384576      0.00112472        -0.309337      -0.0163803     -0.000859637     -0.00114995
                     0.000187826       0.0011344         0.857867       -0.438802     -0.000902331     -0.00120469        -0.214907       0.0838475
281726                  0.262783       -0.185847      0.000260905    -0.000880336         0.889157       -0.287754      8.67179e-05      0.00120307
                     0.000185021    -0.000828759         0.205844       -0.122583      0.000470883      0.00112754         0.857222       -0.439181
                        0.889143       -0.287942      0.000385041      0.00112439        -0.309183      -0.0160378     -0.000860606      -0.0011491
                     0.000188407      0.00113452          0.85772       -0.439141     -0.000902862     -0.00120362        -0.214755       0.0840219
281728                  0.262649       -0.185729      0.000260489    -0.000880339         0.889084        -0.28821        8.754e-05      0.00120288
                     0.000184804     -0.00082895         0.205794        -0.12251      0.000471031       0.0011271         0.857075       -0.439519
                        0.889069       -0.288396      0.000385506      0.00112406        -0.309028      -0.0156957     -0.000861572     -0.00114825
                     0.000188986      0.00113464         0.857572       -0.439479     -0.000903389     -0.00120254        -0.214604       0.0841961
281730                  0.262515       -0.185611      0.000260073    -0.000880341         0.889011       -0.288665      8.83614e-05      0.00120269
                     0.000184587     -0.00082914         0.205744       -0.122438      0.000471176      0.00112666         0.856927       -0.439858
                        0.888996       -0.288851      0.000385971      0.00112373        -0.308872      -0.0153541     -0.000862535      -0.0011474
                     0.000189564      0.00113476         0.857424       -0.439818      -0.00090391     -0.00120146        -0.214452       0.0843701
281732                  0.262381       -0.185493      0.000259657    -0.000880343         0.888937       -0.289119      8.91821e-05       0.0012025
                     0.000184371     -0.00082933         0.205693       -0.122365      0.000471319      0.00112621          0.85678       -0.440196
                        0.888922       -0.289305      0.000386435       0.0011234        -0.308717      -0.0150129     -0.000863496     -0.00114655
                     0.000190141      0.00113488         0.857275       -0.440156     -0.000904427     -0.00120036          -0.2143       0.0845439
281734                  0.262248       -0.185375      0.000259241    -0.000880344         0.888863       -0.289574       9.0002e-05      0.00120231
                     0.000184154     -0.00082952         0.205643       -0.122292       0.00047146      0.00112576         0.856632       -0.440534
                        0.888848       -0.289758        0.0003869      0.00112307        -0.308562      -0.0146721     -0.000864455      -0.0011457
                     0.000190716        0.001135         0.857127       -0.440494      -0.00090494     -0.00119926        -0.214148       0.0847175
281736                  0.262114       -0.185258      0.000258826    -0.000880345         0.888788       -0.290028      9.08212e-05      0.00120212
                     0.000183938    -0.000829709         0.205593        -0.12222      0.000471598      0.00112531         0.856484       -0.440872
                        0.888774       -0.290212      0.000387364      0.00112274        -0.308406      -0.0143318     -0.000865411     -0.00114484
                      0.00019129      0.00113512         0.856979       -0.440832     -0.000905447     -0.00119814        -0.213996       0.0848909
281738                  0.261981        -0.18514       0.00025841    -0.000880345         0.888714       -0.290482      9.16394e-05      0.00120193
                     0.000183722    -0.000829898         0.205543       -0.122147      0.000471733      0.00112486         0.856336        -0.44121
                        0.888699       -0.290665      0.000387829       0.0011224         -0.30825      -0.0139919     -0.000866365     -0.00114399
                     0.000191863      0.00113524          0.85683        -0.44117     -0.000905949     -0.00119702        -0.213844        0.085064
281740                  0.261848       -0.185023      0.000257995    -0.000880345         0.888639       -0.290936      9.24569e-05      0.00120174
                     0.000183507    -0.000830087         0.205493       -0.122075      0.000471865       0.0011244         0.856188       -0.441547
                        0.888625       -0.291118      0.000388293      0.00112207        -0.308094      -0.0136524     -0.000867317     -0.00114313
                     0.000192434      0.00113536         0.856682       -0.441508     -0.000906447     -0.00119589        -0.213692        0.085237
281742                  0.261715       -0.184905      0.000257579    -0.000880344         0.888564       -0.291389      9.32735e-05      0.00120155
                     0.000183291    -0.000830275         0.205443       -0.122002      0.000471995      0.00112394          0.85604       -0.441885
                         0.88855       -0.291571      0.000388758      0.00112174        -0.307938      -0.0133133     -0.000868267     -0.00114227
                     0.000193004      0.00113548         0.856533       -0.441845     -0.000906939     -0.00119476         -0.21354       0.0854098
281744                  0.261583       -0.184788      0.000257164    -0.000880343         0.888488       -0.291842      9.40892e-05      0.00120135
                     0.000183076    -0.000830464         0.205394        -0.12193      0.000472123      0.00112347         0.855892       -0.442222
                        0.888474       -0.292023      0.000389222      0.00112141        -0.307781      -0.0129747     -0.000869215     -0.00114141
                     0.000193573       0.0011356         0.856384       -0.442183     -0.000907425     -0.00119361        -0.213388       0.0855824
281746                   0.26145       -0.184671      0.000256749    -0.000880341         0.888412       -0.292295      9.49041e-05      0.00120116
                     0.000182862    -0.000830652         0.205344       -0.121858      0.000472248      0.00112301         0.855743        -0.44256
                        0.888398       -0.292475      0.000389686      0.00112107        -0.307625      -0.0126365     -0.000870161     -0.00114055
                      0.00019414      0.00113571         0.856235        -0.44252     -0.000907906     -0.00119246        -0.213236       0.0857548
281748                  0.261318       -0.184553      0.000256335    -0.000880339         0.888336       -0.292748      9.57181e-05      0.00120096
                     0.000182648     -0.00083084         0.205294       -0.121785       0.00047237      0.00112254         0.855595       -0.442897
                        0.888323       -0.292927       0.00039015      0.00112074        -0.307468      -0.0122988     -0.000871105     -0.00113969
                     0.000194706      0.00113583         0.856086       -0.442857     -0.000908381      -0.0011913        -0.213084        0.085927
281750                  0.261186       -0.184436       0.00025592    -0.000880337          0.88826       -0.293201      9.65312e-05      0.00120076
                     0.000182434    -0.000831027         0.205244       -0.121713       0.00047249      0.00112207         0.855446       -0.443234
                        0.888246       -0.293379      0.000390614      0.00112041        -0.307311      -0.0119614     -0.000872048     -0.00113883
                      0.00019527      0.00113595         0.855936       -0.443194     -0.000908851     -0.00119013        -0.212932       0.0860989
281752                  0.261054       -0.184319      0.000255505    -0.000880333         0.888183       -0.293653      9.73435e-05      0.00120056
                     0.000182221    -0.000831215         0.205195       -0.121641      0.000472607      0.00112159         0.855297       -0.443571
                         0.88817        -0.29383      0.000391078      0.00112007        -0.307154      -0.0116245     -0.000872989     -0.00113797
                     0.000195832      0.00113606         0.855787       -0.443531     -0.000909314     -0.00118895        -0.212779       0.0862707
281754                  0.260923       -0.184202      0.000255091     -0.00088033         0.888106       -0.294105       9.8155e-05      0.00120036
                     0.000182009    -0.000831402         0.205145       -0.121569      0.000472722      0.00112112         0.855148       -0.443907
                        0.888093       -0.294282      0.000391541      0.00111974        -0.306997       -0.011288     -0.000873928      -0.0011371
                     0.000196391      0.00113617         0.855637       -0.443868     -0.000909772     -0.00118777        -0.212627       0.0864423
281756                  0.260791       -0.184085      0.000254677    -0.000880326         0.888029       -0.294557      9.89657e-05      0.00120016
                     0.000181798     -0.00083159         0.205096       -0.121497      0.000472835      0.00112064         0.854999       -0.444244
                        0.888016       -0.294733      0.000392005       0.0011194         -0.30684       -0.010952     -0.000874865     -0.00113623
                     0.000196946      0.00113628         0.855488       -0.444205     -0.000910223     -0.00118658        -0.212475       0.0866137
281758                   0.26066       -0.183968      0.000254263    -0.000880321         0.887952       -0.295008      9.97755e-05      0.00119996
                     0.000181588    -0.000831777         0.205046       -0.121425      0.000472945      0.00112016          0.85485       -0.444581
                        0.887938       -0.295183      0.000392469      0.00111907        -0.306682      -0.0106163     -0.000875801     -0.00113537
                      0.00019749      0.00113638         0.855338       -0.444541     -0.000910668     -0.00118539        -0.212322       0.0867848
281760                  0.260529       -0.183852      0.000253849    -0.000880316         0.887874        -0.29546      0.000100585      0.00119976
                      0.00018138    -0.000831965         0.204997       -0.121353      0.000473054      0.00111968         0.854701       -0.444917
                        0.887861       -0.295634      0.000392932      0.00111873        -0.306524      -0.0102811     -0.000876735      -0.0011345
                     0.000197988      0.00113645         0.855188       -0.444878     -0.000911106     -0.00118418         -0.21217       0.0869558
281762                  0.260399       -0.183735      0.000253435    -0.000880311         0.887796       -0.295911      0.000101393      0.00119956
                     0.000181176    -0.000832155         0.204948       -0.121281      0.000473159      0.00111921         0.854551       -0.445253
                        0.887783       -0.296084      0.000393395       0.0011184        -0.306366     -0.00994634     -0.000877667     -0.00113363
