! TOUCHSTONE file generated by CST MICROWAVE STUDIO
! Date and time: Wed Oct 15 17:34:57 2025
! Project name: Teste_Macro_Metasurface_Nanopilar.cst
! Parameters = {H=600; L_x=195; L_y=85; Lambda=1064; Max_L=200; Min_L=70; PathPara=1; Phi=0; Step_L=10; Theta=0; p=520; phaseX=180; phaseY=0}
! Header version: 2018
! Port assignment regex: !\s*Touchstone port\s*([0-9]+)\s*=\s*(CST MWS port|CST DS port)\s*([0-9]+|Zmin|Zmax)\s*\(\"(.*)\"\)(\s*mode\s*([0-9]+))?.*
! Touchstone port assignment:
! Touchstone port 1 = CST MWS port Zmax ("") mode 1
! Touchstone port 2 = CST MWS port Zmax ("") mode 2
! Touchstone port 3 = CST MWS port Zmin ("") mode 1
! Touchstone port 4 = CST MWS port Zmin ("") mode 2
! S-Parameters are not renormalized. Each port impedance will be approximated by the real part at minimum frequency. The values are described via the [Reference] keyword.
! Default impedance is overridden by [Reference]
[Version] 2.0
# GHz S RI R 376.73
[Number of Ports] 4
[Reference]
376.73 376.73 259.888 259.888 
[Number of Frequencies] 51
[Network Data]
281700                -0.0378313       0.0515483       0.00040538    -0.000266133        -0.764975       -0.637576     -0.000273012      0.00066168
                     0.000394347    -0.000282377          0.47947        0.505398     -0.000594469    -0.000158521         0.263635       -0.652041
                        -0.76459       -0.636927     -0.000607691    -0.000102787       -0.0434088       0.0474032      0.000602221    -0.000404597
                    -0.000292395     0.000668113         0.262647       -0.652115      0.000501656     -0.00035971         0.689924      -0.0525349
281702                -0.0378313       0.0515674      0.000405577    -0.000266328        -0.765156       -0.637356     -0.000272813     0.000661947
                     0.000394361    -0.000282643         0.479711        0.505397     -0.000594586    -0.000158224         0.263234       -0.652021
                       -0.764772       -0.636707     -0.000607974    -0.000102513       -0.0434004       0.0474316      0.000602289    -0.000405154
                    -0.000292093     0.000668369         0.262245       -0.652094      0.000501564    -0.000360093         0.690046      -0.0530998
281704                -0.0378313       0.0515864      0.000405774    -0.000266522        -0.765337       -0.637137     -0.000272614     0.000662213
                     0.000394375    -0.000282909         0.479953        0.505396     -0.000594703    -0.000157928         0.262833       -0.652001
                       -0.764953       -0.636487     -0.000608257    -0.000102239       -0.0433919         0.04746      0.000602357    -0.000405712
                    -0.000291791     0.000668624         0.261843       -0.652074      0.000501471    -0.000360476         0.690167      -0.0536649
281706                -0.0378313       0.0516054      0.000405971    -0.000266717        -0.765518       -0.636918     -0.000272415      0.00066248
                     0.000394389    -0.000283175         0.480195        0.505394      -0.00059482     -0.00015763         0.262432       -0.651981
                       -0.765134       -0.636267      -0.00060854    -0.000101964       -0.0433834       0.0474884      0.000602423     -0.00040627
                    -0.000291488     0.000668878         0.261441       -0.652052      0.000501378    -0.000360859         0.690287      -0.0542304
281708                -0.0378312       0.0516244      0.000406169    -0.000266913        -0.765699       -0.636698     -0.000272216     0.000662748
                     0.000394403    -0.000283441         0.480438        0.505393     -0.000594936    -0.000157333         0.262031        -0.65196
                       -0.765315       -0.636046     -0.000608822    -0.000101688       -0.0433749       0.0475168      0.000602489    -0.000406828
                    -0.000291185     0.000669133         0.261039       -0.652031      0.000501284    -0.000361243         0.690408      -0.0547962
281710                -0.0378312       0.0516434      0.000406366     -0.00026711         -0.76588       -0.636479     -0.000272016     0.000663016
                     0.000394417    -0.000283707          0.48068        0.505391     -0.000595052    -0.000157035         0.261629       -0.651939
                       -0.765496       -0.635826     -0.000609105    -0.000101411       -0.0433664       0.0475452      0.000602554    -0.000407388
                    -0.000290882     0.000669387         0.260637       -0.652009       0.00050119    -0.000361626         0.690527      -0.0553622
281712                -0.0378312       0.0516624      0.000406563    -0.000267307        -0.766061       -0.636259     -0.000271816     0.000663284
                      0.00039443    -0.000283973         0.480922        0.505389     -0.000595168    -0.000156737         0.261228       -0.651917
                       -0.765677       -0.635606     -0.000609387    -0.000101134       -0.0433578       0.0475736      0.000602618    -0.000407947
                    -0.000290578     0.000669641         0.260235       -0.651987      0.000501095     -0.00036201         0.690647      -0.0559286
281714                -0.0378312       0.0516814      0.000406761    -0.000267504        -0.766242        -0.63604     -0.000271616     0.000663553
                     0.000394443    -0.000284239         0.481165        0.505388     -0.000595283    -0.000156438         0.260827       -0.651896
                       -0.765858       -0.635385     -0.000609668    -0.000100856       -0.0433492        0.047602      0.000602681    -0.000408508
                    -0.000290274     0.000669894         0.259833       -0.651965      0.000501001    -0.000362393         0.690766      -0.0564952
281716                -0.0378312       0.0517004      0.000406958    -0.000267702        -0.766423        -0.63582     -0.000271415     0.000663822
                     0.000394456    -0.000284505         0.481407        0.505386     -0.000595398    -0.000156139         0.260426       -0.651874
                       -0.766038       -0.635165      -0.00060995    -0.000100578       -0.0433407       0.0476304      0.000602744    -0.000409069
                     -0.00028997     0.000670147         0.259431       -0.651942      0.000500905    -0.000362777         0.690884      -0.0570622
281718                -0.0378312       0.0517195      0.000407156    -0.000267901        -0.766604         -0.6356     -0.000271214     0.000664091
                     0.000394469    -0.000284772          0.48165        0.505384     -0.000595513    -0.000155839         0.260024       -0.651851
                       -0.766219       -0.634944     -0.000610231    -0.000100298       -0.0433321       0.0476588      0.000602805     -0.00040963
                    -0.000289665     0.000670399         0.259029       -0.651919      0.000500809    -0.000363161         0.691002      -0.0576294
281720                -0.0378311       0.0517385      0.000407353      -0.0002681        -0.766784       -0.635381     -0.000271013     0.000664361
                     0.000394481    -0.000285038         0.481893        0.505381     -0.000595627     -0.00015554         0.259623       -0.651829
                         -0.7664       -0.634724     -0.000610512    -0.000100018       -0.0433234       0.0476872      0.000602866    -0.000410192
                     -0.00028936     0.000670652         0.258627       -0.651895      0.000500713    -0.000363545          0.69112       -0.058197
281722                -0.0378311       0.0517575      0.000407551      -0.0002683        -0.766965       -0.635161     -0.000270811     0.000664631
                     0.000394494    -0.000285305         0.482135        0.505379     -0.000595742    -0.000155239         0.259222       -0.651805
                       -0.766581       -0.634503     -0.000610793    -9.97377e-05       -0.0433148       0.0477156      0.000602926    -0.000410755
                    -0.000289054     0.000670903         0.258225       -0.651871      0.000500616    -0.000363929         0.691237      -0.0587648
281724                -0.0378311       0.0517765      0.000407748    -0.000268501        -0.767146       -0.634941     -0.000270609     0.000664901
                     0.000394506    -0.000285571         0.482378        0.505376     -0.000595856    -0.000154939         0.258821       -0.651782
                       -0.766761       -0.634282     -0.000611073    -9.94564e-05       -0.0433062        0.047744      0.000602985    -0.000411318
                    -0.000288748     0.000671155         0.257823       -0.651847      0.000500519    -0.000364313         0.691353       -0.059333
281726                 -0.037831       0.0517955      0.000407946    -0.000268702        -0.767326       -0.634721     -0.000270407     0.000665172
                     0.000394518    -0.000285838         0.482622        0.505374     -0.000595969    -0.000154638         0.258419       -0.651758
                       -0.766942       -0.634061     -0.000611353    -9.91744e-05       -0.0432975       0.0477724      0.000603043    -0.000411882
                    -0.000288442     0.000671406          0.25742       -0.651823      0.000500422    -0.000364697          0.69147      -0.0599014
281728                 -0.037831       0.0518146      0.000408143    -0.000268903        -0.767507       -0.634501     -0.000270205     0.000665443
                      0.00039453    -0.000286104         0.482865        0.505371     -0.000596083    -0.000154337         0.258018       -0.651734
                       -0.767122       -0.633841     -0.000611633    -9.88918e-05       -0.0432888       0.0478009        0.0006031    -0.000412446
                    -0.000288135     0.000671657         0.257018       -0.651798      0.000500324    -0.000365082         0.691585      -0.0604702
281730                 -0.037831       0.0518336      0.000408341    -0.000269105        -0.767687       -0.634281     -0.000270002     0.000665715
                     0.000394541    -0.000286371         0.483108        0.505368     -0.000596196    -0.000154035         0.257617        -0.65171
                       -0.767302        -0.63362     -0.000611912    -9.86084e-05       -0.0432801       0.0478293      0.000603156    -0.000413011
                    -0.000287828     0.000671907         0.256616       -0.651773      0.000500226    -0.000365466         0.691701      -0.0610392
281732                -0.0378309       0.0518526      0.000408539    -0.000269308        -0.767867       -0.634061     -0.000269799     0.000665987
                     0.000394552    -0.000286638         0.483351        0.505365     -0.000596309    -0.000153733         0.257215       -0.651685
                       -0.767483       -0.633399     -0.000612192    -9.83244e-05       -0.0432714       0.0478577      0.000603211    -0.000413577
                     -0.00028752     0.000672157         0.256214       -0.651748      0.000500127    -0.000365851         0.691816      -0.0616085
281734                -0.0378309       0.0518716      0.000408736    -0.000269512        -0.768047       -0.633841     -0.000269595     0.000666259
                     0.000394563    -0.000286905         0.483595        0.505362     -0.000596421     -0.00015343         0.256814        -0.65166
                       -0.767663       -0.633178     -0.000612471    -9.80397e-05       -0.0432627       0.0478862      0.000603266    -0.000414143
                    -0.000287212     0.000672407         0.255812       -0.651722      0.000500027    -0.000366235          0.69193      -0.0621782
281736                -0.0378308       0.0518906      0.000408934    -0.000269716        -0.768228       -0.633621     -0.000269392     0.000666532
                     0.000394574    -0.000287172         0.483839        0.505359     -0.000596533    -0.000153127         0.256413       -0.651635
                       -0.767843       -0.632957     -0.000612749    -9.77543e-05       -0.0432539       0.0479146       0.00060332    -0.000414709
                    -0.000286904     0.000672656          0.25541       -0.651696      0.000499928     -0.00036662         0.692044      -0.0627481
281738                -0.0378308       0.0519097      0.000409131     -0.00026992        -0.768408         -0.6334     -0.000269188     0.000666805
                     0.000394585    -0.000287438         0.484082        0.505356     -0.000596645    -0.000152824         0.256012       -0.651609
                       -0.768023       -0.632736     -0.000613028    -9.74683e-05       -0.0432451        0.047943      0.000603372    -0.000415277
                    -0.000286595     0.000672905         0.255007        -0.65167      0.000499828    -0.000367004         0.692158      -0.0633183
281740                -0.0378307       0.0519287      0.000409329    -0.000270125        -0.768588        -0.63318     -0.000268983     0.000667078
                     0.000394595    -0.000287706         0.484326        0.505353     -0.000596757     -0.00015252          0.25561       -0.651583
                       -0.768203       -0.632514     -0.000613306    -9.71815e-05       -0.0432363       0.0479715      0.000603424    -0.000415845
                    -0.000286286     0.000673153         0.254605       -0.651643      0.000499727    -0.000367389         0.692271      -0.0638889
281742                -0.0378306       0.0519477      0.000409527    -0.000270331        -0.768768        -0.63296     -0.000268779     0.000667352
                     0.000394606    -0.000287973          0.48457        0.505349     -0.000596868    -0.000152216         0.255209       -0.651557
                       -0.768383       -0.632293     -0.000613583    -9.68941e-05       -0.0432275       0.0479999      0.000603475    -0.000416413
                    -0.000285976     0.000673402         0.254203       -0.651616      0.000499626    -0.000367774         0.692384      -0.0644597
281744                -0.0378306       0.0519667      0.000409724    -0.000270537        -0.768948       -0.632739     -0.000268574     0.000667626
                     0.000394616     -0.00028824         0.484814        0.505345     -0.000596979    -0.000151912         0.254807        -0.65153
                       -0.768563       -0.632072     -0.000613861     -9.6606e-05       -0.0432187       0.0480284      0.000603525    -0.000416982
                    -0.000285666     0.000673649         0.253801       -0.651589      0.000499525    -0.000368159         0.692496      -0.0650308
281746                -0.0378305       0.0519858      0.000409922    -0.000270744        -0.769128       -0.632519     -0.000268368     0.000667901
                     0.000394625    -0.000288507         0.485058        0.505342      -0.00059709    -0.000151607         0.254406       -0.651503
                       -0.768743       -0.631851     -0.000614138    -9.63172e-05       -0.0432099       0.0480568      0.000603574    -0.000417552
                    -0.000285356     0.000673897         0.253399       -0.651561      0.000499423    -0.000368544         0.692608      -0.0656022
281748                -0.0378304       0.0520048      0.000410119    -0.000270952        -0.769307       -0.632298     -0.000268163     0.000668176
                     0.000394635    -0.000288775         0.485302        0.505338     -0.000597201    -0.000151302         0.254005       -0.651476
                       -0.768923       -0.631629     -0.000614415    -9.60277e-05        -0.043201       0.0480853      0.000603622    -0.000418122
                    -0.000285045     0.000674144         0.252996       -0.651533      0.000499321     -0.00036893         0.692719      -0.0661739
281750                -0.0378304       0.0520238      0.000410317     -0.00027116        -0.769487       -0.632078     -0.000267957     0.000668451
                     0.000394644    -0.000289042         0.485547        0.505334     -0.000597311    -0.000150996         0.253603       -0.651449
                       -0.769103       -0.631408     -0.000614691    -9.57376e-05       -0.0431921       0.0481137      0.000603669    -0.000418692
                    -0.000284734      0.00067439         0.252594       -0.651505      0.000499218    -0.000369315          0.69283      -0.0667459
281752                -0.0378303       0.0520428      0.000410515    -0.000271369        -0.769667       -0.631857      -0.00026775     0.000668727
                     0.000394653     -0.00028931         0.485791         0.50533     -0.000597421     -0.00015069         0.253202       -0.651421
                       -0.769282       -0.631186     -0.000614968    -9.54468e-05       -0.0431832       0.0481422      0.000603716    -0.000419264
                    -0.000284422     0.000674637         0.252192       -0.651476      0.000499115      -0.0003697          0.69294      -0.0673182
281754                -0.0378302       0.0520619      0.000410712    -0.000271578        -0.769847       -0.631637     -0.000267544     0.000669003
                     0.000394662    -0.000289577         0.486036        0.505325     -0.000597531    -0.000150384         0.252801       -0.651392
                       -0.769462       -0.630965     -0.000615244    -9.51553e-05       -0.0431743       0.0481706      0.000603761    -0.000419836
                     -0.00028411     0.000674882          0.25179       -0.651447      0.000499012    -0.000370086          0.69305      -0.0678908
281756                -0.0378301       0.0520809       0.00041091    -0.000271788        -0.770026       -0.631416     -0.000267337      0.00066928
                     0.000394671    -0.000289845          0.48628        0.505321      -0.00059764    -0.000150077         0.252399       -0.651364
                       -0.769642       -0.630743     -0.000615519    -9.48631e-05       -0.0431654       0.0481991      0.000603806    -0.000420408
                    -0.000283798     0.000675128         0.251387       -0.651418      0.000498908    -0.000370471          0.69316      -0.0684636
281758                  -0.03783       0.0520999      0.000411107    -0.000271999        -0.770206       -0.631195     -0.000267129     0.000669557
                     0.000394679    -0.000290113         0.486525        0.505317     -0.000597749     -0.00014977         0.251998       -0.651335
                       -0.769821       -0.630521     -0.000615794    -9.45702e-05       -0.0431565       0.0482276      0.000603849    -0.000420981
                    -0.000283485     0.000675373         0.250985       -0.651388      0.000498803    -0.000370857         0.693269      -0.0690368
281760                -0.0378299        0.052119      0.000411305     -0.00027221        -0.770385       -0.630974     -0.000266922     0.000669834
                     0.000394688    -0.000290381          0.48677        0.505312     -0.000597858    -0.000149463         0.251596       -0.651306
                       -0.770001         -0.6303     -0.000616069    -9.42767e-05       -0.0431475        0.048256      0.000603892    -0.000421555
                    -0.000283172     0.000675618         0.250583       -0.651359      0.000498698    -0.000371243         0.693378      -0.0696103
281762                -0.0378298        0.052138      0.000411503    -0.000272421        -0.770564       -0.630753     -0.000266714     0.000670112
                     0.000394696    -0.000290649         0.487015        0.505307     -0.000597966    -0.000149155         0.251195       -0.651276
                        -0.77018       -0.630078     -0.000616344    -9.39825e-05       -0.0431385       0.0482845      0.000603933    -0.000422129
