! TOUCHSTONE file generated by CST MICROWAVE STUDIO
! Date and time: Wed Oct 15 17:28:06 2025
! Project name: Teste_Macro_Metasurface_Nanopilar.cst
! Parameters = {H=600; L_x=75; L_y=105; Lambda=1064; Max_L=200; Min_L=70; PathPara=1; Phi=0; Step_L=10; Theta=0; p=520; phaseX=180; phaseY=0}
! Header version: 2018
! Port assignment regex: !\s*Touchstone port\s*([0-9]+)\s*=\s*(CST MWS port|CST DS port)\s*([0-9]+|Zmin|Zmax)\s*\(\"(.*)\"\)(\s*mode\s*([0-9]+))?.*
! Touchstone port assignment:
! Touchstone port 1 = CST MWS port Zmax ("") mode 1
! Touchstone port 2 = CST MWS port Zmax ("") mode 2
! Touchstone port 3 = CST MWS port Zmin ("") mode 1
! Touchstone port 4 = CST MWS port Zmin ("") mode 2
! S-Parameters are not renormalized. Each port impedance will be approximated by the real part at minimum frequency. The values are described via the [Reference] keyword.
! Default impedance is overridden by [Reference]
[Version] 2.0
# GHz S RI R 376.73
[Number of Ports] 4
[Reference]
376.73 376.73 259.888 259.888 
[Number of Frequencies] 51
[Network Data]
281700                0.00416957      -0.0475247     -0.000158759    -0.000333989        -0.335475       -0.939337      0.000113594     9.01468e-05
                    -0.000213915    -0.000317122        0.0360503       -0.118965      9.17104e-05    -5.52821e-05          0.06944       -0.989568
                       -0.335784       -0.939622      7.07184e-05      -8.391e-06         0.033071        0.034432     -6.71321e-05     0.000384126
                     0.000176429     3.03989e-05        0.0699131       -0.989702     -0.000118541     0.000413959        0.0190175        0.122888
281702                0.00416122       -0.047517     -0.000158762    -0.000333928        -0.335718       -0.939251      0.000113627     9.01151e-05
                    -0.000213922    -0.000317084        0.0360381       -0.118966      9.17097e-05    -5.53115e-05        0.0692027       -0.989585
                       -0.336027       -0.939536      7.08052e-05    -8.34547e-06        0.0330774       0.0344142     -6.69836e-05     0.000384161
                      0.00017646     3.03764e-05        0.0696758        -0.98972     -0.000118347     0.000414029        0.0190643        0.122878
281704                0.00415288      -0.0475092     -0.000158764    -0.000333866        -0.335961       -0.939164       0.00011366     9.00833e-05
                    -0.000213929    -0.000317046        0.0360259       -0.118966       9.1709e-05    -5.53408e-05        0.0689655       -0.989602
                        -0.33627       -0.939449      7.08919e-05    -8.29984e-06        0.0330838       0.0343964     -6.68349e-05     0.000384196
                     0.000176491     3.03541e-05        0.0694385       -0.989737     -0.000118153     0.000414098        0.0191111        0.122867
281706                0.00414454      -0.0475014     -0.000158767    -0.000333805        -0.336204       -0.939077      0.000113693     9.00515e-05
                    -0.000213937    -0.000317007        0.0360136       -0.118966      9.17081e-05      -5.537e-05        0.0687282       -0.989619
                       -0.336513       -0.939363      7.09784e-05    -8.25411e-06        0.0330902       0.0343786     -6.66861e-05     0.000384232
                     0.000176522     3.03318e-05        0.0692013       -0.989754     -0.000117959     0.000414168        0.0191579        0.122856
281708                 0.0041362      -0.0474936     -0.000158769    -0.000333743        -0.336447       -0.938991      0.000113726     9.00197e-05
                    -0.000213944    -0.000316969        0.0360014       -0.118966      9.17071e-05    -5.53992e-05         0.068491       -0.989636
                       -0.336757       -0.939276       7.1065e-05    -8.20829e-06        0.0330966       0.0343608     -6.65373e-05     0.000384267
                     0.000176552     3.03097e-05         0.068964       -0.989771     -0.000117765     0.000414237        0.0192047        0.122846
281710                0.00412786      -0.0474859     -0.000158772    -0.000333682        -0.336691       -0.938904      0.000113758     8.99878e-05
                    -0.000213952    -0.000316931        0.0359892       -0.118966       9.1706e-05    -5.54282e-05        0.0682537       -0.989653
                          -0.337        -0.93919      7.11514e-05    -8.16237e-06        0.0331029        0.034343     -6.63884e-05     0.000384302
                     0.000176582     3.02876e-05        0.0687267       -0.989788      -0.00011757     0.000414305        0.0192515        0.122835
281712                0.00411953      -0.0474781     -0.000158775     -0.00033362        -0.336934       -0.938817      0.000113791     8.99559e-05
                     -0.00021396    -0.000316893        0.0359769       -0.118967      9.17048e-05    -5.54572e-05        0.0680164       -0.989669
                       -0.337243       -0.939103      7.12378e-05    -8.11635e-06        0.0331093       0.0343252     -6.62394e-05     0.000384337
                     0.000176612     3.02657e-05        0.0684894       -0.989805     -0.000117376     0.000414374        0.0192983        0.122824
281714                0.00411119      -0.0474703     -0.000158778    -0.000333558        -0.337177        -0.93873      0.000113824     8.99239e-05
                    -0.000213968    -0.000316855        0.0359647       -0.118967      9.17035e-05    -5.54861e-05        0.0677792       -0.989686
                       -0.337486       -0.939016      7.13241e-05    -8.07024e-06        0.0331156       0.0343074     -6.60903e-05     0.000384372
                     0.000176642     3.02438e-05        0.0682521       -0.989821     -0.000117181     0.000414442        0.0193451        0.122814
281716                0.00410286      -0.0474625     -0.000158781    -0.000333496         -0.33742       -0.938644      0.000113857     8.98919e-05
                    -0.000213976    -0.000316817        0.0359524       -0.118967      9.17021e-05     -5.5515e-05        0.0675419       -0.989703
                       -0.337729       -0.938929      7.14103e-05    -8.02403e-06        0.0331219       0.0342895     -6.59411e-05     0.000384407
                     0.000176671      3.0222e-05        0.0680148       -0.989838     -0.000116987     0.000414511        0.0193919        0.122803
281718                0.00409452      -0.0474547     -0.000158784    -0.000333434        -0.337663       -0.938557       0.00011389     8.98599e-05
                    -0.000213985    -0.000316779        0.0359402       -0.118967      9.17007e-05    -5.55437e-05        0.0673046       -0.989719
                       -0.337972       -0.938842      7.14965e-05    -7.97774e-06        0.0331283       0.0342717     -6.57918e-05     0.000384442
                       0.0001767     3.02004e-05        0.0677775       -0.989855     -0.000116793     0.000414579        0.0194387        0.122792
281720                0.00408619       -0.047447     -0.000158787    -0.000333372        -0.337906        -0.93847      0.000113922     8.98278e-05
                    -0.000213993     -0.00031674         0.035928       -0.118967      9.16991e-05    -5.55724e-05        0.0670673       -0.989736
                       -0.338215       -0.938755      7.15826e-05    -7.93134e-06        0.0331346       0.0342539     -6.56425e-05     0.000384476
                     0.000176729     3.01788e-05        0.0675402       -0.989871     -0.000116598     0.000414646        0.0194854        0.122781
281722                0.00407786      -0.0474392     -0.000158791    -0.000333309        -0.338149       -0.938382      0.000113955     8.97956e-05
                    -0.000214002    -0.000316702        0.0359157       -0.118968      9.16974e-05     -5.5601e-05        0.0668301       -0.989752
                       -0.338458       -0.938668      7.16685e-05    -7.88486e-06        0.0331409       0.0342361     -6.54931e-05     0.000384511
                     0.000176758     3.01573e-05        0.0673029       -0.989888     -0.000116404     0.000414714        0.0195322        0.122771
281724                0.00406952      -0.0474314     -0.000158794    -0.000333247        -0.338392       -0.938295      0.000113988     8.97634e-05
                    -0.000214011    -0.000316664        0.0359035       -0.118968      9.16956e-05    -5.56296e-05        0.0665928       -0.989768
                       -0.338701       -0.938581      7.17544e-05    -7.83828e-06        0.0331472       0.0342183     -6.53435e-05     0.000384545
                     0.000176786     3.01359e-05        0.0670656       -0.989905     -0.000116209     0.000414781        0.0195789         0.12276
281726                0.00406119      -0.0474236     -0.000158798    -0.000333184        -0.338635       -0.938208       0.00011402     8.97312e-05
                    -0.000214019    -0.000316626        0.0358913       -0.118968      9.16937e-05     -5.5658e-05        0.0663555       -0.989785
                       -0.338944       -0.938494      7.18403e-05    -7.79162e-06        0.0331534       0.0342005     -6.51939e-05      0.00038458
                     0.000176814     3.01146e-05        0.0668283       -0.989921     -0.000116015     0.000414848        0.0196257        0.122749
281728                0.00405287      -0.0474158     -0.000158801    -0.000333122        -0.338878       -0.938121      0.000114053     8.96989e-05
                    -0.000214028    -0.000316587         0.035879       -0.118968      9.16917e-05    -5.56864e-05        0.0661182       -0.989801
                       -0.339187       -0.938407       7.1926e-05    -7.74486e-06        0.0331597       0.0341827     -6.50443e-05     0.000384614
                     0.000176843     3.00933e-05        0.0665909       -0.989937      -0.00011582     0.000414915        0.0196724        0.122738
281730                0.00404454       -0.047408     -0.000158805    -0.000333059        -0.339121       -0.938033      0.000114086     8.96666e-05
                    -0.000214038    -0.000316549        0.0358668       -0.118969      9.16896e-05    -5.57147e-05        0.0658809       -0.989817
                        -0.33943        -0.93832      7.20116e-05    -7.69801e-06         0.033166       0.0341649     -6.48945e-05     0.000384649
                      0.00017687     3.00722e-05        0.0663536       -0.989954     -0.000115625     0.000414982        0.0197192        0.122727
281732                0.00403621      -0.0474002     -0.000158809    -0.000332996        -0.339364       -0.937946      0.000114118     8.96342e-05
                    -0.000214047    -0.000316511        0.0358545       -0.118969      9.16874e-05    -5.57429e-05        0.0656436       -0.989833
                       -0.339673       -0.938232      7.20972e-05    -7.65108e-06        0.0331722       0.0341471     -6.47447e-05     0.000384683
                     0.000176898     3.00511e-05        0.0661163        -0.98997     -0.000115431     0.000415049        0.0197659        0.122716
281734                0.00402788      -0.0473925     -0.000158813    -0.000332933        -0.339607       -0.937858      0.000114151     8.96018e-05
                    -0.000214056    -0.000316473        0.0358423       -0.118969      9.16851e-05    -5.57711e-05        0.0654063       -0.989849
                       -0.339916       -0.938145      7.21826e-05    -7.60405e-06        0.0331785       0.0341293     -6.45948e-05     0.000384717
                     0.000176926     3.00302e-05        0.0658789       -0.989986     -0.000115236     0.000415115        0.0198127        0.122705
281736                0.00401956      -0.0473847     -0.000158817     -0.00033287         -0.33985       -0.937771      0.000114183     8.95693e-05
                    -0.000214066    -0.000316435        0.0358301       -0.118969      9.16827e-05    -5.57991e-05         0.065169       -0.989866
                       -0.340158       -0.938057       7.2268e-05    -7.55694e-06        0.0331847       0.0341115     -6.44448e-05     0.000384751
                     0.000176953     3.00093e-05        0.0656416       -0.990002     -0.000115041     0.000415181        0.0198594        0.122695
281738                0.00401124      -0.0473769     -0.000158822    -0.000332807        -0.340093       -0.937683      0.000114216     8.95368e-05
                    -0.000214075    -0.000316396        0.0358178       -0.118969      9.16802e-05    -5.58271e-05        0.0649316       -0.989882
                       -0.340401        -0.93797      7.23533e-05    -7.50973e-06        0.0331909       0.0340937     -6.42947e-05     0.000384785
                      0.00017698     2.99885e-05        0.0654042       -0.990019     -0.000114847     0.000415247        0.0199061        0.122684
281740                0.00400291      -0.0473691     -0.000158826    -0.000332744        -0.340336       -0.937596      0.000114248     8.95043e-05
                    -0.000214085    -0.000316358        0.0358056        -0.11897      9.16776e-05     -5.5855e-05        0.0646943       -0.989897
                       -0.340644       -0.937882      7.24384e-05    -7.46244e-06        0.0331972       0.0340759     -6.41445e-05     0.000384819
                     0.000177007     2.99677e-05        0.0651669       -0.990035     -0.000114652     0.000415312        0.0199528        0.122673
281742                0.00399459      -0.0473613     -0.000158831    -0.000332681        -0.340578       -0.937508      0.000114281     8.94717e-05
                    -0.000214095     -0.00031632        0.0357934        -0.11897      9.16749e-05    -5.58829e-05         0.064457       -0.989913
                       -0.340887       -0.937795      7.25235e-05    -7.41505e-06        0.0332034       0.0340581     -6.39943e-05     0.000384853
                     0.000177033     2.99471e-05        0.0649295       -0.990051     -0.000114457     0.000415378        0.0199995        0.122662
281744                0.00398627      -0.0473535     -0.000158835    -0.000332618        -0.340821        -0.93742      0.000114313     8.94391e-05
                    -0.000214105    -0.000316282        0.0357811        -0.11897       9.1672e-05    -5.59106e-05        0.0642197       -0.989929
                        -0.34113       -0.937707      7.26084e-05    -7.36757e-06        0.0332096       0.0340404      -6.3844e-05     0.000384886
                      0.00017706     2.99266e-05        0.0646922       -0.990067     -0.000114262     0.000415443        0.0200462        0.122651
281746                0.00397795      -0.0473457      -0.00015884    -0.000332554        -0.341064       -0.937332      0.000114345     8.94064e-05
                    -0.000214115    -0.000316243        0.0357689        -0.11897      9.16691e-05    -5.59383e-05        0.0639823       -0.989945
                       -0.341372       -0.937619      7.26932e-05    -7.31999e-06        0.0332157       0.0340226     -6.36937e-05      0.00038492
                     0.000177086     2.99061e-05        0.0644548       -0.990083     -0.000114068     0.000415508        0.0200929         0.12264
281748                0.00396963      -0.0473379     -0.000158845    -0.000332491        -0.341307       -0.937244      0.000114377     8.93738e-05
                    -0.000214126    -0.000316205        0.0357567        -0.11897      9.16662e-05    -5.59659e-05         0.063745       -0.989961
                       -0.341615       -0.937531      7.27778e-05    -7.27229e-06        0.0332219       0.0340048     -6.35435e-05     0.000384953
                     0.000177112     2.98858e-05        0.0642175       -0.990098     -0.000113873     0.000415573        0.0201396        0.122629
281750                0.00396132      -0.0473301     -0.000158851    -0.000332427         -0.34155       -0.937156       0.00011439      8.9346e-05
                    -0.000214137    -0.000316167        0.0357444       -0.118971      9.16638e-05    -5.59934e-05        0.0635078       -0.989976
                       -0.341858       -0.937443      7.28622e-05    -7.22443e-06        0.0332281        0.033987     -6.34059e-05     0.000384975
                     0.000177137     2.98657e-05        0.0639801       -0.990114     -0.000113678     0.000415639        0.0201863        0.122618
281752                  0.003953      -0.0473223     -0.000158857    -0.000332364        -0.341792       -0.937068      0.000114444     8.93076e-05
                    -0.000214148    -0.000316128        0.0357322       -0.118971      9.16593e-05    -5.60208e-05        0.0632703       -0.989992
                         -0.3421       -0.937355       7.2946e-05    -7.17629e-06        0.0332343       0.0339692     -6.32413e-05     0.000385021
                     0.000177161      2.9846e-05        0.0637427        -0.99013     -0.000113483     0.000415701         0.020233        0.122606
281754                0.00394468      -0.0473145     -0.000158866    -0.000332301        -0.342035        -0.93698      0.000114475     8.92749e-05
                    -0.000214162    -0.000316089        0.0357199       -0.118971      9.16561e-05    -5.60482e-05         0.063033       -0.990007
                       -0.342343       -0.937267      7.30275e-05    -7.12693e-06        0.0332404       0.0339514     -6.30909e-05     0.000385054
                     0.000177181     2.98272e-05        0.0635053       -0.990146     -0.000113288     0.000415765        0.0202797        0.122595
281756                0.00393638      -0.0473067     -0.000158838    -0.000332231        -0.342278       -0.936892      0.000114508      8.9242e-05
                    -0.000214202    -0.000316013        0.0357077       -0.118971      9.16527e-05    -5.60755e-05        0.0627956       -0.990023
                       -0.342586       -0.937179      7.31313e-05    -7.08654e-06        0.0332465       0.0339336     -6.29402e-05     0.000385087
                     0.000177103     2.97944e-05        0.0632681       -0.990161     -0.000113093     0.000415829        0.0203263        0.122584
281758                0.00392805      -0.0472989     -0.000158866    -0.000332171         -0.34252       -0.936804       0.00011454     8.92091e-05
                    -0.000214163    -0.000316016        0.0356955       -0.118971      9.16492e-05    -5.61027e-05        0.0625582       -0.990038
                       -0.342828       -0.937091      7.32045e-05    -7.03484e-06        0.0332527       0.0339158     -6.27893e-05      0.00038512
                     0.000177257     2.97776e-05        0.0630306       -0.990177     -0.000112898     0.000415893         0.020373        0.122573
281760                0.00391974      -0.0472911     -0.000158873    -0.000332107        -0.342763       -0.936715      0.000114572     8.91761e-05
                     -0.00021418    -0.000315978        0.0356832       -0.118971      9.16455e-05    -5.61299e-05        0.0623209       -0.990053
                       -0.343071       -0.937003      7.32874e-05    -6.98622e-06        0.0332588        0.033898     -6.26384e-05     0.000385153
                     0.000177276     2.97606e-05        0.0627932       -0.990192     -0.000112703     0.000415956        0.0204197        0.122562
281762                0.00391143      -0.0472833      -0.00015888    -0.000332043        -0.343006       -0.936627      0.000114604     8.91431e-05
                    -0.000214193     -0.00031594         0.035671       -0.118972      9.16418e-05    -5.61569e-05        0.0620835       -0.990069
                       -0.343314       -0.936915      7.33709e-05    -6.93785e-06        0.0332649       0.0338802     -6.24874e-05     0.000385185
