! TOUCHSTONE file generated by CST MICROWAVE STUDIO
! Date and time: Wed Oct 15 17:35:10 2025
! Project name: Teste_Macro_Metasurface_Nanopilar.cst
! Parameters = {H=600; L_x=195; L_y=190; Lambda=1064; Max_L=200; Min_L=70; PathPara=1; Phi=0; Step_L=10; Theta=0; p=520; phaseX=180; phaseY=0}
! Header version: 2018
! Port assignment regex: !\s*Touchstone port\s*([0-9]+)\s*=\s*(CST MWS port|CST DS port)\s*([0-9]+|Zmin|Zmax)\s*\(\"(.*)\"\)(\s*mode\s*([0-9]+))?.*
! Touchstone port assignment:
! Touchstone port 1 = CST MWS port Zmax ("") mode 1
! Touchstone port 2 = CST MWS port Zmax ("") mode 2
! Touchstone port 3 = CST MWS port Zmin ("") mode 1
! Touchstone port 4 = CST MWS port Zmin ("") mode 2
! S-Parameters are not renormalized. Each port impedance will be approximated by the real part at minimum frequency. The values are described via the [Reference] keyword.
! Default impedance is overridden by [Reference]
[Version] 2.0
# GHz S RI R 376.73
[Number of Ports] 4
[Reference]
376.73 376.73 259.888 259.888 
[Number of Frequencies] 51
[Network Data]
281700                  0.368078        0.148434     -0.000228693     3.65959e-05        0.0392117       -0.913735     -2.59362e-05     6.21692e-06
                    -0.000233961    -1.15459e-05         0.401957        0.154021     -2.75924e-05     6.27777e-05       0.00335919       -0.899121
                       0.0391421       -0.913781      -7.1061e-05    -2.63884e-06         0.377553       -0.117231     -0.000300684     -0.00022775
                    -2.23624e-05    -0.000162116       0.00322464       -0.898877     -8.78123e-05    -4.63654e-05         0.401129       -0.151701
281702                  0.368098        0.148417     -0.000228661     3.64206e-05        0.0389529       -0.913741      -2.6238e-05      5.8051e-06
                    -0.000233646    -1.14943e-05         0.401977        0.153999     -2.86319e-05     6.30068e-05       0.00310374       -0.899115
                        0.038884       -0.913788     -7.16872e-05     -1.4852e-06         0.377505       -0.117425     -0.000301192    -0.000226979
                    -2.28041e-05    -0.000161377       0.00296806       -0.898875     -8.83805e-05    -4.59086e-05         0.401061       -0.151908
281704                  0.368118          0.1484     -0.000228635     3.62468e-05        0.0386942       -0.913747     -2.65373e-05     5.37716e-06
                    -0.000233333    -1.14424e-05         0.401996        0.153976     -2.97313e-05     6.31212e-05       0.00284742       -0.899109
                        0.038626       -0.913794     -7.23266e-05    -3.03193e-07         0.377457        -0.11762     -0.000301711    -0.000226201
                    -2.32408e-05    -0.000160638       0.00271148       -0.898874     -8.89417e-05    -4.54547e-05         0.400994       -0.152116
281706                  0.368138        0.148383     -0.000228614     3.60747e-05        0.0384354       -0.913754     -2.68337e-05     4.93284e-06
                    -0.000233021    -1.13903e-05         0.402016        0.153953     -3.08685e-05     6.30939e-05       0.00259032       -0.899104
                        0.038368       -0.913801     -7.29886e-05     9.08553e-07         0.377409       -0.117814     -0.000302242    -0.000225415
                    -2.36729e-05    -0.000159896       0.00245493       -0.898872      -8.9496e-05    -4.50056e-05         0.400927       -0.152323
281708                  0.368158        0.148365     -0.000228599     3.59045e-05        0.0381766        -0.91376     -2.71268e-05     4.47187e-06
                    -0.000232711    -1.13379e-05         0.402036         0.15393     -3.20084e-05     6.29022e-05        0.0023326       -0.899098
                       0.0381099       -0.913807     -7.36864e-05     2.15239e-06         0.377361       -0.118009     -0.000302787    -0.000224621
                    -2.41009e-05    -0.000159151       0.00219838       -0.898869     -9.00435e-05    -4.45636e-05         0.400859       -0.152531
281710                  0.368179        0.148348     -0.000228592     3.57362e-05        0.0379178       -0.913766     -2.74162e-05     3.99403e-06
                    -0.000232403    -1.12851e-05         0.402056        0.153907     -3.31039e-05     6.25342e-05       0.00207441       -0.899093
                       0.0378519       -0.913813     -7.44378e-05     3.43218e-06         0.377312       -0.118203     -0.000303348    -0.000223818
                    -2.45252e-05    -0.000158403       0.00194184       -0.898867     -9.05842e-05    -4.41311e-05         0.400791       -0.152738
281712                  0.368199        0.148331     -0.000228595     3.55702e-05         0.037659       -0.913772     -2.77015e-05      3.4991e-06
                    -0.000232096    -1.12318e-05         0.402076        0.153885     -3.41002e-05      6.1996e-05       0.00181591       -0.899088
                       0.0375939       -0.913819     -7.52686e-05     4.75418e-06         0.377264       -0.118398     -0.000303928    -0.000223007
                    -2.49466e-05    -0.000157649       0.00168531       -0.898865     -9.11185e-05    -4.37112e-05         0.400723       -0.152945
281714                  0.368219        0.148313     -0.000228609     3.54065e-05        0.0374002       -0.913777     -2.79823e-05     2.98688e-06
                    -0.000231792    -1.11778e-05         0.402095        0.153862     -3.49433e-05     6.13156e-05       0.00155724       -0.899083
                        0.037336       -0.913825     -7.62154e-05     6.12858e-06         0.377216       -0.118593     -0.000304529    -0.000222185
                    -2.53657e-05    -0.000156888       0.00142879       -0.898862     -9.16469e-05    -4.33072e-05         0.400655       -0.153153
281716                  0.368239        0.148296     -0.000228638     3.52453e-05        0.0371414       -0.913783     -2.82581e-05     2.45719e-06
                     -0.00023149     -1.1123e-05         0.402115        0.153839     -3.55914e-05     6.05429e-05       0.00129848       -0.899079
                        0.037078        -0.91383     -7.73332e-05     7.57229e-06         0.377167       -0.118787     -0.000305155    -0.000221354
                    -2.57833e-05    -0.000156117       0.00117226       -0.898859     -9.21701e-05    -4.29232e-05         0.400587        -0.15336
281718                  0.368259        0.148279     -0.000228686     3.50865e-05        0.0368826       -0.913788     -2.85287e-05     1.90987e-06
                    -0.000231191    -1.10672e-05         0.402135        0.153816     -3.60247e-05     5.97415e-05       0.00103972       -0.899075
                       0.0368201       -0.913836     -7.87068e-05     9.11436e-06         0.377118       -0.118982     -0.000305811    -0.000220512
                    -2.62002e-05    -0.000155333       0.00091573       -0.898856     -9.26891e-05    -4.25641e-05         0.400519       -0.153567
281720                   0.36828        0.148261     -0.000228758     3.49301e-05        0.0366238       -0.913794     -2.87934e-05      1.3448e-06
                    -0.000230894      -1.101e-05         0.402155        0.153793     -3.62494e-05     5.89771e-05         0.000781       -0.899071
                       0.0365622       -0.913841     -8.04742e-05     1.08074e-05          0.37707       -0.119176     -0.000306501    -0.000219659
                    -2.66173e-05    -0.000154532       0.00065918       -0.898852     -9.32055e-05    -4.22354e-05          0.40045       -0.153775
281722                    0.3683        0.148244     -0.000228862     3.47751e-05         0.036365       -0.913799     -2.90519e-05     7.61851e-07
                    -0.000230601    -1.09512e-05         0.402175        0.153771      -3.6295e-05      5.8305e-05      0.000522352       -0.899067
                       0.0363044       -0.913846     -8.28747e-05     1.27542e-05         0.377021       -0.119371     -0.000307231    -0.000218794
                    -2.70358e-05    -0.000153707      0.000402606       -0.898849     -9.37212e-05    -4.19441e-05         0.400382       -0.153982
281724                   0.36832        0.148227     -0.000229008     3.46198e-05        0.0361062       -0.913804     -2.93036e-05     1.60928e-07
                    -0.000230311    -1.08901e-05         0.402195        0.153748     -3.62052e-05     5.77625e-05      0.000263793       -0.899063
                       0.0360466        -0.91385     -8.63601e-05     1.51785e-05         0.376972       -0.119565     -0.000308011    -0.000217918
                    -2.74564e-05    -0.000152851      0.000145993       -0.898845     -9.42393e-05    -4.16982e-05         0.400313       -0.154189
281726                   0.36834        0.148209     -0.000229215     3.44601e-05        0.0358474       -0.913809     -2.95482e-05    -4.58053e-07
                    -0.000230027    -1.08261e-05         0.402214        0.153725     -3.60284e-05     5.73668e-05      5.33377e-06       -0.899059
                       0.0357888       -0.913855     -9.18895e-05     1.86526e-05         0.376923        -0.11976     -0.000308851    -0.000217031
                    -2.78795e-05    -0.000151949     -0.000110673       -0.898841     -9.47639e-05    -4.15078e-05         0.400244       -0.154396
281728                   0.36836        0.148192     -0.000229506     3.42866e-05        0.0355886       -0.913814     -2.97849e-05    -1.09516e-06
                    -0.000229748    -1.07579e-05         0.402234        0.153702     -3.58088e-05     5.71183e-05     -0.000253019       -0.899055
                       0.0355311       -0.913859      -0.00010186     2.50566e-05         0.376873       -0.119955     -0.000309764    -0.000216135
                    -2.83046e-05    -0.000150984     -0.000367408       -0.898837     -9.53008e-05    -4.13848e-05         0.400175       -0.154603
281730                  0.368381        0.148175     -0.000229923     3.40781e-05        0.0353298       -0.913818     -3.00132e-05    -1.75048e-06
                    -0.000229477     -1.0684e-05         0.402254        0.153679     -3.55823e-05     5.70056e-05     -0.000511262       -0.899051
                       0.0352734       -0.913863     -0.000123493     4.40219e-05         0.376824       -0.120149     -0.000310768    -0.000215234
                    -2.87276e-05    -0.000149927     -0.000624234       -0.898832     -9.58586e-05    -4.13439e-05         0.400106       -0.154811
281732                  0.368401        0.148157     -0.000230531     3.37842e-05         0.035071       -0.913823      -3.0232e-05    -2.42405e-06
                    -0.000229217    -1.06014e-05         0.402274        0.153656      -3.5375e-05     5.70114e-05     -0.000769391       -0.899047
                       0.0350158       -0.913866     -0.000126643     0.000169437         0.376775       -0.120344     -0.000311888    -0.000214335
                    -2.91371e-05    -0.000148731     -0.000881173       -0.898827     -9.64493e-05    -4.14032e-05         0.400037       -0.155018
281734                  0.368421         0.14814     -0.000231428      3.3276e-05        0.0348122       -0.913827     -3.04403e-05    -3.11596e-06
                    -0.000228972    -1.05049e-05         0.402294        0.153633     -3.52039e-05      5.7116e-05       -0.0010274       -0.899043
                       0.0347582       -0.913869      2.55828e-05     5.63937e-05         0.376725       -0.120538     -0.000313156    -0.000213452
                    -2.95013e-05    -0.000147318      -0.00113825       -0.898822     -9.70913e-05    -4.15842e-05         0.399968       -0.155225
281736                  0.368442        0.148123     -0.000232711     3.22117e-05        0.0345534       -0.913832     -3.06364e-05    -3.82625e-06
                    -0.000228752     -1.0384e-05         0.402313         0.15361     -3.50789e-05     5.73006e-05      -0.00128528       -0.899039
                       0.0345006       -0.913872     -1.70745e-05     2.33182e-05         0.376676       -0.120733     -0.000314619     -0.00021261
                    -2.97329e-05    -0.000145557      -0.00139548       -0.898817     -9.78117e-05    -4.19125e-05         0.399898       -0.155432
281738                  0.368462        0.148106     -0.000234107     2.97661e-05        0.0342946       -0.913836     -3.08179e-05    -4.55491e-06
                     -0.00022858    -1.02131e-05         0.402333        0.153587     -3.50046e-05     5.75485e-05      -0.00154301       -0.899035
                       0.0342428       -0.913873     -3.31541e-05     1.95969e-05         0.376626       -0.120928     -0.000316341    -0.000211861
                    -2.95803e-05    -0.000143235       -0.0016529       -0.898811     -9.86517e-05    -4.24165e-05         0.399829       -0.155639
281740                  0.368482        0.148089     -0.000233536      2.5327e-05        0.0340359        -0.91384     -3.09811e-05    -5.30171e-06
                    -0.000228526    -9.90925e-06         0.402353        0.153564      -3.4982e-05     5.78457e-05      -0.00180055        -0.89903
                       0.0339848       -0.913874     -4.07626e-05     1.95058e-05         0.376577       -0.121122     -0.000318406    -0.000211302
                    -2.82959e-05     -0.00014014      -0.00191052       -0.898806     -9.96744e-05    -4.31239e-05         0.399759       -0.155846
281742                  0.368503        0.148072      -0.00022906      2.2681e-05        0.0337772       -0.913844     -3.11202e-05    -6.06572e-06
                    -0.000229026    -8.95727e-06         0.402373        0.153541     -3.50097e-05     5.81806e-05      -0.00205787       -0.899026
                        0.033726       -0.913873     -4.49371e-05     2.02626e-05         0.376527       -0.121317     -0.000320917    -0.000211138
                    -2.40359e-05    -0.000137125      -0.00216835         -0.8988     -0.000100975      -4.405e-05         0.399689       -0.156053
281744                  0.368521        0.148057     -0.000225437     2.39799e-05        0.0335185       -0.913848     -3.12255e-05     -6.8441e-06
                    -0.000223442    -1.54998e-05         0.402392        0.153518     -3.50849e-05     5.85444e-05      -0.00231491       -0.899021
                       0.0334658       -0.913871     -4.73668e-05     2.12875e-05         0.376477       -0.121511     -0.000323928     -0.00021178
                    -1.68311e-05     -0.00013922      -0.00242639       -0.898794     -0.000102693    -4.51705e-05         0.399619        -0.15626
281746                  0.368539        0.148037     -0.000224173     2.57433e-05          0.03326       -0.913852     -3.12809e-05    -7.62858e-06
                     -0.00022649     -1.1362e-05         0.402412        0.153495     -3.52041e-05     5.89304e-05      -0.00257161       -0.899016
                       0.0332029       -0.913869     -4.87407e-05     2.24079e-05         0.376427       -0.121706     -0.000327176    -0.000214005
                    -1.53162e-05     -0.00014657      -0.00268463       -0.898789     -0.000105004    -4.63612e-05         0.399549       -0.156468
281748                   0.36856        0.148019     -0.000223896     2.68329e-05        0.0330016       -0.913856     -3.12615e-05     -8.3955e-06
                    -0.000226683    -1.08534e-05         0.402431        0.153472     -3.53629e-05      5.9334e-05       -0.0028281        -0.89901
                        0.032937       -0.913867      -4.9352e-05     2.35464e-05         0.376377       -0.121901     -0.000329255    -0.000218745
                    -1.85238e-05     -0.00015056      -0.00294305       -0.898783     -0.000108045    -4.72964e-05          0.39948       -0.156675
281750                  0.368581        0.148001     -0.000223928     2.73426e-05        0.0327435        -0.91386       -3.114e-05    -9.07983e-06
                    -0.000226726     -1.0603e-05         0.402451         0.15345     -3.55564e-05     5.97526e-05      -0.00308479       -0.899004
                       0.0326698       -0.913869     -4.92784e-05     2.46102e-05         0.376327       -0.122095     -0.000327075    -0.000224914
                    -2.13134e-05    -0.000151744       -0.0032016       -0.898778     -0.000111653     -4.7379e-05         0.399411       -0.156882
281752                  0.368601        0.147984     -0.000224092     2.73854e-05        0.0324853       -0.913865     -3.09521e-05    -9.53415e-06
                    -0.000226841    -1.04219e-05          0.40247        0.153427     -3.57774e-05     6.01869e-05      -0.00334237       -0.898996
                        0.032405       -0.913874     -4.84483e-05       2.533e-05         0.376276        -0.12229     -0.000320355    -0.000227349
                     -2.2894e-05    -0.000152247      -0.00346023       -0.898772     -0.000114912    -4.60145e-05         0.399342       -0.157088
281754                  0.368622        0.147966     -0.000224529      2.6873e-05        0.0322252       -0.913871     -3.09854e-05    -9.63722e-06
                    -0.000227243    -1.02894e-05         0.402491        0.153404     -3.60135e-05     6.06433e-05      -0.00360097       -0.898989
                        0.032145       -0.913878     -4.69886e-05     2.48633e-05         0.376225       -0.122484     -0.000314624     -0.00022429
                    -2.30722e-05    -0.000153155      -0.00371884       -0.898767     -0.000116125    -4.34792e-05         0.399272       -0.157293
281756                  0.368642        0.147949     -0.000226674     2.57525e-05        0.0319642       -0.913874     -3.15827e-05    -9.77234e-06
                    -0.000228645     -1.0488e-05         0.402511        0.153381     -3.62312e-05     6.11476e-05      -0.00385997       -0.898983
                       0.0318921       -0.913881     -4.69234e-05     2.24319e-05         0.376174       -0.122678     -0.000312412     -0.00021942
                    -1.94934e-05    -0.000155121       -0.0039774       -0.898763     -0.000113895    -4.12811e-05         0.399201       -0.157499
281758                  0.368664        0.147932     -0.000229071      3.0532e-05        0.0317048       -0.913876     -3.23789e-05    -1.03956e-05
                    -0.000231486    -1.78654e-05         0.402531        0.153358     -3.62469e-05     6.18422e-05       -0.0041188       -0.898977
                       0.0316477       -0.913886     -4.97349e-05      2.1504e-05         0.376123        -0.12287     -0.000312564    -0.000214993
                    -7.49848e-06    -0.000142421      -0.00424061       -0.898765     -0.000107757    -4.06487e-05          0.39913       -0.157705
281760                  0.368682        0.147916      -0.00022601     3.12421e-05        0.0314461       -0.913879       -3.298e-05    -1.13069e-05
                    -0.000221154    -1.42515e-05         0.402551        0.153336     -3.86856e-05     5.67029e-05      -0.00437729       -0.898971
                       0.0314005       -0.913903      -5.1701e-05      2.3069e-05         0.376074       -0.123063     -0.000313906    -0.000211363
                     -2.3891e-05    -0.000135007      -0.00450075       -0.898747     -9.72407e-05    -4.04777e-05         0.399059       -0.157912
281762                  0.368702        0.147898     -0.000225154     3.06618e-05        0.0311876       -0.913882     -3.33935e-05     -1.2265e-05
                    -0.000222059    -1.18609e-05          0.40257        0.153313     -3.80208e-05     6.16389e-05      -0.00463548       -0.898965
                       0.0311422       -0.913918      -5.2273e-05     2.48915e-05         0.376025       -0.123257     -0.000315895    -0.000208364
