! TOUCHSTONE file generated by CST MICROWAVE STUDIO
! Date and time: Wed Oct 15 17:31:07 2025
! Project name: Teste_Macro_Metasurface_Nanopilar.cst
! Parameters = {H=600; L_x=125; L_y=170; Lambda=1064; Max_L=200; Min_L=70; PathPara=1; Phi=0; Step_L=10; Theta=0; p=520; phaseX=180; phaseY=0}
! Header version: 2018
! Port assignment regex: !\s*Touchstone port\s*([0-9]+)\s*=\s*(CST MWS port|CST DS port)\s*([0-9]+|Zmin|Zmax)\s*\(\"(.*)\"\)(\s*mode\s*([0-9]+))?.*
! Touchstone port assignment:
! Touchstone port 1 = CST MWS port Zmax ("") mode 1
! Touchstone port 2 = CST MWS port Zmax ("") mode 2
! Touchstone port 3 = CST MWS port Zmin ("") mode 1
! Touchstone port 4 = CST MWS port Zmin ("") mode 2
! S-Parameters are not renormalized. Each port impedance will be approximated by the real part at minimum frequency. The values are described via the [Reference] keyword.
! Default impedance is overridden by [Reference]
[Version] 2.0
# GHz S RI R 376.73
[Number of Ports] 4
[Reference]
376.73 376.73 259.888 259.888 
[Number of Frequencies] 51
[Network Data]
281700                  0.237348       -0.212052     -0.000516976     0.000596987         0.863629       -0.366995       0.00026058    -0.000896765
                     -0.00057885     0.000573265        0.0893209        0.117434     -0.000398823    -0.000677351         0.981865      -0.0688068
                        0.863525       -0.366811      -0.00043358    -0.000720666        -0.309362      0.00885338       0.00064457     0.000566552
                     0.000208585    -0.000893243         0.981665        -0.06874      0.000663625     0.000591351       -0.0706989        0.128634
281702                  0.237258       -0.211961     -0.000516717     0.000596829         0.863517        -0.36738      0.000260171    -0.000896459
                    -0.000578491     0.000573327        0.0893326        0.117447     -0.000398985    -0.000676853         0.981841      -0.0691219
                        0.863414       -0.367195     -0.000433649     -0.00072018        -0.309227      0.00912479      0.000644803     0.000565826
                     0.000208301    -0.000892865          0.98164      -0.0690555      0.000663882      0.00059066       -0.0706261        0.128694
281704                  0.237168       -0.211869     -0.000516458     0.000596671         0.863406       -0.367764      0.000259762    -0.000896154
                    -0.000578132     0.000573388        0.0893444         0.11746     -0.000399146    -0.000676355         0.981816      -0.0694371
                        0.863302       -0.367579     -0.000433718    -0.000719696        -0.309092      0.00939594      0.000645034     0.000565101
                     0.000208017    -0.000892488         0.981616       -0.069371      0.000664138      0.00058997       -0.0705532        0.128754
281706                  0.237077       -0.211778     -0.000516199     0.000596513         0.863294       -0.368148      0.000259353    -0.000895848
                    -0.000577772     0.000573448        0.0893562        0.117473     -0.000399307    -0.000675858         0.981791      -0.0697523
                        0.863191       -0.367963     -0.000433786    -0.000719211        -0.308958      0.00966685      0.000645265     0.000564377
                     0.000207734    -0.000892112         0.981591      -0.0696865      0.000664393     0.000589281       -0.0704802        0.128813
281708                  0.236987       -0.211686     -0.000515939     0.000596356         0.863182       -0.368532      0.000258944    -0.000895542
                    -0.000577413     0.000573507        0.0893679        0.117486     -0.000399468     -0.00067536         0.981766      -0.0700674
                        0.863079       -0.368347     -0.000433853    -0.000718728        -0.308822      0.00993752      0.000645495     0.000563653
                      0.00020745    -0.000891737         0.981566       -0.070002      0.000664648     0.000588592       -0.0704072        0.128873
281710                  0.236897       -0.211595      -0.00051568     0.000596198          0.86307       -0.368915      0.000258536    -0.000895236
                    -0.000577053     0.000573565        0.0893797        0.117499     -0.000399627    -0.000674862         0.981741      -0.0703825
                        0.862967       -0.368731      -0.00043392    -0.000718244        -0.308687       0.0102079      0.000645724      0.00056293
                     0.000207167    -0.000891362         0.981542      -0.0703175      0.000664902     0.000587903       -0.0703342        0.128933
281712                  0.236807       -0.211504      -0.00051542     0.000596041         0.862957       -0.369299      0.000258128    -0.000894931
                    -0.000576693     0.000573623        0.0893915        0.117512     -0.000399787    -0.000674365         0.981716      -0.0706977
                        0.862854       -0.369115     -0.000433987    -0.000717762        -0.308552       0.0104781      0.000645953     0.000562208
                     0.000206884    -0.000890989         0.981517       -0.070633      0.000665156     0.000587214       -0.0702611        0.128992
281714                  0.236718       -0.211412     -0.000515159     0.000595884         0.862845       -0.369682       0.00025772    -0.000894625
                    -0.000576333     0.000573679        0.0894033        0.117525     -0.000399946    -0.000673867         0.981691      -0.0710128
                        0.862742       -0.369499     -0.000434053    -0.000717279        -0.308416        0.010748      0.000646181     0.000561486
                     0.000206601    -0.000890617         0.981492      -0.0709485      0.000665409     0.000586527       -0.0701879        0.129052
281716                  0.236628       -0.211321     -0.000514899     0.000595727         0.862732       -0.370066      0.000257312    -0.000894319
                    -0.000575973     0.000573734         0.089415        0.117538     -0.000400104     -0.00067337         0.981665      -0.0713279
                        0.862629       -0.369882     -0.000434118    -0.000716797        -0.308281       0.0110177      0.000646408     0.000560765
                     0.000206319    -0.000890245         0.981467      -0.0712639      0.000665661     0.000585839       -0.0701147        0.129112
281718                  0.236538       -0.211229     -0.000514638      0.00059557         0.862619       -0.370449      0.000256905    -0.000894013
                    -0.000575613     0.000573789        0.0894268        0.117551     -0.000400262    -0.000672872          0.98164       -0.071643
                        0.862516       -0.370265     -0.000434183    -0.000716316        -0.308145       0.0112871      0.000646634     0.000560044
                     0.000206036    -0.000889874         0.981441      -0.0715793      0.000665913     0.000585152       -0.0700415        0.129171
281720                  0.236449       -0.211138     -0.000514377     0.000595413         0.862506       -0.370832      0.000256498    -0.000893707
                    -0.000575253     0.000573842        0.0894386        0.117564      -0.00040042    -0.000672375         0.981614       -0.071958
                        0.862403       -0.370648     -0.000434248    -0.000715835        -0.308009       0.0115563       0.00064686     0.000559324
                     0.000205754    -0.000889505         0.981416      -0.0718947      0.000666164     0.000584466       -0.0699682        0.129231
281722                  0.236359       -0.211047     -0.000514115     0.000595257         0.862392       -0.371215      0.000256091    -0.000893401
                    -0.000574892     0.000573895        0.0894504        0.117577     -0.000400577    -0.000671878         0.981589      -0.0722731
                         0.86229       -0.371031     -0.000434312    -0.000715354        -0.307873       0.0118252      0.000647085     0.000558605
                     0.000205472    -0.000889136         0.981391      -0.0722102      0.000666415     0.000583779       -0.0698949         0.12929
281724                   0.23627       -0.210956     -0.000513854       0.0005951         0.862279       -0.371597      0.000255684    -0.000893096
                    -0.000574532     0.000573946        0.0894622         0.11759     -0.000400733    -0.000671381         0.981563      -0.0725882
                        0.862176       -0.371414     -0.000434375    -0.000714874        -0.307737       0.0120939       0.00064731     0.000557887
                      0.00020519    -0.000888768         0.981365      -0.0725255      0.000666665     0.000583093       -0.0698215        0.129349
281726                  0.236181       -0.210865     -0.000513592     0.000594944         0.862165        -0.37198      0.000255278     -0.00089279
                    -0.000574171     0.000573997        0.0894739        0.117603     -0.000400889    -0.000670884         0.981537      -0.0729032
                        0.862063       -0.371797     -0.000434438    -0.000714395          -0.3076       0.0123623      0.000647533     0.000557169
                     0.000204908    -0.000888401         0.981339      -0.0728409      0.000666915     0.000582408       -0.0697481        0.129409
281728                  0.236092       -0.210773      -0.00051333     0.000594788         0.862051       -0.372362      0.000254871    -0.000892484
                     -0.00057381     0.000574046        0.0894857        0.117616     -0.000401045    -0.000670387         0.981511      -0.0732182
                        0.861949        -0.37218       -0.0004345    -0.000713915        -0.307464       0.0126305      0.000647756     0.000556452
                     0.000204627    -0.000888034         0.981314      -0.0731563      0.000667164     0.000581723       -0.0696747        0.129468
281730                  0.236003       -0.210682     -0.000513067     0.000594633         0.861937       -0.372745      0.000254465    -0.000892178
                     -0.00057345     0.000574095        0.0894975        0.117629       -0.0004012     -0.00066989         0.981485      -0.0735332
                        0.861835       -0.372562     -0.000434562    -0.000713437        -0.307327       0.0128984      0.000647978     0.000555735
                     0.000204345    -0.000887669         0.981288      -0.0734716      0.000667413     0.000581038       -0.0696012        0.129527
281732                  0.235914       -0.210591     -0.000512805     0.000594477         0.861823       -0.373127      0.000254059    -0.000891871
                    -0.000573089     0.000574143        0.0895093        0.117642     -0.000401355    -0.000669394         0.981459      -0.0738483
                        0.861721       -0.372944     -0.000434623    -0.000712958         -0.30719       0.0131661        0.0006482      0.00055502
                     0.000204064    -0.000887305         0.981262      -0.0737869      0.000667661     0.000580354       -0.0695276        0.129587
281734                  0.235825         -0.2105     -0.000512542     0.000594322         0.861709       -0.373509      0.000253654    -0.000891565
                    -0.000572728      0.00057419        0.0895211        0.117655     -0.000401509    -0.000668897         0.981433      -0.0741632
                        0.861607       -0.373327     -0.000434684    -0.000712481        -0.307053       0.0134336      0.000648421     0.000554304
                     0.000203783    -0.000886941         0.981236      -0.0741023      0.000667908     0.000579669        -0.069454        0.129646
281736                  0.235736       -0.210409     -0.000512278     0.000594167         0.861594       -0.373891      0.000253249    -0.000891259
                    -0.000572367     0.000574236        0.0895329        0.117668     -0.000401663    -0.000668401         0.981406      -0.0744782
                        0.861492       -0.373709     -0.000434744    -0.000712003        -0.306916       0.0137008      0.000648641      0.00055359
                     0.000203503    -0.000886578          0.98121      -0.0744176      0.000668155     0.000578986       -0.0693804        0.129705
281738                  0.235648       -0.210318     -0.000512015     0.000594012         0.861479       -0.374272      0.000252844    -0.000890953
                    -0.000572006     0.000574281        0.0895447        0.117681     -0.000401817    -0.000667905          0.98138      -0.0747932
                        0.861377        -0.37409     -0.000434804    -0.000711526        -0.306779       0.0139677       0.00064886     0.000552876
                     0.000203222    -0.000886217         0.981184      -0.0747328      0.000668402     0.000578302       -0.0693067        0.129764
281740                  0.235559       -0.210227     -0.000511751     0.000593857         0.861364       -0.374654      0.000252439    -0.000890646
                    -0.000571644     0.000574325        0.0895565        0.117694      -0.00040197    -0.000667409         0.981353      -0.0751082
                        0.861262       -0.374472     -0.000434863     -0.00071105        -0.306642       0.0142344      0.000649079     0.000552163
                     0.000202942    -0.000885856         0.981157      -0.0750481      0.000668648     0.000577619        -0.069233        0.129823
281742                  0.235471       -0.210136     -0.000511487     0.000593703         0.861249       -0.375036      0.000252035     -0.00089034
                    -0.000571283     0.000574368        0.0895683        0.117707     -0.000402122    -0.000666913         0.981327      -0.0754231
                        0.861147       -0.374854     -0.000434922    -0.000710574        -0.306504       0.0145009      0.000649297      0.00055145
                     0.000202662    -0.000885496         0.981131      -0.0753634      0.000668893     0.000576936       -0.0691592        0.129882
281744                  0.235382       -0.210045     -0.000511222     0.000593548         0.861134       -0.375417      0.000251632    -0.000890033
                    -0.000570921     0.000574411        0.0895801         0.11772     -0.000402274    -0.000666417           0.9813       -0.075738
                        0.861032       -0.375235      -0.00043498    -0.000710098        -0.306367       0.0147671      0.000649514     0.000550738
                     0.000202382    -0.000885136         0.981104      -0.0756786      0.000669138     0.000576254       -0.0690854        0.129941
281746                  0.235294       -0.209955     -0.000510958     0.000593394         0.861018       -0.375798      0.000251229    -0.000889726
                    -0.000570559     0.000574455        0.0895919        0.117733     -0.000402426    -0.000665921         0.981273      -0.0760529
                        0.860917       -0.375617     -0.000435037    -0.000709623        -0.306229        0.015033      0.000649731     0.000550026
                     0.000202102    -0.000884778         0.981078      -0.0759938      0.000669382     0.000575572       -0.0690115            0.13
281748                  0.235206       -0.209864     -0.000510693      0.00059324         0.860902       -0.376179      0.000250827    -0.000889418
                    -0.000570202     0.000574495        0.0896037        0.117746     -0.000402578    -0.000665426         0.981246      -0.0763679
                        0.860801       -0.375998     -0.000435094    -0.000709148        -0.306091       0.0152988      0.000649947     0.000549315
                     0.000201823    -0.000884421         0.981051       -0.076309      0.000669626      0.00057489       -0.0689376        0.130059
281750                  0.235118       -0.209773     -0.000510427     0.000593087         0.860787        -0.37656      0.000250428    -0.000889108
                     -0.00056984     0.000574533        0.0896155        0.117759     -0.000402728     -0.00066493         0.981219      -0.0766827
                        0.860685       -0.376379     -0.000435151    -0.000708674        -0.305953       0.0155642      0.000650162     0.000548602
                     0.000201544    -0.000884065         0.981024      -0.0766242      0.000669869     0.000574209       -0.0688636        0.130118
281752                   0.23503       -0.209682     -0.000510162     0.000592933          0.86067       -0.376941      0.000250038    -0.000888793
                    -0.000569478     0.000574571        0.0896273        0.117772     -0.000402879    -0.000664435         0.981192      -0.0769976
                        0.860569        -0.37676     -0.000435207      -0.0007082        -0.305815       0.0158294      0.000650378     0.000547885
                     0.000201263    -0.000883709         0.980997      -0.0769394      0.000670112     0.000573529       -0.0687896        0.130177
281754                  0.234942       -0.209591     -0.000509896      0.00059278         0.860554       -0.377321      0.000249743    -0.000888416
                    -0.000569116     0.000574609        0.0896391        0.117785     -0.000403029    -0.000663938         0.981165      -0.0773125
                        0.860453       -0.377141     -0.000435262    -0.000707726        -0.305676       0.0160944      0.000650601     0.000547114
                     0.000200985    -0.000883354          0.98097      -0.0772546      0.000670353     0.000572851       -0.0687156        0.130236
281756                  0.234854       -0.209501      -0.00050963     0.000592627         0.860438       -0.377702      0.000249143    -0.000888239
                    -0.000568754     0.000574646        0.0896509        0.117798     -0.000403177    -0.000663438         0.981137      -0.0776274
                        0.860337       -0.377521     -0.000435317    -0.000707253        -0.305538       0.0163592      0.000650798     0.000546524
                     0.000200706    -0.000882999         0.980943      -0.0775697      0.000670591     0.000572177       -0.0686415        0.130294
281758                  0.234767        -0.20941     -0.000509363     0.000592475         0.860321       -0.378082      0.000248772     -0.00088791
                    -0.000568393     0.000574682        0.0896627        0.117811     -0.000403296    -0.000662935          0.98111      -0.0779422
                         0.86022       -0.377902     -0.000435372     -0.00070678        -0.305399       0.0166236      0.000651013     0.000545797
                     0.000200428    -0.000882646         0.980916      -0.0778849      0.000670798      0.00057151       -0.0685673        0.130353
281760                  0.234679       -0.209319     -0.000509096     0.000592322         0.860204       -0.378463      0.000248377    -0.000887598
                    -0.000568031     0.000574717        0.0896745        0.117824     -0.000403463    -0.000662476         0.981082       -0.078257
                        0.860104       -0.378282     -0.000435425    -0.000706308         -0.30526       0.0168879      0.000651225     0.000545087
                     0.000200149    -0.000882294         0.980888         -0.0782      0.000671064     0.000570762       -0.0684931        0.130412
281762                  0.234592       -0.209229     -0.000508829      0.00059217         0.860087       -0.378843      0.000247978    -0.000887289
                    -0.000567669     0.000574751        0.0896863        0.117837     -0.000403619    -0.000661978         0.981054      -0.0785719
                        0.859987       -0.378663     -0.000435479    -0.000705836        -0.305122       0.0171519      0.000651436     0.000544379
