! TOUCHSTONE file generated by CST MICROWAVE STUDIO
! Date and time: Wed Oct 15 17:34:49 2025
! Project name: Teste_Macro_Metasurface_Nanopilar.cst
! Parameters = {H=600; L_x=190; L_y=160; Lambda=1064; Max_L=200; Min_L=70; PathPara=1; Phi=0; Step_L=10; Theta=0; p=520; phaseX=180; phaseY=0}
! Header version: 2018
! Port assignment regex: !\s*Touchstone port\s*([0-9]+)\s*=\s*(CST MWS port|CST DS port)\s*([0-9]+|Zmin|Zmax)\s*\(\"(.*)\"\)(\s*mode\s*([0-9]+))?.*
! Touchstone port assignment:
! Touchstone port 1 = CST MWS port Zmax ("") mode 1
! Touchstone port 2 = CST MWS port Zmax ("") mode 2
! Touchstone port 3 = CST MWS port Zmin ("") mode 1
! Touchstone port 4 = CST MWS port Zmin ("") mode 2
! S-Parameters are not renormalized. Each port impedance will be approximated by the real part at minimum frequency. The values are described via the [Reference] keyword.
! Default impedance is overridden by [Reference]
[Version] 2.0
# GHz S RI R 376.73
[Number of Ports] 4
[Reference]
376.73 376.73 259.888 259.888 
[Number of Frequencies] 51
[Network Data]
281700                  0.100377      -0.0173783      0.000455267     -0.00013059         0.409182       -0.894472      0.000471584     0.000600633
                     0.000465853    -9.41301e-05         0.233939       0.0913624       0.00055817    -6.52005e-05         0.209642       -0.941472
                        0.409181       -0.894122       0.00052546    -1.70362e-05        0.0475698       0.0997365      0.000339075     0.000598529
                     0.000495668     0.000680074         0.209563         -0.9413      0.000339372     0.000572893          0.24869       0.0146843
281702                  0.100239      -0.0174538      0.000455368    -0.000130767          0.40879       -0.894646      0.000471751      0.00060087
                     0.000466232    -9.44935e-05         0.233955       0.0913633      0.000558416    -6.58796e-05          0.20937       -0.941528
                        0.408789       -0.894296      0.000525449    -1.71964e-05        0.0474977       0.0996713      0.000339098     0.000599039
                     0.000496112      0.00068015          0.20929       -0.941356      0.000339843     0.000573131         0.248713       0.0145469
281704                    0.1001      -0.0175294      0.000455469    -0.000130942         0.408396        -0.89482      0.000471914     0.000601107
                     0.000466612    -9.48559e-05          0.23397       0.0913642      0.000558662    -6.65585e-05         0.209097       -0.941584
                        0.408396        -0.89447       0.00052544    -1.73553e-05        0.0474252       0.0996062      0.000339114     0.000599547
                     0.000496556     0.000680229         0.209018       -0.941413      0.000340315     0.000573368         0.248736       0.0144094
281706                 0.0999614      -0.0176052      0.000455571    -0.000131116         0.408003       -0.894993      0.000472075     0.000601344
                     0.000466992    -9.52172e-05         0.233986       0.0913651       0.00055891    -6.72371e-05         0.208825        -0.94164
                        0.408003       -0.894643      0.000525433    -1.75128e-05        0.0473523       0.0995411      0.000339122     0.000600053
                        0.000497     0.000680308         0.208745       -0.941469      0.000340788     0.000573606         0.248759       0.0142719
281708                 0.0998222       -0.017681      0.000455672    -0.000131287         0.407609       -0.895167      0.000472233     0.000601579
                     0.000467374    -9.55774e-05         0.234001        0.091366      0.000559159    -6.79156e-05         0.208553       -0.941696
                         0.40761       -0.894817      0.000525428    -1.76691e-05         0.047279       0.0994762      0.000339123     0.000600557
                     0.000497444     0.000680389         0.208473       -0.941525      0.000341261     0.000573844         0.248782       0.0141343
281710                 0.0996826       -0.017757      0.000455774    -0.000131458         0.407214       -0.895341      0.000472387     0.000601814
                     0.000467756    -9.59365e-05         0.234017       0.0913669      0.000559409    -6.85938e-05         0.208281       -0.941751
                        0.407216        -0.89499      0.000525426    -1.78241e-05        0.0472053       0.0994113      0.000339116     0.000601059
                     0.000497889     0.000680471           0.2082       -0.941582      0.000341735     0.000574083         0.248805       0.0139968
281712                 0.0995426      -0.0178331      0.000455876    -0.000131627         0.406819       -0.895514      0.000472539     0.000602048
                      0.00046814    -9.62946e-05         0.234032       0.0913678      0.000559661    -6.92718e-05         0.208009       -0.941807
                        0.406822       -0.895164      0.000525425    -1.79778e-05        0.0471313       0.0993465      0.000339101      0.00060156
                     0.000498333     0.000680555         0.207928       -0.941638       0.00034221     0.000574322         0.248828       0.0138592
281714                 0.0994022      -0.0179093      0.000455979    -0.000131794         0.406424       -0.895687      0.000472687     0.000602282
                     0.000468524    -9.66516e-05         0.234048       0.0913687      0.000559913    -6.99495e-05         0.207737       -0.941862
                        0.406427       -0.895337      0.000525427    -1.81303e-05        0.0470569       0.0992817      0.000339079     0.000602058
                     0.000498777      0.00068064         0.207655       -0.941694      0.000342685      0.00057456         0.248851       0.0137217
281716                 0.0992615      -0.0179856      0.000456081     -0.00013196         0.406028       -0.895861      0.000472833     0.000602514
                     0.000468909    -9.70076e-05         0.234063       0.0913696      0.000560166     -7.0627e-05         0.207465       -0.941918
                        0.406032        -0.89551      0.000525431    -1.82816e-05         0.046982        0.099217      0.000339049     0.000602554
                     0.000499222     0.000680727         0.207383        -0.94175      0.000343161     0.000574797         0.248873       0.0135841
281718                 0.0991204      -0.0180621      0.000456184    -0.000132124         0.405632       -0.896034      0.000472975     0.000602746
                     0.000469296    -9.73624e-05         0.234079       0.0913705      0.000560421    -7.13041e-05         0.207193       -0.941973
                        0.405637       -0.895683      0.000525437    -1.84316e-05        0.0469068       0.0991525      0.000339012     0.000603048
                     0.000499667     0.000680815          0.20711       -0.941805      0.000343641     0.000575033         0.248896       0.0134464
281720                  0.098979      -0.0181386      0.000456287    -0.000132286         0.405236       -0.896207      0.000473115     0.000602977
                     0.000469683    -9.77162e-05         0.234095       0.0913714      0.000560676    -7.19809e-05          0.20692       -0.942029
                        0.405241       -0.895857      0.000525445    -1.85804e-05        0.0468312       0.0990879      0.000338966      0.00060354
                     0.000500111     0.000680904         0.206838       -0.941861      0.000344123     0.000575273         0.248918       0.0133088
281722                 0.0988371      -0.0182153      0.000456391    -0.000132447         0.404839        -0.89638      0.000473251     0.000603207
                     0.000470071    -9.80689e-05          0.23411       0.0913722      0.000560933    -7.26571e-05         0.206648       -0.942084
                        0.404845        -0.89603      0.000525456    -1.87281e-05        0.0467552       0.0990235      0.000338913     0.000604029
                     0.000500557     0.000680996         0.206565       -0.941917      0.000344605     0.000575514         0.248941       0.0131712
281724                 0.0986949      -0.0182921      0.000456494    -0.000132607         0.404442       -0.896553      0.000473384     0.000603436
                      0.00047046    -9.84206e-05         0.234126       0.0913731      0.000561192    -7.33326e-05         0.206376       -0.942139
                        0.404448       -0.896202      0.000525468    -1.88746e-05        0.0466788       0.0989591      0.000338852     0.000604515
                     0.000501002     0.000681088         0.206292       -0.941972      0.000345086     0.000575756         0.248963       0.0130335
281726                 0.0985523      -0.0183689      0.000456598    -0.000132765         0.404044       -0.896726      0.000473514     0.000603664
                     0.000470851    -9.87711e-05         0.234141        0.091374      0.000561452    -7.40068e-05         0.206104       -0.942194
                        0.404051       -0.896375      0.000525483    -1.90199e-05         0.046602       0.0988948      0.000338783     0.000604999
                     0.000501447     0.000681183          0.20602       -0.942028      0.000345567     0.000575998         0.248986       0.0128958
281728                 0.0984093      -0.0184459      0.000456702    -0.000132921         0.403646       -0.896899       0.00047364     0.000603891
                     0.000471242    -9.91206e-05         0.234157       0.0913748      0.000561717    -7.46776e-05         0.205831       -0.942249
                        0.403653       -0.896548        0.0005255    -1.91641e-05        0.0465249       0.0988306      0.000338706     0.000605481
                     0.000501893     0.000681279         0.205747       -0.942083       0.00034605      0.00057624         0.249008       0.0127581
281730                  0.098266      -0.0185231      0.000456807    -0.000133076         0.403247       -0.897072      0.000473764     0.000604117
                     0.000471634    -9.94691e-05         0.234172       0.0913757      0.000561996    -7.53341e-05         0.205559       -0.942304
                        0.403255       -0.896721      0.000525519    -1.93072e-05        0.0464473       0.0987665      0.000338621      0.00060596
                     0.000502339     0.000681376         0.205475       -0.942139      0.000346533     0.000576482          0.24903       0.0126204
281732                 0.0981222      -0.0186003      0.000456911    -0.000133229         0.402848       -0.897245      0.000473884     0.000604343
                     0.000472027    -9.98164e-05         0.234188       0.0913766      0.000562176    -7.62147e-05         0.205287       -0.942359
                        0.402857       -0.896893       0.00052554    -1.94492e-05        0.0463693       0.0987025      0.000338527     0.000606436
                     0.000502786     0.000681475         0.205202       -0.942194      0.000347017     0.000576724         0.249052       0.0124827
281734                 0.0979781      -0.0186776      0.000457016    -0.000133381         0.402448       -0.897417         0.000474     0.000604567
                     0.000472421    -0.000100163         0.234203       0.0913774       0.00056247    -7.67521e-05         0.205014       -0.942413
                        0.402458       -0.897066      0.000525563    -1.95901e-05         0.046291       0.0986385      0.000338426     0.000606909
                     0.000503233     0.000681576         0.204929       -0.942249      0.000347501     0.000576967         0.249074        0.012345
281736                 0.0978336      -0.0187551      0.000457121    -0.000133531         0.402049        -0.89759      0.000474114      0.00060479
                     0.000472817    -0.000100508         0.234219       0.0913783      0.000562741    -7.74157e-05         0.204742       -0.942468
                        0.402059       -0.897238      0.000525589    -1.97299e-05        0.0462122       0.0985746      0.000338317     0.000607379
                      0.00050368     0.000681678         0.204657       -0.942305      0.000347987     0.000577209         0.249096       0.0122072
281738                 0.0976887      -0.0188327      0.000457226     -0.00013368         0.401648       -0.897762      0.000474224     0.000605011
                     0.000473213    -0.000100852         0.234235       0.0913791      0.000563008    -7.80872e-05          0.20447       -0.942523
                        0.401659       -0.897411      0.000525617    -1.98686e-05        0.0461331       0.0985108        0.0003382     0.000607846
                     0.000504128     0.000681783         0.204384        -0.94236      0.000348473     0.000577452         0.249118       0.0120694
281740                 0.0975434      -0.0189104      0.000457331    -0.000133827         0.401247       -0.897934       0.00047433     0.000605232
                      0.00047361    -0.000101195          0.23425         0.09138      0.000563275    -7.87607e-05         0.204197       -0.942577
                        0.401259       -0.897583      0.000525647    -2.00063e-05        0.0460535       0.0984471      0.000338074      0.00060831
                     0.000504577     0.000681888         0.204111       -0.942415       0.00034896     0.000577696         0.249139       0.0119316
281742                 0.0973978      -0.0189882      0.000457437    -0.000133973         0.400846       -0.898107      0.000474434     0.000605452
                     0.000474008    -0.000101537         0.234266       0.0913808      0.000563543    -7.94351e-05         0.203925       -0.942632
                        0.400859       -0.897755      0.000525679     -2.0143e-05        0.0459735       0.0983834      0.000337941     0.000608771
                     0.000505026     0.000681996         0.203838       -0.942469      0.000349448      0.00057794         0.249161       0.0117938
281744                 0.0972517      -0.0190661      0.000457543    -0.000134118         0.400445       -0.898279      0.000474534      0.00060567
                     0.000474408    -0.000101878         0.234281       0.0913816      0.000563811    -8.01098e-05         0.203653       -0.942686
                        0.400458       -0.897927      0.000525713    -2.02786e-05        0.0458932       0.0983199      0.000337799     0.000609229
                     0.000505475     0.000682105         0.203566       -0.942524      0.000349937     0.000578184         0.249183        0.011656
281746                 0.0971053      -0.0191442      0.000457648    -0.000134261         0.400043       -0.898451       0.00047463     0.000605887
                     0.000474808    -0.000102218         0.234297       0.0913825       0.00056408    -8.07846e-05          0.20338        -0.94274
                        0.400056       -0.898099       0.00052575    -2.04132e-05        0.0458124       0.0982564      0.000337649     0.000609683
                     0.000505925     0.000682216         0.203293       -0.942579      0.000350426     0.000578428         0.249204       0.0115182
281748                 0.0969584      -0.0192223      0.000457755    -0.000134402          0.39964       -0.898623      0.000474723     0.000606103
                     0.000475209    -0.000102557         0.234312       0.0913833       0.00056435    -8.14595e-05         0.203108       -0.942794
                        0.399655       -0.898271      0.000525788    -2.05469e-05        0.0457312       0.0981931       0.00033749     0.000610134
                     0.000506376     0.000682329          0.20302       -0.942634      0.000350917     0.000578673         0.249225       0.0113803
281750                 0.0968112      -0.0193006      0.000457861    -0.000134542         0.399237       -0.898795      0.000474813     0.000606317
                     0.000475612    -0.000102895         0.234328       0.0913841      0.000564621    -8.21343e-05         0.202835       -0.942848
                        0.399252       -0.898443      0.000525829    -2.06795e-05        0.0456496       0.0981298      0.000337324     0.000610581
                     0.000506828     0.000682443         0.202748       -0.942688      0.000351408     0.000578917         0.249247       0.0112424
281752                 0.0966636       -0.019379      0.000457967    -0.000134681         0.398834       -0.898967      0.000474899      0.00060653
                     0.000476015    -0.000103231         0.234343       0.0913849      0.000564894    -8.28091e-05         0.202563       -0.942902
                         0.39885       -0.898614      0.000525873    -2.08112e-05        0.0455676       0.0980666      0.000337149     0.000611025
                      0.00050728     0.000682559         0.202475       -0.942743      0.000351899     0.000579163         0.249268       0.0111045
281754                 0.0965155      -0.0194575      0.000458074    -0.000134818          0.39843       -0.899139      0.000474981     0.000606742
                      0.00047642    -0.000103567         0.234359       0.0913858      0.000565167    -8.34839e-05          0.20229       -0.942956
                        0.398447       -0.898786      0.000525918    -2.09419e-05        0.0454852       0.0980034      0.000336965     0.000611465
                     0.000507733     0.000682677         0.202202       -0.942797      0.000352392     0.000579408         0.249289       0.0109666
281756                 0.0963671      -0.0195361      0.000458181    -0.000134953         0.398026        -0.89931       0.00047506     0.000606953
                     0.000476825    -0.000103901         0.234375       0.0913866      0.000565441    -8.41586e-05         0.202018        -0.94301
                        0.398043       -0.898958      0.000525965    -2.10717e-05        0.0454024       0.0979404      0.000336774     0.000611901
                     0.000508187     0.000682797         0.201929       -0.942852      0.000352885     0.000579654          0.24931       0.0108287
281758                 0.0962183      -0.0196148      0.000458288    -0.000135088         0.397621       -0.899482      0.000475136     0.000607162
                     0.000477232    -0.000104235          0.23439       0.0913874      0.000565716    -8.48332e-05         0.201745       -0.943064
                        0.397639       -0.899129      0.000526015    -2.12006e-05        0.0453192       0.0978775      0.000336574     0.000612333
                     0.000508641     0.000682919         0.201656       -0.942906       0.00035338     0.000579901         0.249331       0.0106908
281760                  0.096069      -0.0196937      0.000458395     -0.00013522         0.397216       -0.899653      0.000475208     0.000607369
                     0.000477639    -0.000104568         0.234406       0.0913882      0.000565992    -8.55077e-05         0.201473       -0.943118
                        0.397235         -0.8993      0.000526067    -2.13284e-05        0.0452356       0.0978146      0.000336365     0.000612761
                     0.000509097     0.000683043         0.201383        -0.94296      0.000353875     0.000580147         0.249352       0.0105528
281762                 0.0959194      -0.0197727      0.000458502    -0.000135352         0.396811       -0.899825      0.000475276     0.000607575
                     0.000478048    -0.000104899         0.234421        0.091389      0.000566269    -8.61821e-05           0.2012       -0.943171
                         0.39683       -0.899472      0.000526122    -2.14554e-05        0.0451515       0.0977519      0.000336148     0.000613185
