! TOUCHSTONE file generated by CST MICROWAVE STUDIO
! Date and time: Wed Oct 15 17:30:19 2025
! Project name: Teste_Macro_Metasurface_Nanopilar.cst
! Parameters = {H=600; L_x=110; L_y=195; Lambda=1064; Max_L=200; Min_L=70; PathPara=1; Phi=0; Step_L=10; Theta=0; p=520; phaseX=180; phaseY=0}
! Header version: 2018
! Port assignment regex: !\s*Touchstone port\s*([0-9]+)\s*=\s*(CST MWS port|CST DS port)\s*([0-9]+|Zmin|Zmax)\s*\(\"(.*)\"\)(\s*mode\s*([0-9]+))?.*
! Touchstone port assignment:
! Touchstone port 1 = CST MWS port Zmax ("") mode 1
! Touchstone port 2 = CST MWS port Zmax ("") mode 2
! Touchstone port 3 = CST MWS port Zmin ("") mode 1
! Touchstone port 4 = CST MWS port Zmin ("") mode 2
! S-Parameters are not renormalized. Each port impedance will be approximated by the real part at minimum frequency. The values are described via the [Reference] keyword.
! Default impedance is overridden by [Reference]
[Version] 2.0
# GHz S RI R 376.73
[Number of Ports] 4
[Reference]
376.73 376.73 259.888 259.888 
[Number of Frequencies] 51
[Network Data]
281700                  0.167527       -0.160225     -0.000187721    -0.000176536         0.757401       -0.600409      6.39854e-05      8.2647e-05
                    -0.000159543    -0.000133142         0.081297       0.0159239     -1.06751e-05    -5.54289e-06          0.73927        0.657433
                        0.757904       -0.600568      3.67373e-05     9.93793e-05        -0.192347        0.117468      0.000130618    -0.000124511
                     3.44489e-05     6.52919e-05         0.738784         0.65768      0.000209628    -0.000131475       -0.0243631      -0.0763115
281702                  0.167499       -0.160168     -0.000188352    -0.000176974         0.757203       -0.600682      6.45374e-05     8.27709e-05
                    -0.000159499    -0.000132931        0.0812888       0.0159391     -1.08656e-05    -5.55839e-06         0.739514        0.657166
                        0.757699       -0.600845      3.78171e-05     9.88218e-05        -0.192202        0.117591      0.000129905    -0.000124579
                     3.52526e-05     6.54151e-05         0.739034        0.657415       0.00020851     -0.00013231       -0.0244333      -0.0762844
281704                  0.167471        -0.16011     -0.000189155    -0.000177287         0.757005       -0.600954      6.51007e-05     8.28801e-05
                    -0.000159438    -0.000132722        0.0812805       0.0159542      -1.1064e-05    -5.57098e-06         0.739757          0.6569
                        0.757494       -0.601122      3.87482e-05     9.81961e-05        -0.192057        0.117714      0.000129189      -0.0001246
                      3.6073e-05     6.55142e-05         0.739284         0.65715      0.000207378    -0.000133124       -0.0245034      -0.0762572
281706                  0.167443       -0.160053     -0.000190108    -0.000177434         0.756807       -0.601227      6.56751e-05      8.2973e-05
                    -0.000159359    -0.000132515        0.0812723       0.0159694     -1.12708e-05    -5.58009e-06             0.74        0.656633
                        0.757289       -0.601399      3.95366e-05       9.752e-05        -0.191912        0.117836      0.000128466    -0.000124558
                     3.69099e-05     6.55878e-05         0.739534        0.656884      0.000206231    -0.000133916       -0.0245735      -0.0762299
281708                  0.167416       -0.159995     -0.000191175    -0.000177376         0.756609       -0.601499      6.62605e-05     8.30475e-05
                    -0.000159261     -0.00013231        0.0812641       0.0159845     -1.14867e-05    -5.58499e-06         0.740243        0.656365
                        0.757084       -0.601675        4.019e-05     9.68089e-05        -0.191767        0.117958      0.000127732    -0.000124436
                     3.77628e-05      6.5634e-05         0.739785        0.656618      0.000205069    -0.000134684       -0.0246435      -0.0762025
281710                  0.167388       -0.159937      -0.00019231    -0.000177088         0.756411       -0.601772      6.68563e-05     8.31013e-05
                    -0.000159143    -0.000132108        0.0812558       0.0159997     -1.17126e-05    -5.58476e-06         0.740485        0.656098
                        0.756879       -0.601951      4.07171e-05     9.60755e-05        -0.191622         0.11808      0.000126978      -0.0001242
                     3.86315e-05     6.56511e-05         0.740036        0.656351      0.000203892    -0.000135425       -0.0247135       -0.076175
281712                   0.16736        -0.15988      -0.00019346    -0.000176556         0.756213       -0.602045      6.74619e-05      8.3132e-05
                    -0.000159005    -0.000131907        0.0812476       0.0160149     -1.19492e-05    -5.57826e-06         0.740728         0.65583
                        0.756674       -0.602227      4.11267e-05     9.53305e-05        -0.191477        0.118202      0.000126187    -0.000123801
                     3.95152e-05     6.56373e-05         0.740287        0.656083        0.0002027    -0.000136138       -0.0247834      -0.0761473
281714                  0.167332       -0.159822     -0.000194567    -0.000175786         0.756015       -0.602317      6.80763e-05     8.31368e-05
                    -0.000158846     -0.00013171        0.0812394       0.0160301     -1.21973e-05    -5.56403e-06          0.74097        0.655563
                        0.756469       -0.602502      4.14281e-05     9.45823e-05        -0.191331        0.118323      0.000125324    -0.000123153
                     4.04134e-05     6.55906e-05         0.740538        0.655814      0.000201493     -0.00013682       -0.0248533      -0.0761195
281716                  0.167304       -0.159765     -0.000195582    -0.000174798         0.755817       -0.602589      6.86981e-05     8.31126e-05
                    -0.000158665    -0.000131515        0.0812312       0.0160453     -1.24581e-05     -5.5402e-06         0.741212        0.655295
                        0.756264       -0.602777      4.16303e-05     9.38378e-05        -0.191186        0.118445      0.000124302    -0.000122096
                     4.13252e-05     6.55092e-05         0.740789        0.655545       0.00020027    -0.000137468       -0.0249231      -0.0760915
281718                  0.167276       -0.159707     -0.000196462    -0.000173625         0.755619       -0.602862      6.93254e-05     8.30562e-05
                    -0.000158462    -0.000131324         0.081223       0.0160605     -1.27322e-05    -5.50434e-06         0.741453        0.655027
                        0.756058       -0.603051      4.17418e-05     9.31023e-05         -0.19104        0.118566      0.000122879    -0.000120311
                     4.22497e-05     6.53911e-05         0.741039        0.655273      0.000199033    -0.000138077       -0.0249928      -0.0760635
281720                  0.167249        -0.15965      -0.00019718    -0.000172309         0.755421       -0.603134      6.99559e-05      8.2964e-05
                    -0.000158236    -0.000131136        0.0812148       0.0160757     -1.30207e-05     -5.4533e-06         0.741695        0.654759
                        0.755853       -0.603325      4.17711e-05     9.23797e-05        -0.190894        0.118687      0.000120218    -0.000117121
                      4.3186e-05     6.52345e-05          0.74129        0.655001      0.000197782    -0.000138643       -0.0250625      -0.0760353
281722                  0.167221       -0.159592     -0.000197722    -0.000170894         0.755223       -0.603406      7.05863e-05     8.28321e-05
                    -0.000157986    -0.000130952        0.0812066       0.0160909      -1.3324e-05    -5.38296e-06         0.741936         0.65449
                        0.755648       -0.603598      4.17256e-05      9.1673e-05        -0.190748        0.118808      0.000112462    -0.000111779
                     4.41328e-05     6.50375e-05         0.741539        0.654727      0.000196519    -0.000139162        -0.025132       -0.076007
281724                  0.167193       -0.159535     -0.000198085    -0.000169421         0.755024       -0.603679      7.12125e-05     8.26565e-05
                    -0.000157711    -0.000130773        0.0811984       0.0161061      -1.3642e-05    -5.28797e-06         0.742176        0.654222
                        0.755442       -0.603872      4.16127e-05     9.09843e-05        -0.190602        0.118929      8.97402e-05    -0.000120343
                     4.50888e-05     6.47982e-05         0.741787        0.654453      0.000195248    -0.000139625       -0.0252015      -0.0759786
281726                  0.167165       -0.159477     -0.000198277    -0.000167929         0.754826       -0.603951      7.18294e-05      8.2433e-05
                    -0.000157411    -0.000130597        0.0811902       0.0161213     -1.39736e-05    -5.16137e-06         0.742417        0.653953
                        0.755237       -0.604144      4.14389e-05     9.03149e-05        -0.190456        0.119049       0.00010194    -0.000144723
                     4.60525e-05     6.45149e-05         0.742034        0.654177      0.000193972    -0.000140028       -0.0252709      -0.0759501
281728                  0.167137        -0.15942     -0.000198312    -0.000166446         0.754628       -0.604223      7.24306e-05     8.21576e-05
                    -0.000157085    -0.000130427         0.081182       0.0161365     -1.43156e-05    -4.99434e-06         0.742657        0.653684
                        0.755032       -0.604417        4.121e-05     8.96656e-05         -0.19031         0.11917      0.000112677    -0.000142546
                     4.70222e-05     6.41858e-05         0.742279        0.653901      0.000192698     -0.00014036       -0.0253401      -0.0759215
281730                   0.16711       -0.159362     -0.000198209    -0.000164997          0.75443       -0.604495      7.30078e-05     8.18262e-05
                    -0.000156733     -0.00013026        0.0811738       0.0161518     -1.46609e-05     -4.7762e-06         0.742897        0.653415
                        0.754827       -0.604688      4.09317e-05     8.90368e-05        -0.190164         0.11929      0.000115635    -0.000139685
                     4.79962e-05     6.38097e-05         0.742522        0.653625      0.000191436    -0.000140615       -0.0254092      -0.0758929
281732                  0.167082       -0.159305     -0.000197987    -0.000163596         0.754231       -0.604767      7.35512e-05     8.14356e-05
                    -0.000156354    -0.000130099        0.0811657        0.016167     -1.49966e-05     -4.4951e-06         0.743136        0.653146
                        0.754621        -0.60496      4.06088e-05     8.84285e-05        -0.190018         0.11941      0.000116445    -0.000137934
                     4.89724e-05      6.3385e-05         0.742764         0.65335      0.000190199    -0.000140784       -0.0254782      -0.0758642
281734                  0.167054       -0.159247     -0.000197667    -0.000162256         0.754033       -0.605038      7.40489e-05     8.09834e-05
                    -0.000155947    -0.000129943        0.0811575       0.0161823     -1.53011e-05    -4.14061e-06         0.743375        0.652876
                        0.754416       -0.605231      4.02456e-05     8.78403e-05        -0.189871         0.11953      0.000116507    -0.000136859
                     4.99488e-05     6.29109e-05         0.743005        0.653075      0.000189006    -0.000140859        -0.025547      -0.0758356
281736                  0.167027        -0.15919     -0.000197266    -0.000160981         0.753834        -0.60531      7.44863e-05     8.04686e-05
                    -0.000155512    -0.000129792        0.0811494       0.0161975     -1.55408e-05    -3.70951e-06         0.743614        0.652606
                        0.754211       -0.605501      3.98462e-05     8.72719e-05        -0.189725         0.11965      0.000116247    -0.000136176
                     5.09231e-05     6.23866e-05         0.743245        0.652801      0.000187881    -0.000140839       -0.0256158      -0.0758071
281738                  0.166999       -0.159132     -0.000196801    -0.000159773         0.753636       -0.605582      7.48465e-05     7.98928e-05
                    -0.000155048    -0.000129646        0.0811413       0.0162128     -1.56717e-05    -3.21608e-06         0.743852        0.652337
                        0.754006       -0.605771      3.94139e-05     8.67225e-05        -0.189578         0.11977      0.000115823    -0.000135733
                      5.1893e-05      6.1812e-05         0.743484        0.652527      0.000186854    -0.000140727       -0.0256846      -0.0757787
281740                  0.166972       -0.159075     -0.000196287    -0.000158634         0.753437       -0.605853        7.511e-05     7.92608e-05
                    -0.000154556    -0.000129505        0.0811332        0.016228     -1.56501e-05    -2.70443e-06          0.74409        0.652067
                        0.753801       -0.606041      3.89519e-05     8.61916e-05        -0.189432         0.11989      0.000115306    -0.000135448
                     5.28558e-05     6.11873e-05         0.743724        0.652255       0.00018596    -0.000140537       -0.0257534      -0.0757505
281742                  0.166944       -0.159017     -0.000195734     -0.00015756         0.753238       -0.606124      7.52547e-05      7.8582e-05
                    -0.000154036    -0.000129368        0.0811251       0.0162433     -1.54571e-05    -2.25206e-06         0.744327        0.651796
                        0.753597        -0.60631      3.84627e-05     8.56782e-05        -0.189285        0.120009      0.000114731    -0.000135271
                      5.3809e-05     6.05135e-05         0.743963        0.651982      0.000185234    -0.000140299       -0.0258225      -0.0757223
281744                  0.166916        -0.15896     -0.000195154    -0.000156548         0.753039       -0.606396      7.52567e-05     7.78718e-05
                    -0.000153488    -0.000129234         0.081117       0.0162586     -1.51265e-05    -1.94841e-06         0.744563        0.651526
                        0.753392       -0.606578      3.79486e-05     8.51818e-05        -0.189138        0.120129      0.000114119    -0.000135171
                       5.475e-05     5.97924e-05         0.744202        0.651711      0.000184704     -0.00014006       -0.0258918      -0.0756942
281746                  0.166889       -0.158903     -0.000194555    -0.000155596          0.75284       -0.606667      7.50915e-05     7.71535e-05
                    -0.000152913    -0.000129104        0.0811089       0.0162739     -1.47465e-05    -1.85029e-06         0.744798        0.651255
                        0.753188       -0.606846      3.74114e-05     8.47014e-05        -0.188992        0.120248      0.000113478    -0.000135129
                     5.56762e-05     5.90268e-05          0.74444        0.651439       0.00018438    -0.000139884       -0.0259614      -0.0756659
281748                  0.166861       -0.158845     -0.000193944    -0.000154699         0.752641       -0.606938      7.47351e-05     7.64603e-05
                    -0.000152312    -0.000128976        0.0811009       0.0162891      -1.4421e-05    -1.94974e-06         0.745033        0.650983
                        0.752983       -0.607113      3.68526e-05     8.42365e-05        -0.188845        0.120367      0.000112816    -0.000135134
                      5.6585e-05     5.82209e-05          0.74468        0.651168      0.000184247    -0.000139843       -0.0260312      -0.0756373
281750                  0.166834       -0.158788     -0.000193326    -0.000153853         0.752442       -0.607209      7.41677e-05     7.58364e-05
                    -0.000151689    -0.000128848        0.0810929       0.0163044     -1.42212e-05    -2.18599e-06         0.745266        0.650711
                        0.752779        -0.60738      3.62732e-05     8.37865e-05        -0.188698        0.120486      0.000112136    -0.000135175
                     5.74739e-05     5.73805e-05         0.744919        0.650898      0.000184256    -0.000140001        -0.026101      -0.0756084
281752                  0.166807        -0.15873     -0.000192706    -0.000153056         0.752243       -0.607479      7.33765e-05     7.53394e-05
                    -0.000151046    -0.000128719        0.0810849       0.0163197     -1.41686e-05    -2.48478e-06         0.745497        0.650438
                        0.752575       -0.607647      3.56737e-05     8.33507e-05        -0.188551        0.120605       0.00011144    -0.000135249
                     5.83407e-05     5.65133e-05         0.745158        0.650627      0.000184332      -0.0001404       -0.0261709      -0.0755793
281754                  0.166779       -0.158673     -0.000192088    -0.000152302         0.752043        -0.60775      7.23618e-05     7.50402e-05
                    -0.000150389    -0.000128584        0.0810769       0.0163349      -1.4249e-05    -2.78818e-06         0.745727        0.650164
                        0.752371       -0.607912      3.50542e-05     8.29292e-05        -0.188405        0.120724      0.000110727    -0.000135352
                     5.91834e-05     5.56297e-05         0.745397        0.650356       0.00018439    -0.000141044       -0.0262407      -0.0755499
281756                  0.166752       -0.158615     -0.000191476    -0.000151589         0.751844       -0.608021      7.11434e-05     7.50231e-05
                    -0.000149723    -0.000128442        0.0810689       0.0163502     -1.44342e-05    -3.06223e-06         0.745954        0.649887
                        0.752167       -0.608177       3.4414e-05     8.25217e-05        -0.188258        0.120843      0.000109997    -0.000135483
                     6.00005e-05     5.47434e-05         0.745636        0.650085      0.000184354    -0.000141904       -0.0263104      -0.0755203
281758                  0.166724       -0.158558     -0.000190871    -0.000150915         0.751644       -0.608291      6.97694e-05     7.53831e-05
                     -0.00014906    -0.000128287         0.081061       0.0163654     -1.46963e-05    -3.29183e-06         0.746178        0.649606
                        0.751963       -0.608442      3.37518e-05      8.2129e-05        -0.188111        0.120961      0.000109247    -0.000135643
                     6.07909e-05     5.38722e-05         0.745876        0.649814      0.000184171    -0.000142928         -0.02638      -0.0754906
281760                  0.166697       -0.158501     -0.000190277    -0.000150276         0.751444       -0.608561      6.83272e-05     7.62196e-05
                    -0.000148412    -0.000128114         0.081053       0.0163806      -1.5013e-05    -3.47312e-06         0.746398        0.649318
                        0.751759       -0.608706       3.3065e-05      8.1752e-05        -0.187964         0.12108      0.000108473    -0.000135832
                      6.1554e-05     5.30399e-05         0.746115        0.649543      0.000183815    -0.000144054       -0.0264495      -0.0754608
281762                   0.16667       -0.158443     -0.000189697    -0.000149669         0.751244       -0.608832      6.69574e-05      7.7624e-05
                    -0.000147798    -0.000127915        0.0810451       0.0163959     -1.53682e-05    -3.60767e-06         0.746618        0.649016
                        0.751554       -0.608969      3.23495e-05      8.1393e-05        -0.187817        0.121198      0.000107667    -0.000136055
