! TOUCHSTONE file generated by CST MICROWAVE STUDIO
! Date and time: Wed Oct 15 17:35:20 2025
! Project name: Teste_Macro_Metasurface_Nanopilar.cst
! Parameters = {H=600; L_x=200; L_y=135; Lambda=1064; Max_L=200; Min_L=70; PathPara=1; Phi=0; Step_L=10; Theta=0; p=520; phaseX=180; phaseY=0}
! Header version: 2018
! Port assignment regex: !\s*Touchstone port\s*([0-9]+)\s*=\s*(CST MWS port|CST DS port)\s*([0-9]+|Zmin|Zmax)\s*\(\"(.*)\"\)(\s*mode\s*([0-9]+))?.*
! Touchstone port assignment:
! Touchstone port 1 = CST MWS port Zmax ("") mode 1
! Touchstone port 2 = CST MWS port Zmax ("") mode 2
! Touchstone port 3 = CST MWS port Zmin ("") mode 1
! Touchstone port 4 = CST MWS port Zmin ("") mode 2
! S-Parameters are not renormalized. Each port impedance will be approximated by the real part at minimum frequency. The values are described via the [Reference] keyword.
! Default impedance is overridden by [Reference]
[Version] 2.0
# GHz S RI R 376.73
[Number of Ports] 4
[Reference]
376.73 376.73 259.888 259.888 
[Number of Frequencies] 51
[Network Data]
281700                  0.259227       -0.126891      0.000540363     4.20359e-05         0.900863       -0.281532     -0.000439976     -0.00083511
                     0.000498383     3.22067e-05         0.211129       0.0623286      -0.00105235    -0.000579734         0.313606       -0.919544
                        0.900973       -0.281833       -0.0010689    -0.000629186        -0.271734       0.0214915      0.000330531     0.000564321
                    -0.000476006    -0.000866249         0.313912        -0.92015      0.000269366     0.000587495          0.20322       0.0762447
281702                  0.259081       -0.126759       0.00054017     4.12662e-05         0.900786       -0.282021     -0.000440284    -0.000834598
                     0.000498138     3.15883e-05         0.211148       0.0623399      -0.00105206     -0.00057897         0.313333       -0.919633
                        0.900896       -0.282322      -0.00106851    -0.000628269        -0.271529       0.0218357      0.000330211      0.00056353
                    -0.000476301    -0.000865677         0.313638       -0.920238       0.00026921     0.000586799         0.203287       0.0761273
281704                  0.258936       -0.126627      0.000539975     4.04975e-05         0.900708        -0.28251     -0.000440591    -0.000834086
                     0.000497893     3.09712e-05         0.211166       0.0623512      -0.00105177    -0.000578208          0.31306       -0.919721
                        0.900819       -0.282811      -0.00106813    -0.000627354        -0.271323       0.0221793      0.000329891     0.000562741
                    -0.000476594    -0.000865105         0.313365       -0.920327      0.000269054     0.000586103         0.203355       0.0760099
281706                   0.25879       -0.126495       0.00053978     3.97298e-05          0.90063       -0.282999     -0.000440897    -0.000833575
                     0.000497648     3.03552e-05         0.211185       0.0623625      -0.00105148    -0.000577448         0.312787       -0.919809
                        0.900741         -0.2833      -0.00106775    -0.000626442        -0.271118       0.0225223      0.000329571     0.000561952
                    -0.000476886    -0.000864533         0.313091       -0.920415      0.000268897     0.000585408         0.203422       0.0758925
281708                  0.258646       -0.126363      0.000539583      3.8963e-05         0.900552       -0.283487     -0.000441203    -0.000833065
                     0.000497402     2.97403e-05         0.211204       0.0623738      -0.00105119    -0.000576688         0.312514       -0.919897
                        0.900663       -0.283788      -0.00106737    -0.000625531        -0.270913       0.0228646       0.00032925     0.000561165
                    -0.000477176    -0.000863962         0.312818       -0.920503      0.000268741     0.000584714         0.203489        0.075775
281710                  0.258501       -0.126231      0.000539385     3.81971e-05         0.900473       -0.283975     -0.000441507    -0.000832555
                     0.000497156     2.91264e-05         0.211223       0.0623851      -0.00105091     -0.00057593         0.312241       -0.919985
                        0.900585       -0.284276      -0.00106698    -0.000624623        -0.270707       0.0232064      0.000328929     0.000560378
                    -0.000477465    -0.000863392         0.312544        -0.92059      0.000268584      0.00058402         0.203556       0.0756574
281712                  0.258357       -0.126099      0.000539185     3.74322e-05         0.900395       -0.284462      -0.00044181    -0.000832045
                     0.000496909     2.85136e-05         0.211242       0.0623964      -0.00105062    -0.000575173         0.311968       -0.920073
                        0.900506       -0.284763       -0.0010666    -0.000623717        -0.270501       0.0235475      0.000328608     0.000559594
                    -0.000477752    -0.000862822          0.31227       -0.920678      0.000268427     0.000583327         0.203622       0.0755398
281714                  0.258213       -0.125968      0.000538985     3.66682e-05         0.900315       -0.284949     -0.000442113    -0.000831537
                     0.000496661     2.79017e-05          0.21126       0.0624077      -0.00105033    -0.000574418         0.311695       -0.920161
                        0.900427        -0.28525      -0.00106622    -0.000622813        -0.270296        0.023888      0.000328286      0.00055881
                    -0.000478039    -0.000862253         0.311997       -0.920766       0.00026827     0.000582634         0.203689       0.0754222
281716                   0.25807       -0.125837      0.000538784     3.59051e-05         0.900236       -0.285436     -0.000442414    -0.000831028
                     0.000496413     2.72907e-05         0.211279        0.062419      -0.00105004    -0.000573664         0.311422       -0.920249
                        0.900347       -0.285736      -0.00106584    -0.000621911         -0.27009       0.0242279      0.000327964     0.000558028
                    -0.000478325    -0.000861685         0.311723       -0.920853      0.000268112     0.000581943         0.203756       0.0753045
281718                  0.257927       -0.125705      0.000538581     3.51429e-05         0.900156       -0.285922     -0.000442715    -0.000830521
                     0.000496165     2.66807e-05         0.211298       0.0624302      -0.00104976    -0.000572911         0.311149       -0.920336
                        0.900268       -0.286223      -0.00106546    -0.000621011        -0.269884       0.0245672      0.000327641     0.000557247
                    -0.000478611    -0.000861118         0.311449       -0.920941      0.000267954     0.000581252         0.203823       0.0751868
281720                  0.257784       -0.125574      0.000538377     3.43816e-05         0.900075       -0.286408     -0.000443015    -0.000830014
                     0.000495917     2.60715e-05         0.211317       0.0624415      -0.00104947     -0.00057216         0.310876       -0.920424
                        0.900188       -0.286709      -0.00106508    -0.000620114        -0.269678       0.0249059      0.000327319     0.000556467
                    -0.000478895    -0.000860551         0.311175       -0.921028      0.000267796     0.000580561         0.203889        0.075069
281722                  0.257641       -0.125443      0.000538173     3.36212e-05         0.899995       -0.286894     -0.000443314    -0.000829508
                     0.000495668     2.54633e-05         0.211336       0.0624528      -0.00104919    -0.000571409         0.310602       -0.920512
                        0.900107       -0.287194       -0.0010647    -0.000619218        -0.269472        0.025244      0.000326995     0.000555688
                    -0.000479179    -0.000859986         0.310902       -0.921116      0.000267637     0.000579872         0.203956       0.0749512
281724                  0.257499       -0.125312      0.000537967     3.28617e-05         0.899914       -0.287379     -0.000443612    -0.000829002
                     0.000495419      2.4856e-05         0.211355        0.062464       -0.0010489    -0.000570661         0.310329       -0.920599
                        0.900027       -0.287679      -0.00106432    -0.000618324        -0.269266       0.0255815      0.000326672     0.000554911
                    -0.000479462    -0.000859421         0.310628       -0.921203      0.000267478     0.000579183         0.204022       0.0748333
281726                  0.257357       -0.125182       0.00053776     3.21031e-05         0.899833       -0.287864     -0.000443909    -0.000828497
                     0.000495169     2.42495e-05         0.211373       0.0624753      -0.00104861    -0.000569913         0.310056       -0.920686
                        0.899946       -0.288164      -0.00106394    -0.000617433         -0.26906       0.0259184      0.000326348     0.000554136
                    -0.000479745    -0.000858856         0.310354        -0.92129      0.000267319     0.000578494         0.204089       0.0747154
281728                  0.257215       -0.125051      0.000537552     3.13453e-05         0.899751       -0.288348     -0.000444206    -0.000827993
                      0.00049492     2.36439e-05         0.211392       0.0624865      -0.00104833    -0.000569166         0.309783       -0.920774
                        0.899864       -0.288648      -0.00106356    -0.000616543        -0.268853       0.0262546      0.000326024     0.000553361
                    -0.000480027    -0.000858293          0.31008       -0.921377       0.00026716     0.000577807         0.204155       0.0745974
281730                  0.257074       -0.124921      0.000537343     3.05884e-05         0.899669       -0.288832     -0.000444501    -0.000827489
                      0.00049467     2.30392e-05         0.211411       0.0624978      -0.00104804    -0.000568421         0.309509       -0.920861
                        0.899783       -0.289132      -0.00106318    -0.000615655        -0.268647       0.0265903      0.000325699     0.000552588
                    -0.000480309     -0.00085773         0.309806       -0.921464         0.000267      0.00057712         0.204221       0.0744794
281732                  0.256933        -0.12479      0.000537132     2.98324e-05         0.899587       -0.289316     -0.000444796    -0.000826986
                     0.000494419     2.24354e-05          0.21143        0.062509      -0.00104776    -0.000567678         0.309236       -0.920948
                        0.899701       -0.289616       -0.0010628     -0.00061477         -0.26844       0.0269254      0.000325374     0.000551817
                     -0.00048059    -0.000857168         0.309533       -0.921551       0.00026684     0.000576434         0.204287       0.0743614
281734                  0.256792        -0.12466      0.000536921     2.90772e-05         0.899504       -0.289799      -0.00044509    -0.000826484
                     0.000494169     2.18324e-05         0.211449       0.0625202      -0.00104748    -0.000566935         0.308963       -0.921035
                        0.899619       -0.290099      -0.00106242    -0.000613886        -0.268234       0.0272599      0.000325048     0.000551047
                     -0.00048087    -0.000856607         0.309259       -0.921638       0.00026668     0.000575749         0.204353       0.0742433
281736                  0.256651        -0.12453      0.000536709     2.83228e-05         0.899421       -0.290282     -0.000445383    -0.000825982
                     0.000493918     2.12303e-05         0.211467       0.0625315      -0.00104719    -0.000566194         0.308689       -0.921122
                        0.899536       -0.290582      -0.00106204    -0.000613004        -0.268027       0.0275937      0.000324723     0.000550278
                     -0.00048115    -0.000856046         0.308985       -0.921725      0.000266519     0.000575064         0.204419       0.0741251
281738                  0.256511         -0.1244      0.000536496     2.75693e-05         0.899338       -0.290765     -0.000445675    -0.000825481
                     0.000493667      2.0629e-05         0.211486       0.0625427      -0.00104691    -0.000565453         0.308416       -0.921209
                        0.899453       -0.291064      -0.00106166    -0.000612125         -0.26782        0.027927      0.000324396     0.000549511
                    -0.000481429    -0.000855486         0.308711       -0.921812      0.000266358      0.00057438         0.204485        0.074007
281740                  0.256371        -0.12427      0.000536281     2.68166e-05         0.899255       -0.291247     -0.000445967    -0.000824981
                     0.000493416     2.00286e-05         0.211505       0.0625539      -0.00104662    -0.000564715         0.308143       -0.921295
                         0.89937       -0.291546      -0.00106128    -0.000611247        -0.267614       0.0282597       0.00032407     0.000548745
                    -0.000481708    -0.000854926         0.308437       -0.921898      0.000266197     0.000573697         0.204551       0.0738887
281742                  0.256232        -0.12414      0.000536066     2.60647e-05         0.899171       -0.291729     -0.000446257    -0.000824481
                     0.000493164     1.94291e-05         0.211524       0.0625651      -0.00104634    -0.000563977         0.307869       -0.921382
                        0.899286       -0.292028      -0.00106091    -0.000610371        -0.267407       0.0285918      0.000323743     0.000547981
                    -0.000481986    -0.000854368         0.308163       -0.921985      0.000266035     0.000573015         0.204617       0.0737705
281744                  0.256092       -0.124011      0.000535849     2.53136e-05         0.899087        -0.29221     -0.000446547    -0.000823983
                     0.000492912     1.88304e-05         0.211543       0.0625763      -0.00104606    -0.000563241         0.307596       -0.921469
                        0.899202       -0.292509      -0.00106053    -0.000609497          -0.2672       0.0289232      0.000323415     0.000547218
                    -0.000482264     -0.00085381         0.307889       -0.922071      0.000265873     0.000572333         0.204683       0.0736521
281746                  0.255953       -0.123881      0.000535631     2.45634e-05         0.899002       -0.292691     -0.000446836    -0.000823484
                      0.00049266     1.82327e-05         0.211562       0.0625875      -0.00104577    -0.000562505         0.307322       -0.921555
                        0.899118        -0.29299      -0.00106015    -0.000608626        -0.266993       0.0292541      0.000323088     0.000546456
                    -0.000482541    -0.000853252         0.307615       -0.922158      0.000265711     0.000571653         0.204749       0.0735338
281748                  0.255814       -0.123752      0.000535413     2.38139e-05         0.898918       -0.293172     -0.000447124    -0.000822987
                     0.000492407     1.76357e-05          0.21158       0.0625987      -0.00104549    -0.000561771         0.307049       -0.921642
                        0.899034       -0.293471      -0.00105978    -0.000607756        -0.266786       0.0295844      0.000322759     0.000545696
                    -0.000482817    -0.000852696         0.307341       -0.922244      0.000265548     0.000570972         0.204814       0.0734154
281750                  0.255676       -0.123623      0.000535193     2.30652e-05         0.898832       -0.293653     -0.000447411    -0.000822491
                     0.000492155     1.70397e-05         0.211599       0.0626099      -0.00104521    -0.000561039         0.306775       -0.921728
                        0.898949       -0.293951       -0.0010594    -0.000606888        -0.266578       0.0299141      0.000322431     0.000544938
                    -0.000483093     -0.00085214         0.307067        -0.92233      0.000265385     0.000570293          0.20488       0.0732969
281752                  0.255538       -0.123494      0.000534972     2.23173e-05         0.898747       -0.294132     -0.000447697    -0.000821995
                     0.000491902     1.64445e-05         0.211618       0.0626211      -0.00104493    -0.000560307         0.306502       -0.921814
                        0.898864       -0.294431      -0.00105903    -0.000606021        -0.266371       0.0302433      0.000322102     0.000544181
                    -0.000483368    -0.000851584         0.306793       -0.922416      0.000265221     0.000569614         0.204945       0.0731784
281754                    0.2554       -0.123365      0.000534751     2.15702e-05         0.898661       -0.294612     -0.000447983      -0.0008215
                     0.000491648     1.58502e-05         0.211637       0.0626322      -0.00104464    -0.000559577         0.306228         -0.9219
                        0.898778        -0.29491      -0.00105865    -0.000605157        -0.266164       0.0305718      0.000321773     0.000543426
                    -0.000483643    -0.000851029         0.306519       -0.922502      0.000265057     0.000568937         0.205011       0.0730599
281756                  0.255262       -0.123236      0.000534528     2.08238e-05         0.898575       -0.295091     -0.000448268    -0.000821006
                     0.000491395     1.52567e-05         0.211656       0.0626434      -0.00104436    -0.000558848         0.305955       -0.921987
                        0.898692       -0.295389      -0.00105828    -0.000604295        -0.265956       0.0308997      0.000321443     0.000542672
                    -0.000483917    -0.000850475         0.306245       -0.922588      0.000264893     0.000568259         0.205076       0.0729413
281758                  0.255125       -0.123107      0.000534304     2.00782e-05         0.898489        -0.29557     -0.000448552    -0.000820512
                     0.000491141     1.46641e-05         0.211675       0.0626546      -0.00104408     -0.00055812         0.305681       -0.922073
                        0.898606       -0.295868       -0.0010579    -0.000603434        -0.265749       0.0312271      0.000321113      0.00054192
                    -0.000484191    -0.000849922          0.30597       -0.922674      0.000264729     0.000567583         0.205141       0.0728227
281760                  0.254988       -0.122979       0.00053408     1.93334e-05         0.898402       -0.296049     -0.000448835     -0.00082002
                     0.000490887     1.40724e-05         0.211694       0.0626657       -0.0010438    -0.000557393         0.305408       -0.922159
                         0.89852       -0.296346      -0.00105753    -0.000602576        -0.265541       0.0315539      0.000320783     0.000541169
                    -0.000484464    -0.000849369         0.305696        -0.92276      0.000264564     0.000566907         0.205206        0.072704
281762                  0.254851        -0.12285      0.000533854     1.85893e-05         0.898315       -0.296527     -0.000449117    -0.000819528
                     0.000490633     1.34815e-05         0.211712       0.0626769      -0.00104352    -0.000556668         0.305134       -0.922244
                        0.898433       -0.296824      -0.00105716    -0.000601719        -0.265334       0.0318801      0.000320452      0.00054042
