! TOUCHSTONE file generated by CST MICROWAVE STUDIO
! Date and time: Wed Oct 15 17:34:04 2025
! Project name: Teste_Macro_Metasurface_Nanopilar.cst
! Parameters = {H=600; L_x=180; L_y=80; Lambda=1064; Max_L=200; Min_L=70; PathPara=1; Phi=0; Step_L=10; Theta=0; p=520; phaseX=180; phaseY=0}
! Header version: 2018
! Port assignment regex: !\s*Touchstone port\s*([0-9]+)\s*=\s*(CST MWS port|CST DS port)\s*([0-9]+|Zmin|Zmax)\s*\(\"(.*)\"\)(\s*mode\s*([0-9]+))?.*
! Touchstone port assignment:
! Touchstone port 1 = CST MWS port Zmax ("") mode 1
! Touchstone port 2 = CST MWS port Zmax ("") mode 2
! Touchstone port 3 = CST MWS port Zmin ("") mode 1
! Touchstone port 4 = CST MWS port Zmin ("") mode 2
! S-Parameters are not renormalized. Each port impedance will be approximated by the real part at minimum frequency. The values are described via the [Reference] keyword.
! Default impedance is overridden by [Reference]
[Version] 2.0
# GHz S RI R 376.73
[Number of Ports] 4
[Reference]
376.73 376.73 259.888 259.888 
[Number of Frequencies] 51
[Network Data]
281700                -0.0326819      -0.0331098       0.00030985    -1.65956e-05        -0.456885       -0.886425      3.34651e-05     6.39934e-05
                     0.000310595    -5.83639e-06         0.066725        0.228154      3.82199e-06    -3.77647e-05         0.945971       -0.192804
                       -0.457286       -0.886715      1.99322e-05    -1.62685e-05        0.0079507       0.0463419      0.000141797     0.000255039
                      4.9515e-05     0.000101094           0.9466       -0.192644      0.000206271     0.000251706         0.029786        0.235006
281702                -0.0326915      -0.0330984      0.000309774    -1.66742e-05        -0.457117       -0.886306      3.34472e-05     6.39547e-05
                     0.000310601    -5.89288e-06         0.066754        0.228184      3.76951e-06    -3.77926e-05         0.945895       -0.193132
                       -0.457518       -0.886595      1.99585e-05    -1.62635e-05       0.00796008        0.046339      0.000142008     0.000254972
                     4.95617e-05     0.000101171         0.946525       -0.192971      0.000206432      0.00025165        0.0299351        0.235024
281704                -0.0327012       -0.033087      0.000309698    -1.67526e-05        -0.457349       -0.886186      3.34292e-05     6.39161e-05
                     0.000310607    -5.94904e-06        0.0667829        0.228214      3.71702e-06    -3.78205e-05         0.945819       -0.193459
                        -0.45775       -0.886475      1.99848e-05    -1.62584e-05       0.00796945       0.0463361      0.000142218     0.000254906
                     4.96078e-05     0.000101248         0.946449       -0.193298      0.000206594     0.000251595        0.0300842        0.235042
281706                -0.0327108      -0.0330756      0.000309622    -1.68309e-05         -0.45758       -0.886066       3.3411e-05     6.38777e-05
                     0.000310614    -6.00491e-06        0.0668119        0.228244      3.66452e-06    -3.78482e-05         0.945742       -0.193786
                       -0.457983       -0.886356      2.00112e-05    -1.62532e-05       0.00797882       0.0463332      0.000142429     0.000254839
                     4.96533e-05     0.000101326         0.946374       -0.193625      0.000206756     0.000251539        0.0302333         0.23506
281708                -0.0327205      -0.0330642      0.000309546     -1.6909e-05        -0.457812       -0.885946      3.33928e-05     6.38394e-05
                     0.000310621    -6.06047e-06        0.0668409        0.228274      3.61202e-06     -3.7876e-05         0.945666       -0.194114
                       -0.458215       -0.886236      2.00376e-05    -1.62479e-05       0.00798819       0.0463303       0.00014264     0.000254771
                     4.96982e-05     0.000101403         0.946298       -0.193952      0.000206917     0.000251483        0.0303825        0.235078
281710                -0.0327301      -0.0330528      0.000309469     -1.6987e-05        -0.458044       -0.885826      3.33745e-05     6.38012e-05
                     0.000310628    -6.11575e-06        0.0668698        0.228305      3.55951e-06    -3.79036e-05          0.94559       -0.194441
                       -0.458447       -0.886116      2.00641e-05    -1.62424e-05       0.00799756       0.0463274       0.00014285     0.000254704
                     4.97426e-05      0.00010148         0.946222       -0.194279      0.000207079     0.000251426        0.0305317        0.235096
281712                -0.0327398      -0.0330414      0.000309393    -1.70648e-05        -0.458275       -0.885706      3.33561e-05     6.37631e-05
                     0.000310635    -6.17074e-06        0.0668988        0.228335      3.50699e-06    -3.79312e-05         0.945513       -0.194768
                       -0.458679       -0.885996      2.00906e-05    -1.62368e-05       0.00800693       0.0463245      0.000143061     0.000254636
                     4.97864e-05     0.000101558         0.946146       -0.194606      0.000207241      0.00025137         0.030681        0.235113
281714                -0.0327494        -0.03303      0.000309316    -1.71426e-05        -0.458507       -0.885586      3.33375e-05     6.37251e-05
                     0.000310642    -6.22547e-06        0.0669278        0.228365      3.45447e-06    -3.79587e-05         0.945436       -0.195095
                       -0.458911       -0.885875      2.01171e-05    -1.62311e-05        0.0080163       0.0463216      0.000143272     0.000254568
                     4.98297e-05     0.000101635          0.94607       -0.194933      0.000207402     0.000251314        0.0308303        0.235131
281716                 -0.032759      -0.0330185      0.000309239    -1.72203e-05        -0.458739       -0.885466      3.33188e-05     6.36873e-05
                      0.00031065    -6.27993e-06        0.0669568        0.228395      3.40194e-06    -3.79861e-05          0.94536       -0.195422
                       -0.459144       -0.885755      2.01437e-05    -1.62251e-05       0.00802566       0.0463187      0.000143483       0.0002545
                     4.98725e-05     0.000101713         0.945994        -0.19526      0.000207564     0.000251257        0.0309796        0.235148
281718                -0.0327687      -0.0330071      0.000309162     -1.7298e-05         -0.45897       -0.885346         3.33e-05     6.36495e-05
                     0.000310658    -6.33413e-06        0.0669858        0.228425       3.3494e-06    -3.80134e-05         0.945283       -0.195749
                       -0.459376       -0.885635      2.01703e-05     -1.6219e-05       0.00803503       0.0463158      0.000143694     0.000254431
                     4.99147e-05     0.000101791         0.945918       -0.195587      0.000207726     0.000251201         0.031129        0.235165
281720                -0.0327783      -0.0329957      0.000309085    -1.73756e-05        -0.459202       -0.885226      3.32811e-05     6.36119e-05
                     0.000310666    -6.38808e-06        0.0670147        0.228455      3.29686e-06    -3.80407e-05         0.945206       -0.196076
                       -0.459608       -0.885515      2.01969e-05    -1.62128e-05       0.00804439       0.0463129      0.000143905     0.000254362
                     4.99565e-05     0.000101869         0.945841       -0.195914      0.000207887     0.000251144        0.0312784        0.235183
281722                 -0.032788      -0.0329843      0.000309007    -1.74534e-05        -0.459433       -0.885105      3.32621e-05     6.35743e-05
                     0.000310674    -6.44178e-06        0.0670438        0.228485      3.24431e-06    -3.80679e-05         0.945129       -0.196404
                        -0.45984       -0.885394      2.02235e-05    -1.62063e-05       0.00805375         0.04631      0.000144116     0.000254293
                     4.99978e-05     0.000101947         0.945765       -0.196241      0.000208049     0.000251087        0.0314278          0.2352
281724                -0.0327976      -0.0329729      0.000308929    -1.75315e-05        -0.459665       -0.884985      3.32429e-05     6.35368e-05
                     0.000310683    -6.49525e-06        0.0670728        0.228516      3.19175e-06     -3.8095e-05         0.945051       -0.196731
                       -0.460072       -0.885274      2.02502e-05    -1.61996e-05       0.00806311       0.0463071      0.000144327     0.000254224
                     5.00385e-05     0.000102025         0.945688       -0.196567      0.000208211      0.00025103        0.0315773        0.235217
281726                -0.0328072      -0.0329615      0.000308851    -1.76098e-05        -0.459896       -0.884865      3.32236e-05     6.34994e-05
                     0.000310692    -6.54849e-06        0.0671018        0.228546      3.13919e-06     -3.8122e-05         0.944974       -0.197058
                       -0.460304       -0.885153      2.02768e-05    -1.61928e-05       0.00807247       0.0463042      0.000144538     0.000254154
                     5.00788e-05     0.000102104         0.945611       -0.196894      0.000208372     0.000250973        0.0317268        0.235234
281728                -0.0328169      -0.0329501      0.000308773    -1.76886e-05        -0.460128       -0.884744      3.32042e-05      6.3462e-05
                     0.000310701    -6.60151e-06        0.0671308        0.228576      3.08662e-06     -3.8149e-05         0.944897       -0.197384
                       -0.460536       -0.885033      2.03035e-05    -1.61857e-05       0.00808183       0.0463014       0.00014475     0.000254084
                     5.01187e-05     0.000102182         0.945534       -0.197221      0.000208534     0.000250916        0.0318764        0.235251
281730                -0.0328265      -0.0329386      0.000308694     -1.7768e-05        -0.460359       -0.884624      3.31846e-05     6.34247e-05
                      0.00031071    -6.65432e-06        0.0671598        0.228606      3.03405e-06    -3.81758e-05         0.944819       -0.197711
                       -0.460768       -0.884912      2.03301e-05    -1.61784e-05       0.00809119       0.0462985      0.000144961     0.000254014
                     5.01581e-05     0.000102261         0.945457       -0.197548      0.000208696     0.000250859        0.0320259        0.235268
281732                -0.0328361      -0.0329272      0.000308616    -1.78478e-05         -0.46059       -0.884503       3.3165e-05     6.33875e-05
                     0.000310719    -6.70691e-06        0.0671889        0.228636      2.98147e-06    -3.82026e-05         0.944741       -0.198038
                       -0.460999       -0.884792      2.03567e-05    -1.61708e-05       0.00810054       0.0462956      0.000145172     0.000253943
                      5.0197e-05      0.00010234          0.94538       -0.197874      0.000208857     0.000250801        0.0321756        0.235284
281734                -0.0328458      -0.0329158      0.000308538    -1.79281e-05        -0.460822       -0.884382      3.31451e-05     6.33503e-05
                     0.000310729     -6.7593e-06        0.0672179        0.228667      2.92888e-06    -3.82293e-05         0.944663       -0.198365
                       -0.461231       -0.884671      2.03833e-05     -1.6163e-05        0.0081099       0.0462927      0.000145384     0.000253872
                     5.02355e-05     0.000102418         0.945303       -0.198201      0.000209019     0.000250744        0.0323252        0.235301
281736                -0.0328554      -0.0329044      0.000308461    -1.80088e-05        -0.461053       -0.884261      3.31252e-05     6.33131e-05
                     0.000310738     -6.8115e-06         0.067247        0.228697      2.87628e-06    -3.82559e-05         0.944585       -0.198692
                       -0.461463        -0.88455      2.04098e-05     -1.6155e-05       0.00811925       0.0462898      0.000145596     0.000253801
                     5.02735e-05     0.000102498         0.945226       -0.198528      0.000209181     0.000250686        0.0324749        0.235317
281738                 -0.032865      -0.0328929      0.000308385    -1.80897e-05        -0.461284       -0.884141      3.31051e-05      6.3276e-05
                     0.000310748    -6.86351e-06         0.067276        0.228727      2.82368e-06    -3.82824e-05         0.944507       -0.199019
                       -0.461695       -0.884429      2.04362e-05    -1.61468e-05       0.00812861       0.0462869      0.000145807      0.00025373
                     5.03112e-05     0.000102577         0.945148       -0.198854      0.000209342     0.000250629        0.0326246        0.235334
281740                -0.0328746      -0.0328815      0.000308309    -1.81705e-05        -0.461516        -0.88402      3.30849e-05      6.3239e-05
                     0.000310758    -6.91534e-06        0.0673051        0.228757      2.77107e-06    -3.83088e-05         0.944429       -0.199346
                       -0.461927       -0.884308      2.04626e-05    -1.61384e-05       0.00813796        0.046284      0.000146019     0.000253658
                     5.03484e-05     0.000102656         0.945071       -0.199181      0.000209504     0.000250571        0.0327744         0.23535
281742                -0.0328843      -0.0328701      0.000308234    -1.82513e-05        -0.461747       -0.883899      3.30646e-05      6.3202e-05
                     0.000310769    -6.96699e-06        0.0673341        0.228787      2.71846e-06    -3.83351e-05         0.944351       -0.199672
                       -0.462158       -0.884187      2.04889e-05    -1.61298e-05       0.00814731       0.0462812      0.000146231     0.000253585
                     5.03852e-05     0.000102736         0.944993       -0.199507      0.000209666     0.000250513        0.0329242        0.235366
281744                -0.0328939      -0.0328587      0.000308159    -1.83319e-05        -0.461978       -0.883778      3.30442e-05      6.3165e-05
                     0.000310779    -7.01849e-06        0.0673632        0.228817      2.66584e-06    -3.83614e-05         0.944272       -0.199999
                        -0.46239       -0.884066      2.05151e-05    -1.61211e-05       0.00815666       0.0462783      0.000146443     0.000253513
                     5.04217e-05     0.000102816         0.944915       -0.199834      0.000209827     0.000250455         0.033074        0.235383
281746                -0.0329035      -0.0328472      0.000308084    -1.84125e-05        -0.462209       -0.883657      3.30236e-05      6.3128e-05
                      0.00031079    -7.06982e-06        0.0673923        0.228848      2.61321e-06    -3.83875e-05         0.944194       -0.200326
                       -0.462622       -0.883945      2.05412e-05    -1.61123e-05         0.008166       0.0462754      0.000146655      0.00025344
                     5.04577e-05     0.000102895         0.944837        -0.20016      0.000209989     0.000250397        0.0332239        0.235399
281748                -0.0329131      -0.0328358       0.00030801    -1.84929e-05         -0.46244       -0.883536      3.30029e-05     6.30911e-05
                     0.000310801    -7.12102e-06        0.0674214        0.228878      2.56057e-06    -3.84136e-05         0.944115       -0.200652
                       -0.462853       -0.883824      2.05674e-05    -1.61035e-05       0.00817535       0.0462725      0.000146867     0.000253366
                     5.04934e-05     0.000102975         0.944759       -0.200487      0.000210151     0.000250338        0.0333738        0.235415
281750                -0.0329227      -0.0328244      0.000307935    -1.85735e-05        -0.462671       -0.883415       3.2982e-05     6.30541e-05
                     0.000310812     -7.1721e-06        0.0674505        0.228908      2.50793e-06    -3.84396e-05         0.944036       -0.200979
                       -0.463085       -0.883703      2.05935e-05    -1.60948e-05       0.00818469       0.0462696       0.00014708     0.000253293
                     5.05288e-05     0.000103056         0.944681       -0.200813      0.000210312      0.00025028        0.0335237         0.23543
281752                -0.0329323      -0.0328129       0.00030786    -1.86542e-05        -0.462902       -0.883293      3.29611e-05     6.30173e-05
                     0.000310823    -7.22307e-06        0.0674795        0.228938      2.45529e-06    -3.84656e-05         0.943958       -0.201306
                       -0.463317       -0.883582      2.06196e-05    -1.60863e-05       0.00819404       0.0462668      0.000147292     0.000253219
                     5.05638e-05     0.000103136         0.944603        -0.20114      0.000210474     0.000250222        0.0336737        0.235446
281754                 -0.032942      -0.0328015      0.000307784    -1.87346e-05        -0.463134       -0.883172        3.294e-05     6.29804e-05
                     0.000310835      -7.274e-06        0.0675087        0.228968      2.40263e-06    -3.84915e-05         0.943879       -0.201632
                       -0.463548        -0.88346      2.06458e-05    -1.60782e-05       0.00820338       0.0462639      0.000147504     0.000253144
                     5.05986e-05     0.000103217         0.944524       -0.201466      0.000210636     0.000250163        0.0338237        0.235462
281756                -0.0329516        -0.03279      0.000307707    -1.88143e-05        -0.463365       -0.883051      3.29188e-05     6.29435e-05
                     0.000310846    -7.32495e-06        0.0675378        0.228999      2.34997e-06    -3.85173e-05         0.943799       -0.201959
                        -0.46378       -0.883339      2.06719e-05    -1.60705e-05       0.00821272        0.046261      0.000147717     0.000253069
                     5.06331e-05     0.000103298         0.944446       -0.201792      0.000210797     0.000250104        0.0339737        0.235478
281758                -0.0329612      -0.0327786      0.000307629    -1.88926e-05        -0.463596       -0.882929      3.28974e-05     6.29067e-05
                     0.000310858    -7.37612e-06        0.0675669        0.229029      2.29731e-06    -3.85432e-05          0.94372       -0.202285
                       -0.464011       -0.883217      2.06982e-05    -1.60634e-05       0.00822206       0.0462581       0.00014793     0.000252994
                     5.06677e-05     0.000103379         0.944367       -0.202119      0.000210959     0.000250045        0.0341238        0.235493
281760                -0.0329708      -0.0327672      0.000307552    -1.89696e-05        -0.463826       -0.882808       3.2876e-05     6.28699e-05
                     0.000310869    -7.42804e-06         0.067596        0.229059      2.24464e-06    -3.85692e-05         0.943641       -0.202612
                       -0.464243       -0.883096      2.07244e-05    -1.60571e-05        0.0082314       0.0462553      0.000148142     0.000252919
                     5.07028e-05     0.000103462         0.944288       -0.202445      0.000211121     0.000249986        0.0342739        0.235509
281762                -0.0329804      -0.0327557      0.000307475    -1.90458e-05        -0.464057       -0.882686      3.28544e-05     6.28331e-05
                     0.000310879    -7.48326e-06        0.0676251        0.229089      2.19194e-06    -3.85955e-05         0.943561       -0.202938
                       -0.464474       -0.882974      2.07505e-05    -1.60515e-05       0.00824074       0.0462524      0.000148355     0.000252843
