! TOUCHSTONE file generated by CST MICROWAVE STUDIO
! Date and time: Wed Oct 15 17:33:33 2025
! Project name: Teste_Macro_Metasurface_Nanopilar.cst
! Parameters = {H=600; L_x=170; L_y=100; Lambda=1064; Max_L=200; Min_L=70; PathPara=1; Phi=0; Step_L=10; Theta=0; p=520; phaseX=180; phaseY=0}
! Header version: 2018
! Port assignment regex: !\s*Touchstone port\s*([0-9]+)\s*=\s*(CST MWS port|CST DS port)\s*([0-9]+|Zmin|Zmax)\s*\(\"(.*)\"\)(\s*mode\s*([0-9]+))?.*
! Touchstone port assignment:
! Touchstone port 1 = CST MWS port Zmax ("") mode 1
! Touchstone port 2 = CST MWS port Zmax ("") mode 2
! Touchstone port 3 = CST MWS port Zmin ("") mode 1
! Touchstone port 4 = CST MWS port Zmin ("") mode 2
! S-Parameters are not renormalized. Each port impedance will be approximated by the real part at minimum frequency. The values are described via the [Reference] keyword.
! Default impedance is overridden by [Reference]
[Version] 2.0
# GHz S RI R 376.73
[Number of Ports] 4
[Reference]
376.73 376.73 259.888 259.888 
[Number of Frequencies] 51
[Network Data]
281700                  0.166287        0.106515     -0.000535361     0.000643373         -0.84665        0.478456      0.000255399     3.83668e-05
                    -0.000449058     0.000661255         0.189505        0.325219      9.98158e-05    -0.000375778         0.702212       -0.594649
                       -0.847014        0.478736       0.00020538    -0.000350397       0.00608598        0.196618     -0.000650864     0.000171426
                     0.000215908    -4.43674e-05         0.702264       -0.594923     -0.000673127     0.000168183         0.290843        0.234039
281702                  0.166309        0.106495     -0.000535411     0.000643713         -0.84647        0.478771      0.000255338     3.83052e-05
                    -0.000448946     0.000661603         0.189573        0.325277      9.97399e-05    -0.000375814         0.701956       -0.594896
                       -0.846833        0.479051      0.000205459    -0.000350625       0.00620447        0.196622     -0.000651031     0.000171675
                     0.000215788     -4.4512e-05         0.702009       -0.595172     -0.000673273      0.00016845         0.291071        0.233889
281704                   0.16633        0.106475     -0.000535462     0.000644054        -0.846289        0.479086      0.000255278     3.82438e-05
                    -0.000448836     0.000661949         0.189641        0.325336      9.96647e-05    -0.000375849           0.7017       -0.595142
                       -0.846653        0.479366      0.000205537    -0.000350853       0.00632297        0.196625     -0.000651197     0.000171925
                     0.000215668    -4.46564e-05         0.701753        -0.59542     -0.000673419     0.000168716         0.291299        0.233739
281706                  0.166351        0.106455     -0.000535513     0.000644394        -0.846108          0.4794      0.000255218     3.81825e-05
                    -0.000448726     0.000662295         0.189709        0.325394      9.95901e-05    -0.000375884         0.701444       -0.595389
                       -0.846472        0.479681      0.000205615    -0.000351082       0.00644148        0.196628     -0.000651363     0.000172175
                     0.000215548    -4.48005e-05         0.701497       -0.595668     -0.000673564     0.000168983         0.291527        0.233588
281708                  0.166372        0.106435     -0.000535564     0.000644734        -0.845927        0.479715      0.000255157     3.81214e-05
                    -0.000448618     0.000662641         0.189777        0.325453      9.95162e-05     -0.00037592         0.701187       -0.595635
                       -0.846292        0.479996      0.000205693    -0.000351311       0.00655999        0.196631      -0.00065153     0.000172426
                     0.000215428    -4.49444e-05         0.701241       -0.595917     -0.000673709      0.00016925         0.291755        0.233437
281710                  0.166393        0.106415     -0.000535615     0.000645074        -0.845746         0.48003      0.000255097     3.80604e-05
                     -0.00044851     0.000662986         0.189846        0.325511       9.9443e-05    -0.000375955         0.700931       -0.595882
                       -0.846111        0.480311      0.000205771     -0.00035154       0.00667852        0.196634     -0.000651697     0.000172676
                     0.000215309    -4.50881e-05         0.700985       -0.596165     -0.000673854     0.000169517         0.291983        0.233286
281712                  0.166415        0.106396     -0.000535666     0.000645413        -0.845564        0.480344      0.000255037     3.79995e-05
                    -0.000448403      0.00066333         0.189914         0.32557      9.93705e-05    -0.000375991         0.700674       -0.596128
                        -0.84593        0.480626      0.000205849     -0.00035177       0.00679705        0.196637     -0.000651864     0.000172927
                     0.000215189    -4.52315e-05         0.700729       -0.596413     -0.000673998     0.000169785         0.292211        0.233135
281714                  0.166436        0.106376     -0.000535717     0.000645753        -0.845383        0.480659      0.000254976     3.79388e-05
                    -0.000448295     0.000663673         0.189983        0.325628      9.92986e-05    -0.000376026         0.700417       -0.596374
                       -0.845749         0.48094      0.000205926       -0.000352       0.00691559         0.19664     -0.000652031     0.000173178
                      0.00021507    -4.53748e-05         0.700473       -0.596661     -0.000674142     0.000170053         0.292439        0.232984
281716                  0.166457        0.106356     -0.000535768     0.000646092        -0.845202        0.480973      0.000254916     3.78782e-05
                    -0.000448189     0.000664017         0.190051        0.325687      9.92274e-05    -0.000376062          0.70016        -0.59662
                       -0.845568        0.481255      0.000206003    -0.000352231       0.00703414        0.196643     -0.000652198     0.000173429
                      0.00021495     -4.5518e-05         0.700216       -0.596909     -0.000674285     0.000170321         0.292666        0.232832
281718                  0.166478        0.106336     -0.000535819     0.000646431         -0.84502        0.481288      0.000254856     3.78178e-05
                    -0.000448082     0.000664359          0.19012        0.325745      9.91568e-05    -0.000376097         0.699903       -0.596866
                       -0.845387         0.48157       0.00020608    -0.000352462        0.0071527        0.196646     -0.000652365      0.00017368
                     0.000214831    -4.56609e-05         0.699959       -0.597156     -0.000674428     0.000170589         0.292894         0.23268
281720                  0.166499        0.106316      -0.00053587      0.00064677        -0.844838        0.481602      0.000254796     3.77574e-05
                    -0.000447975     0.000664702         0.190188        0.325804      9.90869e-05    -0.000376133         0.699646       -0.597112
                       -0.845205        0.481884      0.000206156    -0.000352693       0.00727127        0.196648     -0.000652532     0.000173932
                     0.000214711    -4.58038e-05         0.699703       -0.597404      -0.00067457     0.000170858         0.293122        0.232528
281722                   0.16652        0.106296     -0.000535921     0.000647108        -0.844656        0.481916      0.000254735     3.76972e-05
                    -0.000447869     0.000665044         0.190257        0.325862      9.90175e-05    -0.000376168         0.699389       -0.597358
                       -0.845024        0.482199      0.000206233    -0.000352924       0.00738984        0.196651       -0.0006527     0.000174184
                     0.000214592    -4.59464e-05         0.699446       -0.597652     -0.000674712     0.000171127          0.29335        0.232376
281724                  0.166541        0.106276     -0.000535972     0.000647447        -0.844474        0.482231      0.000254675     3.76371e-05
                    -0.000447762     0.000665385         0.190325        0.325921      9.89486e-05    -0.000376204         0.699131       -0.597604
                       -0.844842        0.482513      0.000206309    -0.000353156       0.00750842        0.196653     -0.000652867     0.000174436
                     0.000214473     -4.6089e-05         0.699189       -0.597899     -0.000674854     0.000171397         0.293578        0.232223
281726                  0.166563        0.106256     -0.000536023     0.000647785        -0.844292        0.482545      0.000254615     3.75771e-05
                    -0.000447656     0.000665727         0.190394        0.325979      9.88796e-05    -0.000376239         0.698873       -0.597849
                        -0.84466        0.482827      0.000206385    -0.000353389       0.00762702        0.196656     -0.000653035     0.000174688
                     0.000214354    -4.62314e-05         0.698931       -0.598146     -0.000674997     0.000171667         0.293806        0.232071
281728                  0.166584        0.106236     -0.000536075     0.000648123         -0.84411        0.482859      0.000254555     3.75173e-05
                    -0.000447549     0.000666068         0.190463        0.326038      9.88084e-05    -0.000376279         0.698616       -0.598095
                       -0.844478        0.483142       0.00020646    -0.000353621       0.00774561        0.196658     -0.000653202      0.00017494
                     0.000214235    -4.63738e-05         0.698674       -0.598394     -0.000675139     0.000171936         0.294033        0.231918
281730                  0.166605        0.106216     -0.000536126     0.000648461        -0.843928        0.483173      0.000254495     3.74575e-05
                    -0.000447442     0.000666409         0.190531        0.326097      9.87518e-05    -0.000376317         0.698358        -0.59834
                       -0.844296        0.483456      0.000206535    -0.000353854       0.00786422         0.19666      -0.00065337     0.000175193
                     0.000214116     -4.6516e-05         0.698417       -0.598641      -0.00067528     0.000172206         0.294261        0.231765
281732                  0.166626        0.106196     -0.000536177     0.000648798        -0.843745        0.483487      0.000254434     3.73978e-05
                    -0.000447335     0.000666749           0.1906        0.326155      9.86863e-05    -0.000376349           0.6981       -0.598586
                       -0.844114         0.48377       0.00020661    -0.000354087       0.00798283        0.196662     -0.000653538     0.000175445
                     0.000213997    -4.66582e-05         0.698159       -0.598888     -0.000675421     0.000172476         0.294489        0.231612
281734                  0.166647        0.106176     -0.000536228     0.000649135        -0.843563        0.483801      0.000254374     3.73383e-05
                    -0.000447228      0.00066709         0.190669        0.326214       9.8621e-05    -0.000376384         0.697842       -0.598831
                       -0.843932        0.484084      0.000206685    -0.000354321       0.00810145        0.196665     -0.000653706     0.000175698
                     0.000213878    -4.68003e-05         0.697901       -0.599135     -0.000675561     0.000172746         0.294716        0.231458
281736                  0.166668        0.106156     -0.000536279     0.000649472         -0.84338        0.484115      0.000254314     3.72789e-05
                    -0.000447121      0.00066743         0.190738        0.326273      9.85567e-05     -0.00037642         0.697583       -0.599076
                       -0.843749        0.484398       0.00020676    -0.000354555       0.00822008        0.196667     -0.000653874     0.000175951
                     0.000213759    -4.69423e-05         0.697643       -0.599382     -0.000675701     0.000173016         0.294944        0.231305
281738                  0.166689        0.106136      -0.00053633     0.000649809        -0.843197        0.484429      0.000254254     3.72195e-05
                    -0.000447014      0.00066777         0.190807        0.326332      9.84932e-05    -0.000376455         0.697325       -0.599321
                       -0.843567        0.484712      0.000206834    -0.000354789       0.00833872        0.196669     -0.000654042     0.000176205
                      0.00021364    -4.70843e-05         0.697385       -0.599629     -0.000675841     0.000173286         0.295172        0.231151
281740                   0.16671        0.106117     -0.000536381     0.000650145        -0.843014        0.484742      0.000254194     3.71603e-05
                    -0.000446906      0.00066811         0.190876         0.32639      9.84305e-05    -0.000376491         0.697066       -0.599566
                       -0.843384        0.485026      0.000206908    -0.000355023       0.00845736        0.196671     -0.000654211     0.000176458
                     0.000213521    -4.72263e-05         0.697127       -0.599876      -0.00067598     0.000173557         0.295399        0.230997
281742                  0.166731        0.106097     -0.000536432     0.000650481        -0.842831        0.485056      0.000254134     3.71011e-05
                    -0.000446798      0.00066845         0.190945        0.326449      9.83686e-05    -0.000376527         0.696808       -0.599811
                       -0.843202         0.48534      0.000206982    -0.000355258       0.00857602        0.196672     -0.000654379     0.000176712
                     0.000213403    -4.73682e-05         0.696869       -0.600123     -0.000676119     0.000173828         0.295627        0.230843
281744                  0.166752        0.106077     -0.000536483     0.000650817        -0.842648         0.48537      0.000254073     3.70421e-05
                     -0.00044669     0.000668789         0.191014        0.326508      9.83075e-05    -0.000376563         0.696549       -0.600055
                       -0.843019        0.485653      0.000207055    -0.000355493       0.00869467        0.196674     -0.000654548     0.000176966
                     0.000213284    -4.75102e-05         0.696611       -0.600369     -0.000676258     0.000174099         0.295854        0.230688
281746                  0.166774        0.106057     -0.000536534     0.000651153        -0.842465        0.485683      0.000254013     3.69832e-05
                    -0.000446582     0.000669128         0.191083        0.326567      9.82471e-05    -0.000376599          0.69629         -0.6003
                       -0.842836        0.485967      0.000207128    -0.000355728       0.00881334        0.196676     -0.000654717      0.00017722
                     0.000213165    -4.76522e-05         0.696352       -0.600616     -0.000676396      0.00017437         0.296082        0.230534
281748                  0.166795        0.106037     -0.000536585     0.000651488        -0.842282        0.485997      0.000253953     3.69243e-05
                    -0.000446474     0.000669467         0.191152        0.326625      9.81874e-05    -0.000376636         0.696031       -0.600545
                       -0.842653        0.486281      0.000207201    -0.000355963       0.00893202        0.196677     -0.000654885     0.000177475
                     0.000213047    -4.77944e-05         0.696093       -0.600862     -0.000676533     0.000174642         0.296309        0.230379
281750                  0.166816        0.106017     -0.000536636     0.000651823        -0.842098         0.48631      0.000253893     3.68656e-05
                    -0.000446366     0.000669805         0.191221        0.326684      9.81286e-05    -0.000376672         0.695771       -0.600789
                        -0.84247        0.486594      0.000207273    -0.000356199        0.0090507        0.196679     -0.000655054     0.000177729
                     0.000212929    -4.79371e-05         0.695835       -0.601108     -0.000676671     0.000174914         0.296537        0.230224
281752                  0.166837        0.105996     -0.000536687     0.000652158        -0.841915        0.486624      0.000253833     3.68069e-05
                    -0.000446258     0.000670142         0.191291        0.326743      9.80705e-05    -0.000376708         0.695512       -0.601033
                       -0.842286        0.486908      0.000207346    -0.000356435       0.00916938         0.19668     -0.000655223     0.000177984
                     0.000212813    -4.80812e-05         0.695576       -0.601355     -0.000676808     0.000175185         0.296764        0.230069
281754                  0.166858        0.105976     -0.000536738     0.000652492        -0.841731        0.486937      0.000253773     3.67483e-05
                    -0.000446151     0.000670475          0.19136        0.326802      9.80131e-05    -0.000376745         0.695252       -0.601278
                       -0.842103        0.487221      0.000207418    -0.000356671       0.00928808        0.196682     -0.000655393     0.000178239
                     0.000212697    -4.82305e-05         0.695316       -0.601601     -0.000676945     0.000175458         0.296991        0.229914
281756                  0.166879        0.105956      -0.00053679     0.000652826        -0.841547         0.48725      0.000253713     3.66899e-05
                    -0.000446045     0.000670797         0.191429        0.326861      9.79565e-05    -0.000376781         0.694993       -0.601522
                       -0.841919        0.487535      0.000207489    -0.000356907       0.00940678        0.196683     -0.000655562     0.000178494
                     0.000212566    -4.83939e-05         0.695057       -0.601847     -0.000677081      0.00017573         0.297219        0.229758
281758                    0.1669        0.105936     -0.000536844     0.000653162        -0.841363        0.487563      0.000253653     3.66315e-05
                    -0.000445826     0.000671081         0.191498         0.32692      9.79007e-05    -0.000376818         0.694733       -0.601766
                       -0.841736        0.487848      0.000207561    -0.000357144       0.00952549        0.196684     -0.000655731     0.000178749
                     0.000212422    -4.85176e-05         0.694798       -0.602093     -0.000677217     0.000176002         0.297446        0.229602
281760                  0.166921        0.105916      -0.00053689     0.000653496        -0.841179        0.487877      0.000253593     3.65732e-05
                    -0.000445777     0.000671539         0.191568        0.326979      9.78457e-05    -0.000376854         0.694473        -0.60201
                       -0.841552        0.488161      0.000207633    -0.000357381       0.00964421        0.196685     -0.000655901     0.000179005
                     0.000212306    -4.86471e-05         0.694538       -0.602339     -0.000677353     0.000176275         0.297673        0.229446
281762                  0.166942        0.105896      -0.00053694     0.000653828        -0.840995         0.48819      0.000253532      3.6515e-05
                    -0.000445686     0.000671869         0.191637        0.327038      9.77914e-05    -0.000376891         0.694213       -0.602253
                       -0.841368        0.488475      0.000207704    -0.000357618       0.00976293        0.196686     -0.000656071     0.000179261
