! TOUCHSTONE file generated by CST MICROWAVE STUDIO
! Date and time: Wed Oct 15 17:33:50 2025
! Project name: Teste_Macro_Metasurface_Nanopilar.cst
! Parameters = {H=600; L_x=175; L_y=105; Lambda=1064; Max_L=200; Min_L=70; PathPara=1; Phi=0; Step_L=10; Theta=0; p=520; phaseX=180; phaseY=0}
! Header version: 2018
! Port assignment regex: !\s*Touchstone port\s*([0-9]+)\s*=\s*(CST MWS port|CST DS port)\s*([0-9]+|Zmin|Zmax)\s*\(\"(.*)\"\)(\s*mode\s*([0-9]+))?.*
! Touchstone port assignment:
! Touchstone port 1 = CST MWS port Zmax ("") mode 1
! Touchstone port 2 = CST MWS port Zmax ("") mode 2
! Touchstone port 3 = CST MWS port Zmin ("") mode 1
! Touchstone port 4 = CST MWS port Zmin ("") mode 2
! S-Parameters are not renormalized. Each port impedance will be approximated by the real part at minimum frequency. The values are described via the [Reference] keyword.
! Default impedance is overridden by [Reference]
[Version] 2.0
# GHz S RI R 376.73
[Number of Ports] 4
[Reference]
376.73 376.73 259.888 259.888 
[Number of Frequencies] 51
[Network Data]
281700                  0.169365    -0.000648646       0.00122277     0.000357857         -0.20337        0.954956       -0.0019321     0.000222973
                      0.00125819     0.000391373         0.721023        0.443636       0.00139815    -0.000845017        0.0308039       -0.489232
                       -0.203551        0.955341       0.00154756    -0.000846296         0.152288        0.070237     -0.000391896      0.00204643
                     -0.00196297     0.000336293        0.0311301       -0.489167     -0.000256195      0.00187711         0.719449       -0.426298
281702                  0.169349    -0.000666565        0.0012239     0.000356738        -0.202989         0.95504      -0.00193224     0.000225526
                      0.00125948     0.000390212         0.721507        0.443386       0.00139762    -0.000846052        0.0303825       -0.488741
                       -0.203171        0.955425        0.0015473    -0.000847676         0.152321       0.0701255     -0.000390404      0.00204758
                     -0.00196317      0.00033914        0.0307085       -0.488676     -0.000254779      0.00187778         0.719168       -0.427312
281704                  0.169333    -0.000684476       0.00122503     0.000355616        -0.202609        0.955123      -0.00193238      0.00022808
                      0.00126075     0.000389045         0.721991        0.443134       0.00139708    -0.000847087        0.0299618       -0.488248
                       -0.202791        0.955508       0.00154703    -0.000849057         0.152355       0.0700139     -0.000388909      0.00204873
                     -0.00196336     0.000341991        0.0302877       -0.488183     -0.000253359      0.00187845         0.718885       -0.428326
281706                  0.169316    -0.000702375       0.00122616     0.000354491        -0.202229        0.955207      -0.00193251     0.000230637
                      0.00126203     0.000387866         0.722474        0.442882       0.00139655    -0.000848122        0.0295417       -0.487755
                        -0.20241        0.955592       0.00154676    -0.000850438         0.152388       0.0699023     -0.000387411      0.00204988
                     -0.00196353     0.000344849        0.0298675        -0.48769     -0.000251936      0.00187912         0.718601        -0.42934
281708                    0.1693     -0.00072025       0.00122729     0.000353364        -0.201849         0.95529      -0.00193265     0.000233195
                      0.00126323      0.00038662         0.722958         0.44263       0.00139601    -0.000849157        0.0291223        -0.48726
                        -0.20203        0.955675       0.00154649     -0.00085182         0.152421       0.0697907     -0.000385912      0.00205102
                     -0.00196356      0.00034772        0.0294479       -0.487196      -0.00025051      0.00187979         0.718315       -0.430354
281710                  0.169284    -0.000738168       0.00122841     0.000352235        -0.201469        0.955373      -0.00193277     0.000235756
                       0.0012646     0.000385641         0.723442        0.442376       0.00139547    -0.000850191        0.0287035       -0.486765
                       -0.201641        0.955762       0.00154622    -0.000853203         0.152454       0.0696791      -0.00038441      0.00205217
                     -0.00196428     0.000350422        0.0290291       -0.486701     -0.000249081      0.00188046         0.718027       -0.431369
281712                  0.169268    -0.000756063       0.00122954     0.000351102        -0.201089        0.955455       -0.0019329     0.000238318
                      0.00126588     0.000384426         0.723926        0.442122       0.00139494    -0.000851225        0.0282855       -0.486269
                       -0.201269        0.955841       0.00154594    -0.000854586         0.152488       0.0695675     -0.000382905      0.00205331
                      -0.0019643     0.000353366        0.0286109       -0.486204     -0.000247648      0.00188112         0.717738       -0.432383
281714                  0.169252    -0.000773939       0.00123066     0.000349967        -0.200709        0.955538      -0.00193302     0.000240882
                      0.00126716     0.000383239          0.72441        0.441866        0.0013944     -0.00085226        0.0278681       -0.485772
                       -0.200889        0.955924       0.00154566    -0.000855969         0.152521       0.0694559     -0.000381399      0.00205445
                     -0.00196445     0.000356241        0.0281935       -0.485707     -0.000246211      0.00188179         0.717446       -0.433398
281716                  0.169236    -0.000791807       0.00123178     0.000348829        -0.200328        0.955621      -0.00193313     0.000243448
                      0.00126844     0.000382055         0.724894        0.441611       0.00139386    -0.000853294        0.0274515       -0.485274
                       -0.200508        0.956006       0.00154538    -0.000857354         0.152553       0.0693442     -0.000379889      0.00205559
                     -0.00196462      0.00035911        0.0277767       -0.485209     -0.000244771      0.00188245         0.717154       -0.434414
281718                   0.16922    -0.000809668       0.00123291     0.000347689        -0.199948        0.955703      -0.00193324     0.000246016
                      0.00126971     0.000380871         0.725378        0.441354       0.00139331    -0.000854328        0.0270355       -0.484775
                       -0.200128        0.956089        0.0015451    -0.000858738         0.152586       0.0692325     -0.000378378      0.00205673
                      -0.0019648     0.000361979        0.0273606       -0.484711     -0.000243328      0.00188311         0.716859       -0.435429
281720                  0.169204    -0.000827521       0.00123403     0.000346546        -0.199568        0.955785      -0.00193335     0.000248585
                      0.00127099     0.000379685         0.725862        0.441097       0.00139277    -0.000855361        0.0266202       -0.484275
                       -0.199747        0.956171       0.00154482    -0.000860124         0.152619       0.0691208     -0.000376864      0.00205787
                     -0.00196497      0.00036485        0.0269452       -0.484211     -0.000241881      0.00188377         0.716563       -0.436445
281722                  0.169188    -0.000845367       0.00123515     0.000345401        -0.199187        0.955867      -0.00193345     0.000251157
                      0.00127227     0.000378496         0.726346        0.440838       0.00139223    -0.000856395        0.0262056       -0.483774
                       -0.199367        0.956253       0.00154453     -0.00086151         0.152652       0.0690091     -0.000375348        0.002059
                     -0.00196514     0.000367723        0.0265304        -0.48371     -0.000240431      0.00188443         0.716265       -0.437461
281724                  0.169171    -0.000863205       0.00123627     0.000344252        -0.198807        0.955949      -0.00193355      0.00025373
                      0.00127354     0.000377304          0.72683        0.440579       0.00139169    -0.000857428        0.0257917       -0.483272
                       -0.198986        0.956335       0.00154425    -0.000862896         0.152684       0.0688974      -0.00037383      0.00206014
                      -0.0019653     0.000370598        0.0261164       -0.483209     -0.000238978      0.00188509         0.715966       -0.438477
281726                  0.169155    -0.000881036       0.00123739     0.000343102        -0.198426        0.956031      -0.00193365     0.000256305
                      0.00127482      0.00037611         0.727314         0.44032       0.00139114    -0.000858462        0.0253784        -0.48277
                       -0.198606        0.956417       0.00154396    -0.000864283         0.152717       0.0687856     -0.000372309      0.00206127
                     -0.00196547     0.000373476        0.0257031       -0.482706      -0.00023752      0.00188574         0.715664       -0.439493
281728                  0.169139    -0.000898859        0.0012385     0.000341948        -0.198046        0.956113      -0.00193374     0.000258882
                      0.00127609     0.000374913         0.727798        0.440059       0.00139059    -0.000859495        0.0249659       -0.482266
                       -0.198225        0.956499       0.00154367    -0.000865671         0.152749       0.0686738     -0.000370786       0.0020624
                     -0.00196563     0.000376357        0.0252904       -0.482203      -0.00023606       0.0018864         0.715361       -0.440509
281730                  0.169123    -0.000916675       0.00123962     0.000340792        -0.197665        0.956194      -0.00193383     0.000261461
                      0.00127737     0.000373713         0.728283        0.439798       0.00139005    -0.000860528        0.0245541       -0.481762
                       -0.197844         0.95658       0.00154337    -0.000867059         0.152782        0.068562      -0.00036926      0.00206353
                     -0.00196578      0.00037924        0.0248785       -0.481698     -0.000234595      0.00188705         0.715057       -0.441526
281732                  0.169107    -0.000934484       0.00124073     0.000339633        -0.197285        0.956275      -0.00193392     0.000264042
                      0.00127864      0.00037251         0.728767        0.439536        0.0013895    -0.000861561         0.024143       -0.481257
                       -0.197463        0.956662       0.00154308    -0.000868447         0.152814       0.0684502     -0.000367732      0.00206466
                     -0.00196593     0.000382126        0.0244673       -0.481193     -0.000233127       0.0018877          0.71475       -0.442543
281734                  0.169091    -0.000952285       0.00124185     0.000338472        -0.196904        0.956357        -0.001934     0.000266625
                      0.00127992     0.000371304         0.729251        0.439273       0.00138895    -0.000862594        0.0237326        -0.48075
                       -0.197083        0.956743       0.00154278    -0.000869836         0.152846       0.0683384     -0.000366202      0.00206579
                     -0.00196608     0.000385014        0.0240568       -0.480687     -0.000231656      0.00188835         0.714442        -0.44356
281736                  0.169074    -0.000970079       0.00124296     0.000337308        -0.196524        0.956438      -0.00193407     0.000269209
                      0.00128119     0.000370095         0.729736        0.439009        0.0013884    -0.000863627        0.0233229       -0.480243
                       -0.196702        0.956824       0.00154248    -0.000871226         0.152878       0.0682266     -0.000364669      0.00206691
                     -0.00196622     0.000387905         0.023647        -0.48018     -0.000230181        0.001889         0.714132       -0.444577
281738                  0.169058    -0.000987865       0.00124407     0.000336141        -0.196143        0.956518      -0.00193414     0.000271795
                      0.00128246     0.000368883          0.73022        0.438745       0.00138785     -0.00086466         0.022914       -0.479735
                       -0.196321        0.956905       0.00154218    -0.000872616          0.15291       0.0681147     -0.000363134      0.00206804
                     -0.00196636     0.000390798        0.0232379       -0.479672     -0.000228702      0.00188965         0.713821       -0.445594
281740                  0.169042     -0.00100564       0.00124518     0.000334972        -0.195762        0.956599      -0.00193421     0.000274383
                      0.00128373     0.000367668         0.730704         0.43848        0.0013873    -0.000865692        0.0225057       -0.479226
                        -0.19594        0.956986       0.00154187    -0.000874006         0.152942       0.0680028     -0.000361597      0.00206916
                      -0.0019665     0.000393694        0.0228295       -0.479163      -0.00022722      0.00189029         0.713508       -0.446612
281742                  0.169026     -0.00102341       0.00124629       0.0003338        -0.195382         0.95668      -0.00193428     0.000276973
                        0.001285     0.000366449         0.731189        0.438214       0.00138675    -0.000866725        0.0220982       -0.478716
                       -0.195559        0.957067       0.00154157    -0.000875397         0.152974        0.067891     -0.000360057      0.00207028
                     -0.00196663     0.000396593        0.0224218       -0.478654     -0.000225733      0.00189094         0.713193       -0.447629
281744                   0.16901     -0.00104118        0.0012474     0.000332626        -0.195001         0.95676      -0.00193434     0.000279565
                      0.00128627     0.000365228         0.731674        0.437947       0.00138619    -0.000867757        0.0216913       -0.478206
                       -0.195178        0.957147       0.00154126    -0.000876789         0.153006       0.0677791     -0.000358515       0.0020714
                     -0.00196676     0.000399494        0.0220149       -0.478143     -0.000224244      0.00189158         0.712876       -0.448647
281746                  0.168993     -0.00105893       0.00124851     0.000331449         -0.19462         0.95684      -0.00193439     0.000282159
                      0.00128754     0.000364004         0.732158         0.43768       0.00138564     -0.00086879        0.0212852       -0.477694
                       -0.194797        0.957227       0.00154095    -0.000878181         0.153038       0.0676671      -0.00035697      0.00207252
                     -0.00196688     0.000402398        0.0216087       -0.477631      -0.00022275      0.00189222         0.712557       -0.449665
281748                  0.168977     -0.00107668       0.00124962     0.000330269        -0.194239         0.95692      -0.00193445     0.000284754
                      0.00128881     0.000362777         0.732643        0.437411       0.00138508    -0.000869822        0.0208799       -0.477181
                       -0.194416        0.957308       0.00154064    -0.000879573         0.153069       0.0675552     -0.000355423      0.00207363
                       -0.001967     0.000405305        0.0212032       -0.477119     -0.000221253      0.00189286         0.712237       -0.450683
281750                  0.168961     -0.00109443       0.00125072     0.000329086        -0.193858           0.957      -0.00193449     0.000287351
                      0.00129008     0.000361546         0.733127        0.437142       0.00138453    -0.000870855        0.0204752       -0.476668
                       -0.194035        0.957388       0.00154033    -0.000880966         0.153101       0.0674432     -0.000353874      0.00207475
                     -0.00196712     0.000408214        0.0207984       -0.476605     -0.000219752       0.0018935         0.711916       -0.451702
281752                  0.168945     -0.00111216       0.00125183     0.000327901        -0.193477         0.95708      -0.00193454      0.00028995
                      0.00129135     0.000360313         0.733612        0.436872       0.00138397    -0.000871887        0.0200713       -0.476154
                       -0.193654        0.957468       0.00154001     -0.00088236         0.153132       0.0673313     -0.000352322      0.00207586
                     -0.00196723     0.000411126        0.0203944       -0.476091     -0.000218247      0.00189413         0.711592        -0.45272
281754                  0.168928     -0.00112989       0.00125293     0.000326714        -0.193097         0.95716      -0.00193458     0.000292551
                      0.00129262     0.000359076         0.734097        0.436602       0.00138341    -0.000872919        0.0196681       -0.475638
                       -0.193273        0.957547       0.00153969    -0.000883754         0.153164       0.0672193     -0.000350768      0.00207697
                     -0.00196733     0.000414041        0.0199911       -0.475576     -0.000216738      0.00189476         0.711267       -0.453739
281756                  0.168912      -0.0011476       0.00125403     0.000325523        -0.192716        0.957239      -0.00193461     0.000295153
                      0.00129388     0.000357837         0.734581         0.43633       0.00138285    -0.000873951        0.0192657       -0.475122
                       -0.192892        0.957627       0.00153937    -0.000885148         0.153195       0.0671073     -0.000349211      0.00207809
                     -0.00196744     0.000416958        0.0195885        -0.47506     -0.000215226       0.0018954          0.71094       -0.454758
281758                  0.168896     -0.00116532       0.00125513     0.000324331        -0.192335        0.957319      -0.00193465     0.000297758
                      0.00129515     0.000356594         0.735066        0.436058       0.00138229    -0.000874984         0.018864       -0.474605
                       -0.192511        0.957706       0.00153905    -0.000886543         0.153226       0.0669952     -0.000347653      0.00207919
                     -0.00196754     0.000419878        0.0191867       -0.474543      -0.00021371      0.00189603         0.710611       -0.455776
281760                   0.16888     -0.00118302       0.00125623     0.000323135        -0.191954        0.957398      -0.00193467     0.000300364
                      0.00129641     0.000355348         0.735551        0.435785       0.00138173    -0.000876016         0.018463       -0.474087
                        -0.19213        0.957786       0.00153873    -0.000887938         0.153257       0.0668832     -0.000346091       0.0020803
                     -0.00196763       0.0004228        0.0187856       -0.474025     -0.000212189      0.00189665          0.71028       -0.456796
281762                  0.168864     -0.00120072       0.00125733     0.000321937        -0.191572        0.957477       -0.0019347     0.000302972
                      0.00129768     0.000354099         0.736035        0.435511       0.00138117    -0.000877048        0.0180628       -0.473568
                       -0.191748        0.957865        0.0015384    -0.000889334         0.153288       0.0667711     -0.000344528      0.00208141
