! TOUCHSTONE file generated by CST MICROWAVE STUDIO
! Date and time: Wed Oct 15 17:33:13 2025
! Project name: Teste_Macro_Metasurface_Nanopilar.cst
! Parameters = {H=600; L_x=165; L_y=80; Lambda=1064; Max_L=200; Min_L=70; PathPara=1; Phi=0; Step_L=10; Theta=0; p=520; phaseX=180; phaseY=0}
! Header version: 2018
! Port assignment regex: !\s*Touchstone port\s*([0-9]+)\s*=\s*(CST MWS port|CST DS port)\s*([0-9]+|Zmin|Zmax)\s*\(\"(.*)\"\)(\s*mode\s*([0-9]+))?.*
! Touchstone port assignment:
! Touchstone port 1 = CST MWS port Zmax ("") mode 1
! Touchstone port 2 = CST MWS port Zmax ("") mode 2
! Touchstone port 3 = CST MWS port Zmin ("") mode 1
! Touchstone port 4 = CST MWS port Zmin ("") mode 2
! S-Parameters are not renormalized. Each port impedance will be approximated by the real part at minimum frequency. The values are described via the [Reference] keyword.
! Default impedance is overridden by [Reference]
[Version] 2.0
# GHz S RI R 376.73
[Number of Ports] 4
[Reference]
376.73 376.73 259.888 259.888 
[Number of Frequencies] 51
[Network Data]
281700                -0.0222917      -0.0503148      0.000284936    -6.81359e-05        -0.370181       -0.926435      0.000519305     1.88977e-05
                      0.00020868    -1.63052e-05      -0.00884329        0.130996     -7.63067e-05     0.000279347         0.927236        0.331551
                        -0.37054       -0.925651     -6.83744e-05     0.000416356        0.0185869       0.0521951     -0.000276163     0.000251255
                       0.0003343     4.91429e-05         0.926754        0.331533      -0.00010904     0.000297783       -0.0754711        0.108511
281702                -0.0223004      -0.0503311      0.000285023    -6.82716e-05        -0.370419        -0.92634      0.000519275     1.86955e-05
                     0.000192528    -6.44812e-05      -0.00882063        0.131022     -7.62813e-05     0.000279321         0.927351         0.33122
                       -0.370712        -0.92594     -6.82667e-05     0.000416401           0.0186       0.0521861     -0.000276057     0.000251454
                     0.000323966     6.24624e-05          0.92687        0.331202     -0.000108949     0.000297918        -0.075428         0.10857
281704                -0.0223109      -0.0503199       0.00028511    -6.84073e-05        -0.370658       -0.926246      0.000519244     1.84933e-05
                     0.000192375    -6.49762e-05      -0.00879796        0.131048     -7.62555e-05     0.000279294         0.927465        0.330889
                       -0.370962       -0.925848      -6.8159e-05     0.000416447        0.0186132       0.0521771      -0.00027595     0.000251652
                     0.000324272     6.24216e-05         0.926985         0.33087     -0.000108859     0.000298053       -0.0753848        0.108629
281706                -0.0223213      -0.0503102      0.000285198     -6.8543e-05        -0.370896       -0.926151      0.000519214     1.82911e-05
                     0.000192364      -6.522e-05       -0.0087753        0.131074     -7.62294e-05     0.000279267          0.92758        0.330558
                       -0.371204       -0.925753     -6.80514e-05     0.000416492        0.0186263       0.0521681     -0.000275843     0.000251851
                     0.000324453      6.2354e-05           0.9271        0.330539     -0.000108769     0.000298188       -0.0753416        0.108689
281708                -0.0223316      -0.0503009      0.000285285    -6.86785e-05        -0.371135       -0.926056      0.000519182      1.8089e-05
                     0.000192389    -6.54004e-05      -0.00875263        0.131101      -7.6203e-05     0.000279239         0.927694        0.330226
                       -0.371444       -0.925657     -6.79438e-05     0.000416537        0.0186394       0.0521591     -0.000275735      0.00025205
                     0.000324602     6.22801e-05         0.927214        0.330208     -0.000108678     0.000298323       -0.0752983        0.108748
281710                -0.0223419      -0.0502916      0.000285372     -6.8814e-05        -0.371373       -0.925961      0.000519151     1.78869e-05
                     0.000192429    -6.55555e-05      -0.00872996        0.131127     -7.61763e-05     0.000279211         0.927808        0.329895
                       -0.371684       -0.925562     -6.78363e-05     0.000416582        0.0186525       0.0521501     -0.000275627     0.000252248
                     0.000324739     6.22037e-05         0.927329        0.329877     -0.000108588     0.000298457        -0.075255        0.108807
281712                -0.0223522      -0.0502825       0.00028546    -6.89495e-05        -0.371612       -0.925866       0.00051912     1.76848e-05
                     0.000192475     -6.5698e-05      -0.00870728        0.131153     -7.61493e-05     0.000279181         0.927923        0.329564
                       -0.371923       -0.925466     -6.77288e-05     0.000416627        0.0186656       0.0521411     -0.000275519     0.000252447
                      0.00032487      6.2126e-05         0.927444        0.329546     -0.000108499     0.000298592       -0.0752117        0.108867
281714                -0.0223625      -0.0502733      0.000285547    -6.90848e-05         -0.37185       -0.925771      0.000519088     1.74828e-05
                     0.000192526    -6.58332e-05       -0.0086846        0.131179      -7.6122e-05     0.000279151         0.928037        0.329233
                       -0.372161        -0.92537     -6.76213e-05     0.000416671        0.0186788       0.0521321      -0.00027541     0.000252646
                     0.000324997     6.20476e-05         0.927558        0.329214     -0.000108409     0.000298726       -0.0751683        0.108926
281716                -0.0223728      -0.0502642      0.000285634    -6.92202e-05        -0.372089       -0.925676      0.000519056     1.72807e-05
                     0.000192579    -6.59641e-05      -0.00866192        0.131205     -7.60944e-05      0.00027912         0.928151        0.328901
                         -0.3724       -0.925274     -6.75138e-05     0.000416716        0.0186919       0.0521231     -0.000275301     0.000252844
                     0.000325122     6.19686e-05         0.927672        0.328883     -0.000108319     0.000298861       -0.0751248        0.108985
281718                -0.0223831      -0.0502551      0.000285721    -6.93555e-05        -0.372327       -0.925581      0.000519023     1.70787e-05
                     0.000192633     -6.6092e-05      -0.00863924        0.131232     -7.60664e-05     0.000279089         0.928264         0.32857
                       -0.372639       -0.925178     -6.74063e-05      0.00041676         0.018705       0.0521141     -0.000275191     0.000253043
                     0.000325245     6.18892e-05         0.927787        0.328552      -0.00010823     0.000298995       -0.0750813        0.109044
281720                -0.0223934       -0.050246      0.000285809    -6.94907e-05        -0.372565       -0.925486      0.000518991     1.68768e-05
                     0.000192689    -6.62179e-05      -0.00861656        0.131258     -7.60382e-05     0.000279057         0.928378        0.328238
                       -0.372877       -0.925082     -6.72988e-05     0.000416804        0.0187181       0.0521051     -0.000275081     0.000253241
                     0.000325368     6.18095e-05         0.927901         0.32822     -0.000108141      0.00029913       -0.0750378        0.109104
281722                -0.0224037      -0.0502369      0.000285896     -6.9626e-05        -0.372804       -0.925391      0.000518958     1.66748e-05
                     0.000192746    -6.63423e-05      -0.00859387        0.131284     -7.60097e-05     0.000279024         0.928492        0.327907
                       -0.373115       -0.924986     -6.71912e-05     0.000416849        0.0187312       0.0520961     -0.000274971      0.00025344
                     0.000325489     6.17296e-05         0.928015        0.327889     -0.000108052     0.000299264       -0.0749942        0.109163
281724                -0.0224139      -0.0502278      0.000285983    -6.97614e-05        -0.373042       -0.925295      0.000518925     1.64729e-05
                     0.000192803    -6.64657e-05      -0.00857118         0.13131     -7.59809e-05      0.00027899         0.928605        0.327575
                       -0.373354        -0.92489     -6.70836e-05     0.000416893        0.0187443       0.0520871      -0.00027486     0.000253638
                     0.000325611     6.16495e-05         0.928128        0.327558     -0.000107962     0.000299398       -0.0749506        0.109222
281726                -0.0224242      -0.0502187       0.00028607    -6.98969e-05         -0.37328         -0.9252      0.000518892     1.62711e-05
                      0.00019286    -6.65882e-05      -0.00854848        0.131336     -7.59518e-05     0.000278956         0.928718        0.327244
                       -0.373592       -0.924793     -6.69759e-05     0.000416937        0.0187573       0.0520781     -0.000274749     0.000253836
                     0.000325731     6.15692e-05         0.928242        0.327226     -0.000107874     0.000299533       -0.0749069        0.109281
281728                -0.0224345      -0.0502096      0.000286157    -7.00326e-05        -0.373519       -0.925105      0.000518858     1.60693e-05
                     0.000192917    -6.67099e-05      -0.00852579        0.131362     -7.59224e-05     0.000278921         0.928832        0.326912
                       -0.373831       -0.924697     -6.68679e-05     0.000416982        0.0187704       0.0520691     -0.000274637     0.000254035
                     0.000325852     6.14887e-05         0.928356        0.326895     -0.000107785     0.000299667       -0.0748632         0.10934
281730                -0.0224448      -0.0502005      0.000286244    -7.01687e-05        -0.373757       -0.925009      0.000518824     1.58675e-05
                     0.000192975     -6.6831e-05      -0.00850309        0.131388     -7.58927e-05     0.000278886         0.928945        0.326581
                       -0.374069         -0.9246     -6.67597e-05     0.000417027        0.0187835       0.0520601     -0.000274525     0.000254233
                     0.000325972     6.14081e-05         0.928469        0.326563     -0.000107696     0.000299801       -0.0748194          0.1094
281732                -0.0224551      -0.0501914      0.000286331    -7.03053e-05        -0.373995       -0.924914       0.00051879     1.56658e-05
                     0.000193032    -6.69512e-05      -0.00848039        0.131415     -7.58627e-05      0.00027885         0.929058        0.326249
                       -0.374307       -0.924504     -6.66509e-05     0.000417073        0.0187966       0.0520511     -0.000274413     0.000254431
                     0.000326092     6.13274e-05         0.928583        0.326231     -0.000107608     0.000299935       -0.0747756        0.109459
281734                -0.0224654      -0.0501823      0.000286417    -7.04429e-05        -0.374233       -0.924818      0.000518755     1.54641e-05
                     0.000193089    -6.70705e-05      -0.00845768        0.131441     -7.58324e-05     0.000278813          0.92917        0.325917
                       -0.374545       -0.924407     -6.65414e-05     0.000417121        0.0188096       0.0520421       -0.0002743     0.000254629
                     0.000326212     6.12465e-05         0.928696          0.3259     -0.000107519     0.000300069       -0.0747317        0.109518
281736                -0.0224757      -0.0501732      0.000286503    -7.05822e-05        -0.374472       -0.924722      0.000518721     1.52625e-05
                     0.000193146    -6.71883e-05      -0.00843497        0.131467     -7.58018e-05     0.000278776         0.929283        0.325586
                       -0.374783       -0.924311     -6.64306e-05     0.000417171        0.0188227        0.052033     -0.000274186     0.000254827
                     0.000326332     6.11656e-05         0.928809        0.325568     -0.000107431     0.000300203       -0.0746878        0.109577
281738                -0.0224859       -0.050164      0.000286589    -7.07246e-05         -0.37471       -0.924627      0.000518686     1.50609e-05
                     0.000193203     -6.7304e-05      -0.00841226        0.131493     -7.57709e-05     0.000278738         0.929396        0.325254
                       -0.375022       -0.924214     -6.63173e-05     0.000417227        0.0188358        0.052024     -0.000274072     0.000255025
                     0.000326451     6.10847e-05         0.928922        0.325237     -0.000107343     0.000300337       -0.0746439        0.109636
281740                -0.0224962      -0.0501549      0.000286673    -7.08735e-05        -0.374948       -0.924531      0.000518651     1.48594e-05
                     0.000193263    -6.74172e-05      -0.00838954        0.131519     -7.57397e-05     0.000278699         0.929508        0.324922
                        -0.37526       -0.924117      -6.6199e-05     0.000417293        0.0188488        0.052015     -0.000273958     0.000255222
                      0.00032657     6.10037e-05         0.929035        0.324905     -0.000107255     0.000300471       -0.0745999        0.109695
281742                -0.0225065      -0.0501458      0.000286753    -7.10394e-05        -0.375186       -0.924435      0.000518615     1.46579e-05
                     0.000193327    -6.75288e-05      -0.00836682        0.131545     -7.57079e-05     0.000278659         0.929621         0.32459
                       -0.375498       -0.924021     -6.60679e-05     0.000417386        0.0188619        0.052006     -0.000273843      0.00025542
                      0.00032669     6.09228e-05         0.929147        0.324573     -0.000107167     0.000300605       -0.0745558        0.109754
281744                -0.0225168      -0.0501367      0.000286819     -7.1277e-05        -0.375424       -0.924339      0.000518579     1.44564e-05
                     0.000193397    -6.76434e-05      -0.00834405        0.131571     -7.56757e-05     0.000278617         0.929733        0.324259
                       -0.375736       -0.923924     -6.58836e-05      0.00041759        0.0188749        0.051997     -0.000273728     0.000255618
                     0.000326808     6.08421e-05          0.92926        0.324242      -0.00010708     0.000300741       -0.0745118        0.109814
281746                 -0.022527      -0.0501276      0.000287532     -6.8248e-05        -0.375662       -0.924243      0.000518543     1.42549e-05
                     0.000193469    -6.77649e-05      -0.00832204        0.131598     -7.56531e-05     0.000278577         0.929845        0.323927
                       -0.375974       -0.923827     -6.87843e-05     0.000400924        0.0188879        0.051988     -0.000273612     0.000255815
                     0.000326926     6.07615e-05         0.929374        0.323904     -0.000106989     0.000300873       -0.0744676        0.109873
281748                -0.0225373      -0.0501185      0.000287074    -7.11553e-05          -0.3759       -0.924147      0.000518507     1.40533e-05
                     0.000193537    -6.78915e-05      -0.00829877        0.131624     -7.56173e-05      0.00027854         0.929957        0.323595
                       -0.376212        -0.92373     -6.59748e-05     0.000417016         0.018901       0.0519789     -0.000273495     0.000256013
                     0.000327042     6.06803e-05         0.929485        0.323577     -0.000106902     0.000301006       -0.0744234        0.109932
281750                -0.0225476      -0.0501094      0.000287143    -7.13735e-05        -0.376138       -0.924051       0.00051847     1.38511e-05
                     0.000193601    -6.80192e-05      -0.00827601         0.13165     -7.55838e-05     0.000278499         0.930069        0.323263
                        -0.37645       -0.923633     -6.57985e-05      0.00041721         0.018914       0.0519699     -0.000273376     0.000256211
                     0.000327157     6.05955e-05         0.929597        0.323245     -0.000106815     0.000301139       -0.0743792        0.109991
281752                -0.0225579      -0.0501002      0.000287225    -7.15346e-05        -0.376376       -0.923955      0.000518429     1.36458e-05
                     0.000193662    -6.81459e-05      -0.00825328        0.131676     -7.55508e-05     0.000278457         0.930181        0.322931
                       -0.376688       -0.923536     -6.56695e-05     0.000417299         0.018927       0.0519609     -0.000273249     0.000256406
                     0.000327276      6.0508e-05         0.929709        0.322913     -0.000106728     0.000301273        -0.074335         0.11005
281754                -0.0225681      -0.0500911      0.000287309    -7.16805e-05        -0.376614       -0.923859      0.000518391     1.34576e-05
                     0.000193722    -6.82714e-05      -0.00823054        0.131702     -7.55178e-05     0.000278414         0.930292        0.322599
                       -0.376926       -0.923439     -6.55529e-05     0.000417362        0.0189401       0.0519519     -0.000273143     0.000256587
                     0.000327398      6.0423e-05         0.929821        0.322581      -0.00010664     0.000301406       -0.0742906        0.110109
281756                -0.0225784       -0.050082      0.000287395      -7.182e-05        -0.376852       -0.923762      0.000518357      1.3254e-05
                     0.000193782    -6.83959e-05      -0.00820781        0.131728     -7.54846e-05     0.000278371         0.930404        0.322267
                       -0.377164       -0.923341     -6.54413e-05     0.000417413        0.0189531       0.0519428      -0.00027303      0.00025679
                     0.000327519     6.03399e-05         0.929933        0.322249     -0.000106553      0.00030154       -0.0742463        0.110168
281758                -0.0225887      -0.0500729      0.000287481    -7.19562e-05         -0.37709       -0.923666      0.000518319     1.30525e-05
                     0.000193841    -6.85197e-05      -0.00818507        0.131754     -7.54513e-05     0.000278327         0.930515        0.321935
                       -0.377402       -0.923244     -6.53324e-05     0.000417458        0.0189661       0.0519338     -0.000272911     0.000256988
                      0.00032764     6.02573e-05         0.930045        0.321917     -0.000106466     0.000301673       -0.0742019        0.110227
281760                 -0.022599      -0.0500637      0.000287568    -7.20902e-05        -0.377328       -0.923569      0.000518281     1.28516e-05
                       0.0001939    -6.86431e-05      -0.00816233         0.13178     -7.54177e-05     0.000278283         0.930626        0.321603
                        -0.37764       -0.923147      -6.5225e-05     0.000417499        0.0189791       0.0519248     -0.000272792     0.000257185
                      0.00032776     6.01747e-05         0.930157        0.321585     -0.000106379     0.000301807       -0.0741574        0.110286
281762                -0.0226092      -0.0500546      0.000287655    -7.22229e-05        -0.377566       -0.923473      0.000518243      1.2651e-05
                     0.000193959    -6.87663e-05      -0.00813959        0.131806      -7.5384e-05     0.000278238         0.930737        0.321271
                       -0.377878       -0.923049     -6.51188e-05     0.000417538        0.0189921       0.0519157     -0.000272673     0.000257381
