! TOUCHSTONE file generated by CST MICROWAVE STUDIO
! Date and time: Wed Oct 15 17:34:28 2025
! Project name: Teste_Macro_Metasurface_Nanopilar.cst
! Parameters = {H=600; L_x=185; L_y=135; Lambda=1064; Max_L=200; Min_L=70; PathPara=1; Phi=0; Step_L=10; Theta=0; p=520; phaseX=180; phaseY=0}
! Header version: 2018
! Port assignment regex: !\s*Touchstone port\s*([0-9]+)\s*=\s*(CST MWS port|CST DS port)\s*([0-9]+|Zmin|Zmax)\s*\(\"(.*)\"\)(\s*mode\s*([0-9]+))?.*
! Touchstone port assignment:
! Touchstone port 1 = CST MWS port Zmax ("") mode 1
! Touchstone port 2 = CST MWS port Zmax ("") mode 2
! Touchstone port 3 = CST MWS port Zmin ("") mode 1
! Touchstone port 4 = CST MWS port Zmin ("") mode 2
! S-Parameters are not renormalized. Each port impedance will be approximated by the real part at minimum frequency. The values are described via the [Reference] keyword.
! Default impedance is overridden by [Reference]
[Version] 2.0
# GHz S RI R 376.73
[Number of Ports] 4
[Reference]
376.73 376.73 259.888 259.888 
[Number of Frequencies] 51
[Network Data]
281700                  0.573561        0.505742      -0.00072099     -0.00207676          0.15972       -0.538512       0.00131186    -0.000364819
                     -0.00110018     -0.00131796         0.168582      0.00500871       0.00104256     -0.00071921         0.552911       -0.811002
                        0.159936       -0.538568       0.00195598     0.000286987         0.675397       -0.295111      -0.00227221      0.00132905
                      0.00107055    -0.000466589         0.553311        -0.81142      -0.00183993      0.00102578        0.0655046        0.150838
281702                  0.574722        0.505543     -0.000775456     -0.00199723         0.158652       -0.537547       0.00131173    -0.000370134
                       -0.001105     -0.00131648         0.168587      0.00503056        0.0010433    -0.000722735         0.552667       -0.811171
                        0.158884        -0.53762         0.001896     0.000124995         0.675325       -0.297046      -0.00227084       0.0013397
                      0.00107116    -0.000469034         0.553071       -0.811579      -0.00184226      0.00102955         0.065615        0.150794
281704                  0.575887        0.505342     -0.000814799     -0.00192982         0.157587       -0.536576       0.00130994    -0.000375943
                     -0.00110978     -0.00131502         0.168592      0.00505252       0.00104402    -0.000726275         0.552423        -0.81134
                        0.157831       -0.536664       0.00182763     5.46631e-06         0.675246       -0.298984      -0.00226868      0.00134947
                      0.00107194    -0.000471342         0.552831       -0.811737      -0.00184456      0.00103351        0.0657255        0.150751
281706                  0.577056        0.505137     -0.000843803     -0.00187275         0.156524         -0.5356       0.00130584    -0.000382401
                     -0.00111451     -0.00131359         0.168597       0.0050746       0.00104473     -0.00072983         0.552177       -0.811511
                        0.156779       -0.535702       0.00176064    -8.24379e-05         0.675161       -0.300925      -0.00226552      0.00135801
                      0.00107294    -0.000473537         0.552591       -0.811895      -0.00184681      0.00103766        0.0658361        0.150707
281708                   0.57823        0.504929       -0.0008656     -0.00182436         0.155462       -0.534619       0.00129836    -0.000389747
                      -0.0011192     -0.00131219         0.168601      0.00509684       0.00104543    -0.000733399          0.55193       -0.811682
                        0.155727       -0.534732       0.00169916    -0.000147476         0.675069        -0.30287      -0.00226107      0.00136479
                      0.00107418    -0.000475657         0.552351       -0.812053      -0.00184901      0.00104201        0.0659468        0.150664
281710                  0.579408        0.504717     -0.000882278     -0.00178321         0.154403       -0.533632       0.00128572    -0.000398362
                     -0.00112383     -0.00131082         0.168607      0.00511922       0.00104612    -0.000736982          0.55168       -0.811856
                        0.154676       -0.533755       0.00164457      -0.0001961         0.674971       -0.304818      -0.00225491      0.00136896
                       0.0010757    -0.000477747         0.552111        -0.81221      -0.00185113      0.00104655        0.0660576         0.15062
281712                   0.58059        0.504501     -0.000895259      -0.0017481         0.153346        -0.53264       0.00126461    -0.000408894
                     -0.00112839     -0.00130947         0.168612      0.00514175       0.00104679    -0.000740578         0.551428       -0.812033
                        0.153625       -0.532771       0.00159692    -0.000232897         0.674866       -0.306769      -0.00224635      0.00136912
                      0.00107752    -0.000479864         0.551871       -0.812366      -0.00185319      0.00105128        0.0661683        0.150577
281714                  0.581776         0.50428     -0.000905527     -0.00171805         0.152291       -0.531643        0.0012283    -0.000422522
                     -0.00113289     -0.00130815         0.168618      0.00516437       0.00104744    -0.000744185         0.551168       -0.812215
                        0.152575        -0.53178       0.00155572    -0.000261096         0.674755       -0.308723      -0.00223436      0.00136265
                      0.00107964    -0.000482067         0.551632       -0.812521      -0.00185515      0.00105619        0.0662792        0.150534
281716                  0.582966        0.504055     -0.000913777     -0.00169227         0.151239        -0.53064       0.00116035    -0.000441557
                     -0.00113731     -0.00130685         0.168624      0.00518699       0.00104808    -0.000747803         0.550894       -0.812404
                        0.151526       -0.530782        0.0015203    -0.000282973         0.674637       -0.310681      -0.00221718      0.00134429
                      0.00108205    -0.000484418         0.551392       -0.812675      -0.00185701      0.00106128          0.06639         0.15049
281718                  0.584159        0.503825     -0.000920506      -0.0016701         0.150188       -0.529632       0.00100806    -0.000470221
                     -0.00114165     -0.00130557          0.16863      0.00520941       0.00104871    -0.000751428         0.550581       -0.812604
                        0.150477       -0.529777       0.00148995    -0.000300146         0.674512       -0.312643      -0.00219209       0.0013016
                      0.00108472    -0.000486977         0.551151       -0.812827      -0.00185876      0.00106655        0.0665009        0.150447
281720                  0.585355        0.503589     -0.000926078     -0.00165103          0.14914       -0.528618      0.000466186    -0.000484397
                     -0.00114591     -0.00130429         0.168638       0.0052314       0.00104931    -0.000755059         0.550142       -0.812766
                         0.14943       -0.528765       0.00146403    -0.000313775         0.674381       -0.314607      -0.00215765      0.00119796
                      0.00108762    -0.000489793         0.550911       -0.812978      -0.00186039      0.00107198        0.0666118        0.150403
281722                  0.586554        0.503349      -0.00093076      -0.0016346         0.148094       -0.527599       0.00330221      0.00254836
                     -0.00115007     -0.00130302         0.168645      0.00525272        0.0010499    -0.000758691          0.54978       -0.812473
                        0.148384       -0.527746       0.00144197    -0.000324707         0.674243       -0.316575      -0.00216793     0.000883801
                      0.00109068    -0.000492905         0.550669       -0.813126       -0.0018619      0.00107758        0.0667228         0.15036
281724                  0.587755        0.503104     -0.000934753     -0.00162046          0.14705       -0.526574       0.00211717    -9.35226e-05
                     -0.00115414     -0.00130175         0.168652      0.00527325       0.00105047    -0.000762319         0.549939       -0.812599
                        0.147339       -0.526721       0.00142327    -0.000333561         0.674098       -0.318546      -0.00336947     0.000551197
                      0.00109386    -0.000496336         0.550424        -0.81327      -0.00186326      0.00108334        0.0668337        0.150317
281726                  0.588958        0.502853      -0.00093821      -0.0016083         0.146009       -0.525544       0.00184531    -0.000251902
                      -0.0011581     -0.00130047         0.168659       0.0052931       0.00105102    -0.000765935         0.549784       -0.812883
                        0.146295       -0.525688       0.00140749    -0.000340801         0.673946        -0.32052      -0.00301957      0.00181826
                       0.0010971    -0.000500095         0.550174       -0.813412      -0.00186447      0.00108924        0.0669446        0.150273
281728                  0.590164        0.502598     -0.000941245     -0.00159788         0.144969       -0.524508       0.00174444    -0.000304821
                     -0.00116197     -0.00129917         0.168666      0.00531253       0.00105155    -0.000769526         0.549557       -0.813108
                        0.145253       -0.524649       0.00139429    -0.000346777         0.673787       -0.322498      -0.00266873      0.00182026
                      0.00110035    -0.000504181         0.549914       -0.813552      -0.00186553      0.00109528        0.0670556         0.15023
281730                  0.591371        0.502337     -0.000943951     -0.00158898         0.143932       -0.523467       0.00169503    -0.000332512
                     -0.00116573     -0.00129785         0.168672      0.00533182       0.00105206    -0.000773072         0.549317       -0.813306
                        0.144213       -0.523604       0.00138334    -0.000351755         0.673622       -0.324479      -0.00254773      0.00178968
                      0.00110355    -0.000508577         0.549643       -0.813699      -0.00186643      0.00110146        0.0671665        0.150187
281732                  0.592581        0.502072     -0.000946398     -0.00158141         0.142897        -0.52242       0.00166781    -0.000350519
                     -0.00116938     -0.00129649         0.168677      0.00535121       0.00105256    -0.000776542         0.549073        -0.81349
                        0.143174       -0.522552       0.00137439    -0.000355942         0.673449       -0.326463       -0.0024897      0.00177451
                      0.00110666    -0.000513262         0.549366       -0.813863      -0.00186716      0.00110776        0.0672774        0.150143
281734                  0.593791        0.501802     -0.000948644     -0.00157502         0.141865       -0.521368        0.0016522    -0.000363855
                     -0.00117292      -0.0012951         0.168682      0.00537081       0.00105308    -0.000779882         0.548829       -0.813667
                        0.142137       -0.521494        0.0013672    -0.000359501         0.673269       -0.328451      -0.00245602      0.00176983
                      0.00110965    -0.000518209         0.549099       -0.814042      -0.00186771      0.00111417        0.0673883          0.1501
281736                  0.595004        0.501527     -0.000950734     -0.00156967         0.140834        -0.52031       0.00164343    -0.000374615
                     -0.00117637     -0.00129365         0.168686      0.00539067       0.00105369    -0.000783006         0.548584        -0.81384
                        0.141103       -0.520429       0.00136159     -0.00036256         0.673083       -0.330442      -0.00243401      0.00177161
                      0.00111251    -0.000523389         0.548846       -0.814225      -0.00186809      0.00112068        0.0674992        0.150056
281738                  0.596217        0.501248     -0.000952706     -0.00156524         0.139806       -0.519246       0.00163905    -0.000383824
                      -0.0011797     -0.00129214         0.168691      0.00541076       0.00105463    -0.000785803         0.548339        -0.81401
                         0.14007       -0.519358       0.00135738    -0.000365225         0.672889       -0.332436      -0.00241839      0.00177755
                      0.00111521    -0.000528772         0.548603       -0.814403      -0.00186828      0.00112729        0.0676101        0.150013
281740                  0.597432        0.500964     -0.000954593     -0.00156163          0.13878       -0.518177       0.00163767    -0.000392046
                     -0.00118294     -0.00129056         0.168695      0.00543107       0.00105646    -0.000788359         0.548095       -0.814177
                         0.13904       -0.518281       0.00135443    -0.000367584         0.672688       -0.334433      -0.00240658       0.0017863
                      0.00111774    -0.000534332         0.548365       -0.814575      -0.00186829      0.00113399        0.0677209        0.149969
281742                  0.598649        0.500676     -0.000956422     -0.00155873         0.137757       -0.517102       0.00163844    -0.000399616
                     -0.00118609     -0.00128891         0.168699      0.00545155       0.00105986    -0.000791946          0.54785       -0.814344
                        0.138011       -0.517198       0.00135259     -0.00036971          0.67248       -0.336433      -0.00239721      0.00179703
                       0.0011201    -0.000540044         0.548127       -0.814741      -0.00186811      0.00114076        0.0678317        0.149926
281744                  0.599866        0.500384      -0.00095822     -0.00155646         0.136735       -0.516022       0.00164081    -0.000406746
                     -0.00118914     -0.00128718         0.168704      0.00547217       0.00106274    -0.000798319         0.547606       -0.814509
                        0.136986       -0.516109       0.00135176    -0.000371669         0.672264       -0.338437      -0.00238946      0.00180924
                      0.00112229    -0.000545887         0.547889       -0.814904      -0.00186773      0.00114759        0.0679425        0.149882
281746                  0.601085        0.500087     -0.000960009     -0.00155474         0.135716       -0.514936       0.00164442     -0.00041358
                     -0.00119211     -0.00128536         0.168708       0.0054929       0.00106294    -0.000804953         0.547362       -0.814673
                        0.135963       -0.515014       0.00135181    -0.000373523         0.672041       -0.340444      -0.00238281      0.00182256
                      0.00112432    -0.000551845         0.547649       -0.815064      -0.00186717      0.00115448        0.0680533        0.149839
281748                  0.602305        0.499786     -0.000961814     -0.00155348           0.1347       -0.513844       0.00164901    -0.000420215
                       -0.001195     -0.00128344         0.168712      0.00551372       0.00106229    -0.000810197         0.547118       -0.814836
                        0.134943       -0.513913       0.00135265    -0.000375331         0.671811       -0.342454      -0.00237693      0.00183676
                      0.00112618    -0.000557903         0.547407       -0.815224      -0.00186642      0.00116142         0.068164        0.149795
281750                  0.603527        0.499482      -0.00096366      -0.0015526         0.133686       -0.512746       0.00165439    -0.000426724
                     -0.00119782     -0.00128143         0.168717      0.00553461       0.00106181    -0.000814658         0.546874       -0.814999
                        0.133925       -0.512807       0.00135417    -0.000377153         0.671573       -0.344467      -0.00237159      0.00185167
                       0.0011279    -0.000564055         0.547164       -0.815382      -0.00186548       0.0011684        0.0682746        0.149751
281752                   0.60475        0.499173     -0.000965574     -0.00155203         0.132674       -0.511643       0.00166042    -0.000433163
                     -0.00120058     -0.00127931         0.168721      0.00555554        0.0010616    -0.000818826          0.54663       -0.815161
                         0.13291       -0.511696       0.00135626    -0.000379054         0.671327       -0.346483      -0.00236662      0.00186715
                      0.00112947    -0.000570294          0.54692        -0.81554      -0.00186435      0.00117542        0.0683852        0.149707
281754                  0.605974        0.498861     -0.000967588     -0.00155168         0.131664       -0.510533       0.00166701    -0.000439575
                     -0.00120329     -0.00127709         0.168726      0.00557652       0.00106156    -0.000822896         0.546387       -0.815322
                        0.131899        -0.51058       0.00135882     -0.00038111         0.671074       -0.348503      -0.00236191      0.00188311
                       0.0011309    -0.000576621         0.546675       -0.815698      -0.00186305      0.00118246        0.0684958        0.149663
281756                    0.6072        0.498545     -0.000969742     -0.00155144         0.130657       -0.509419       0.00167408    -0.000445994
                     -0.00120595     -0.00127477          0.16873      0.00559752       0.00106165    -0.000826943         0.546143       -0.815484
                         0.13089        -0.50946       0.00136172     -0.00038341         0.670812       -0.350526      -0.00235737      0.00189948
                      0.00113221    -0.000583039         0.546429       -0.815857      -0.00186156      0.00118953        0.0686063        0.149619
281758                  0.608428        0.498225     -0.000972085     -0.00155121         0.129653       -0.508298       0.00168155     -0.00045245
                     -0.00120856     -0.00127234         0.168735      0.00561854       0.00106181    -0.000830997           0.5459       -0.815645
                        0.129883       -0.508335       0.00136482    -0.000386067         0.670543       -0.352553      -0.00235294       0.0019162
                      0.00113341    -0.000589556         0.546181       -0.816016      -0.00185992      0.00119661        0.0687168        0.149575
281760                  0.609658        0.497902     -0.000974682     -0.00155085         0.128651       -0.507172       0.00168938    -0.000458971
                     -0.00121115      -0.0012698         0.168739      0.00563957       0.00106201    -0.000835072         0.545657       -0.815805
                        0.128879       -0.507207       0.00136794    -0.000389226         0.670266       -0.354583      -0.00234856      0.00193321
                       0.0011345    -0.000596187         0.545933       -0.816176      -0.00185811       0.0012037        0.0688272        0.149531
281762                   0.61089        0.497574     -0.000977624     -0.00155019         0.127653        -0.50604       0.00169753    -0.000465581
                     -0.00121371     -0.00126716         0.168744      0.00566061       0.00106225    -0.000839172         0.545414       -0.815966
                        0.127876       -0.506076       0.00137084    -0.000393085          0.66998       -0.356617      -0.00234419      0.00195049
