! TOUCHSTONE file generated by CST MICROWAVE STUDIO
! Date and time: Wed Oct 15 17:32:45 2025
! Project name: Teste_Macro_Metasurface_Nanopilar.cst
! Parameters = {H=600; L_x=155; L_y=125; Lambda=1064; Max_L=200; Min_L=70; PathPara=1; Phi=0; Step_L=10; Theta=0; p=520; phaseX=180; phaseY=0}
! Header version: 2018
! Port assignment regex: !\s*Touchstone port\s*([0-9]+)\s*=\s*(CST MWS port|CST DS port)\s*([0-9]+|Zmin|Zmax)\s*\(\"(.*)\"\)(\s*mode\s*([0-9]+))?.*
! Touchstone port assignment:
! Touchstone port 1 = CST MWS port Zmax ("") mode 1
! Touchstone port 2 = CST MWS port Zmax ("") mode 2
! Touchstone port 3 = CST MWS port Zmin ("") mode 1
! Touchstone port 4 = CST MWS port Zmin ("") mode 2
! S-Parameters are not renormalized. Each port impedance will be approximated by the real part at minimum frequency. The values are described via the [Reference] keyword.
! Default impedance is overridden by [Reference]
[Version] 2.0
# GHz S RI R 376.73
[Number of Ports] 4
[Reference]
376.73 376.73 259.888 259.888 
[Number of Frequencies] 51
[Network Data]
281700                  0.077598       0.0945852     -3.14331e-05    -0.000236234         0.978187        0.131993      0.000160237     0.000622021
                    -6.15921e-05    -0.000317199         0.229258         0.36122      0.000271071     0.000468433         0.588912        -0.67259
                        0.978454        0.131983      0.000409198     0.000468296       -0.0985763       0.0712869     -0.000357488     5.93041e-06
                      0.00019629     0.000576351         0.589297       -0.672459     -0.000309636    -7.16648e-05         0.388683        0.163995
281702                 0.0776098       0.0945957     -3.14059e-05    -0.000236233         0.978229        0.131669      0.000160509      0.00062207
                    -6.15792e-05    -0.000317233          0.22939        0.361336      0.000271183     0.000468227         0.588534       -0.672804
                        0.978496        0.131659      0.000409528     0.000468176       -0.0985435       0.0713591     -0.000357615     6.24748e-06
                     0.000196582     0.000576392         0.588918       -0.672673     -0.000309641    -7.14101e-05         0.388976        0.163722
281704                 0.0776217       0.0946063     -3.13786e-05    -0.000236232         0.978271        0.131346      0.000160781     0.000622119
                    -6.15666e-05    -0.000317267         0.229522        0.361453      0.000271297      0.00046802         0.588156       -0.673019
                        0.978538        0.131336      0.000409858     0.000468056       -0.0985107       0.0714312     -0.000357741     6.56483e-06
                     0.000196874     0.000576434         0.588539       -0.672888     -0.000309643    -7.11517e-05          0.38927         0.16345
281706                 0.0776335       0.0946168     -3.13511e-05    -0.000236232         0.978313        0.131022      0.000161054     0.000622168
                     -6.1554e-05    -0.000317302         0.229655        0.361569      0.000271412     0.000467812         0.587777       -0.673233
                         0.97858        0.131013      0.000410188     0.000467935       -0.0984778       0.0715033     -0.000357868     6.88244e-06
                     0.000197165     0.000576475          0.58816       -0.673102     -0.000309642    -7.08903e-05         0.389564        0.163177
281708                 0.0776454       0.0946274     -3.13234e-05    -0.000236231         0.978355        0.130699      0.000161326     0.000622216
                    -6.15416e-05    -0.000317336         0.229788        0.361685      0.000271529     0.000467603         0.587398       -0.673447
                        0.978622         0.13069      0.000410519     0.000467814       -0.0984448       0.0715754     -0.000357994     7.20032e-06
                     0.000197457     0.000576516         0.587781       -0.673316      -0.00030964    -7.06264e-05         0.389857        0.162903
281710                 0.0776572       0.0946379     -3.12956e-05     -0.00023623         0.978396        0.130375      0.000161599     0.000622265
                    -6.15293e-05    -0.000317371         0.229921        0.361802      0.000271647     0.000467392         0.587019        -0.67366
                        0.978663        0.130366       0.00041085     0.000467692       -0.0984118       0.0716475      -0.00035812     7.51847e-06
                     0.000197749     0.000576557         0.587401        -0.67353     -0.000309636    -7.03604e-05         0.390151        0.162629
281712                 0.0776691       0.0946485     -3.12676e-05     -0.00023623         0.978438        0.130051      0.000161872     0.000622314
                    -6.15172e-05    -0.000317405         0.230054        0.361918      0.000271765     0.000467181          0.58664       -0.673874
                        0.978705        0.130043       0.00041118      0.00046757       -0.0983787       0.0717196     -0.000358246     7.83689e-06
                     0.000198041     0.000576598         0.587021       -0.673744     -0.000309631    -7.00926e-05         0.390444        0.162355
281714                 0.0776809        0.094659     -3.12395e-05     -0.00023623         0.978479        0.129728      0.000162144     0.000622362
                    -6.15051e-05    -0.000317439         0.230187        0.362035      0.000271884     0.000466968          0.58626       -0.674087
                        0.978747         0.12972      0.000411511     0.000467448       -0.0983456       0.0717916     -0.000358372     8.15557e-06
                     0.000198333     0.000576639         0.586641       -0.673957     -0.000309624    -6.98234e-05         0.390738         0.16208
281716                 0.0776928       0.0946695     -3.12112e-05    -0.000236229          0.97852        0.129404      0.000162417     0.000622411
                    -6.14933e-05    -0.000317473          0.23032        0.362151      0.000272004     0.000466755          0.58588         -0.6743
                        0.978788        0.129396      0.000411843     0.000467326       -0.0983125       0.0718637     -0.000358498     8.47453e-06
                     0.000198625      0.00057668         0.586261        -0.67417     -0.000309617    -6.95529e-05         0.391032        0.161805
281718                 0.0777046       0.0946801     -3.11827e-05    -0.000236229         0.978561        0.129081      0.000162691     0.000622459
                    -6.14815e-05    -0.000317508         0.230454        0.362268      0.000272124     0.000466541           0.5855       -0.674513
                        0.978829        0.129073      0.000412174     0.000467203       -0.0982793       0.0719357     -0.000358624     8.79375e-06
                     0.000198917     0.000576721          0.58588       -0.674383     -0.000309608    -6.92813e-05         0.391325        0.161529
281720                 0.0777165       0.0946906     -3.11541e-05    -0.000236229         0.978602        0.128757      0.000162964     0.000622507
                    -6.14699e-05    -0.000317542         0.230588        0.362384      0.000272244     0.000466326          0.58512       -0.674726
                         0.97887         0.12875      0.000412505     0.000467079        -0.098246       0.0720077     -0.000358749     9.11325e-06
                      0.00019921     0.000576762         0.585499       -0.674596     -0.000309598    -6.90088e-05         0.391619        0.161253
281722                 0.0777283       0.0947012     -3.11253e-05    -0.000236229         0.978643        0.128434      0.000163237     0.000622556
                    -6.14584e-05    -0.000317576         0.230722        0.362501      0.000272364      0.00046611         0.584739       -0.674939
                        0.978911        0.128426      0.000412837     0.000466956       -0.0982127       0.0720797     -0.000358875     9.43302e-06
                     0.000199502     0.000576802         0.585118       -0.674809     -0.000309588    -6.87356e-05         0.391912        0.160977
281724                 0.0777402       0.0947117     -3.10964e-05    -0.000236229         0.978684         0.12811      0.000163511     0.000622604
                    -6.14471e-05    -0.000317611         0.230856        0.362618      0.000272484     0.000465894         0.584358       -0.675151
                        0.978952        0.128103      0.000413169     0.000466831       -0.0981793       0.0721517        -0.000359     9.75305e-06
                     0.000199794     0.000576843         0.584736       -0.675021     -0.000309576    -6.84616e-05         0.392206          0.1607
281726                  0.077752       0.0947222     -3.10673e-05     -0.00023623         0.978725        0.127787      0.000163784     0.000622652
                    -6.14359e-05    -0.000317645          0.23099        0.362735      0.000272604     0.000465678         0.583977       -0.675363
                        0.978993        0.127779      0.000413501     0.000466707       -0.0981459       0.0722236     -0.000359125     1.00734e-05
                     0.000200087     0.000576884         0.584354       -0.675234     -0.000309564    -6.81871e-05         0.392499        0.160423
281728                 0.0777639       0.0947328     -3.10381e-05     -0.00023623         0.978765        0.127463      0.000164058       0.0006227
                    -6.14248e-05    -0.000317679         0.231125        0.362852      0.000272725     0.000465461         0.583595       -0.675575
                        0.979034        0.127456      0.000413833     0.000466582       -0.0981124       0.0722956      -0.00035925     1.03939e-05
                      0.00020038     0.000576924         0.583972       -0.675446     -0.000309551    -6.79121e-05         0.392793        0.160145
281730                 0.0777758       0.0947433     -3.10087e-05     -0.00023623         0.978806        0.127139      0.000164332     0.000622748
                    -6.14139e-05    -0.000317714         0.231259        0.362969      0.000272845     0.000465244         0.583214       -0.675787
                        0.979074        0.127133      0.000414165     0.000466457       -0.0980789       0.0723675     -0.000359375     1.07148e-05
                     0.000200672     0.000576965          0.58359       -0.675658     -0.000309538    -6.76367e-05         0.393087        0.159867
281732                 0.0777876       0.0947538     -3.09792e-05    -0.000236231         0.978846        0.126816      0.000164606     0.000622796
                    -6.14031e-05    -0.000317748         0.231394        0.363086      0.000272965     0.000465026         0.582832       -0.675999
                        0.979115        0.126809      0.000414498     0.000466332       -0.0980453       0.0724394     -0.000359499     1.10359e-05
                     0.000200965     0.000577005         0.583207       -0.675869     -0.000309524     -6.7361e-05          0.39338        0.159589
281734                 0.0777995       0.0947643     -3.09495e-05    -0.000236231         0.978886        0.126492       0.00016488     0.000622844
                    -6.13925e-05    -0.000317782         0.231529        0.363203      0.000273085     0.000464808         0.582449        -0.67621
                        0.979155        0.126486       0.00041483     0.000466206       -0.0980117       0.0725113     -0.000359624     1.13573e-05
                     0.000201258     0.000577046         0.582824       -0.676081     -0.000309509    -6.70849e-05         0.393673         0.15931
281736                 0.0778113       0.0947749     -3.09197e-05    -0.000236232         0.978926        0.126169      0.000165154     0.000622892
                     -6.1382e-05    -0.000317816         0.231664         0.36332      0.000273205     0.000464589         0.582067       -0.676421
                        0.979196        0.126162      0.000415163     0.000466079        -0.097978       0.0725832     -0.000359748      1.1679e-05
                     0.000201551     0.000577086         0.582441       -0.676292     -0.000309494    -6.68085e-05         0.393967         0.15903
281738                 0.0778232       0.0947854     -3.08898e-05    -0.000236233         0.978966        0.125845      0.000165429     0.000622939
                    -6.13716e-05    -0.000317851           0.2318        0.363437      0.000273325      0.00046437         0.581684       -0.676632
                        0.979236        0.125839      0.000415496     0.000465953       -0.0979443       0.0726551     -0.000359872      1.2001e-05
                     0.000201844     0.000577126         0.582058       -0.676503     -0.000309478     -6.6532e-05          0.39426         0.15875
281740                  0.077835       0.0947959     -3.08597e-05    -0.000236233         0.979006        0.125522      0.000165703     0.000622987
                    -6.13614e-05    -0.000317885         0.231935        0.363555      0.000273445     0.000464151         0.581301       -0.676843
                        0.979276        0.125516      0.000415829     0.000465826       -0.0979105       0.0727269     -0.000359996     1.23232e-05
                     0.000202137     0.000577166         0.581674       -0.676714     -0.000309461    -6.62553e-05         0.394554         0.15847
281742                 0.0778469       0.0948064     -3.08293e-05    -0.000236234         0.979046        0.125198      0.000165978     0.000623035
                    -6.13513e-05    -0.000317919         0.232071        0.363672      0.000273564     0.000463932         0.580917       -0.677053
                        0.979316        0.125192      0.000416162     0.000465699       -0.0978767       0.0727988      -0.00036012     1.26457e-05
                     0.000202431     0.000577207          0.58129       -0.676925     -0.000309444    -6.59784e-05         0.394847        0.158189
281744                 0.0778588       0.0948169     -3.07985e-05    -0.000236234         0.979086        0.124874      0.000166252     0.000623082
                    -6.13413e-05    -0.000317954         0.232207         0.36379      0.000273683     0.000463712         0.580534       -0.677264
                        0.979356        0.124869      0.000416496     0.000465571       -0.0978428       0.0728706     -0.000360244     1.29685e-05
                     0.000202724     0.000577247         0.580906       -0.677135     -0.000309426    -6.57014e-05         0.395141        0.157908
281746                 0.0778706       0.0948274     -3.07667e-05    -0.000236235         0.979125        0.124551      0.000166527      0.00062313
                    -6.13315e-05    -0.000317988         0.232343        0.363907      0.000273802     0.000463493          0.58015       -0.677474
                        0.979395        0.124545      0.000416829     0.000465442       -0.0978089       0.0729424     -0.000360368     1.32916e-05
                     0.000203017     0.000577287         0.580521       -0.677346     -0.000309408    -6.54243e-05         0.395434        0.157627
281748                 0.0778825        0.094838     -3.07338e-05    -0.000236236         0.979165        0.124227      0.000166802     0.000623177
                    -6.13219e-05    -0.000318022         0.232479        0.364025      0.000273921     0.000463273         0.579765       -0.677684
                        0.979435        0.124222      0.000417163     0.000465313       -0.0977749       0.0730142     -0.000360491     1.36149e-05
                     0.000203311     0.000577327         0.580136       -0.677556     -0.000309389    -6.51471e-05         0.395727        0.157345
281750                 0.0778944       0.0948485     -3.07011e-05    -0.000236239         0.979204        0.123903      0.000167077     0.000623224
                    -6.13123e-05    -0.000318057         0.232616        0.364142       0.00027404     0.000463053         0.579381       -0.677894
                        0.979475        0.123898      0.000417499     0.000465184       -0.0977409        0.073086     -0.000360614     1.39385e-05
                     0.000203605     0.000577367         0.579751       -0.677765     -0.000309369    -6.48699e-05         0.396021        0.157063
281752                 0.0779062        0.094859     -3.06693e-05    -0.000236242         0.979244         0.12358      0.000167352     0.000623272
                    -6.13029e-05    -0.000318091         0.232752         0.36426      0.000274158     0.000462832         0.578996       -0.678103
                        0.979514        0.123575      0.000417834     0.000465055       -0.0977068       0.0731577     -0.000360738     1.42624e-05
                     0.000203898     0.000577407         0.579366       -0.677975     -0.000309349    -6.45927e-05         0.396314         0.15678
281754                 0.0779181       0.0948695      -3.0638e-05    -0.000236246         0.979283        0.123256      0.000167627     0.000623319
                    -6.12937e-05    -0.000318126         0.232889        0.364378      0.000274277     0.000462612         0.578611       -0.678313
                        0.979553        0.123251      0.000418168     0.000464926       -0.0976727       0.0732294     -0.000360861     1.45866e-05
                     0.000204192     0.000577446          0.57898       -0.678185     -0.000309329    -6.43155e-05         0.396607        0.156497
281756                 0.0779299         0.09488     -3.06066e-05    -0.000236249         0.979322        0.122933      0.000167902     0.000623366
                    -6.12846e-05     -0.00031816         0.233026        0.364495      0.000274395     0.000462391         0.578226       -0.678522
                        0.979593        0.122928      0.000418503     0.000464797       -0.0976385       0.0733012     -0.000360983     1.49111e-05
                     0.000204486     0.000577486         0.578594       -0.678394     -0.000309308    -6.40383e-05         0.396901        0.156213
281758                 0.0779418       0.0948905     -3.05751e-05    -0.000236251         0.979361        0.122609      0.000168177     0.000623413
                    -6.12756e-05    -0.000318195         0.233163        0.364613      0.000274512     0.000462171          0.57784       -0.678731
                        0.979632        0.122604      0.000418838     0.000464667       -0.0976043       0.0733729     -0.000361106     1.52358e-05
                      0.00020478     0.000577526         0.578208       -0.678603     -0.000309287    -6.37611e-05         0.397194        0.155929
281760                 0.0779537        0.094901     -3.05433e-05    -0.000236254           0.9794        0.122285      0.000168453      0.00062346
                    -6.12668e-05    -0.000318229           0.2333        0.364731       0.00027463      0.00046195         0.577454       -0.678939
                        0.979671        0.122281      0.000419173     0.000464536         -0.09757       0.0734446     -0.000361229     1.55608e-05
                     0.000205074     0.000577566         0.577822       -0.678812     -0.000309265     -6.3484e-05         0.397487        0.155644
281762                 0.0779655       0.0949115     -3.05114e-05    -0.000236258         0.979438        0.121962      0.000168728     0.000623507
                    -6.12581e-05    -0.000318263         0.233438        0.364849      0.000274747     0.000461729         0.577068       -0.679148
                        0.979709        0.121957      0.000419508     0.000464406       -0.0975356       0.0735162     -0.000361351     1.58861e-05
