! TOUCHSTONE file generated by CST MICROWAVE STUDIO
! Date and time: Wed Oct 15 17:29:53 2025
! Project name: Teste_Macro_Metasurface_Nanopilar.cst
! Parameters = {H=600; L_x=105; L_y=130; Lambda=1064; Max_L=200; Min_L=70; PathPara=1; Phi=0; Step_L=10; Theta=0; p=520; phaseX=180; phaseY=0}
! Header version: 2018
! Port assignment regex: !\s*Touchstone port\s*([0-9]+)\s*=\s*(CST MWS port|CST DS port)\s*([0-9]+|Zmin|Zmax)\s*\(\"(.*)\"\)(\s*mode\s*([0-9]+))?.*
! Touchstone port assignment:
! Touchstone port 1 = CST MWS port Zmax ("") mode 1
! Touchstone port 2 = CST MWS port Zmax ("") mode 2
! Touchstone port 3 = CST MWS port Zmin ("") mode 1
! Touchstone port 4 = CST MWS port Zmin ("") mode 2
! S-Parameters are not renormalized. Each port impedance will be approximated by the real part at minimum frequency. The values are described via the [Reference] keyword.
! Default impedance is overridden by [Reference]
[Version] 2.0
# GHz S RI R 376.73
[Number of Ports] 4
[Reference]
376.73 376.73 259.888 259.888 
[Number of Frequencies] 51
[Network Data]
281700              -0.000950172      -0.0403529     -0.000402709    -0.000515208         0.341489        0.929855      2.52552e-05    -0.000240596
                    -0.000433359    -0.000467802         0.113866        0.101209      -0.00026399     2.71976e-05        -0.979276       0.0752735
                        0.341924        0.929133     -0.000125172     1.34154e-05        0.0232837       0.0336914     -0.000593675    -0.000105568
                    -0.000125954    -0.000183132        -0.979147       0.0758156     -0.000555083     -0.00034625       -0.0957286        0.117939
281702              -0.000967378      -0.0403195     -0.000402712    -0.000515046         0.341861        0.929719      2.51945e-05    -0.000240524
                    -0.000433321    -0.000467642          0.11389        0.101204     -0.000263794     2.71015e-05        -0.979245       0.0756195
                        0.342297        0.928998     -0.000125111     1.35137e-05        0.0232755        0.033658      -0.00059374    -0.000105165
                    -0.000126076    -0.000183055        -0.979117       0.0761617     -0.000554939    -0.000345595       -0.0956691        0.118006
281704              -0.000984572       -0.040286     -0.000402714    -0.000514887         0.342234        0.929582      2.51338e-05    -0.000240451
                    -0.000433282    -0.000467483         0.113913          0.1012     -0.000263597     2.70055e-05        -0.979215       0.0759655
                        0.342669        0.928862     -0.000125049      1.3612e-05        0.0232672       0.0336247     -0.000593804    -0.000104763
                    -0.000126199    -0.000182978        -0.979087       0.0765079     -0.000554794    -0.000344938       -0.0956096        0.118073
281706               -0.00100175      -0.0402525     -0.000402716    -0.000514731         0.342606        0.929445      2.50729e-05    -0.000240379
                    -0.000433244    -0.000467324         0.113937        0.101196     -0.000263399     2.69096e-05        -0.979185       0.0763115
                        0.343042        0.928726     -0.000124988     1.37103e-05        0.0232589       0.0335914     -0.000593869    -0.000104361
                    -0.000126321      -0.0001829        -0.979057        0.076854     -0.000554648    -0.000344279         -0.09555         0.11814
281708               -0.00101893       -0.040219      -0.00040272    -0.000514577         0.342978        0.929308      2.50118e-05    -0.000240307
                    -0.000433205    -0.000467165          0.11396        0.101192     -0.000263201     2.68136e-05        -0.979154       0.0766575
                        0.343414         0.92859     -0.000124926     1.38086e-05        0.0232505       0.0335582     -0.000593933    -0.000103959
                    -0.000126444    -0.000182823        -0.979027       0.0772001     -0.000554502    -0.000343618       -0.0954904        0.118207
281710               -0.00103608      -0.0401855     -0.000402724    -0.000514426          0.34335        0.929171      2.49507e-05    -0.000240235
                    -0.000433166    -0.000467006         0.113984        0.101187     -0.000263003     2.67178e-05        -0.979124       0.0770035
                        0.343786        0.928454     -0.000124863     1.39068e-05        0.0232421       0.0335249     -0.000593997    -0.000103557
                    -0.000126566    -0.000182745        -0.978997       0.0775462     -0.000554356    -0.000342955       -0.0954307        0.118274
281712               -0.00105323       -0.040152     -0.000402731    -0.000514277         0.343722        0.929034      2.48894e-05    -0.000240163
                    -0.000433127    -0.000466847         0.114007        0.101183     -0.000262805      2.6622e-05        -0.979093       0.0773494
                        0.344158        0.928318     -0.000124801      1.4005e-05        0.0232337       0.0334917     -0.000594061    -0.000103156
                    -0.000126688    -0.000182668        -0.978967       0.0778923     -0.000554209     -0.00034229       -0.0953709        0.118341
281714               -0.00107037      -0.0401185     -0.000402739    -0.000514129         0.344094        0.928897       2.4828e-05    -0.000240091
                    -0.000433088    -0.000466688         0.114031        0.101179     -0.000262607     2.65263e-05        -0.979062       0.0776954
                         0.34453        0.928182     -0.000124737     1.41032e-05        0.0232253       0.0334585     -0.000594125    -0.000102754
                     -0.00012681     -0.00018259        -0.978936       0.0782384     -0.000554062    -0.000341623       -0.0953111        0.118408
281716               -0.00108749       -0.040085      -0.00040275    -0.000513982         0.344465        0.928759      2.47664e-05    -0.000240019
                    -0.000433049    -0.000466529         0.114054        0.101175     -0.000262408     2.64306e-05        -0.979031       0.0780414
                        0.344902        0.928045     -0.000124674     1.42013e-05        0.0232168       0.0334253     -0.000594189    -0.000102353
                    -0.000126932    -0.000182512        -0.978906       0.0785845     -0.000553914    -0.000340955       -0.0952513        0.118475
281718                -0.0011046      -0.0400515     -0.000402763    -0.000513835         0.344837        0.928621      2.47048e-05    -0.000239947
                     -0.00043301    -0.000466371         0.114078         0.10117      -0.00026221     2.63351e-05           -0.979       0.0783874
                        0.345274        0.927909      -0.00012461     1.42993e-05        0.0232083       0.0333922     -0.000594253    -0.000101952
                    -0.000127054    -0.000182434        -0.978875       0.0789306     -0.000553765    -0.000340285       -0.0951914        0.118542
281720                -0.0011217       -0.040018     -0.000402777    -0.000513688         0.345209        0.928483       2.4643e-05    -0.000239876
                    -0.000432971    -0.000466212         0.114101        0.101166     -0.000262011     2.62398e-05        -0.978969       0.0787334
                        0.345646        0.927772     -0.000124546     1.43972e-05        0.0231998       0.0333591     -0.000594317    -0.000101551
                    -0.000127176    -0.000182356        -0.978844       0.0792767     -0.000553616    -0.000339613       -0.0951315        0.118609
281722               -0.00113879      -0.0399845     -0.000402793     -0.00051354          0.34558        0.928346       2.4581e-05    -0.000239804
                    -0.000432932    -0.000466054         0.114125        0.101162     -0.000261813     2.61447e-05        -0.978938       0.0790793
                        0.346018        0.927635     -0.000124481     1.44949e-05        0.0231912        0.033326      -0.00059438    -0.000101151
                    -0.000127298    -0.000182278        -0.978813       0.0796228     -0.000553465     -0.00033894       -0.0950715        0.118676
281724               -0.00115586      -0.0399509      -0.00040281    -0.000513392         0.345952        0.928207      2.45189e-05    -0.000239733
                    -0.000432892    -0.000465895         0.114148        0.101157     -0.000261616     2.60498e-05        -0.978906       0.0794253
                        0.346389        0.927498     -0.000124416     1.45923e-05        0.0231826       0.0332929     -0.000594444     -0.00010075
                     -0.00012742      -0.0001822        -0.978782       0.0799689     -0.000553314    -0.000338265       -0.0950115        0.118742
281726               -0.00117292      -0.0399174     -0.000402828    -0.000513243         0.346323        0.928069      2.44567e-05    -0.000239661
                    -0.000432853    -0.000465737         0.114172        0.101153     -0.000261422     2.59554e-05        -0.978875       0.0797713
                        0.346761        0.927361      -0.00012435     1.46894e-05         0.023174       0.0332598     -0.000594507     -0.00010035
                    -0.000127541    -0.000182121        -0.978751       0.0803149     -0.000553161    -0.000337589       -0.0949514        0.118809
281728               -0.00118997      -0.0398839     -0.000402847    -0.000513093         0.346695        0.927931      2.43944e-05     -0.00023959
                    -0.000432813    -0.000465579         0.114195        0.101148     -0.000261232     2.58613e-05        -0.978843       0.0801172
                        0.347133        0.927223     -0.000124285     1.47859e-05        0.0231653       0.0332268      -0.00059457    -9.99494e-05
                    -0.000127663    -0.000182043        -0.978719        0.080661     -0.000553006    -0.000336911       -0.0948913        0.118876
281730               -0.00120701      -0.0398503     -0.000402867    -0.000512943         0.347066        0.927792      2.43319e-05    -0.000239519
                    -0.000432774    -0.000465421         0.114219        0.101144     -0.000261057     2.57644e-05        -0.978811       0.0804632
                        0.347504        0.927086     -0.000124219     1.48816e-05        0.0231566       0.0331938     -0.000594634    -9.95493e-05
                    -0.000127784    -0.000181964        -0.978688       0.0810071     -0.000552847    -0.000336233       -0.0948311        0.118943
281732               -0.00122404      -0.0398168     -0.000402887    -0.000512792         0.347437        0.927653      2.42692e-05    -0.000239448
                    -0.000432734    -0.000465263         0.114242         0.10114     -0.000260926     2.56217e-05        -0.978779       0.0808091
                        0.347876        0.926948     -0.000124153     1.49763e-05        0.0231478       0.0331608     -0.000594697    -9.91492e-05
                    -0.000127906    -0.000181885        -0.978656       0.0813531     -0.000552681    -0.000335551       -0.0947709        0.119009
281734               -0.00124106      -0.0397832     -0.000402907     -0.00051264         0.347807        0.927514      2.42064e-05    -0.000239377
                    -0.000432694    -0.000465105         0.114266        0.101135     -0.000260575     2.53838e-05        -0.978747       0.0811551
                        0.348247         0.92681     -0.000124089       1.507e-05        0.0231391       0.0331278      -0.00059476    -9.87493e-05
                    -0.000128027    -0.000181806        -0.978625       0.0816992     -0.000552503    -0.000334856       -0.0947106        0.119076
281736               -0.00125806      -0.0397496     -0.000402927    -0.000512488          0.34818        0.927376      2.41435e-05    -0.000239306
                    -0.000432654    -0.000464948         0.114289        0.101131     -0.000260331     2.53931e-05        -0.978715       0.0815011
                        0.348619        0.926672     -0.000124028     1.51639e-05        0.0231303       0.0330949     -0.000594822    -9.83495e-05
                    -0.000128148    -0.000181727        -0.978593       0.0820453     -0.000552334    -0.000334123       -0.0946503        0.119143
281738               -0.00127505      -0.0397161     -0.000402947    -0.000512335         0.348551        0.927237      2.40804e-05    -0.000239235
                    -0.000432614     -0.00046479         0.114313        0.101127     -0.000260139     2.53271e-05        -0.978683        0.081847
                         0.34899        0.926534     -0.000123969     1.52607e-05        0.0231215        0.033062     -0.000594885    -9.79498e-05
                     -0.00012827    -0.000181648        -0.978561       0.0823913     -0.000552218      -0.0003334         -0.09459        0.119209
281740               -0.00129203      -0.0396825     -0.000402968    -0.000512182         0.348922        0.927098      2.40172e-05    -0.000239164
                    -0.000432574    -0.000464633         0.114336        0.101122     -0.000259943     2.52424e-05        -0.978651        0.082193
                        0.349361        0.926396      -0.00012391     1.53625e-05        0.0231126       0.0330291     -0.000594948    -9.75503e-05
                    -0.000128391    -0.000181569        -0.978529       0.0827374     -0.000552094    -0.000332714       -0.0945296        0.119276
281742                 -0.001309      -0.0396489     -0.000402988    -0.000512029         0.349293        0.926958      2.39538e-05    -0.000239093
                    -0.000432533    -0.000464475          0.11436        0.101118     -0.000259744     2.51517e-05        -0.978618       0.0825389
                        0.349732        0.926257     -0.000123847     1.54674e-05        0.0231037       0.0329962      -0.00059501    -9.71508e-05
                    -0.000128512    -0.000181489        -0.978497       0.0830834     -0.000551952    -0.000332032       -0.0944691        0.119342
281744               -0.00132596      -0.0396153     -0.000403008    -0.000511875         0.349664        0.926819      2.38903e-05    -0.000239022
                    -0.000432493    -0.000464318         0.114383        0.101113     -0.000259543     2.50585e-05        -0.978585       0.0828848
                        0.350104        0.926119      -0.00012378     1.55723e-05        0.0230948       0.0329634     -0.000595073    -9.67514e-05
                    -0.000128633     -0.00018141        -0.978464       0.0834295     -0.000551803    -0.000331345       -0.0944086        0.119409
281746                -0.0013429      -0.0395817     -0.000403028    -0.000511721         0.350035        0.926679      2.38266e-05    -0.000238952
                    -0.000432453    -0.000464161         0.114407        0.101109     -0.000259341     2.49641e-05        -0.978553       0.0832308
                        0.350475         0.92598     -0.000123711     1.56759e-05        0.0230858       0.0329306     -0.000595135     -9.6352e-05
                    -0.000128754     -0.00018133        -0.978432       0.0837756      -0.00055165    -0.000330654       -0.0943481        0.119475
281748               -0.00135983      -0.0395481     -0.000403048    -0.000511566         0.350406        0.926539      2.37627e-05    -0.000238881
                    -0.000432412    -0.000464004          0.11443        0.101104     -0.000259137     2.48688e-05         -0.97852       0.0835767
                        0.350846        0.925841     -0.000123641     1.57782e-05        0.0230768       0.0328978     -0.000595197    -9.59528e-05
                    -0.000128875    -0.000181251        -0.978399       0.0841214     -0.000551495     -0.00032996       -0.0942875        0.119542
281750               -0.00137675      -0.0395145     -0.000403068    -0.000511412         0.350777        0.926399      2.36987e-05    -0.000238811
                    -0.000432371    -0.000463847         0.114454          0.1011     -0.000258934      2.4773e-05        -0.978487       0.0839227
                        0.351217        0.925702      -0.00012357     1.58795e-05        0.0230678        0.032865     -0.000595259    -9.55537e-05
                    -0.000128996    -0.000181171        -0.978367       0.0844675      -0.00055134    -0.000329263       -0.0942268        0.119608
281752               -0.00139366      -0.0394809     -0.000403088    -0.000511257         0.351147        0.926259      2.36346e-05     -0.00023874
                     -0.00043233     -0.00046369         0.114477        0.101096     -0.000258729     2.46768e-05        -0.978453       0.0842686
                        0.351588        0.925563     -0.000123498     1.59802e-05        0.0230587       0.0328323     -0.000595321    -9.51546e-05
                    -0.000129117    -0.000181091        -0.978334       0.0848135     -0.000551183    -0.000328564       -0.0941661        0.119674
281754               -0.00141056      -0.0394473     -0.000403108    -0.000511102         0.351518        0.926119      2.35702e-05     -0.00023867
                     -0.00043229    -0.000463533         0.114501        0.101091     -0.000258524     2.45804e-05         -0.97842       0.0846145
                        0.351958        0.925424     -0.000123427     1.60805e-05        0.0230496       0.0327996     -0.000595383    -9.47555e-05
                    -0.000129237    -0.000181011        -0.978301       0.0851595     -0.000551026    -0.000327862       -0.0941054        0.119741
281756               -0.00142744      -0.0394137     -0.000403127    -0.000510947         0.351889        0.925978      2.35057e-05      -0.0002386
                    -0.000432249    -0.000463376         0.114524        0.101087     -0.000258319     2.44837e-05        -0.978387       0.0849604
                        0.352329        0.925284     -0.000123355     1.61806e-05        0.0230405       0.0327669     -0.000595445    -9.43565e-05
                    -0.000129358    -0.000180931        -0.978268       0.0855056     -0.000550868    -0.000327159       -0.0940446        0.119807
281758               -0.00144431      -0.0393801     -0.000403147    -0.000510792         0.352259        0.925838      2.34411e-05    -0.000238529
                    -0.000432207     -0.00046322         0.114548        0.101082     -0.000258113     2.43868e-05        -0.978353       0.0853064
                          0.3527        0.925145     -0.000123282     1.62805e-05        0.0230314       0.0327342     -0.000595506    -9.39576e-05
                    -0.000129479     -0.00018085        -0.978235       0.0858516      -0.00055071    -0.000326453       -0.0939837        0.119873
281760               -0.00146117      -0.0393465     -0.000403166    -0.000510638          0.35263        0.925697      2.33763e-05    -0.000238459
                    -0.000432166    -0.000463063         0.114571        0.101078     -0.000257907     2.42898e-05         -0.97832       0.0856523
                        0.353071        0.925005     -0.000123209     1.63804e-05        0.0230222       0.0327015     -0.000595568    -9.35586e-05
                    -0.000129599     -0.00018077        -0.978201       0.0861976     -0.000550551    -0.000325746       -0.0939229        0.119939
281762               -0.00147802      -0.0393128     -0.000403186    -0.000510483            0.353        0.925556      2.33113e-05    -0.000238389
                    -0.000432125    -0.000462907         0.114595        0.101073     -0.000257701     2.41926e-05        -0.978286       0.0859982
                        0.353441        0.924865     -0.000123136     1.64802e-05         0.023013       0.0326689     -0.000595629    -9.31597e-05
