! TOUCHSTONE file generated by CST MICROWAVE STUDIO
! Date and time: Wed Oct 15 17:29:46 2025
! Project name: Teste_Macro_Metasurface_Nanopilar.cst
! Parameters = {H=600; L_x=105; L_y=80; Lambda=1064; Max_L=200; Min_L=70; PathPara=1; Phi=0; Step_L=10; Theta=0; p=520; phaseX=180; phaseY=0}
! Header version: 2018
! Port assignment regex: !\s*Touchstone port\s*([0-9]+)\s*=\s*(CST MWS port|CST DS port)\s*([0-9]+|Zmin|Zmax)\s*\(\"(.*)\"\)(\s*mode\s*([0-9]+))?.*
! Touchstone port assignment:
! Touchstone port 1 = CST MWS port Zmax ("") mode 1
! Touchstone port 2 = CST MWS port Zmax ("") mode 2
! Touchstone port 3 = CST MWS port Zmin ("") mode 1
! Touchstone port 4 = CST MWS port Zmin ("") mode 2
! S-Parameters are not renormalized. Each port impedance will be approximated by the real part at minimum frequency. The values are described via the [Reference] keyword.
! Default impedance is overridden by [Reference]
[Version] 2.0
# GHz S RI R 376.73
[Number of Ports] 4
[Reference]
376.73 376.73 259.888 259.888 
[Number of Frequencies] 51
[Network Data]
281700                  0.022139       -0.108561       0.00016619     0.000158953       -0.0217854       -0.993151     -0.000151785     5.66151e-05
                     2.79666e-05     9.45239e-05      0.000398793      -0.0339216     -0.000112759     8.12668e-05        -0.415043       -0.907597
                      -0.0215884       -0.992771     -0.000196366     9.13847e-05        0.0267633        0.107585      8.91964e-05    -0.000180909
                    -0.000248635     6.50053e-05        -0.414732       -0.907376      0.000101903    -0.000235046        0.0256029       0.0222939
281702                 0.0221264       -0.108559      0.000166274     0.000158868        -0.022027       -0.993146     -0.000151746     5.67028e-05
                     2.79964e-05     9.43933e-05      0.000391335      -0.0339121     -0.000112726     8.14014e-05        -0.415282       -0.907488
                      -0.0218298       -0.992766     -0.000196397     9.14755e-05        0.0268029        0.107571      8.91605e-05     -0.00018086
                    -0.000248692      6.5197e-05        -0.414972       -0.907267      0.000101742    -0.000235068        0.0256026       0.0222798
281704                 0.0221138       -0.108558      0.000166358     0.000158784       -0.0222686       -0.993142     -0.000151708     5.67904e-05
                     2.80267e-05      9.4263e-05      0.000383878      -0.0339026     -0.000112692      8.1536e-05        -0.415522       -0.907378
                      -0.0220713       -0.992761     -0.000196429     9.15665e-05        0.0268426        0.107557      8.91247e-05    -0.000180811
                    -0.000248749     6.53887e-05        -0.415211       -0.907157      0.000101581     -0.00023509        0.0256022       0.0222658
281706                 0.0221012       -0.108556      0.000166442     0.000158699       -0.0225101       -0.993137     -0.000151669     5.68781e-05
                     2.80577e-05     9.41329e-05      0.000376423      -0.0338931     -0.000112658     8.16706e-05        -0.415761       -0.907269
                      -0.0223127       -0.992756     -0.000196461     9.16576e-05        0.0268822        0.107543      8.90891e-05    -0.000180762
                    -0.000248805     6.55803e-05        -0.415451       -0.907048       0.00010142    -0.000235113        0.0256018       0.0222518
281708                 0.0220887       -0.108555      0.000166525     0.000158614       -0.0227517       -0.993132      -0.00015163     5.69658e-05
                     2.80892e-05     9.40032e-05      0.000368969      -0.0338836     -0.000112624     8.18052e-05        -0.416001       -0.907159
                      -0.0225542       -0.992751     -0.000196492     9.17489e-05        0.0269219        0.107529      8.90535e-05    -0.000180713
                    -0.000248861     6.57718e-05         -0.41569       -0.906938      0.000101259    -0.000235135        0.0256014       0.0222378
281710                 0.0220761       -0.108553      0.000166609      0.00015853       -0.0229933       -0.993127     -0.000151592     5.70535e-05
                     2.81214e-05     9.38737e-05      0.000361516      -0.0338741      -0.00011259     8.19397e-05         -0.41624        -0.90705
                      -0.0227956       -0.992746     -0.000196524     9.18403e-05        0.0269615        0.107514      8.90179e-05    -0.000180665
                    -0.000248918     6.59632e-05        -0.415929       -0.906828      0.000101097    -0.000235157        0.0256011       0.0222237
281712                 0.0220635       -0.108552      0.000166692     0.000158445       -0.0232349       -0.993121     -0.000151553     5.71412e-05
                     2.81541e-05     9.37445e-05      0.000354065      -0.0338646     -0.000112555     8.20743e-05        -0.416479        -0.90694
                      -0.0230371       -0.992741     -0.000196555     9.19318e-05        0.0270011          0.1075      8.89823e-05    -0.000180617
                    -0.000248973     6.61545e-05        -0.416168       -0.906719      0.000100935    -0.000235179        0.0256007       0.0222097
281714                 0.0220509        -0.10855      0.000166775      0.00015836       -0.0234764       -0.993116     -0.000151515      5.7229e-05
                     2.81875e-05     9.36156e-05      0.000346615      -0.0338551     -0.000112521     8.22089e-05        -0.416719        -0.90683
                      -0.0232785       -0.992736     -0.000196586     9.20235e-05        0.0270407        0.107486      8.89465e-05    -0.000180569
                    -0.000249029     6.63456e-05        -0.416408       -0.906609      0.000100774    -0.000235202        0.0256003       0.0221957
281716                 0.0220384       -0.108548      0.000166858     0.000158275        -0.023718       -0.993111     -0.000151476     5.73167e-05
                     2.82214e-05      9.3487e-05      0.000339166      -0.0338456     -0.000112486     8.23435e-05        -0.416958        -0.90672
                        -0.02352        -0.99273     -0.000196617     9.21153e-05        0.0270803        0.107472      8.89105e-05    -0.000180522
                    -0.000249084     6.65367e-05        -0.416647       -0.906499      0.000100612    -0.000235224        0.0255998       0.0221817
281718                 0.0220258       -0.108547      0.000166941      0.00015819       -0.0239596       -0.993106     -0.000151438     5.74045e-05
                     2.82559e-05     9.33587e-05      0.000331719      -0.0338361     -0.000112452     8.24781e-05        -0.417197        -0.90661
                      -0.0237614       -0.992725     -0.000196648     9.22072e-05        0.0271199        0.107458      8.88742e-05    -0.000180474
                    -0.000249139     6.67277e-05        -0.416886       -0.906389      0.000100449    -0.000235246        0.0255994       0.0221677
281720                 0.0220132       -0.108545      0.000167023     0.000158105       -0.0242012         -0.9931     -0.000151399     5.74923e-05
                     2.82909e-05     9.32307e-05      0.000324273      -0.0338265     -0.000112417     8.26126e-05        -0.417436         -0.9065
                      -0.0240029        -0.99272     -0.000196679     9.22993e-05        0.0271595        0.107444      8.88376e-05    -0.000180427
                    -0.000249193     6.69186e-05        -0.417125       -0.906279      0.000100287    -0.000235269         0.025599       0.0221537
281722                 0.0220006       -0.108544      0.000167106     0.000158019       -0.0244428       -0.993095     -0.000151361     5.75801e-05
                     2.83266e-05      9.3103e-05      0.000316829       -0.033817     -0.000112382     8.27471e-05        -0.417676        -0.90639
                      -0.0242443       -0.992714      -0.00019671     9.23915e-05        0.0271991         0.10743      8.88007e-05    -0.000180379
                    -0.000249248     6.71093e-05        -0.417365       -0.906169      0.000100125    -0.000235291        0.0255986       0.0221397
281724                 0.0219881       -0.108542      0.000167188     0.000157934       -0.0246843       -0.993089     -0.000151323     5.76679e-05
                     2.83628e-05     9.29755e-05      0.000309385      -0.0338075     -0.000112347     8.28817e-05        -0.417915        -0.90628
                      -0.0244858       -0.992709     -0.000196741     9.24838e-05        0.0272387        0.107415      8.87636e-05    -0.000180332
                    -0.000249302     6.72999e-05        -0.417604       -0.906059      9.99623e-05    -0.000235313        0.0255981       0.0221257
281726                 0.0219755        -0.10854      0.000167271     0.000157849       -0.0249259       -0.993084     -0.000151285     5.77557e-05
                     2.83995e-05     9.28484e-05      0.000301944       -0.033798     -0.000112312     8.30162e-05        -0.418154        -0.90617
                      -0.0247272       -0.992703     -0.000196771     9.25762e-05        0.0272782        0.107401      8.87262e-05    -0.000180285
                    -0.000249355     6.74904e-05        -0.417843       -0.905949      9.97996e-05    -0.000235335        0.0255977       0.0221117
281728                 0.0219629       -0.108539      0.000167353     0.000157764       -0.0251675       -0.993078     -0.000151247     5.78436e-05
                     2.84369e-05     9.27216e-05      0.000294503      -0.0337885     -0.000112277     8.31507e-05        -0.418393        -0.90606
                      -0.0249686       -0.992697     -0.000196802     9.26687e-05        0.0273178        0.107387      8.86885e-05    -0.000180237
                    -0.000249409     6.76808e-05        -0.418082       -0.905839      9.96367e-05    -0.000235358        0.0255972       0.0220978
281730                 0.0219503       -0.108537      0.000167434     0.000157678       -0.0254091       -0.993073     -0.000151209     5.79315e-05
                     2.84748e-05     9.25951e-05      0.000287064       -0.033779     -0.000112242     8.32851e-05        -0.418632       -0.905949
                      -0.0252101       -0.992692     -0.000196832     9.27614e-05        0.0273573        0.107373      8.86507e-05     -0.00018019
                    -0.000249462     6.78711e-05        -0.418321       -0.905729      9.94738e-05     -0.00023538        0.0255967       0.0220838
281732                 0.0219378       -0.108536      0.000167516     0.000157593       -0.0256506       -0.993067     -0.000151171     5.80195e-05
                     2.85132e-05     9.24688e-05      0.000279626      -0.0337694     -0.000112206     8.34196e-05        -0.418871       -0.905839
                      -0.0254515       -0.992686     -0.000196862     9.28541e-05        0.0273969        0.107359      8.86126e-05    -0.000180142
                    -0.000249515     6.80612e-05         -0.41856       -0.905618      9.93107e-05    -0.000235402        0.0255962       0.0220698
281734                 0.0219252       -0.108534      0.000167598     0.000157508       -0.0258922       -0.993061     -0.000151133     5.81075e-05
                     2.85522e-05     9.23429e-05       0.00027219      -0.0337599     -0.000112171      8.3554e-05         -0.41911       -0.905729
                       -0.025693        -0.99268     -0.000196891     9.29468e-05        0.0274364        0.107344      8.85744e-05    -0.000180095
                    -0.000249567     6.82512e-05        -0.418799       -0.905508      9.91475e-05    -0.000235424        0.0255958       0.0220559
281736                 0.0219126       -0.108532      0.000167679     0.000157422       -0.0261338       -0.993055     -0.000151096     5.81956e-05
                     2.85917e-05     9.22173e-05      0.000264755      -0.0337504     -0.000112135     8.36884e-05        -0.419349       -0.905618
                      -0.0259344       -0.992674     -0.000196921     9.30396e-05         0.027476         0.10733      8.85361e-05    -0.000180047
                     -0.00024962     6.84411e-05        -0.419038       -0.905397      9.89842e-05    -0.000235446        0.0255953       0.0220419
281738                 0.0219001       -0.108531       0.00016776     0.000157337       -0.0263754       -0.993049     -0.000151058     5.82837e-05
                     2.86317e-05     9.20921e-05      0.000257321      -0.0337409     -0.000112099     8.38228e-05        -0.419588       -0.905508
                      -0.0261759       -0.992668      -0.00019695     9.31325e-05        0.0275155        0.107316      8.84976e-05    -0.000179999
                    -0.000249672     6.86308e-05        -0.419277       -0.905287      9.88207e-05    -0.000235468        0.0255948       0.0220279
281740                 0.0218875       -0.108529      0.000167842     0.000157252       -0.0266169       -0.993043     -0.000151021     5.83718e-05
                     2.86722e-05     9.19672e-05      0.000249889      -0.0337313     -0.000112063     8.39571e-05        -0.419827       -0.905397
                      -0.0264173       -0.992662      -0.00019698     9.32253e-05         0.027555        0.107301      8.84589e-05    -0.000179951
                    -0.000249723     6.88203e-05        -0.419516       -0.905176      9.86572e-05     -0.00023549        0.0255943        0.022014
281742                 0.0218749       -0.108528      0.000167923     0.000157167       -0.0268585       -0.993037     -0.000150983       5.846e-05
                     2.87132e-05     9.18426e-05      0.000242458      -0.0337218     -0.000112027     8.40914e-05        -0.420066       -0.905286
                      -0.0266588       -0.992656     -0.000197009     9.33182e-05        0.0275945        0.107287      8.84202e-05    -0.000179903
                    -0.000249775     6.90097e-05        -0.419755       -0.905066      9.84935e-05    -0.000235512        0.0255938           0.022
281744                 0.0218623       -0.108526      0.000168003     0.000157081       -0.0271001       -0.993031     -0.000150946     5.85483e-05
                     2.87547e-05     9.17184e-05      0.000235028      -0.0337123     -0.000111991     8.42257e-05        -0.420305       -0.905176
                      -0.0269002        -0.99265     -0.000197038     9.34111e-05         0.027634        0.107273      8.83813e-05    -0.000179855
                    -0.000249826     6.91988e-05        -0.419994       -0.904955      9.83297e-05    -0.000235534        0.0255932       0.0219861
281746                 0.0218498       -0.108524      0.000168084     0.000156996       -0.0273417       -0.993025     -0.000150909     5.86366e-05
                     2.87965e-05     9.15946e-05        0.0002276      -0.0337027     -0.000111955     8.43599e-05        -0.420544       -0.905065
                      -0.0271416       -0.992644     -0.000197066     9.35039e-05        0.0276735        0.107258      8.83423e-05    -0.000179807
                    -0.000249876     6.93878e-05        -0.420232       -0.904844      9.81658e-05    -0.000235556        0.0255927       0.0219722
281748                 0.0218372       -0.108523      0.000168164     0.000156911       -0.0275832       -0.993019     -0.000150872      5.8725e-05
                     2.88386e-05     9.14714e-05      0.000220173      -0.0336932     -0.000111918     8.44942e-05        -0.420783       -0.904954
                      -0.0273831       -0.992638     -0.000197095     9.35966e-05         0.027713        0.107244      8.83031e-05    -0.000179759
                    -0.000249927     6.95765e-05        -0.420471       -0.904733      9.80017e-05    -0.000235578        0.0255922       0.0219582
281750                 0.0218246       -0.108521      0.000168245     0.000156826       -0.0278248       -0.993013     -0.000150834     5.88134e-05
                     2.88807e-05     9.13488e-05      0.000212748      -0.0336837     -0.000111882     8.46284e-05        -0.421021       -0.904843
                      -0.0276245       -0.992632     -0.000197123     9.36893e-05        0.0277525         0.10723      8.82638e-05    -0.000179711
                    -0.000249977     6.97649e-05         -0.42071       -0.904622      9.78376e-05    -0.000235599        0.0255916       0.0219443
281752                 0.0218121        -0.10852      0.000168325      0.00015674       -0.0280664       -0.993006     -0.000150798     5.89019e-05
                     2.89225e-05      9.1227e-05      0.000205324      -0.0336741     -0.000111845     8.47625e-05         -0.42126       -0.904732
                       -0.027866       -0.992625     -0.000197151     9.37819e-05         0.027792        0.107215      8.82244e-05    -0.000179663
                    -0.000250026     6.99528e-05        -0.420949       -0.904511      9.76733e-05    -0.000235621        0.0255911       0.0219304
281754                 0.0217995       -0.108518      0.000168405     0.000156655       -0.0283079          -0.993     -0.000150761     5.89905e-05
                     2.89627e-05     9.11069e-05      0.000197901      -0.0336646     -0.000111808     8.48967e-05        -0.421499       -0.904621
                      -0.0281074       -0.992619     -0.000197179     9.38744e-05        0.0278314        0.107201      8.81849e-05    -0.000179614
                    -0.000250075     7.01398e-05        -0.421187         -0.9044      9.75089e-05    -0.000235643        0.0255905       0.0219164
281756                 0.0217869       -0.108516      0.000168485      0.00015657       -0.0285495       -0.992994     -0.000150724     5.90791e-05
                     2.89966e-05     9.09901e-05       0.00019048      -0.0336551     -0.000111772     8.50308e-05        -0.421738        -0.90451
                      -0.0283488       -0.992612     -0.000197207     9.39669e-05        0.0278709        0.107186      8.81452e-05    -0.000179566
                    -0.000250124      7.0325e-05        -0.421426       -0.904289      9.73443e-05    -0.000235665        0.0255899       0.0219025
281758                 0.0217744       -0.108515      0.000168565     0.000156485       -0.0287911       -0.992987     -0.000150687     5.91677e-05
                     2.89769e-05     9.08719e-05       0.00018306      -0.0336455     -0.000111735     8.51649e-05        -0.421976       -0.904398
                      -0.0285902       -0.992606     -0.000197234     9.40592e-05        0.0279104        0.107172      8.81053e-05    -0.000179518
                    -0.000250172     7.05031e-05        -0.421665       -0.904178      9.71796e-05    -0.000235686        0.0255894       0.0218886
281760                 0.0217618       -0.108513      0.000168645       0.0001564       -0.0290326       -0.992981      -0.00015065     5.92564e-05
                     2.91442e-05      9.0662e-05      0.000175641       -0.033636     -0.000111698      8.5299e-05        -0.422215       -0.904287
                      -0.0288318       -0.992599     -0.000197261     9.41514e-05        0.0279498        0.107158      8.80653e-05     -0.00017947
                    -0.000250318     7.06737e-05        -0.421903       -0.904067      9.70147e-05    -0.000235708        0.0255888       0.0218747
281762                 0.0217492       -0.108512      0.000168724     0.000156315       -0.0292742       -0.992974     -0.000150614     5.93451e-05
                     2.91792e-05     9.05831e-05      0.000168224      -0.0336264     -0.000111661     8.54332e-05        -0.422454       -0.904176
                      -0.0290732       -0.992593     -0.000197288     9.42435e-05        0.0279892        0.107143      8.80251e-05    -0.000179421
