! TOUCHSTONE file generated by CST MICROWAVE STUDIO
! Date and time: Wed Oct 15 17:29:13 2025
! Project name: Teste_Macro_Metasurface_Nanopilar.cst
! Parameters = {H=600; L_x=95; L_y=95; Lambda=1064; Max_L=200; Min_L=70; PathPara=1; Phi=0; Step_L=10; Theta=0; p=520; phaseX=180; phaseY=0}
! Header version: 2018
! Port assignment regex: !\s*Touchstone port\s*([0-9]+)\s*=\s*(CST MWS port|CST DS port)\s*([0-9]+|Zmin|Zmax)\s*\(\"(.*)\"\)(\s*mode\s*([0-9]+))?.*
! Touchstone port assignment:
! Touchstone port 1 = CST MWS port Zmax ("") mode 1
! Touchstone port 2 = CST MWS port Zmax ("") mode 2
! Touchstone port 3 = CST MWS port Zmin ("") mode 1
! Touchstone port 4 = CST MWS port Zmin ("") mode 2
! S-Parameters are not renormalized. Each port impedance will be approximated by the real part at minimum frequency. The values are described via the [Reference] keyword.
! Default impedance is overridden by [Reference]
[Version] 2.0
# GHz S RI R 376.73
[Number of Ports] 4
[Reference]
376.73 376.73 259.888 259.888 
[Number of Frequencies] 51
[Network Data]
281700               -0.00458771      -0.0560577     -7.95326e-05     0.000376658        -0.312996       -0.946961     -0.000262512     0.000183266
                    -5.85812e-05     0.000214662      -0.00424073      -0.0563726     -0.000289956     2.62939e-05        -0.312319       -0.947277
                       -0.313078       -0.946708     -0.000228578    -9.94705e-05        0.0295148       0.0481174     -0.000258298    -0.000324522
                    -0.000154173      0.00017167        -0.312918       -0.946973     -0.000214433     -0.00028387        0.0299667       0.0481254
281702               -0.00459746      -0.0560498     -7.94947e-05     0.000376697         -0.31324       -0.946881     -0.000262361     0.000183132
                    -5.86736e-05     0.000214771      -0.00425045      -0.0563647     -0.000290005      2.6388e-05        -0.312564       -0.947197
                       -0.313322       -0.946627     -0.000228713    -9.93655e-05        0.0295269       0.0481016     -0.000258402    -0.000324294
                     -0.00015406     0.000171656        -0.313162       -0.946893     -0.000214547    -0.000283864        0.0299789       0.0481095
281704               -0.00460721      -0.0560418     -7.94568e-05     0.000376736        -0.313484         -0.9468     -0.000262211     0.000182997
                    -5.87659e-05     0.000214881      -0.00426017      -0.0563569     -0.000290053     2.64823e-05        -0.312808       -0.947117
                       -0.313566       -0.946546     -0.000228847    -9.92604e-05         0.029539       0.0480859     -0.000258505    -0.000324066
                    -0.000153947     0.000171642        -0.313406       -0.946812     -0.000214662    -0.000283858        0.0299912       0.0480935
281706               -0.00461696      -0.0560338     -7.94188e-05     0.000376775        -0.313727        -0.94672      -0.00026206     0.000182862
                    -5.88581e-05     0.000214991      -0.00426989       -0.056349     -0.000290101     2.65766e-05        -0.313052       -0.947036
                       -0.313809       -0.946466     -0.000228982    -9.91551e-05        0.0295511       0.0480701     -0.000258607    -0.000323837
                    -0.000153835     0.000171628         -0.31365       -0.946732     -0.000214777    -0.000283852        0.0300034       0.0480775
281708                -0.0046267      -0.0560259     -7.93808e-05     0.000376814        -0.313971       -0.946639     -0.000261909     0.000182727
                    -5.89503e-05     0.000215101      -0.00427961      -0.0563411     -0.000290149     2.66711e-05        -0.313296       -0.946956
                       -0.314053       -0.946385     -0.000229116    -9.90497e-05        0.0295632       0.0480544     -0.000258709    -0.000323608
                    -0.000153722     0.000171614        -0.313894       -0.946652     -0.000214892    -0.000283846        0.0300156       0.0480615
281710               -0.00463644      -0.0560179     -7.93427e-05     0.000376853        -0.314215       -0.946559     -0.000261759     0.000182591
                    -5.90423e-05     0.000215211      -0.00428933      -0.0563332     -0.000290197     2.67656e-05         -0.31354       -0.946876
                       -0.314297       -0.946304     -0.000229251    -9.89442e-05        0.0295753       0.0480386      -0.00025881    -0.000323379
                     -0.00015361     0.000171599        -0.314138       -0.946571     -0.000215008    -0.000283839        0.0300279       0.0480455
281712               -0.00464619      -0.0560099     -7.93044e-05     0.000376892        -0.314459       -0.946478     -0.000261608     0.000182455
                    -5.91343e-05     0.000215322      -0.00429905      -0.0563254     -0.000290245     2.68603e-05        -0.313784       -0.946795
                       -0.314541       -0.946223     -0.000229385    -9.88385e-05        0.0295874       0.0480229      -0.00025891     -0.00032315
                    -0.000153498     0.000171585        -0.314382        -0.94649     -0.000215123    -0.000283833        0.0300401       0.0480296
281714               -0.00465593       -0.056002     -7.92661e-05     0.000376931        -0.314703       -0.946397     -0.000261458     0.000182319
                    -5.92261e-05     0.000215432      -0.00430876      -0.0563175     -0.000290292      2.6955e-05        -0.314029       -0.946715
                       -0.314784       -0.946142     -0.000229519    -9.87327e-05        0.0295995       0.0480071      -0.00025901    -0.000322921
                    -0.000153386     0.000171571        -0.314626        -0.94641     -0.000215239    -0.000283826        0.0300523       0.0480136
281716               -0.00466567       -0.055994     -7.92278e-05      0.00037697        -0.314947       -0.946316     -0.000261307     0.000182182
                    -5.93179e-05     0.000215543      -0.00431848      -0.0563096     -0.000290339     2.70499e-05        -0.314273       -0.946634
                       -0.315028       -0.946061     -0.000229653    -9.86268e-05        0.0296116       0.0479913     -0.000259109    -0.000322692
                    -0.000153275     0.000171556        -0.314869       -0.946329     -0.000215355     -0.00028382        0.0300645       0.0479976
281718               -0.00467541       -0.055986     -7.91893e-05     0.000377009        -0.315191       -0.946235     -0.000261157     0.000182045
                    -5.94096e-05     0.000215654      -0.00432819      -0.0563017     -0.000290386     2.71448e-05        -0.314517       -0.946554
                       -0.315272        -0.94598     -0.000229787    -9.85207e-05        0.0296236       0.0479756     -0.000259207    -0.000322463
                    -0.000153163     0.000171541        -0.315113       -0.946248     -0.000215472    -0.000283813        0.0300767       0.0479816
281720               -0.00468515       -0.055978     -7.91507e-05     0.000377048        -0.315434       -0.946155     -0.000261006     0.000181908
                    -5.95012e-05     0.000215765      -0.00433791      -0.0562939     -0.000290432     2.72399e-05        -0.314761       -0.946473
                       -0.315515       -0.945899     -0.000229921    -9.84145e-05        0.0296357       0.0479598     -0.000259305    -0.000322233
                    -0.000153052     0.000171526        -0.315357       -0.946167     -0.000215588    -0.000283806        0.0300888       0.0479656
281722               -0.00469489      -0.0559701     -7.91121e-05     0.000377087        -0.315678       -0.946074     -0.000260856     0.000181771
                    -5.95927e-05     0.000215876      -0.00434762       -0.056286     -0.000290478      2.7335e-05        -0.315005       -0.946393
                       -0.315759       -0.945817     -0.000230055    -9.83082e-05        0.0296477        0.047944     -0.000259402    -0.000322004
                    -0.000152941     0.000171511        -0.315601       -0.946086     -0.000215705      -0.0002838         0.030101       0.0479496
281724               -0.00470462      -0.0559621     -7.90733e-05     0.000377126        -0.315922       -0.945992     -0.000260706     0.000181633
                    -5.96841e-05     0.000215987      -0.00435733      -0.0562781     -0.000290524     2.74303e-05        -0.315249       -0.946312
                       -0.316002       -0.945736     -0.000230189    -9.82018e-05        0.0296598       0.0479283     -0.000259498    -0.000321774
                     -0.00015283     0.000171496        -0.315845       -0.946005     -0.000215822    -0.000283793        0.0301132       0.0479336
281726               -0.00471436      -0.0559541     -7.90345e-05     0.000377165        -0.316166       -0.945911     -0.000260556     0.000181495
                    -5.97754e-05     0.000216098      -0.00436704      -0.0562702      -0.00029057     2.75256e-05        -0.315493       -0.946231
                       -0.316246       -0.945655     -0.000230323    -9.80952e-05        0.0296718       0.0479125     -0.000259594    -0.000321545
                     -0.00015272     0.000171481        -0.316089       -0.945924     -0.000215939    -0.000283786        0.0301253       0.0479176
281728               -0.00472409      -0.0559461     -7.89956e-05     0.000377204        -0.316409        -0.94583     -0.000260406     0.000181357
                    -5.98666e-05      0.00021621      -0.00437675      -0.0562623     -0.000290615      2.7621e-05        -0.315737        -0.94615
                       -0.316489       -0.945573     -0.000230457    -9.79885e-05        0.0296838       0.0478967     -0.000259689    -0.000321315
                    -0.000152609     0.000171466        -0.316332       -0.945843     -0.000216057    -0.000283779        0.0301375       0.0479016
281730               -0.00473383      -0.0559381     -7.89566e-05     0.000377243        -0.316653       -0.945749     -0.000260256     0.000181218
                    -5.99578e-05     0.000216321      -0.00438646      -0.0562544      -0.00029066     2.77165e-05        -0.315981       -0.946069
                       -0.316733       -0.945492     -0.000230591    -9.78816e-05        0.0296958        0.047881     -0.000259783    -0.000321086
                    -0.000152499     0.000171451        -0.316576       -0.945762     -0.000216174    -0.000283772        0.0301496       0.0478856
281732               -0.00474356      -0.0559302     -7.89175e-05     0.000377282        -0.316897       -0.945668     -0.000260106     0.000181079
                    -6.00488e-05     0.000216433      -0.00439617      -0.0562466     -0.000290705     2.78121e-05        -0.316225       -0.945988
                       -0.316976        -0.94541     -0.000230725    -9.77747e-05        0.0297078       0.0478652     -0.000259876    -0.000320856
                    -0.000152389     0.000171435         -0.31682       -0.945681     -0.000216292    -0.000283765        0.0301617       0.0478696
281734               -0.00475329      -0.0559222     -7.88783e-05     0.000377322         -0.31714       -0.945586     -0.000259956      0.00018094
                    -6.01397e-05     0.000216545      -0.00440587      -0.0562387     -0.000290749     2.79078e-05        -0.316469       -0.945907
                        -0.31722       -0.945328     -0.000230858    -9.76676e-05        0.0297198       0.0478494     -0.000259969    -0.000320626
                    -0.000152279      0.00017142        -0.317064         -0.9456      -0.00021641    -0.000283758        0.0301738       0.0478536
281736               -0.00476302      -0.0559142      -7.8839e-05     0.000377361        -0.317384       -0.945505     -0.000259807     0.000180801
                    -6.02306e-05     0.000216657      -0.00441558      -0.0562308     -0.000290793     2.80035e-05        -0.316713       -0.945826
                       -0.317463       -0.945247     -0.000230992    -9.75604e-05        0.0297318       0.0478336     -0.000260061    -0.000320397
                     -0.00015217     0.000171404        -0.317307       -0.945518     -0.000216529     -0.00028375         0.030186       0.0478376
281738               -0.00477275      -0.0559062     -7.87997e-05       0.0003774        -0.317627       -0.945423     -0.000259657     0.000180662
                    -6.03213e-05     0.000216769      -0.00442529      -0.0562229     -0.000290837     2.80994e-05        -0.316957       -0.945745
                       -0.317707       -0.945165     -0.000231126     -9.7453e-05        0.0297438       0.0478179     -0.000260153    -0.000320167
                     -0.00015206     0.000171389        -0.317551       -0.945437     -0.000216647    -0.000283743        0.0301981       0.0478216
281740               -0.00478248      -0.0558982     -7.87602e-05     0.000377439        -0.317871       -0.945342     -0.000259508     0.000180522
                     -6.0412e-05     0.000216882      -0.00443499       -0.056215     -0.000290881     2.81953e-05          -0.3172       -0.945663
                        -0.31795       -0.945083      -0.00023126    -9.73455e-05        0.0297558       0.0478021     -0.000260244    -0.000319938
                    -0.000151951     0.000171373        -0.317795       -0.945355     -0.000216766    -0.000283735        0.0302102       0.0478056
281742                -0.0047922      -0.0558902     -7.87207e-05     0.000377478        -0.318115        -0.94526     -0.000259359     0.000180382
                    -6.05026e-05     0.000216994      -0.00444469      -0.0562071     -0.000290924     2.82913e-05        -0.317444       -0.945582
                       -0.318193       -0.945001     -0.000231393    -9.72379e-05        0.0297677       0.0477863     -0.000260334    -0.000319708
                    -0.000151842     0.000171357        -0.318038       -0.945274     -0.000216885    -0.000283728        0.0302222       0.0477896
281744               -0.00480193      -0.0558822      -7.8681e-05     0.000377517        -0.318358       -0.945178      -0.00025921     0.000180242
                     -6.0593e-05     0.000217107      -0.00445439      -0.0561992     -0.000290967     2.83873e-05        -0.317688       -0.945501
                       -0.318437       -0.944919     -0.000231527    -9.71301e-05        0.0297797       0.0477705     -0.000260424    -0.000319478
                    -0.000151733     0.000171341        -0.318282       -0.945192     -0.000217004     -0.00028372        0.0302343       0.0477735
281746               -0.00481165      -0.0558743     -7.86413e-05     0.000377556        -0.318602       -0.945097     -0.000259061     0.000180102
                    -6.06834e-05      0.00021722      -0.00446409      -0.0561913      -0.00029101     2.84835e-05        -0.317932       -0.945419
                        -0.31868       -0.944837     -0.000231661    -9.70222e-05        0.0297916       0.0477547     -0.000260512    -0.000319249
                    -0.000151625     0.000171325        -0.318526        -0.94511     -0.000217123    -0.000283713        0.0302464       0.0477575
281748               -0.00482138      -0.0558663     -7.86015e-05     0.000377594        -0.318845       -0.945015     -0.000258912     0.000179962
                    -6.07737e-05     0.000217333      -0.00447379      -0.0561834     -0.000291053     2.85797e-05        -0.318176       -0.945338
                       -0.318924       -0.944755     -0.000231795    -9.69142e-05        0.0298036       0.0477389     -0.000260601    -0.000319019
                    -0.000151516     0.000171309        -0.318769       -0.945029     -0.000217243    -0.000283705        0.0302584       0.0477415
281750                -0.0048311      -0.0558583     -7.85617e-05     0.000377633        -0.319089       -0.944933     -0.000258763     0.000179821
                    -6.08639e-05     0.000217446      -0.00448349      -0.0561755     -0.000291095      2.8676e-05        -0.318419       -0.945256
                       -0.319167       -0.944673     -0.000231929     -9.6806e-05        0.0298155       0.0477232     -0.000260688     -0.00031879
                    -0.000151408     0.000171292        -0.319013       -0.944947     -0.000217363    -0.000283697        0.0302705       0.0477255
281752               -0.00484082      -0.0558503     -7.85217e-05     0.000377671        -0.319332       -0.944851     -0.000258615     0.000179681
                     -6.0954e-05     0.000217559      -0.00449319      -0.0561676     -0.000291137     2.87724e-05        -0.318663       -0.945175
                        -0.31941       -0.944591     -0.000232063    -9.66977e-05        0.0298274       0.0477074     -0.000260775    -0.000318561
                      -0.0001513     0.000171276        -0.319256       -0.944865     -0.000217483    -0.000283689        0.0302825       0.0477095
281754               -0.00485054      -0.0558423     -7.84816e-05     0.000377709        -0.319576       -0.944769     -0.000258466      0.00017954
                     -6.1044e-05     0.000217672      -0.00450289      -0.0561597     -0.000291178     2.88688e-05        -0.318907       -0.945093
                       -0.319653       -0.944509     -0.000232197    -9.65893e-05        0.0298394       0.0476916     -0.000260861    -0.000318332
                    -0.000151192      0.00017126          -0.3195       -0.944783     -0.000217603    -0.000283681        0.0302946       0.0476935
281756               -0.00486026      -0.0558343     -7.84412e-05     0.000377746        -0.319819       -0.944687     -0.000258318     0.000179399
                    -6.11339e-05     0.000217786      -0.00451258      -0.0561518      -0.00029122     2.89653e-05        -0.319151       -0.945011
                       -0.319897       -0.944426     -0.000232332    -9.64807e-05        0.0298513       0.0476758     -0.000260947    -0.000318102
                    -0.000151085     0.000171243        -0.319743       -0.944701     -0.000217724    -0.000283673        0.0303066       0.0476774
281758               -0.00486998      -0.0558263     -7.83998e-05     0.000377781        -0.320062       -0.944605      -0.00025817     0.000179258
                    -6.12237e-05     0.000217899      -0.00452228      -0.0561439     -0.000291261     2.90618e-05        -0.319394       -0.944929
                        -0.32014       -0.944344     -0.000232468    -9.63723e-05        0.0298632         0.04766     -0.000261032    -0.000317873
                    -0.000150977     0.000171227        -0.319987       -0.944619     -0.000217845    -0.000283665        0.0303186       0.0476614
281760                -0.0048797      -0.0558183     -7.83517e-05      0.00037781        -0.320306       -0.944523     -0.000258022     0.000179117
                    -6.13134e-05     0.000218013      -0.00453197       -0.056136     -0.000291302     2.91585e-05        -0.319638       -0.944848
                       -0.320383       -0.944262     -0.000232609    -9.62658e-05         0.029875       0.0476442     -0.000261116    -0.000317644
                     -0.00015087      0.00017121         -0.32023       -0.944537     -0.000217966    -0.000283657        0.0303306       0.0476454
281762               -0.00488942      -0.0558103     -7.82795e-05     0.000377873        -0.320549        -0.94444     -0.000257875     0.000178976
                     -6.1403e-05     0.000218127      -0.00454165       -0.056128     -0.000291342     2.92552e-05        -0.319882       -0.944766
                       -0.320626       -0.944179     -0.000232752    -9.61883e-05        0.0298869       0.0476284       -0.0002612    -0.000317415
