! TOUCHSTONE file generated by CST MICROWAVE STUDIO
! Date and time: Wed Oct 15 17:28:24 2025
! Project name: Teste_Macro_Metasurface_Nanopilar.cst
! Parameters = {H=600; L_x=80; L_y=110; Lambda=1064; Max_L=200; Min_L=70; PathPara=1; Phi=0; Step_L=10; Theta=0; p=520; phaseX=180; phaseY=0}
! Header version: 2018
! Port assignment regex: !\s*Touchstone port\s*([0-9]+)\s*=\s*(CST MWS port|CST DS port)\s*([0-9]+|Zmin|Zmax)\s*\(\"(.*)\"\)(\s*mode\s*([0-9]+))?.*
! Touchstone port assignment:
! Touchstone port 1 = CST MWS port Zmax ("") mode 1
! Touchstone port 2 = CST MWS port Zmax ("") mode 2
! Touchstone port 3 = CST MWS port Zmin ("") mode 1
! Touchstone port 4 = CST MWS port Zmin ("") mode 2
! S-Parameters are not renormalized. Each port impedance will be approximated by the real part at minimum frequency. The values are described via the [Reference] keyword.
! Default impedance is overridden by [Reference]
[Version] 2.0
# GHz S RI R 376.73
[Number of Ports] 4
[Reference]
376.73 376.73 259.888 259.888 
[Number of Frequencies] 51
[Network Data]
281700                 0.0108826      0.00055419     -8.36968e-05     0.000445322        -0.574372       -0.815073      5.51403e-06     4.48887e-05
                    -0.000202369     0.000519156        0.0189602       -0.103741     -0.000119926    -8.56135e-05        -0.049418       -0.992424
                       -0.574831       -0.815823     -4.39223e-05    -0.000146757       0.00283933     -0.00974716     -0.000332924    -0.000174303
                     8.16349e-05    -8.47855e-05       -0.0492837       -0.991723     -0.000286019    -0.000177611        0.0290568        0.101478
281702                   0.01088      0.00056523     -8.35595e-05     0.000445395        -0.574596       -0.814915        5.461e-06     4.49016e-05
                    -0.000202298     0.000519205         0.018948       -0.103739     -0.000120027    -8.56143e-05       -0.0496607       -0.992413
                       -0.575056       -0.815664     -4.39218e-05    -0.000146731       0.00282266     -0.00974995     -0.000333349    -0.000174586
                     8.16444e-05    -8.48169e-05       -0.0495258       -0.991711     -0.000286062    -0.000177583        0.0290941        0.101463
281704                 0.0108774     0.000576272     -8.34221e-05     0.000445467         -0.57482       -0.814757      5.43713e-06     4.49053e-05
                    -0.000202226     0.000519254        0.0189358       -0.103737     -0.000120094    -8.55904e-05       -0.0499033       -0.992401
                       -0.575281       -0.815506     -4.39213e-05    -0.000146706       0.00280599     -0.00975274     -0.000333552    -0.000174597
                     8.16538e-05    -8.48485e-05        -0.049768       -0.991699     -0.000286104    -0.000177557        0.0291314        0.101448
281706                 0.0108748     0.000587314     -8.32847e-05      0.00044554        -0.575045       -0.814599      5.42299e-06     4.49099e-05
                    -0.000202155     0.000519303        0.0189237       -0.103735      -0.00012015    -8.55545e-05       -0.0501459       -0.992389
                       -0.575505       -0.815348     -4.39207e-05    -0.000146681       0.00278931     -0.00975551     -0.000333705    -0.000174562
                     8.16631e-05    -8.48803e-05       -0.0500101       -0.991687     -0.000286146    -0.000177531        0.0291687        0.101433
281708                 0.0108722     0.000598357     -8.31473e-05     0.000445612        -0.575269        -0.81444       5.4129e-06     4.49158e-05
                    -0.000202083     0.000519352        0.0189115       -0.103733     -0.000120202    -8.55124e-05       -0.0503884       -0.992377
                        -0.57573       -0.815189     -4.39201e-05    -0.000146656       0.00277262     -0.00975827     -0.000333839    -0.000174511
                     8.16722e-05    -8.49122e-05       -0.0502522       -0.991675     -0.000286188    -0.000177505        0.0292059        0.101418
281710                 0.0108697     0.000609401     -8.30098e-05     0.000445685        -0.575493       -0.814282      5.40482e-06     4.49225e-05
                    -0.000202011     0.000519402        0.0188993       -0.103731     -0.000120252    -8.54666e-05       -0.0506309       -0.992365
                       -0.575955       -0.815031     -4.39194e-05    -0.000146631       0.00275594     -0.00976102     -0.000333963    -0.000174452
                     8.16811e-05    -8.49442e-05       -0.0504943       -0.991663     -0.000286229     -0.00017748        0.0292432        0.101403
281712                 0.0108671     0.000620446     -8.28722e-05     0.000445757        -0.575717       -0.814123      5.39789e-06     4.49298e-05
                    -0.000201939     0.000519451        0.0188872        -0.10373     -0.000120302    -8.54185e-05       -0.0508734       -0.992353
                        -0.57618       -0.814872     -4.39187e-05    -0.000146606       0.00273925     -0.00976375     -0.000334081    -0.000174389
                     8.16899e-05    -8.49764e-05       -0.0507364       -0.991651      -0.00028627    -0.000177454        0.0292804        0.101389
281714                 0.0108645     0.000631492     -8.27347e-05     0.000445829        -0.575941       -0.813965      5.39166e-06     4.49376e-05
                    -0.000201867       0.0005195         0.018875       -0.103728      -0.00012035    -8.53689e-05       -0.0511159       -0.992341
                       -0.576404       -0.814714     -4.39179e-05    -0.000146581       0.00272255     -0.00976648     -0.000334197    -0.000174324
                     8.16984e-05    -8.50088e-05       -0.0509785       -0.991638     -0.000286311     -0.00017743        0.0293177        0.101374
281716                 0.0108619     0.000642538     -8.25971e-05     0.000445901        -0.576165       -0.813806      5.38588e-06     4.49456e-05
                    -0.000201795      0.00051955        0.0188629       -0.103726     -0.000120398    -8.53182e-05       -0.0513583       -0.992329
                       -0.576629       -0.814555     -4.39171e-05    -0.000146556       0.00270586     -0.00976919      -0.00033431    -0.000174257
                     8.17068e-05    -8.50413e-05       -0.0512206       -0.991626     -0.000286351    -0.000177405        0.0293549        0.101359
281718                 0.0108594     0.000653586     -8.24594e-05     0.000445973        -0.576389       -0.813647      5.38042e-06     4.49539e-05
                    -0.000201722     0.000519599        0.0188507       -0.103724     -0.000120446    -8.52667e-05       -0.0516007       -0.992317
                       -0.576853       -0.814396     -4.39163e-05    -0.000146531       0.00268916     -0.00977189     -0.000334422    -0.000174189
                     8.17149e-05     -8.5074e-05       -0.0514627       -0.991614     -0.000286392    -0.000177381        0.0293921        0.101344
281720                 0.0108568     0.000664635     -8.23218e-05     0.000446045        -0.576613       -0.813488      5.37518e-06     4.49623e-05
                     -0.00020165     0.000519649        0.0188385       -0.103722     -0.000120493    -8.52146e-05        -0.051843       -0.992304
                       -0.577078       -0.814237     -4.39154e-05    -0.000146507       0.00267245     -0.00977458     -0.000334533     -0.00017412
                     8.17225e-05    -8.51069e-05       -0.0517048       -0.991601     -0.000286432    -0.000177357        0.0294293        0.101329
281722                 0.0108542     0.000675684     -8.21841e-05     0.000446116        -0.576837       -0.813329       5.3701e-06     4.49708e-05
                    -0.000201578     0.000519699        0.0188264        -0.10372     -0.000120541     -8.5162e-05       -0.0520854       -0.992292
                       -0.577302       -0.814078     -4.39145e-05    -0.000146482       0.00265575     -0.00977725     -0.000334643    -0.000174051
                     8.17294e-05    -8.51402e-05       -0.0519468       -0.991589     -0.000286472    -0.000177333        0.0294665        0.101314
281724                 0.0108517     0.000686736     -8.20463e-05     0.000446188        -0.577061        -0.81317      5.36515e-06     4.49795e-05
                    -0.000201508     0.000519749        0.0188142       -0.103718     -0.000120588    -8.51091e-05       -0.0523277        -0.99228
                       -0.577527       -0.813919     -4.39136e-05    -0.000146457       0.00263904     -0.00977991     -0.000334753    -0.000173981
                     8.17326e-05    -8.51742e-05       -0.0521889       -0.991576     -0.000286513    -0.000177309        0.0295037        0.101299
281726                 0.0108492     0.000697776     -8.19086e-05     0.000446259        -0.577285       -0.813011       5.3603e-06     4.49882e-05
                    -0.000201434     0.000519726         0.018802       -0.103717     -0.000120635    -8.50558e-05       -0.0525701       -0.992267
                       -0.577744        -0.81376     -4.39126e-05    -0.000146433       0.00262233     -0.00978256     -0.000334862     -0.00017391
                     8.17728e-05    -8.51842e-05        -0.052431       -0.991564     -0.000286553    -0.000177285        0.0295408        0.101284
281728                 0.0108466     0.000708832     -8.17708e-05     0.000446331        -0.577509       -0.812852      5.35552e-06      4.4997e-05
                    -0.000201351     0.000519847        0.0187899       -0.103715     -0.000120682    -8.50023e-05       -0.0528124       -0.992255
                       -0.577975       -0.813601     -4.39116e-05    -0.000146408       0.00260562      -0.0097852     -0.000334971     -0.00017384
                      8.1762e-05    -8.52359e-05       -0.0526731       -0.991551     -0.000286593    -0.000177262         0.029578        0.101269
281730                  0.010844     0.000719886     -8.16329e-05     0.000446402        -0.577733       -0.812693      5.35079e-06     4.50058e-05
                     -0.00020128     0.000519898        0.0187777       -0.103713     -0.000120728    -8.49485e-05       -0.0530547       -0.992242
                       -0.578199       -0.813442     -4.39105e-05    -0.000146384        0.0025889     -0.00978782     -0.000335079    -0.000173769
                     8.17672e-05    -8.52705e-05       -0.0529152       -0.991538     -0.000286633    -0.000177238        0.0296151        0.101254
281732                 0.0108415      0.00073094     -8.14951e-05     0.000446473        -0.577956       -0.812534      5.34612e-06     4.50147e-05
                    -0.000201208     0.000519949        0.0187656       -0.103711     -0.000120775    -8.48946e-05       -0.0532969        -0.99223
                       -0.578424       -0.813283     -4.39094e-05    -0.000146359       0.00257218     -0.00979043     -0.000335187    -0.000173698
                     8.17738e-05    -8.53045e-05       -0.0531573       -0.991525     -0.000286673    -0.000177215        0.0296523        0.101239
281734                 0.0108389     0.000741995     -8.13572e-05     0.000446544         -0.57818       -0.812374      5.34147e-06     4.50237e-05
                    -0.000201135     0.000519999        0.0187534       -0.103709     -0.000120822    -8.48405e-05       -0.0535392       -0.992217
                       -0.578648       -0.813124     -4.39083e-05    -0.000146335       0.00255546     -0.00979303     -0.000335295    -0.000173626
                     8.17806e-05    -8.53383e-05       -0.0533993       -0.991512     -0.000286713    -0.000177191        0.0296894        0.101224
281736                 0.0108363      0.00075305     -8.12193e-05     0.000446615        -0.578404       -0.812215      5.33686e-06     4.50326e-05
                    -0.000201062     0.000520049        0.0187412       -0.103707     -0.000120869    -8.47863e-05       -0.0537815       -0.992204
                       -0.578872       -0.812964     -4.39071e-05    -0.000146311       0.00253874     -0.00979561     -0.000335403    -0.000173555
                     8.17875e-05    -8.53723e-05       -0.0536414         -0.9915     -0.000286753    -0.000177168        0.0297265        0.101209
281738                 0.0108338     0.000764107     -8.10813e-05     0.000446686        -0.578627       -0.812055      5.33227e-06     4.50416e-05
                    -0.000200988       0.0005201        0.0187291       -0.103705     -0.000120915    -8.47319e-05       -0.0540238       -0.992191
                       -0.579096       -0.812805     -4.39059e-05    -0.000146286       0.00252201     -0.00979818      -0.00033551    -0.000173483
                     8.17943e-05    -8.54063e-05       -0.0538835       -0.991487     -0.000286793    -0.000177145        0.0297637        0.101194
281740                 0.0108313     0.000775164     -8.09434e-05     0.000446757        -0.578851       -0.811896       5.3277e-06     4.50506e-05
                    -0.000200914      0.00052015        0.0187169       -0.103703     -0.000120962    -8.46774e-05        -0.054266       -0.992179
                        -0.57932       -0.812645     -4.39047e-05    -0.000146262       0.00250528     -0.00980074     -0.000335618    -0.000173411
                      8.1801e-05    -8.54404e-05       -0.0541255       -0.991474     -0.000286832    -0.000177122        0.0298008        0.101179
281742                 0.0108287     0.000786222     -8.08053e-05     0.000446827        -0.579075       -0.811736      5.32314e-06     4.50597e-05
                    -0.000200841     0.000520201        0.0187047       -0.103702     -0.000121008    -8.46229e-05       -0.0545083       -0.992166
                       -0.579544       -0.812486     -4.39035e-05    -0.000146238       0.00248855     -0.00980329     -0.000335726     -0.00017334
                     8.18077e-05    -8.54747e-05       -0.0543676        -0.99146     -0.000286872    -0.000177099        0.0298379        0.101164
281744                 0.0108262      0.00079728     -8.06673e-05     0.000446898        -0.579298       -0.811577      5.31859e-06     4.50687e-05
                    -0.000200766     0.000520252        0.0186926         -0.1037     -0.000121055    -8.45682e-05       -0.0547506       -0.992153
                       -0.579768       -0.812326     -4.39022e-05    -0.000146214       0.00247182     -0.00980582     -0.000335833    -0.000173268
                     8.18142e-05    -8.55091e-05       -0.0546097       -0.991447     -0.000286912    -0.000177076         0.029875        0.101149
281746                 0.0108236      0.00080834     -8.05293e-05     0.000446968        -0.579521       -0.811417      5.31404e-06     4.50778e-05
                    -0.000200692     0.000520303        0.0186804       -0.103698     -0.000121101    -8.45134e-05       -0.0549928        -0.99214
                       -0.579992       -0.812167     -4.39008e-05     -0.00014619       0.00245508     -0.00980833      -0.00033594    -0.000173196
                     8.18206e-05    -8.55436e-05       -0.0548517       -0.991434     -0.000286951    -0.000177053        0.0299121        0.101133
281748                 0.0108211       0.0008194     -8.03912e-05     0.000447039        -0.579745       -0.811257       5.3095e-06     4.50869e-05
                    -0.000200618     0.000520354        0.0186683       -0.103696     -0.000121147    -8.44586e-05       -0.0552351       -0.992127
                       -0.580216       -0.812007     -4.38995e-05    -0.000146166       0.00243835     -0.00981084     -0.000336048    -0.000173124
                     8.18269e-05    -8.55782e-05       -0.0550938       -0.991421     -0.000286991     -0.00017703        0.0299492        0.101118
281750                 0.0108185     0.000830462      -8.0253e-05     0.000447109        -0.579968       -0.811097      5.30495e-06      4.5096e-05
                    -0.000200543     0.000520405        0.0186561       -0.103694     -0.000121194    -8.44037e-05       -0.0554773       -0.992114
                        -0.58044       -0.811847     -4.38981e-05    -0.000146142       0.00242161     -0.00981333     -0.000336155    -0.000173052
                      8.1833e-05     -8.5613e-05       -0.0553358       -0.991407     -0.000287031    -0.000177007        0.0299862        0.101103
281752                  0.010816     0.000841524     -8.01149e-05     0.000447179        -0.580192       -0.810937      5.30041e-06     4.51051e-05
                    -0.000200469     0.000520456        0.0186439       -0.103692      -0.00012124    -8.43488e-05       -0.0557196         -0.9921
                       -0.580664       -0.811687     -4.38966e-05    -0.000146118       0.00240486     -0.00981581     -0.000336263     -0.00017298
                      8.1839e-05    -8.56479e-05       -0.0555779       -0.991394      -0.00028707    -0.000176984        0.0300233        0.101088
281754                 0.0108135     0.000852587     -7.99767e-05     0.000447249        -0.580415       -0.810777      5.29586e-06     4.51142e-05
                    -0.000200394     0.000520507        0.0186318        -0.10369     -0.000121287    -8.42938e-05       -0.0559619       -0.992087
                       -0.580887       -0.811527     -4.38951e-05    -0.000146094       0.00238812     -0.00981827      -0.00033637    -0.000172907
                     8.18449e-05    -8.56829e-05       -0.0558199       -0.991381      -0.00028711    -0.000176961        0.0300604        0.101073
281756                 0.0108109     0.000863651     -7.98384e-05     0.000447319        -0.580638       -0.810617       5.2913e-06     4.51233e-05
                    -0.000200319     0.000520558        0.0186196       -0.103689     -0.000121333    -8.42388e-05       -0.0562041       -0.992074
                       -0.581111       -0.811367     -4.38935e-05     -0.00014607       0.00237138     -0.00982072     -0.000336478    -0.000172835
                     8.18507e-05     -8.5718e-05        -0.056062       -0.991367     -0.000287149    -0.000176939        0.0300974        0.101058
281758                 0.0108084     0.000874716     -7.97001e-05     0.000447389        -0.580861       -0.810457      5.28672e-06     4.51324e-05
                    -0.000200244     0.000520609        0.0186075       -0.103687     -0.000121379    -8.41837e-05       -0.0564464        -0.99206
                       -0.581335       -0.811207     -4.38918e-05    -0.000146047       0.00235463     -0.00982316     -0.000336586    -0.000172764
                     8.18563e-05    -8.57533e-05        -0.056304       -0.991354     -0.000287189    -0.000176916        0.0301345        0.101042
281760                 0.0108059     0.000885781     -7.95615e-05     0.000447459        -0.581085       -0.810297      5.28214e-06     4.51416e-05
                    -0.000200169     0.000520661        0.0185953       -0.103685     -0.000121426    -8.41286e-05       -0.0566886       -0.992047
                       -0.581558       -0.811047     -4.38899e-05    -0.000146023       0.00233788     -0.00982559     -0.000336693    -0.000172692
                     8.18617e-05    -8.57887e-05        -0.056546        -0.99134     -0.000287228    -0.000176893        0.0301715        0.101027
281762                 0.0108034     0.000896848     -7.94226e-05     0.000447528        -0.581308       -0.810137      5.27753e-06     4.51507e-05
                    -0.000200094     0.000520712        0.0185831       -0.103683     -0.000121472    -8.40735e-05       -0.0569309       -0.992033
                       -0.581782       -0.810887     -4.38873e-05    -0.000145999       0.00232113       -0.009828     -0.000336801     -0.00017262
