! TOUCHSTONE file generated by CST MICROWAVE STUDIO
! Date and time: Wed Oct 15 17:31:04 2025
! Project name: Teste_Macro_Metasurface_Nanopilar.cst
! Parameters = {H=600; L_x=125; L_y=145; Lambda=1064; Max_L=200; Min_L=70; PathPara=1; Phi=0; Step_L=10; Theta=0; p=520; phaseX=180; phaseY=0}
! Header version: 2018
! Port assignment regex: !\s*Touchstone port\s*([0-9]+)\s*=\s*(CST MWS port|CST DS port)\s*([0-9]+|Zmin|Zmax)\s*\(\"(.*)\"\)(\s*mode\s*([0-9]+))?.*
! Touchstone port assignment:
! Touchstone port 1 = CST MWS port Zmax ("") mode 1
! Touchstone port 2 = CST MWS port Zmax ("") mode 2
! Touchstone port 3 = CST MWS port Zmin ("") mode 1
! Touchstone port 4 = CST MWS port Zmin ("") mode 2
! S-Parameters are not renormalized. Each port impedance will be approximated by the real part at minimum frequency. The values are described via the [Reference] keyword.
! Default impedance is overridden by [Reference]
[Version] 2.0
# GHz S RI R 376.73
[Number of Ports] 4
[Reference]
376.73 376.73 259.888 259.888 
[Number of Frequencies] 51
[Network Data]
281700                   0.10931        0.176636      0.000368581    -0.000483199         0.917709       -0.325067      0.000488735      0.00115878
                     0.000384964    -0.000581959        0.0559211       0.0824553     -0.000361216       0.0012476         0.943109        0.297465
                        0.917695       -0.325244      -0.00031413      0.00111335         0.027513        0.204673     -0.000752001    -0.000597932
                     0.000443734      0.00109834         0.942421        0.297221     -0.000614993    -0.000812306       -0.0918927       0.0367506
281702                  0.109328        0.176657      0.000368472    -0.000483417         0.917597       -0.325364      0.000489142       0.0011587
                     0.000384873    -0.000582032        0.0559321       0.0824709     -0.000361026      0.00124778         0.943209        0.297141
                        0.917583        -0.32554     -0.000313557      0.00111371        0.0276458        0.204683     -0.000752448    -0.000597572
                     0.000444072      0.00109835         0.942521        0.296896     -0.000615298     -0.00081199       -0.0918855         0.03682
281704                  0.109347        0.176679      0.000368364    -0.000483636         0.917485        -0.32566      0.000489556      0.00115862
                     0.000384782    -0.000582106        0.0559431       0.0824864     -0.000360836      0.00124797          0.94331        0.296817
                        0.917472       -0.325837     -0.000312985      0.00111408        0.0277787        0.204692     -0.000752901    -0.000597199
                     0.000444409      0.00109837         0.942621        0.296572     -0.000615605    -0.000811672       -0.0918783       0.0368893
281706                  0.109365          0.1767      0.000368256    -0.000483854         0.917373       -0.325957      0.000489975      0.00115854
                     0.000384691     -0.00058218        0.0559541       0.0825019     -0.000360647      0.00124816          0.94341        0.296492
                         0.91736       -0.326134     -0.000312414      0.00111445        0.0279116        0.204702     -0.000753358    -0.000596822
                     0.000444746      0.00109838         0.942721        0.296247     -0.000615912    -0.000811353        -0.091871       0.0369587
281708                  0.109384        0.176722      0.000368148    -0.000484073         0.917261       -0.326254      0.000490396      0.00115846
                       0.0003846    -0.000582254        0.0559651       0.0825174     -0.000360458      0.00124834          0.94351        0.296168
                        0.917248       -0.326431     -0.000311843      0.00111482        0.0280445        0.204711     -0.000753817    -0.000596441
                     0.000445083       0.0010984         0.942821        0.295922     -0.000616221    -0.000811033       -0.0918636       0.0370281
281710                  0.109402        0.176743      0.000368042    -0.000484291         0.917149        -0.32655      0.000490819      0.00115838
                      0.00038451    -0.000582327        0.0559761       0.0825329     -0.000360269      0.00124853          0.94361        0.295844
                        0.917136       -0.326727     -0.000311273      0.00111518        0.0281775        0.204721     -0.000754278    -0.000596059
                     0.000445421      0.00109841          0.94292        0.295598      -0.00061653    -0.000810712       -0.0918562       0.0370975
281712                  0.109421        0.176764      0.000367936     -0.00048451         0.917037       -0.326847      0.000491242      0.00115829
                     0.000384419    -0.000582401        0.0559871       0.0825484      -0.00036008      0.00124871          0.94371        0.295519
                        0.917024       -0.327024     -0.000310704      0.00111555        0.0283104         0.20473      -0.00075474    -0.000595677
                     0.000445758      0.00109843          0.94302        0.295273     -0.000616841     -0.00081039       -0.0918488       0.0371668
281714                   0.10944        0.176786      0.000367831    -0.000484728         0.916925       -0.327143      0.000491667      0.00115821
                     0.000384328    -0.000582475        0.0559981       0.0825639     -0.000359892       0.0012489          0.94381        0.295195
                        0.916911        -0.32732     -0.000310135      0.00111592        0.0284434        0.204739     -0.000755202    -0.000595294
                     0.000446095      0.00109844         0.943119        0.294948     -0.000617152    -0.000810066       -0.0918413       0.0372362
281716                  0.109458        0.176807      0.000367726    -0.000484947         0.916813        -0.32744      0.000492091      0.00115812
                     0.000384237    -0.000582549        0.0560091       0.0825794     -0.000359704      0.00124909         0.943909         0.29487
                        0.916799       -0.327617     -0.000309566      0.00111629        0.0285765        0.204749     -0.000755664    -0.000594911
                     0.000446432      0.00109846         0.943218        0.294624     -0.000617465    -0.000809741       -0.0918337       0.0373056
281718                  0.109477        0.176829      0.000367623    -0.000485166           0.9167       -0.327736      0.000492516      0.00115804
                     0.000384146    -0.000582623        0.0560201       0.0825949     -0.000359516      0.00124927         0.944009        0.294546
                        0.916687       -0.327914     -0.000308999      0.00111666        0.0287095        0.204758     -0.000756126    -0.000594527
                      0.00044677      0.00109847         0.943317        0.294299     -0.000617778    -0.000809415       -0.0918261        0.037375
281720                  0.109495         0.17685       0.00036752    -0.000485385         0.916588       -0.328033       0.00049294      0.00115795
                     0.000384055    -0.000582697        0.0560312       0.0826104     -0.000359329      0.00124946         0.944108        0.294221
                        0.916574        -0.32821     -0.000308431      0.00111703        0.0288426        0.204767     -0.000756588    -0.000594144
                     0.000447107      0.00109849         0.943416        0.293974     -0.000618093    -0.000809088       -0.0918185       0.0374444
281722                  0.109514        0.176871      0.000367417    -0.000485604         0.916475       -0.328329      0.000493364      0.00115787
                     0.000383964    -0.000582771        0.0560422       0.0826259     -0.000359142      0.00124964         0.944208        0.293897
                        0.916461       -0.328506     -0.000307865       0.0011174        0.0289757        0.204776      -0.00075705     -0.00059376
                     0.000447444       0.0010985         0.943515        0.293649     -0.000618408     -0.00080876       -0.0918108       0.0375138
281724                  0.109532        0.176893      0.000367316    -0.000485824         0.916362       -0.328625      0.000493789      0.00115778
                     0.000383873    -0.000582845        0.0560532       0.0826414     -0.000358955      0.00124983         0.944307        0.293572
                        0.916349       -0.328803     -0.000307299      0.00111777        0.0291089        0.204785     -0.000757512    -0.000593376
                     0.000447782      0.00109852         0.943614        0.293324     -0.000618724     -0.00080843        -0.091803       0.0375832
281726                  0.109551        0.176914      0.000367215    -0.000486043         0.916249       -0.328922      0.000494212      0.00115769
                     0.000383782    -0.000582919        0.0560642       0.0826569     -0.000358769      0.00125002         0.944406        0.293247
                        0.916236       -0.329099     -0.000306733      0.00111814         0.029242        0.204793     -0.000757973    -0.000592993
                     0.000448119      0.00109853         0.943712           0.293     -0.000619041      -0.0008081       -0.0917952       0.0376526
281728                   0.10957        0.176936      0.000367115    -0.000486262         0.916136       -0.329218      0.000494636      0.00115761
                     0.000383691    -0.000582993        0.0560753       0.0826724     -0.000358583       0.0012502         0.944505        0.292923
                        0.916123       -0.329396     -0.000306168      0.00111851        0.0293752        0.204802     -0.000758434    -0.000592609
                     0.000448457      0.00109855         0.943811        0.292675     -0.000619359    -0.000807768       -0.0917874        0.037722
281730                  0.109588        0.176957      0.000367015    -0.000486482         0.916023       -0.329514      0.000495059      0.00115752
                       0.0003836    -0.000583066        0.0560863       0.0826878     -0.000358397      0.00125039         0.944604        0.292598
                         0.91601       -0.329692     -0.000305604      0.00111889        0.0295084        0.204811     -0.000758894    -0.000592225
                     0.000448794      0.00109856         0.943909         0.29235     -0.000619678    -0.000807435       -0.0917795       0.0377914
281732                  0.109607        0.176979      0.000366917    -0.000486702          0.91591        -0.32981      0.000495482      0.00115744
                     0.000383508     -0.00058314        0.0560973       0.0827033     -0.000358212      0.00125057         0.944703        0.292273
                        0.915897       -0.329988      -0.00030504      0.00111926        0.0296417        0.204819     -0.000759354    -0.000591841
                     0.000449132      0.00109858         0.944008        0.292025     -0.000619998      -0.0008071       -0.0917715       0.0378608
281734                  0.109625           0.177      0.000366819    -0.000486922         0.915797       -0.330107      0.000495904      0.00115735
                     0.000383416    -0.000583215        0.0561084       0.0827188     -0.000358027      0.00125076         0.944801        0.291949
                        0.915783       -0.330284     -0.000304477      0.00111963        0.0297749        0.204828     -0.000759814    -0.000591457
                      0.00044947      0.00109859         0.944106          0.2917     -0.000620318    -0.000806765       -0.0917635       0.0379302
281736                  0.109644        0.177022      0.000366722    -0.000487142         0.915684       -0.330403      0.000496326      0.00115726
                     0.000383324     -0.00058329        0.0561194       0.0827343     -0.000357842      0.00125095           0.9449        0.291624
                         0.91567        -0.33058     -0.000303915      0.00112001        0.0299082        0.204836     -0.000760273    -0.000591073
                     0.000449809       0.0010986         0.944204        0.291375     -0.000620639    -0.000806428       -0.0917554       0.0379996
281738                  0.109663        0.177043      0.000366626    -0.000487362          0.91557       -0.330699      0.000496748      0.00115718
                     0.000383233    -0.000583365        0.0561305       0.0827498     -0.000357658      0.00125113         0.944998        0.291299
                        0.915556       -0.330877     -0.000303353      0.00112038        0.0300416        0.204844     -0.000760731    -0.000590689
                     0.000450148      0.00109862         0.944302         0.29105     -0.000620961    -0.000806091       -0.0917473        0.038069
281740                  0.109681        0.177065      0.000366531    -0.000487582         0.915457       -0.330995      0.000497169      0.00115709
                     0.000383141     -0.00058344        0.0561415       0.0827652     -0.000357474      0.00125132         0.945097        0.290974
                        0.915443       -0.331173     -0.000302792      0.00112076        0.0301749        0.204853      -0.00076119    -0.000590304
                     0.000450489      0.00109863           0.9444        0.290725     -0.000621284    -0.000805752       -0.0917392       0.0381384
281742                    0.1097        0.177086      0.000366436    -0.000487802         0.915343       -0.331291       0.00049759      0.00115701
                      0.00038305    -0.000583515        0.0561526       0.0827807     -0.000357291      0.00125151         0.945195        0.290649
                        0.915329       -0.331469     -0.000302232      0.00112113        0.0303083        0.204861     -0.000761647     -0.00058992
                      0.00045083      0.00109865         0.944497          0.2904     -0.000621608    -0.000805412       -0.0917309       0.0382078
281744                  0.109718        0.177108      0.000366342    -0.000488023         0.915229       -0.331587       0.00049801      0.00115692
                     0.000382959     -0.00058359        0.0561636       0.0827962     -0.000357108      0.00125169         0.945293        0.290325
                        0.915216       -0.331765     -0.000301672      0.00112151        0.0304417        0.204869     -0.000762105    -0.000589536
                      0.00045117      0.00109867         0.944595        0.290075     -0.000621932    -0.000805071       -0.0917227       0.0382772
281746                  0.109737        0.177129      0.000366249    -0.000488243         0.915115       -0.331883       0.00049843      0.00115683
                     0.000382867    -0.000583665        0.0561747       0.0828116     -0.000356925      0.00125188         0.945391            0.29
                        0.915102       -0.332061     -0.000301113      0.00112188        0.0305751        0.204877     -0.000762562    -0.000589152
                     0.000451508      0.00109869         0.944692         0.28975     -0.000622257    -0.000804729       -0.0917144       0.0383466
281748                  0.109756        0.177151      0.000366157    -0.000488464         0.915002       -0.332179       0.00049885      0.00115675
                     0.000382776     -0.00058374        0.0561857       0.0828271     -0.000356742      0.00125207         0.945489        0.289675
                        0.914988       -0.332357     -0.000300554      0.00112226        0.0307086        0.204885     -0.000763018    -0.000588767
                     0.000451844      0.00109871          0.94479        0.289424     -0.000622582    -0.000804385        -0.091706        0.038416
281750                  0.109774        0.177172      0.000366066    -0.000488685         0.914887       -0.332475      0.000499269      0.00115666
                     0.000382685    -0.000583815        0.0561968       0.0828425      -0.00035656      0.00125225         0.945586         0.28935
                        0.914874       -0.332653     -0.000299996      0.00112264        0.0308421        0.204893     -0.000763474    -0.000588383
                     0.000452181      0.00109872         0.944887        0.289099     -0.000622908    -0.000804041       -0.0916976       0.0384855
281752                  0.109793        0.177194      0.000365976    -0.000488906         0.914773        -0.33277      0.000499688      0.00115658
                     0.000382593     -0.00058389        0.0562078        0.082858     -0.000356379      0.00125244         0.945684        0.289025
                         0.91476       -0.332949     -0.000299439      0.00112301        0.0309756          0.2049      -0.00076393    -0.000587999
                     0.000452518      0.00109874         0.944984        0.288774     -0.000623235    -0.000803695       -0.0916891       0.0385549
281754                  0.109812        0.177215      0.000365886    -0.000489128         0.914659       -0.333066      0.000500106      0.00115649
                     0.000382502    -0.000583965        0.0562189       0.0828735     -0.000356197      0.00125263         0.945782          0.2887
                        0.914645       -0.333245     -0.000298883      0.00112339        0.0311091        0.204908     -0.000764385    -0.000587614
                     0.000452855      0.00109876         0.945081        0.288449     -0.000623563    -0.000803348       -0.0916806       0.0386243
281756                   0.10983        0.177237      0.000365798    -0.000489349         0.914545       -0.333362      0.000500524       0.0011564
                      0.00038241    -0.000584041          0.05623       0.0828889     -0.000356016      0.00125281         0.945879        0.288375
                        0.914531       -0.333541     -0.000298327      0.00112377        0.0312427        0.204916      -0.00076484     -0.00058723
                     0.000453193      0.00109877         0.945178        0.288124     -0.000623891    -0.000803001        -0.091672       0.0386937
281758                  0.109849        0.177258       0.00036571    -0.000489571          0.91443       -0.333658      0.000500942      0.00115632
                     0.000382319    -0.000584116        0.0562411       0.0829044     -0.000355836        0.001253         0.945976         0.28805
                        0.914417       -0.333837     -0.000297772      0.00112415        0.0313762        0.204923     -0.000765294    -0.000586845
                      0.00045353      0.00109879         0.945275        0.287798     -0.000624219    -0.000802652       -0.0916634       0.0387631
281760                  0.109868         0.17728      0.000365623    -0.000489792         0.914316       -0.333953      0.000501359      0.00115623
                     0.000382227    -0.000584191        0.0562521       0.0829198     -0.000355656      0.00125319         0.946073        0.287725
                        0.914302       -0.334133     -0.000297217      0.00112453        0.0315099         0.20493     -0.000765748     -0.00058646
                     0.000453869       0.0010988         0.945371        0.287473     -0.000624549    -0.000802302       -0.0916548       0.0388326
281762                  0.109886        0.177301      0.000365537    -0.000490014         0.914201       -0.334249      0.000501776      0.00115615
                     0.000382135    -0.000584266        0.0562632       0.0829353     -0.000355476      0.00125338          0.94617          0.2874
                        0.914187       -0.334429     -0.000296663      0.00112491        0.0316435        0.204938     -0.000766202    -0.000586076
