! TOUCHSTONE file generated by CST MICROWAVE STUDIO
! Date and time: Wed Oct 15 17:32:37 2025
! Project name: Teste_Macro_Metasurface_Nanopilar.cst
! Parameters = {H=600; L_x=150; L_y=200; Lambda=1064; Max_L=200; Min_L=70; PathPara=1; Phi=0; Step_L=10; Theta=0; p=520; phaseX=180; phaseY=0}
! Header version: 2018
! Port assignment regex: !\s*Touchstone port\s*([0-9]+)\s*=\s*(CST MWS port|CST DS port)\s*([0-9]+|Zmin|Zmax)\s*\(\"(.*)\"\)(\s*mode\s*([0-9]+))?.*
! Touchstone port assignment:
! Touchstone port 1 = CST MWS port Zmax ("") mode 1
! Touchstone port 2 = CST MWS port Zmax ("") mode 2
! Touchstone port 3 = CST MWS port Zmin ("") mode 1
! Touchstone port 4 = CST MWS port Zmin ("") mode 2
! S-Parameters are not renormalized. Each port impedance will be approximated by the real part at minimum frequency. The values are described via the [Reference] keyword.
! Default impedance is overridden by [Reference]
[Version] 2.0
# GHz S RI R 376.73
[Number of Ports] 4
[Reference]
376.73 376.73 259.888 259.888 
[Number of Frequencies] 51
[Network Data]
281700                  0.258671       0.0980516      0.000316057     0.000188628         0.142233       -0.946753     -0.000355189    -0.000253858
                     0.000385154     0.000176769         0.221619        0.153756     -0.000474087      0.00024357         0.670549       -0.676903
                        0.142501       -0.946685     -0.000430564     2.12831e-05         0.273749      -0.0198153      0.000530535    -0.000127885
                    -0.000385259    -0.000169088          0.67055        -0.67703      0.000463258    -5.63528e-05         0.149232        0.227871
281702                  0.258692       0.0980515      0.000316128     0.000188625         0.141958       -0.946789     -0.000355351    -0.000253619
                     0.000384946     0.000176763          0.22161        0.153624     -0.000473875     0.000243179         0.670307       -0.677204
                        0.142225       -0.946721     -0.000430644     2.16085e-05         0.273759      -0.0199679      0.000530459     -0.00012824
                    -0.000385457    -0.000169167         0.670309       -0.677331      0.000463504    -5.69159e-05         0.149301        0.227711
281704                  0.258714       0.0980514      0.000316199     0.000188623         0.141682       -0.946824     -0.000355513     -0.00025338
                     0.000384738     0.000176756         0.221601        0.153493     -0.000473665     0.000242788         0.670066       -0.677505
                        0.141949       -0.946757     -0.000430725     2.19341e-05         0.273768      -0.0201204      0.000530382    -0.000128592
                    -0.000385654    -0.000169246         0.670067       -0.677631      0.000463746    -5.74783e-05          0.14937        0.227551
281706                  0.258735       0.0980513       0.00031627     0.000188621         0.141406        -0.94686     -0.000355674     -0.00025314
                     0.000384531      0.00017675         0.221592        0.153362     -0.000473456     0.000242398         0.669824       -0.677805
                        0.141673       -0.946792     -0.000430807       2.226e-05         0.273777      -0.0202729      0.000530305    -0.000128942
                    -0.000385851    -0.000169323         0.669825       -0.677931      0.000463986    -5.80399e-05          0.14944        0.227391
281708                  0.258757       0.0980512      0.000316341     0.000188619         0.141131       -0.946895     -0.000355836    -0.000252901
                     0.000384325     0.000176745         0.221582        0.153232      -0.00047325     0.000242007         0.669583       -0.678105
                        0.141398       -0.946828     -0.000430889     2.25862e-05         0.273786      -0.0204255      0.000530228    -0.000129291
                    -0.000386048    -0.000169401         0.669584       -0.678231      0.000464223    -5.86008e-05         0.149509        0.227232
281710                  0.258778       0.0980511      0.000316412     0.000188617         0.140855        -0.94693     -0.000355997    -0.000252661
                     0.000384119      0.00017674         0.221573        0.153102     -0.000473046     0.000241616         0.669341       -0.678404
                        0.141122       -0.946863     -0.000430973     2.29127e-05         0.273795       -0.020578       0.00053015    -0.000129638
                    -0.000386245    -0.000169477         0.669342        -0.67853      0.000464457    -5.91606e-05         0.149578        0.227073
281712                    0.2588        0.098051      0.000316482     0.000188615         0.140579       -0.946965     -0.000356158    -0.000252421
                     0.000383914     0.000176735         0.221564        0.152972     -0.000472844     0.000241226           0.6691       -0.678703
                        0.140846       -0.946899     -0.000431057     2.32394e-05         0.273804      -0.0207306      0.000530072    -0.000129982
                    -0.000386441    -0.000169553           0.6691       -0.678829      0.000464686    -5.97192e-05         0.149648        0.226914
281714                  0.258822       0.0980509      0.000316553     0.000188613         0.140304       -0.947001     -0.000356319    -0.000252182
                     0.000383709     0.000176731         0.221555        0.152843     -0.000472644     0.000240835         0.668858       -0.679002
                         0.14057       -0.946934     -0.000431142     2.35663e-05         0.273813      -0.0208832      0.000529994    -0.000130325
                    -0.000386637    -0.000169628         0.668858       -0.679127      0.000464908    -6.02771e-05         0.149717        0.226755
281716                  0.258843       0.0980508      0.000316624     0.000188611         0.140028       -0.947035      -0.00035648    -0.000251942
                     0.000383505     0.000176728         0.221545        0.152714     -0.000472447     0.000240445         0.668617         -0.6793
                        0.140295       -0.946969     -0.000431228     2.38935e-05         0.273822      -0.0210359      0.000529915    -0.000130666
                    -0.000386833    -0.000169703         0.668616       -0.679425      0.000465116    -6.08395e-05         0.149787        0.226597
281718                  0.258865       0.0980507      0.000316694     0.000188609         0.139752       -0.947071     -0.000356641    -0.000251702
                     0.000383301     0.000176725         0.221536        0.152586     -0.000472251     0.000240054         0.668375       -0.679598
                        0.140019       -0.947004     -0.000431314     2.42209e-05          0.27383      -0.0211883      0.000529835    -0.000131004
                    -0.000387029    -0.000169777         0.668375       -0.679723      0.000465316    -6.14382e-05         0.149856        0.226439
281720                  0.258886       0.0980506      0.000316764     0.000188607         0.139477       -0.947106     -0.000356802    -0.000251462
                     0.000383098     0.000176722         0.221527        0.152458     -0.000472056     0.000239664         0.668133       -0.679895
                        0.139743       -0.947039     -0.000431401     2.45485e-05         0.273839      -0.0213409      0.000529755    -0.000131341
                    -0.000387225     -0.00016985         0.668133        -0.68002      0.000465586    -6.20419e-05         0.149926        0.226281
281722                  0.258908       0.0980505      0.000316835     0.000188605         0.139201        -0.94714     -0.000356962    -0.000251222
                     0.000382895     0.000176719         0.221518         0.15233     -0.000471864     0.000239274         0.667891       -0.680192
                        0.139467       -0.947074     -0.000431489     2.48763e-05         0.273848      -0.0214936      0.000529675    -0.000131676
                     -0.00038742    -0.000169922         0.667891       -0.680317      0.000465842    -6.25833e-05         0.149995        0.226123
281724                  0.258929       0.0980503      0.000316905     0.000188604         0.138925       -0.947175     -0.000357123    -0.000250982
                     0.000382693     0.000176717         0.221508        0.152203     -0.000471674     0.000238884          0.66765       -0.680488
                        0.139192       -0.947109     -0.000431577     2.52043e-05         0.273856      -0.0216462      0.000529595    -0.000132009
                    -0.000387616    -0.000169994         0.667649       -0.680613      0.000466071    -6.31261e-05         0.150065        0.225966
281726                  0.258951       0.0980502      0.000316975     0.000188602         0.138649        -0.94721     -0.000357283    -0.000250742
                     0.000382492     0.000176715         0.221499        0.152076     -0.000471486     0.000238494         0.667408       -0.680784
                        0.138916       -0.947144     -0.000431666     2.55326e-05         0.273864      -0.0217989      0.000529514     -0.00013234
                    -0.000387811    -0.000170065         0.667407       -0.680909      0.000466291    -6.36745e-05         0.150134        0.225809
281728                  0.258973       0.0980501      0.000317045     0.000188601         0.138374       -0.947244     -0.000357443    -0.000250502
                     0.000382291     0.000176714          0.22149         0.15195     -0.000471299     0.000238104         0.667166        -0.68108
                         0.13864       -0.947179     -0.000431755      2.5861e-05         0.273873      -0.0219515      0.000529432     -0.00013267
                    -0.000388006    -0.000170135         0.667165       -0.681204      0.000466508    -6.42253e-05         0.150204        0.225652
281730                  0.258994       0.0980499      0.000317115       0.0001886         0.138098       -0.947279     -0.000357603    -0.000250262
                     0.000382091     0.000176713          0.22148        0.151824     -0.000471115     0.000237715         0.666925       -0.681375
                        0.138364       -0.947213     -0.000431845     2.61896e-05         0.273881      -0.0221042      0.000529351    -0.000132997
                      -0.0003882    -0.000170205         0.666923       -0.681499      0.000466723    -6.47771e-05         0.150274        0.225496
281732                  0.259016       0.0980498      0.000317185     0.000188598         0.137822       -0.947313     -0.000357763    -0.000250022
                     0.000381891     0.000176712         0.221471        0.151698     -0.000470932     0.000237326         0.666683        -0.68167
                        0.138088       -0.947248     -0.000431935     2.65183e-05         0.273889      -0.0222569      0.000529269    -0.000133323
                    -0.000388395    -0.000170274         0.666681       -0.681794      0.000466935    -6.53291e-05         0.150343        0.225339
281734                  0.259037       0.0980496      0.000317256     0.000188598         0.137546       -0.947348     -0.000357922    -0.000249782
                     0.000381691     0.000176711         0.221462        0.151573     -0.000470752     0.000236938         0.666441       -0.681964
                        0.137813       -0.947282     -0.000432026     2.68473e-05         0.273897      -0.0224096      0.000529187    -0.000133647
                    -0.000388589    -0.000170342         0.666439       -0.682088      0.000467145    -6.58808e-05         0.150413        0.225183
281736                  0.259059       0.0980495      0.000317326     0.000188597         0.137271       -0.947382     -0.000358081    -0.000249542
                     0.000381493     0.000176711         0.221452        0.151448     -0.000470574     0.000236549         0.666199       -0.682258
                        0.137537       -0.947317     -0.000432117     2.71764e-05         0.273905      -0.0225623      0.000529106    -0.000133969
                    -0.000388783     -0.00017041         0.666197       -0.682382      0.000467353    -6.64321e-05         0.150483        0.225028
281738                   0.25908       0.0980493      0.000317396     0.000188596         0.136995       -0.947416      -0.00035824    -0.000249301
                     0.000381294     0.000176711         0.221443        0.151324     -0.000470398     0.000236161         0.665957       -0.682551
                        0.137261       -0.947351     -0.000432209     2.75057e-05         0.273912       -0.022715      0.000529026     -0.00013429
                    -0.000388977    -0.000170477         0.665955       -0.682675      0.000467559    -6.69827e-05         0.150552        0.224872
281740                  0.259102       0.0980491      0.000317466     0.000188596         0.136719        -0.94745     -0.000358398    -0.000249061
                     0.000381097     0.000176711         0.221434          0.1512     -0.000470224     0.000235772         0.665715       -0.682844
                        0.136985       -0.947385     -0.000432301     2.78352e-05          0.27392      -0.0228677      0.000528948    -0.000134611
                    -0.000389171    -0.000170543         0.665713       -0.682968      0.000467764    -6.75326e-05         0.150622        0.224717
281742                  0.259124        0.098049      0.000317536     0.000188596         0.136443       -0.947484     -0.000358553     -0.00024882
                     0.000380899     0.000176712         0.221424        0.151076     -0.000470052     0.000235383         0.665473       -0.683137
                        0.136709       -0.947419     -0.000432394     2.81649e-05         0.273928      -0.0230205      0.000528877    -0.000134935
                    -0.000389365    -0.000170609         0.665471        -0.68326      0.000467966    -6.80817e-05         0.150692        0.224562
281744                  0.259145       0.0980488      0.000317606     0.000188596         0.136167       -0.947518     -0.000358694    -0.000248578
                     0.000380703     0.000176712         0.221415        0.150953     -0.000469881     0.000234994         0.665231        -0.68343
                        0.136433       -0.947453     -0.000432487     2.84947e-05         0.273935      -0.0231732      0.000528834    -0.000135279
                    -0.000389558    -0.000170673         0.665229       -0.683553      0.000468166    -6.86299e-05         0.150761        0.224407
281746                  0.259167       0.0980486      0.000317677     0.000188597         0.135892       -0.947552     -0.000358952    -0.000248387
                     0.000380507     0.000176713         0.221406         0.15083     -0.000469712     0.000234605          0.66499       -0.683722
                        0.136157       -0.947487      -0.00043258     2.88247e-05         0.273943       -0.023326      0.000528065    -0.000136098
                    -0.000389752    -0.000170737         0.664987       -0.683844      0.000468364    -6.91772e-05         0.150831        0.224252
281748                  0.259188       0.0980484      0.000317747     0.000188597         0.135616       -0.947586     -0.000359062    -0.000248108
                     0.000380311     0.000176714         0.221396        0.150707     -0.000469545     0.000234217         0.664748       -0.684013
                        0.135882       -0.947521     -0.000432673      2.9155e-05          0.27395      -0.0234788       0.00052848    -0.000135813
                    -0.000389945    -0.000170801         0.664745       -0.684135       0.00046856    -6.97234e-05         0.150901        0.224098
281750                   0.25921       0.0980482      0.000317818     0.000188599          0.13534       -0.947619     -0.000359214    -0.000247865
                     0.000380116     0.000176715         0.221387        0.150585     -0.000469379     0.000233828         0.664506       -0.684304
                        0.135606       -0.947555     -0.000432767     2.94854e-05         0.273957      -0.0236316      0.000528437    -0.000136133
                    -0.000390138    -0.000170863         0.664502       -0.684426      0.000468755    -7.02687e-05         0.150971        0.223944
281752                  0.259231        0.098048      0.000317889       0.0001886         0.135064       -0.947653     -0.000359371    -0.000247623
                     0.000379921     0.000176717         0.221377        0.150463     -0.000469215      0.00023344         0.664264       -0.684595
                         0.13533       -0.947589      -0.00043286     2.98162e-05         0.273965      -0.0237843      0.000528363    -0.000136443
                    -0.000390331    -0.000170925          0.66426       -0.684717      0.000468947    -7.08129e-05         0.151041         0.22379
281754                  0.259253       0.0980478       0.00031796     0.000188603         0.134788       -0.947686     -0.000359529    -0.000247383
                     0.000379727     0.000176718         0.221368        0.150342     -0.000469053     0.000233052         0.664022       -0.684885
                        0.135054       -0.947622     -0.000432953     3.01473e-05         0.273972      -0.0239372      0.000528282    -0.000136749
                    -0.000390523    -0.000170986         0.664018       -0.685007      0.000469138    -7.13561e-05         0.151111        0.223636
281756                  0.259274       0.0980476      0.000318031     0.000188607         0.134513        -0.94772     -0.000359687    -0.000247142
                     0.000379534      0.00017672         0.221359        0.150221     -0.000468892     0.000232664          0.66378       -0.685175
                        0.134778       -0.947656     -0.000433046     3.04791e-05         0.273979        -0.02409      0.000528196    -0.000137052
                    -0.000390716    -0.000171047         0.663776       -0.685297      0.000469326    -7.18981e-05         0.151181        0.223483
281758                  0.259296       0.0980474        0.0003181     0.000188613         0.134237       -0.947753     -0.000359846    -0.000246902
                     0.000379341     0.000176722         0.221349          0.1501     -0.000468733     0.000232277         0.663538       -0.685464
                        0.134502       -0.947689     -0.000433136     3.08124e-05         0.273986      -0.0242428      0.000528109    -0.000137353
                    -0.000390908    -0.000171106         0.663534       -0.685586      0.000469513     -7.2439e-05         0.151251         0.22333
281760                  0.259318       0.0980472      0.000318164     0.000188618         0.133961       -0.947786     -0.000360005    -0.000246661
                     0.000379148     0.000176724          0.22134         0.14998     -0.000468576      0.00023189         0.663296       -0.685753
                        0.134226       -0.947723     -0.000433212     3.11538e-05         0.273993      -0.0243956       0.00052802    -0.000137651
                      -0.0003911    -0.000171165         0.663291       -0.685875      0.000469698    -7.29787e-05         0.151321        0.223177
281762                  0.259339        0.098047      0.000318225     0.000188614         0.133685        -0.94782     -0.000360164    -0.000246421
                     0.000378956     0.000176726          0.22133         0.14986      -0.00046842     0.000231502         0.663054       -0.686042
                         0.13395       -0.947756     -0.000433445     3.14468e-05         0.273999      -0.0245485       0.00052793    -0.000137947
