! TOUCHSTONE file generated by CST MICROWAVE STUDIO
! Date and time: Wed Oct 15 17:31:35 2025
! Project name: Teste_Macro_Metasurface_Nanopilar.cst
! Parameters = {H=600; L_x=135; L_y=115; Lambda=1064; Max_L=200; Min_L=70; PathPara=1; Phi=0; Step_L=10; Theta=0; p=520; phaseX=180; phaseY=0}
! Header version: 2018
! Port assignment regex: !\s*Touchstone port\s*([0-9]+)\s*=\s*(CST MWS port|CST DS port)\s*([0-9]+|Zmin|Zmax)\s*\(\"(.*)\"\)(\s*mode\s*([0-9]+))?.*
! Touchstone port assignment:
! Touchstone port 1 = CST MWS port Zmax ("") mode 1
! Touchstone port 2 = CST MWS port Zmax ("") mode 2
! Touchstone port 3 = CST MWS port Zmin ("") mode 1
! Touchstone port 4 = CST MWS port Zmin ("") mode 2
! S-Parameters are not renormalized. Each port impedance will be approximated by the real part at minimum frequency. The values are described via the [Reference] keyword.
! Default impedance is overridden by [Reference]
[Version] 2.0
# GHz S RI R 376.73
[Number of Ports] 4
[Reference]
376.73 376.73 259.888 259.888 
[Number of Frequencies] 51
[Network Data]
281700                 0.0999246      -0.0506034     -0.000373523     0.000289803       -0.0137191        0.984257     -0.000566233     0.000162944
                    -0.000403328     0.000283572        0.0283269        0.091476      -0.00033172     0.000547448          0.91112        0.383721
                      -0.0137859        0.984036     -0.000292407      0.00052925        0.0960604       0.0546372     -0.000430269     0.000277689
                    -0.000545014     6.17987e-05         0.911005        0.383709      -0.00040292     0.000176577       -0.0844844       0.0453603
281702                 0.0998972      -0.0506002      -0.00037356     0.000289972       -0.0133187        0.984265     -0.000566186     0.000163103
                    -0.000403363     0.000283841        0.0283443       0.0914956     -0.000331512      0.00054761         0.911253          0.3834
                      -0.0133856        0.984044     -0.000292256     0.000529416         0.096077        0.054555     -0.000430249     0.000277975
                    -0.000545046      6.2004e-05         0.911138        0.383388      -0.00040305     0.000176785       -0.0844789       0.0454208
281704                 0.0998698      -0.0505971     -0.000373596     0.000290141       -0.0129184        0.984273      -0.00056614     0.000163264
                    -0.000403397     0.000284111        0.0283618       0.0915152     -0.000331304     0.000547771         0.911387        0.383079
                      -0.0129854        0.984053     -0.000292105     0.000529583        0.0960936       0.0544728     -0.000430227      0.00027826
                    -0.000545078     6.22093e-05         0.911271        0.383066     -0.000403179     0.000176992       -0.0844733       0.0454813
281706                 0.0998423      -0.0505939     -0.000373633      0.00029031       -0.0125181        0.984282     -0.000566093     0.000163427
                    -0.000403431     0.000284382        0.0283793       0.0915348     -0.000331096     0.000547932          0.91152        0.382757
                      -0.0125851        0.984061     -0.000291954     0.000529749        0.0961102       0.0543906     -0.000430205     0.000278545
                     -0.00054511     6.24147e-05         0.911405        0.382745     -0.000403309     0.000177201       -0.0844676       0.0455419
281708                 0.0998149      -0.0505907     -0.000373668     0.000290479       -0.0121177         0.98429     -0.000566045     0.000163591
                    -0.000403466     0.000284652        0.0283967       0.0915543     -0.000330887     0.000548093         0.911653        0.382436
                      -0.0121848        0.984069     -0.000291803     0.000529914        0.0961266       0.0543084     -0.000430182     0.000278831
                    -0.000545142     6.26201e-05         0.911537        0.382424     -0.000403438     0.000177409       -0.0844619       0.0456024
281710                 0.0997875      -0.0505874     -0.000373704     0.000290649       -0.0117174        0.984297     -0.000565997     0.000163757
                      -0.0004035     0.000284922        0.0284142       0.0915739     -0.000330678     0.000548254         0.911785        0.382114
                      -0.0117846        0.984077     -0.000291651      0.00053008         0.096143       0.0542262     -0.000430159     0.000279116
                    -0.000545174     6.28255e-05          0.91167        0.382102     -0.000403567     0.000177617       -0.0844562       0.0456629
281712                 0.0997601      -0.0505842     -0.000373739     0.000290818        -0.011317        0.984305     -0.000565949     0.000163924
                    -0.000403533     0.000285193        0.0284317       0.0915935     -0.000330469     0.000548415         0.911918        0.381792
                      -0.0113843        0.984084     -0.000291499     0.000530245        0.0961593        0.054144     -0.000430135     0.000279401
                    -0.000545205      6.3031e-05         0.911803        0.381781     -0.000403696     0.000177826       -0.0844504       0.0457234
281714                 0.0997327       -0.050581     -0.000373774     0.000290988       -0.0109167        0.984312     -0.000565901     0.000164093
                    -0.000403567     0.000285463        0.0284491        0.091613      -0.00033026     0.000548576         0.912051        0.381471
                       -0.010984        0.984092     -0.000291346      0.00053041        0.0961756       0.0540618      -0.00043011     0.000279685
                    -0.000545237     6.32366e-05         0.911935        0.381459     -0.000403825     0.000178035       -0.0844446        0.045784
281716                 0.0997053      -0.0505777     -0.000373808     0.000291158       -0.0105163         0.98432     -0.000565851     0.000164262
                    -0.000403601     0.000285734        0.0284666       0.0916326     -0.000330051     0.000548737         0.912183        0.381149
                      -0.0105838        0.984099     -0.000291193     0.000530575        0.0961917       0.0539796     -0.000430085      0.00027997
                    -0.000545268     6.34422e-05         0.912068        0.381138     -0.000403954     0.000178244       -0.0844388       0.0458445
281718                 0.0996779      -0.0505745     -0.000373842     0.000291328        -0.010116        0.984327     -0.000565802     0.000164432
                    -0.000403634     0.000286004        0.0284841       0.0916522     -0.000329842     0.000548897         0.912316        0.380827
                      -0.0101835        0.984106      -0.00029104      0.00053074        0.0962078       0.0538974     -0.000430059     0.000280254
                    -0.000545299     6.36479e-05           0.9122        0.380816     -0.000404082     0.000178453       -0.0844328       0.0459051
281720                 0.0996505      -0.0505712     -0.000373876     0.000291498      -0.00971563        0.984334     -0.000565752     0.000164603
                    -0.000403667     0.000286275        0.0285016       0.0916717     -0.000329632     0.000549057         0.912448        0.380506
                     -0.00978322        0.984113     -0.000290887     0.000530904        0.0962239       0.0538152     -0.000430033     0.000280538
                     -0.00054533     6.38537e-05         0.912332        0.380494      -0.00040421     0.000178662       -0.0844269       0.0459656
281722                 0.0996231      -0.0505679     -0.000373909     0.000291668      -0.00931527        0.984341     -0.000565701     0.000164774
                      -0.0004037     0.000286546         0.028519       0.0916912     -0.000329422     0.000549217          0.91258        0.380184
                     -0.00938294         0.98412     -0.000290733     0.000531068        0.0962399        0.053733     -0.000430006     0.000280822
                    -0.000545361     6.40594e-05         0.912464        0.380173     -0.000404338     0.000178872       -0.0844209       0.0460262
281724                 0.0995957      -0.0505646     -0.000373942     0.000291838      -0.00891491        0.984347     -0.000565651     0.000164946
                    -0.000403733     0.000286817        0.0285365       0.0917108     -0.000329213     0.000549378         0.912712        0.379862
                     -0.00898267        0.984127     -0.000290579     0.000531232        0.0962558       0.0536508     -0.000429979     0.000281105
                    -0.000545392     6.42653e-05         0.912596        0.379851     -0.000404466     0.000179081       -0.0844149       0.0460868
281726                 0.0995683      -0.0505613     -0.000373975     0.000292009      -0.00851455        0.984354     -0.000565599     0.000165119
                    -0.000403765     0.000287088         0.028554       0.0917303     -0.000329002     0.000549538         0.912844         0.37954
                     -0.00858238        0.984133     -0.000290425     0.000531397        0.0962716       0.0535686     -0.000429951     0.000281389
                    -0.000545422     6.44712e-05         0.912728        0.379529     -0.000404593     0.000179291       -0.0844088       0.0461473
281728                 0.0995409       -0.050558     -0.000374007     0.000292179      -0.00811419         0.98436     -0.000565548     0.000165291
                    -0.000403798     0.000287359        0.0285715       0.0917498     -0.000328792     0.000549697         0.912976        0.379218
                      -0.0081821         0.98414      -0.00029027      0.00053156        0.0962874       0.0534864     -0.000429923     0.000281672
                    -0.000545453     6.46771e-05          0.91286        0.379208     -0.000404721     0.000179501       -0.0844026       0.0462079
281730                 0.0995135      -0.0505546      -0.00037404      0.00029235      -0.00771382        0.984366     -0.000565496     0.000165465
                     -0.00040383      0.00028763         0.028589       0.0917693     -0.000328582     0.000549857         0.913108        0.378896
                     -0.00778182        0.984146     -0.000290115     0.000531724        0.0963031       0.0534042     -0.000429895     0.000281955
                    -0.000545483     6.48831e-05         0.912992        0.378886     -0.000404848     0.000179711       -0.0843965       0.0462685
281732                 0.0994861      -0.0505513     -0.000374071     0.000292521      -0.00731345        0.984372     -0.000565444     0.000165638
                    -0.000403862     0.000287902        0.0286065       0.0917889     -0.000328372     0.000550017         0.913239        0.378574
                     -0.00738153        0.984152      -0.00028996     0.000531888        0.0963187        0.053322     -0.000429867     0.000282238
                    -0.000545513     6.50891e-05         0.913123        0.378564     -0.000404975     0.000179922       -0.0843902       0.0463291
281734                 0.0994587       -0.050548     -0.000374103     0.000292692      -0.00691309        0.984378     -0.000565391     0.000165811
                    -0.000403894     0.000288173         0.028624       0.0918084     -0.000328161     0.000550176         0.913371        0.378252
                     -0.00698124        0.984158     -0.000289805     0.000532051        0.0963343       0.0532397     -0.000429838     0.000282521
                    -0.000545543     6.52952e-05         0.913254        0.378242     -0.000405102     0.000180132        -0.084384       0.0463897
281736                 0.0994313      -0.0505446     -0.000374134     0.000292863      -0.00651272        0.984384     -0.000565339     0.000165985
                    -0.000403926     0.000288444        0.0286415       0.0918279      -0.00032795     0.000550336         0.913502         0.37793
                     -0.00658095        0.984163     -0.000289649     0.000532215        0.0963498       0.0531575     -0.000429811     0.000282805
                    -0.000545573     6.55014e-05         0.913386         0.37792     -0.000405228     0.000180343       -0.0843777       0.0464503
281738                 0.0994039      -0.0505412     -0.000374165     0.000293035      -0.00611235        0.984389     -0.000565286     0.000166158
                    -0.000403957     0.000288716         0.028659       0.0918474      -0.00032774     0.000550495         0.913633        0.377608
                     -0.00618066        0.984169     -0.000289494     0.000532378        0.0963652       0.0530753     -0.000429784     0.000283089
                    -0.000545603     6.57076e-05         0.913517        0.377598     -0.000405355     0.000180554       -0.0843713        0.046511
281740                 0.0993765      -0.0505378     -0.000374196     0.000293206      -0.00571198        0.984395     -0.000565234      0.00016633
                    -0.000403989     0.000288988        0.0286765       0.0918669     -0.000327529     0.000550654         0.913764        0.377286
                     -0.00578037        0.984174     -0.000289338     0.000532541        0.0963806       0.0529931     -0.000429761     0.000283379
                    -0.000545632     6.59138e-05         0.913648        0.377276     -0.000405481     0.000180764       -0.0843649       0.0465716
281742                 0.0993491      -0.0505344     -0.000374226     0.000293378       -0.0053116          0.9844     -0.000565185       0.0001665
                     -0.00040402     0.000289259         0.028694       0.0918863     -0.000327318     0.000550813         0.913895        0.376964
                     -0.00538007         0.98418     -0.000289181     0.000532705        0.0963959       0.0529109     -0.000429742     0.000283687
                    -0.000545662     6.61201e-05         0.913779        0.376954     -0.000405607     0.000180975       -0.0843585       0.0466323
281744                 0.0993217       -0.050531     -0.000374256      0.00029355      -0.00491123        0.984405     -0.000565142     0.000166664
                    -0.000404051     0.000289531        0.0287115       0.0919058     -0.000327107     0.000550972         0.914027        0.376642
                     -0.00497978        0.984185     -0.000289025     0.000532868        0.0964111       0.0528286     -0.000429643      0.00028403
                    -0.000545691     6.63265e-05          0.91391        0.376632     -0.000405733     0.000181187        -0.084352       0.0466926
281746                 0.0992944      -0.0505276     -0.000374286     0.000293722      -0.00451086         0.98441     -0.000565164     0.000166811
                    -0.000404082     0.000289803         0.028729       0.0919253     -0.000326896     0.000551131         0.914157         0.37632
                     -0.00457948        0.984189     -0.000288868     0.000533031        0.0964263       0.0527464     -0.000429574     0.000284229
                     -0.00054572     6.65329e-05          0.91404         0.37631     -0.000405859     0.000181398       -0.0843455       0.0467534
281748                  0.099267      -0.0505242     -0.000374316     0.000293894      -0.00411049        0.984414      -0.00056499     0.000167144
                    -0.000404113     0.000290075        0.0287466       0.0919448     -0.000326685     0.000551289         0.914288        0.375997
                     -0.00417918        0.984194     -0.000288712     0.000533193        0.0964414       0.0526642     -0.000429561     0.000284488
                    -0.000545749     6.67393e-05         0.914171        0.375988     -0.000405985     0.000181609       -0.0843389       0.0468141
281750                 0.0992396      -0.0505207     -0.000374345     0.000294067      -0.00371011        0.984419     -0.000564934     0.000167258
                    -0.000404143     0.000290348        0.0287641       0.0919642     -0.000326474     0.000551447         0.914418        0.375675
                     -0.00377888        0.984199     -0.000288554     0.000533356        0.0964564        0.052582     -0.000429538     0.000284763
                    -0.000545778     6.69458e-05         0.914301        0.375665      -0.00040611     0.000181821       -0.0843323       0.0468748
281752                 0.0992122      -0.0505173     -0.000374374     0.000294239      -0.00330974        0.984423     -0.000564882      0.00016742
                    -0.000404173      0.00029062        0.0287816       0.0919837     -0.000326263     0.000551605         0.914548        0.375353
                     -0.00337858        0.984203     -0.000288397     0.000533519        0.0964714       0.0524998     -0.000429509      0.00028504
                    -0.000545807     6.71524e-05         0.914432        0.375343     -0.000406235     0.000182032       -0.0843256       0.0469354
281754                 0.0991849      -0.0505138     -0.000374403     0.000294412      -0.00290936        0.984428     -0.000564828      0.00016759
                    -0.000404204     0.000290892        0.0287991       0.0920031     -0.000326051     0.000551763         0.914679         0.37503
                     -0.00297828        0.984207      -0.00028824     0.000533681        0.0964863       0.0524175     -0.000429478     0.000285319
                    -0.000545835      6.7359e-05         0.914562        0.375021      -0.00040636     0.000182244       -0.0843189       0.0469961
281756                 0.0991575      -0.0505103     -0.000374431     0.000294585      -0.00250899        0.984432     -0.000564773     0.000167763
                    -0.000404233     0.000291165        0.0288167       0.0920226      -0.00032584     0.000551921         0.914809        0.374708
                     -0.00257797        0.984211     -0.000288082     0.000533844        0.0965011       0.0523353     -0.000429445     0.000285597
                    -0.000545864     6.75656e-05         0.914692        0.374699     -0.000406485     0.000182456       -0.0843121       0.0470568
281758                 0.0991301      -0.0505069      -0.00037446     0.000294758      -0.00210862        0.984435     -0.000564717     0.000167938
                    -0.000404263     0.000291437        0.0288342        0.092042     -0.000325629     0.000552078         0.914939        0.374386
                     -0.00217767        0.984215     -0.000287924     0.000534006        0.0965158       0.0522531     -0.000429412     0.000285875
                    -0.000545892     6.77723e-05         0.914822        0.374376      -0.00040661     0.000182668       -0.0843053       0.0471175
281760                 0.0991028      -0.0505034     -0.000374488     0.000294932      -0.00170824        0.984439     -0.000564661     0.000168113
                    -0.000404292      0.00029171        0.0288517       0.0920615     -0.000325417     0.000552234         0.915069        0.374063
                     -0.00177736        0.984219     -0.000287766     0.000534168        0.0965305       0.0521709     -0.000429377     0.000286153
                     -0.00054592     6.79791e-05         0.914952        0.374054     -0.000406735      0.00018288       -0.0842985       0.0471782
281762                 0.0990754      -0.0504999     -0.000374516     0.000295105      -0.00130787        0.984443     -0.000564604     0.000168288
                    -0.000404322     0.000291983        0.0288693       0.0920809     -0.000325206     0.000552391         0.915199        0.373741
                     -0.00137706        0.984223     -0.000287607     0.000534331        0.0965451       0.0520886     -0.000429342      0.00028643
