! TOUCHSTONE file generated by CST MICROWAVE STUDIO
! Date and time: Wed Oct 15 17:28:48 2025
! Project name: Teste_Macro_Metasurface_Nanopilar.cst
! Parameters = {H=600; L_x=85; L_y=165; Lambda=1064; Max_L=200; Min_L=70; PathPara=1; Phi=0; Step_L=10; Theta=0; p=520; phaseX=180; phaseY=0}
! Header version: 2018
! Port assignment regex: !\s*Touchstone port\s*([0-9]+)\s*=\s*(CST MWS port|CST DS port)\s*([0-9]+|Zmin|Zmax)\s*\(\"(.*)\"\)(\s*mode\s*([0-9]+))?.*
! Touchstone port assignment:
! Touchstone port 1 = CST MWS port Zmax ("") mode 1
! Touchstone port 2 = CST MWS port Zmax ("") mode 2
! Touchstone port 3 = CST MWS port Zmin ("") mode 1
! Touchstone port 4 = CST MWS port Zmin ("") mode 2
! S-Parameters are not renormalized. Each port impedance will be approximated by the real part at minimum frequency. The values are described via the [Reference] keyword.
! Default impedance is overridden by [Reference]
[Version] 2.0
# GHz S RI R 376.73
[Number of Ports] 4
[Reference]
376.73 376.73 259.888 259.888 
[Number of Frequencies] 51
[Network Data]
281700                  0.034986        0.164454      0.000872168     4.95866e-05         0.976437       0.0809413     -0.000547827    -0.000313771
                      0.00081682       0.0001174       -0.0353802     -0.00611673     -0.000547112    -0.000162359        -0.573087       -0.816874
                        0.975687       0.0808301     -0.000596131    -0.000276676       -0.0602999         0.15703       0.00059551       0.0006597
                     -0.00062856     -0.00047087        -0.572882       -0.816331      0.000435905     0.000619096      -0.00622841       0.0360253
281702                 0.0350096        0.164474      0.000872169     4.92612e-05         0.976461       0.0806057     -0.000547932    -0.000313634
                     0.000816881     0.000117064       -0.0353873     -0.00610204     -0.000547024    -0.000162268        -0.573309       -0.816719
                         0.97571       0.0804944     -0.000596256    -0.000276469       -0.0602187        0.157087      0.000595726     0.000659466
                    -0.000628694    -0.000470643        -0.573103       -0.816175      0.000435948     0.000619154      -0.00622512       0.0360305
281704                 0.0350332        0.164495       0.00087217     4.89359e-05         0.976485       0.0802702     -0.000548037    -0.000313496
                     0.000816941     0.000116728       -0.0353944     -0.00608735     -0.000546936    -0.000162177        -0.573531       -0.816563
                        0.975733       0.0801587     -0.000596381    -0.000276262       -0.0601375        0.157145      0.000595942     0.000659231
                    -0.000628827    -0.000470416        -0.573325       -0.816019      0.000435992     0.000619211      -0.00622182       0.0360356
281706                 0.0350568        0.164515      0.000872171     4.86107e-05         0.976509       0.0799346     -0.000548142    -0.000313358
                     0.000817002     0.000116393       -0.0354015     -0.00607265     -0.000546848    -0.000162087        -0.573752       -0.816407
                        0.975756        0.079823     -0.000596506    -0.000276055       -0.0600563        0.157202      0.000596157     0.000658997
                    -0.000628961    -0.000470189        -0.573546       -0.815863      0.000436037     0.000619269      -0.00621853       0.0360407
281708                 0.0350804        0.164535      0.000872171     4.82856e-05         0.976532        0.079599     -0.000548248     -0.00031322
                     0.000817062     0.000116058       -0.0354086     -0.00605796     -0.000546761    -0.000161996        -0.573974       -0.816251
                        0.975779       0.0794873     -0.000596631    -0.000275847        -0.059975         0.15726      0.000596373     0.000658762
                    -0.000629094    -0.000469963        -0.573767       -0.815707      0.000436081     0.000619327      -0.00621523       0.0360458
281710                  0.035104        0.164556      0.000872172     4.79605e-05         0.976556       0.0792635     -0.000548353    -0.000313082
                     0.000817122     0.000115723       -0.0354157     -0.00604327     -0.000546674    -0.000161906        -0.574195       -0.816095
                        0.975802       0.0791516     -0.000596756     -0.00027564       -0.0598936        0.157317      0.000596588     0.000658527
                    -0.000629228    -0.000469736        -0.573989       -0.815551      0.000436127     0.000619385      -0.00621193        0.036051
281712                 0.0351277        0.164576      0.000872172     4.76355e-05         0.976579       0.0789279     -0.000548458    -0.000312945
                     0.000817181     0.000115387       -0.0354227     -0.00602857     -0.000546588    -0.000161816        -0.574416       -0.815939
                        0.975825        0.078816      -0.00059688    -0.000275432       -0.0598122        0.157374      0.000596804     0.000658292
                    -0.000629361     -0.00046951         -0.57421       -0.815395      0.000436173     0.000619444      -0.00620862       0.0360561
281714                 0.0351513        0.164597      0.000872172     4.73105e-05         0.976603       0.0785923     -0.000548563    -0.000312807
                     0.000817241     0.000115053       -0.0354298     -0.00601387     -0.000546501    -0.000161727        -0.574638       -0.815783
                        0.975848       0.0784803     -0.000597004    -0.000275224       -0.0597308        0.157431      0.000597019     0.000658057
                    -0.000629494    -0.000469283        -0.574431       -0.815239      0.000436219     0.000619502      -0.00620531       0.0360613
281716                 0.0351749        0.164617      0.000872173     4.69857e-05         0.976626       0.0782568     -0.000548669    -0.000312669
                       0.0008173     0.000114718       -0.0354369     -0.00599917     -0.000546415    -0.000161637        -0.574859       -0.815627
                         0.97587       0.0781446     -0.000597129    -0.000275016       -0.0596493        0.157488      0.000597234     0.000657822
                    -0.000629628    -0.000469057        -0.574652       -0.815083      0.000436266      0.00061956        -0.006202       0.0360664
281718                 0.0351985        0.164638      0.000872173     4.66608e-05         0.976649       0.0779212     -0.000548774    -0.000312531
                      0.00081736     0.000114383        -0.035444     -0.00598447     -0.000546329    -0.000161548         -0.57508       -0.815471
                        0.975893       0.0778089     -0.000597253    -0.000274808       -0.0595678        0.157546      0.000597449     0.000657586
                    -0.000629761    -0.000468831        -0.574873       -0.814926      0.000436313     0.000619619      -0.00619869       0.0360716
281720                 0.0352222        0.164658      0.000872172     4.63361e-05         0.976672       0.0775856     -0.000548879    -0.000312392
                     0.000817419     0.000114048        -0.035451     -0.00596976     -0.000546244    -0.000161459        -0.575302       -0.815315
                        0.975915       0.0774732     -0.000597377      -0.0002746       -0.0594862        0.157603      0.000597663     0.000657351
                    -0.000629894    -0.000468606        -0.575094        -0.81477      0.000436361     0.000619678      -0.00619537       0.0360767
281722                 0.0352458        0.164679      0.000872172     4.60115e-05         0.976694         0.07725     -0.000548985    -0.000312254
                     0.000817478     0.000113714       -0.0354581     -0.00595506     -0.000546159    -0.000161371        -0.575523       -0.815158
                        0.975937       0.0771374     -0.000597501    -0.000274392       -0.0594045         0.15766      0.000597878     0.000657115
                    -0.000630027     -0.00046838        -0.575315       -0.814614      0.000436409     0.000619736      -0.00619205       0.0360819
281724                 0.0352694        0.164699      0.000872172     4.56869e-05         0.976717       0.0769144      -0.00054909    -0.000312116
                     0.000817537      0.00011338       -0.0354652     -0.00594035     -0.000546074    -0.000161282        -0.575744       -0.815002
                        0.975959       0.0768017     -0.000597624    -0.000274184       -0.0593229        0.157717      0.000598092     0.000656879
                     -0.00063016    -0.000468155        -0.575536       -0.814457      0.000436457     0.000619795      -0.00618873        0.036087
281726                 0.0352931        0.164719      0.000872171     4.53624e-05          0.97674       0.0765789     -0.000549196    -0.000311978
                     0.000817596     0.000113045       -0.0354722     -0.00592564     -0.000545989    -0.000161194        -0.575965       -0.814846
                        0.975981        0.076466     -0.000597748    -0.000273976       -0.0592411        0.157774      0.000598306     0.000656643
                    -0.000630293    -0.000467929        -0.575757       -0.814301      0.000436507     0.000619854       -0.0061854       0.0360922
281728                 0.0353167         0.16474       0.00087217     4.50379e-05         0.976762       0.0762433     -0.000549301     -0.00031184
                     0.000817655     0.000112711       -0.0354793     -0.00591093     -0.000545905    -0.000161106        -0.576186       -0.814689
                        0.976003       0.0761303     -0.000597872    -0.000273767       -0.0591594        0.157831       0.00059852     0.000656407
                    -0.000630426    -0.000467704        -0.575978       -0.814144      0.000436556     0.000619914      -0.00618207       0.0360974
281730                 0.0353403         0.16476      0.000872169     4.47136e-05         0.976784       0.0759077     -0.000549407    -0.000311701
                     0.000817714     0.000112377       -0.0354864     -0.00589622     -0.000545821    -0.000161019        -0.576407       -0.814533
                        0.976025       0.0757946     -0.000597995    -0.000273559       -0.0590775        0.157888      0.000598734     0.000656171
                    -0.000630559    -0.000467479        -0.576199       -0.813987      0.000436606     0.000619973      -0.00617874       0.0361026
281732                  0.035364        0.164781      0.000872168     4.43893e-05         0.976807       0.0755721     -0.000549513    -0.000311563
                     0.000817772     0.000112043       -0.0354934      -0.0058815     -0.000545737    -0.000160931        -0.576628       -0.814376
                        0.976046       0.0754589     -0.000598118     -0.00027335       -0.0589957        0.157944      0.000598948     0.000655935
                    -0.000630692    -0.000467254         -0.57642        -0.81383      0.000436657     0.000620032       -0.0061754       0.0361078
281734                 0.0353876        0.164801      0.000872167     4.40651e-05         0.976829       0.0752365     -0.000549619    -0.000311425
                     0.000817831     0.000111709       -0.0355005     -0.00586679     -0.000545653    -0.000160844        -0.576849       -0.814219
                        0.976068       0.0751232     -0.000598242    -0.000273142       -0.0589137        0.158001      0.000599161     0.000655698
                    -0.000630825    -0.000467029        -0.576641       -0.813674      0.000436708     0.000620091      -0.00617206       0.0361129
281736                 0.0354113        0.164822      0.000872166      4.3741e-05         0.976851       0.0749009     -0.000549727    -0.000311287
                     0.000817889     0.000111376       -0.0355075     -0.00585207      -0.00054557    -0.000160757         -0.57707       -0.814063
                        0.976089       0.0747874     -0.000598365    -0.000272933       -0.0588318        0.158058      0.000599374     0.000655461
                    -0.000630958    -0.000466804        -0.576862       -0.813517       0.00043676     0.000620151      -0.00616872       0.0361181
281738                 0.0354349        0.164842      0.000872164      4.3417e-05         0.976872       0.0745653     -0.000549848    -0.000311154
                     0.000817948     0.000111042       -0.0355146     -0.00583735     -0.000545487     -0.00016067        -0.577291       -0.813906
                         0.97611       0.0744517     -0.000598488    -0.000272724       -0.0587498        0.158115      0.000599587     0.000655224
                    -0.000631091     -0.00046658        -0.577082        -0.81336      0.000436812      0.00062021       -0.0061654       0.0361234
281740                 0.0354586        0.164862      0.000872163     4.30931e-05         0.976894       0.0742297     -0.000549921    -0.000311006
                     0.000818006     0.000110708       -0.0355216     -0.00582263     -0.000545405    -0.000160583        -0.577511       -0.813749
                        0.976131        0.074116      -0.00059861    -0.000272515       -0.0586677        0.158171      0.000599807     0.000654983
                    -0.000631224    -0.000466355        -0.577303       -0.813203      0.000436864      0.00062027        -0.006162       0.0361285
281742                 0.0354822        0.164883      0.000872161     4.27692e-05         0.976916       0.0738941     -0.000550033    -0.000310869
                     0.000818065     0.000110375       -0.0355287     -0.00580791     -0.000545322    -0.000160496        -0.577732       -0.813592
                        0.976152       0.0737802     -0.000598733    -0.000272306       -0.0585856        0.158228      0.000600016     0.000654753
                    -0.000631357     -0.00046613        -0.577524       -0.813046      0.000436917     0.000620329      -0.00615866       0.0361337
281744                 0.0355058        0.164903      0.000872159     4.24454e-05         0.976937       0.0735585      -0.00055014    -0.000310731
                     0.000818124     0.000110041       -0.0355357     -0.00579318      -0.00054524    -0.000160409        -0.577953       -0.813435
                        0.976173       0.0734445     -0.000598856    -0.000272097       -0.0585034        0.158285      0.000600228     0.000654515
                     -0.00063149    -0.000465905        -0.577744       -0.812889      0.000436971     0.000620389      -0.00615531        0.036139
281746                 0.0355295        0.164924      0.000872157     4.21218e-05         0.976959       0.0732228     -0.000550247    -0.000310592
                     0.000818183     0.000109707       -0.0355428     -0.00577846     -0.000545159    -0.000160321        -0.578174       -0.813278
                        0.976194       0.0731088     -0.000598978    -0.000271888       -0.0584212        0.158341       0.00060044     0.000654278
                    -0.000631624     -0.00046568        -0.577965       -0.812731      0.000437025     0.000620448      -0.00615196       0.0361442
281748                 0.0355531        0.164944      0.000872155     4.17982e-05          0.97698       0.0728872     -0.000550352    -0.000310453
                     0.000818243     0.000109373       -0.0355498     -0.00576373     -0.000545078    -0.000160233        -0.578394       -0.813121
                        0.976215        0.072773     -0.000599101    -0.000271679        -0.058339        0.158398      0.000600652      0.00065404
                    -0.000631758    -0.000465454        -0.578185       -0.812574      0.000437079     0.000620507       -0.0061486       0.0361494
281750                 0.0355768        0.164965      0.000872152     4.14747e-05         0.977001       0.0725516     -0.000550458    -0.000310315
                     0.000818307     0.000109038       -0.0355568       -0.005749     -0.000544997    -0.000160143        -0.578615       -0.812964
                        0.976235       0.0724373     -0.000599223    -0.000271469       -0.0582567        0.158454      0.000600864     0.000653803
                    -0.000631894    -0.000465224        -0.578406       -0.812417      0.000437133     0.000620565      -0.00614523       0.0361546
281752                 0.0356004        0.164985       0.00087215     4.11513e-05         0.977022        0.072216     -0.000550564    -0.000310176
                     0.000818402     0.000108694       -0.0355639     -0.00573427     -0.000544917    -0.000160046        -0.578836       -0.812807
                        0.976256       0.0721014     -0.000599345     -0.00027126       -0.0581743        0.158511      0.000601076     0.000653565
                    -0.000632053    -0.000464967        -0.578626        -0.81226      0.000437188     0.000620622      -0.00614187       0.0361598
281754                 0.0356241        0.165005      0.000872147     4.08279e-05         0.977043       0.0718804      -0.00055067    -0.000310037
                     0.000818373     0.000108401       -0.0355709     -0.00571954     -0.000544839    -0.000159922        -0.579056       -0.812649
                        0.976276       0.0717659     -0.000599467     -0.00027105       -0.0580919        0.158567      0.000601288     0.000653328
                     -0.00063214    -0.000464823        -0.578847       -0.812102       0.00043724     0.000620668       -0.0061385       0.0361651
281756                 0.0356478        0.165026      0.000872145     4.05047e-05         0.977064       0.0715442     -0.000550775    -0.000309898
                     0.000818451     0.000108054        -0.035578      -0.0057048     -0.000544684    -0.000160522        -0.579277       -0.812492
                        0.976296       0.0714301     -0.000599588     -0.00027084       -0.0580093        0.158624        0.0006015      0.00065309
                    -0.000632279     -0.00046458        -0.579067       -0.811945      0.000437368     0.000620985      -0.00613512       0.0361703
281758                 0.0356714        0.165046      0.000872143     4.01815e-05         0.977085       0.0712091     -0.000550881    -0.000309759
                     0.000818513     0.000107719        -0.035585     -0.00569007     -0.000544668     -0.00015989        -0.579497       -0.812335
                        0.976316       0.0710944     -0.000599707     -0.00027063       -0.0579269         0.15868      0.000601711     0.000652852
                    -0.000632414    -0.000464352        -0.579288       -0.811787      0.000437367     0.000620837      -0.00613175       0.0361756
281760                 0.0356951        0.165067       0.00087213     3.98639e-05         0.977105       0.0708735     -0.000550986     -0.00030962
                     0.000818573     0.000107385        -0.035592     -0.00567533     -0.000544591    -0.000159778        -0.579718       -0.812177
                        0.976336       0.0707586     -0.000599846    -0.000270425       -0.0578444        0.158736      0.000601923     0.000652614
                    -0.000632547    -0.000464127        -0.579508       -0.811629      0.000437422     0.000620887      -0.00612837       0.0361808
281762                 0.0357188        0.165087      0.000872133      3.9536e-05         0.977126       0.0705378     -0.000551092    -0.000309481
                     0.000818631     0.000107052        -0.035599     -0.00566059     -0.000544513    -0.000159685        -0.579938        -0.81202
                        0.976356       0.0704228     -0.000599959    -0.000270212       -0.0577618        0.158792      0.000602134     0.000652376
