! TOUCHSTONE file generated by CST MICROWAVE STUDIO
! Date and time: Wed Oct 15 17:28:09 2025
! Project name: Teste_Macro_Metasurface_Nanopilar.cst
! Parameters = {H=600; L_x=75; L_y=130; Lambda=1064; Max_L=200; Min_L=70; PathPara=1; Phi=0; Step_L=10; Theta=0; p=520; phaseX=180; phaseY=0}
! Header version: 2018
! Port assignment regex: !\s*Touchstone port\s*([0-9]+)\s*=\s*(CST MWS port|CST DS port)\s*([0-9]+|Zmin|Zmax)\s*\(\"(.*)\"\)(\s*mode\s*([0-9]+))?.*
! Touchstone port assignment:
! Touchstone port 1 = CST MWS port Zmax ("") mode 1
! Touchstone port 2 = CST MWS port Zmax ("") mode 2
! Touchstone port 3 = CST MWS port Zmin ("") mode 1
! Touchstone port 4 = CST MWS port Zmin ("") mode 2
! S-Parameters are not renormalized. Each port impedance will be approximated by the real part at minimum frequency. The values are described via the [Reference] keyword.
! Default impedance is overridden by [Reference]
[Version] 2.0
# GHz S RI R 376.73
[Number of Ports] 4
[Reference]
376.73 376.73 259.888 259.888 
[Number of Frequencies] 51
[Network Data]
281700                  0.163946       0.0160837     -0.000260665     0.000121082        -0.980182       -0.030403      9.37336e-05     -0.00015417
                    -0.000320514     0.000270343         0.017675       -0.106142       9.5042e-05    -2.65204e-05       -0.0430544       -0.992512
                       -0.979987      -0.0306953      0.000104211    -0.000103649        -0.164066      0.00678389     -5.70752e-05     0.000328932
                     8.37412e-05    -0.000274308       -0.0428762        -0.99261     -7.72623e-05      0.00029395        0.0267034        0.104335
281702                  0.163957       0.0160681     -0.000260558     0.000121192         -0.98019      -0.0300687      9.34573e-05     -0.00015418
                    -0.000320352       0.0002705        0.0176623       -0.106139      9.45749e-05    -2.60775e-05       -0.0432963       -0.992502
                       -0.979995      -0.0303607      0.000104161    -0.000103664        -0.164072      0.00687953     -5.68922e-05     0.000328875
                      8.3634e-05    -0.000274187       -0.0431179         -0.9926     -7.72483e-05     0.000293468        0.0267413         0.10432
281704                  0.163968       0.0160524      -0.00026045     0.000121302        -0.980197      -0.0297344      9.31802e-05    -0.000154189
                    -0.000320191     0.000270656        0.0176496       -0.106136      9.41031e-05    -2.56388e-05       -0.0435382       -0.992492
                       -0.980004      -0.0300261       0.00010411    -0.000103679        -0.164077      0.00697518     -5.67098e-05     0.000328818
                     8.35269e-05    -0.000274067       -0.0433595        -0.99259     -7.72366e-05      0.00029299        0.0267792        0.104306
281706                  0.163979       0.0160368     -0.000260343     0.000121412        -0.980205         -0.0294      9.29021e-05    -0.000154198
                    -0.000320029     0.000270812        0.0176369       -0.106134      9.36267e-05    -2.52039e-05       -0.0437801       -0.992482
                       -0.980012      -0.0296915       0.00010406    -0.000103694        -0.164083      0.00707084     -5.65282e-05     0.000328761
                     8.34197e-05    -0.000273947       -0.0436012        -0.99258     -7.72275e-05     0.000292517         0.026817        0.104291
281708                   0.16399       0.0160211     -0.000260235     0.000121522        -0.980212      -0.0290656      9.26231e-05    -0.000154206
                    -0.000319867     0.000270968        0.0176242       -0.106131       9.3146e-05    -2.47726e-05       -0.0440221       -0.992472
                        -0.98002      -0.0293569      0.000104009    -0.000103708        -0.164088      0.00716651     -5.63472e-05     0.000328704
                     8.33125e-05    -0.000273827       -0.0438428       -0.992569      -7.7221e-05      0.00029205        0.0268549        0.104277
281710                  0.164001       0.0160055     -0.000260128     0.000121632        -0.980219      -0.0287312      9.23433e-05    -0.000154213
                    -0.000319705     0.000271124        0.0176116       -0.106129      9.26611e-05    -2.43443e-05        -0.044264       -0.992462
                       -0.980028      -0.0290223      0.000103959    -0.000103723        -0.164094      0.00726219     -5.61669e-05     0.000328646
                     8.32052e-05    -0.000273708       -0.0440845       -0.992559     -7.72169e-05     0.000291591        0.0268928        0.104262
281712                  0.164013       0.0159898      -0.00026002     0.000121742        -0.980227      -0.0283967      9.20626e-05     -0.00015422
                    -0.000319543      0.00027128        0.0175989       -0.106126      9.21721e-05    -2.39187e-05       -0.0445059       -0.992452
                       -0.980035      -0.0286876      0.000103908    -0.000103738        -0.164099      0.00735787     -5.59873e-05     0.000328589
                     8.30979e-05    -0.000273588       -0.0443261       -0.992549     -7.72141e-05     0.000291143        0.0269306        0.104248
281714                  0.164024       0.0159742     -0.000259913     0.000121852        -0.980234      -0.0280623       9.1781e-05    -0.000154225
                     -0.00031938     0.000271435        0.0175862       -0.106123      9.16794e-05    -2.34954e-05       -0.0447479       -0.992441
                       -0.980043       -0.028353      0.000103858    -0.000103752        -0.164104      0.00745356     -5.58084e-05     0.000328532
                     8.29906e-05    -0.000273469       -0.0445678       -0.992538     -7.72103e-05     0.000290709        0.0269685        0.104233
281716                  0.164035       0.0159585     -0.000259805     0.000121961        -0.980241      -0.0277278      9.14985e-05    -0.000154231
                    -0.000319218      0.00027159        0.0175735       -0.106121       9.1183e-05     -2.3074e-05       -0.0449899       -0.992431
                        -0.98005      -0.0280183      0.000103807    -0.000103766        -0.164109      0.00754925     -5.56302e-05     0.000328474
                     8.28832e-05    -0.000273351       -0.0448094       -0.992528     -7.72008e-05      0.00029029        0.0270063        0.104219
281718                  0.164046       0.0159428     -0.000259698     0.000122071        -0.980248      -0.0273933      9.12151e-05    -0.000154235
                    -0.000319055     0.000271746        0.0175608       -0.106118      9.06834e-05    -2.26541e-05       -0.0452318       -0.992421
                       -0.980058      -0.0276837      0.000103756     -0.00010378        -0.164114      0.00764495     -5.54528e-05     0.000328416
                     8.27758e-05    -0.000273232       -0.0450511       -0.992517     -7.71782e-05      0.00028989        0.0270442        0.104204
281720                  0.164057       0.0159271      -0.00025959      0.00012218        -0.980254      -0.0270587      9.09309e-05    -0.000154238
                    -0.000318893       0.0002719        0.0175482       -0.106116      9.01807e-05    -2.22353e-05       -0.0454738        -0.99241
                       -0.980065       -0.027349      0.000103706    -0.000103795        -0.164119      0.00774066     -5.52762e-05     0.000328359
                     8.26683e-05    -0.000273114       -0.0452927       -0.992507     -7.71325e-05     0.000289502         0.027082         0.10419
281722                  0.164068       0.0159115     -0.000259482      0.00012229        -0.980261      -0.0267242      9.06458e-05    -0.000154241
                     -0.00031873     0.000272055        0.0175355       -0.106113      8.96752e-05    -2.18173e-05       -0.0457158         -0.9924
                       -0.980072      -0.0270143      0.000103655    -0.000103809        -0.164124      0.00783638     -5.51003e-05     0.000328301
                     8.25608e-05    -0.000272996       -0.0455343       -0.992496     -7.70554e-05     0.000289118        0.0271198        0.104175
281724                  0.164079       0.0158958     -0.000259374     0.000122399        -0.980268      -0.0263896      9.03599e-05    -0.000154243
                    -0.000318567     0.000272209        0.0175228        -0.10611      8.91672e-05    -2.13997e-05       -0.0459578       -0.992389
                       -0.980079      -0.0266796      0.000103604    -0.000103822        -0.164129       0.0079321     -5.49253e-05     0.000328243
                     8.24533e-05    -0.000272878        -0.045776       -0.992485     -7.69464e-05     0.000288719        0.0271576         0.10416
281726                  0.164091       0.0158801     -0.000259267     0.000122508        -0.980274      -0.0260551      9.00731e-05    -0.000154244
                    -0.000318404     0.000272364        0.0175101       -0.106108      8.86571e-05    -2.09822e-05       -0.0461997       -0.992378
                       -0.980086      -0.0263449      0.000103554    -0.000103836        -0.164134      0.00802783      -5.4751e-05     0.000328185
                     8.23457e-05     -0.00027276       -0.0460176       -0.992474     -7.68169e-05     0.000288292        0.0271954        0.104146
281728                  0.164102       0.0158644     -0.000259159     0.000122617         -0.98028      -0.0257205      8.97854e-05    -0.000154244
                     -0.00031824     0.000272518        0.0174975       -0.106105      8.81451e-05    -2.05644e-05       -0.0464417       -0.992368
                       -0.980093      -0.0260102      0.000103503     -0.00010385        -0.164139      0.00812357     -5.45776e-05     0.000328127
                      8.2238e-05    -0.000272642       -0.0462592       -0.992463     -7.66848e-05      0.00028783        0.0272332        0.104131
281730                  0.164113       0.0158487     -0.000259051     0.000122726        -0.980287      -0.0253859      8.94969e-05    -0.000154244
                    -0.000318077     0.000272672        0.0174848       -0.106103      8.76317e-05    -2.01461e-05       -0.0466837       -0.992357
                         -0.9801      -0.0256755      0.000103452    -0.000103863        -0.164144      0.00821932     -5.44051e-05     0.000328069
                     8.21303e-05    -0.000272525       -0.0465008       -0.992453     -7.65651e-05     0.000287343         0.027271        0.104116
281732                  0.164124        0.015833     -0.000258943     0.000122835        -0.980293      -0.0250513      8.92076e-05    -0.000154242
                    -0.000317913     0.000272825        0.0174721         -0.1061      8.71171e-05    -1.97269e-05       -0.0469258       -0.992346
                       -0.980106      -0.0253407      0.000103402    -0.000103877        -0.164148      0.00831507     -5.42334e-05     0.000328011
                     8.20225e-05    -0.000272408       -0.0467425       -0.992442     -7.64642e-05      0.00028684        0.0273088        0.104102
281734                  0.164135       0.0158172     -0.000258835     0.000122944        -0.980299      -0.0247167      8.89174e-05     -0.00015424
                     -0.00031775     0.000272979        0.0174594       -0.106097      8.66018e-05    -1.93067e-05       -0.0471678       -0.992335
                       -0.980113       -0.025006      0.000103351     -0.00010389        -0.164153      0.00841083     -5.40627e-05     0.000327953
                     8.19147e-05    -0.000272291       -0.0469841        -0.99243     -7.63819e-05     0.000286333        0.0273466        0.104087
281736                  0.164146       0.0158015     -0.000258727     0.000123053        -0.980304       -0.024382      8.86265e-05    -0.000154237
                    -0.000317586     0.000273132        0.0174468       -0.106095      8.60861e-05    -1.88851e-05       -0.0474098       -0.992325
                       -0.980119      -0.0246712        0.0001033    -0.000103904        -0.164157       0.0085066     -5.38929e-05     0.000327895
                     8.18068e-05    -0.000272174       -0.0472257       -0.992419     -7.63145e-05     0.000285827        0.0273844        0.104072
281738                  0.164157       0.0157858     -0.000258619     0.000123161         -0.98031      -0.0240474      8.83347e-05    -0.000154233
                    -0.000317422     0.000273285        0.0174341       -0.106092      8.55703e-05    -1.84621e-05       -0.0476518       -0.992314
                       -0.980126      -0.0243364      0.000103249    -0.000103917        -0.164162      0.00860237      -5.3724e-05     0.000327837
                     8.16988e-05    -0.000272058       -0.0474673       -0.992408     -7.62582e-05     0.000285325        0.0274221        0.104058
281740                  0.164168       0.0157701     -0.000258512      0.00012327        -0.980316      -0.0237128      8.80421e-05    -0.000154228
                    -0.000317258     0.000273438        0.0174214       -0.106089      8.50548e-05    -1.80374e-05       -0.0478939       -0.992303
                       -0.980132      -0.0240017      0.000103199     -0.00010393        -0.164166      0.00869815     -5.35561e-05     0.000327779
                     8.15908e-05    -0.000271941       -0.0477089       -0.992397     -7.62095e-05     0.000284828        0.0274599        0.104043
281742                  0.164179       0.0157543     -0.000258404     0.000123379        -0.980321      -0.0233781      8.77486e-05    -0.000154222
                    -0.000317093     0.000273591        0.0174088       -0.106087        8.454e-05    -1.76109e-05       -0.0481359       -0.992291
                       -0.980138      -0.0236669      0.000103148    -0.000103943        -0.164171      0.00879394     -5.33892e-05     0.000327721
                     8.14827e-05    -0.000271825       -0.0479506       -0.992386      -7.6166e-05     0.000284338        0.0274977        0.104028
281744                  0.164191       0.0157386     -0.000258296     0.000123487        -0.980327      -0.0230435      8.74544e-05    -0.000154215
                    -0.000316929     0.000273743        0.0173961       -0.106084      8.40262e-05    -1.71824e-05        -0.048378        -0.99228
                       -0.980144      -0.0233321      0.000103097    -0.000103956        -0.164175      0.00888973     -5.32234e-05     0.000327663
                     8.13745e-05    -0.000271708       -0.0481922       -0.992374     -7.61259e-05     0.000283852        0.0275354        0.104013
281746                  0.164202       0.0157228     -0.000258188     0.000123595        -0.980332      -0.0227088      8.71594e-05    -0.000154207
                    -0.000316765     0.000273895        0.0173834       -0.106082      8.35137e-05     -1.6752e-05         -0.04862       -0.992269
                       -0.980149      -0.0229973      0.000103046    -0.000103968        -0.164179      0.00898554     -5.30586e-05     0.000327605
                     8.12662e-05    -0.000271592       -0.0484338       -0.992363      -7.6088e-05     0.000283371        0.0275731        0.103999
281748                  0.164213       0.0157071     -0.000258079     0.000123704        -0.980337      -0.0223742      8.68636e-05    -0.000154198
                      -0.0003166     0.000274047        0.0173708       -0.106079      8.30028e-05    -1.63195e-05       -0.0488621       -0.992258
                       -0.980155      -0.0226625      0.000102995    -0.000103981        -0.164183      0.00908135     -5.28949e-05     0.000327546
                     8.11578e-05    -0.000271475       -0.0486754       -0.992352     -7.60515e-05     0.000282895        0.0276109        0.103984
281750                  0.164224       0.0156913     -0.000257971     0.000123812        -0.980342      -0.0220395      8.65671e-05    -0.000154188
                    -0.000316435     0.000274199        0.0173581       -0.106076      8.24937e-05     -1.5885e-05       -0.0491042       -0.992246
                       -0.980161      -0.0223276      0.000102944    -0.000103993        -0.164188      0.00917716     -5.27324e-05     0.000327488
                     8.10492e-05    -0.000271357        -0.048917        -0.99234     -7.60157e-05     0.000282422        0.0276486        0.103969
281752                  0.164235       0.0156756     -0.000257863      0.00012392        -0.980347      -0.0217048      8.62697e-05    -0.000154177
                     -0.00031627     0.000274351        0.0173454       -0.106074      8.19868e-05    -1.54483e-05       -0.0493463       -0.992235
                       -0.980166      -0.0219928      0.000102893    -0.000104006        -0.164192      0.00927299     -5.25711e-05      0.00032743
                     8.09402e-05    -0.000271239       -0.0491586       -0.992328     -7.59804e-05     0.000281952        0.0276863        0.103954
281754                  0.164246       0.0156598     -0.000257755     0.000124028        -0.980352      -0.0213702      8.59716e-05    -0.000154165
                    -0.000316106     0.000274502        0.0173328       -0.106071      8.14821e-05    -1.50096e-05       -0.0495884       -0.992224
                       -0.980171       -0.021658      0.000102843    -0.000104018        -0.164196      0.00936882      -5.2411e-05     0.000327372
                     8.08306e-05    -0.000271119       -0.0494002       -0.992317     -7.59452e-05     0.000281485         0.027724        0.103939
281756                  0.164257        0.015644     -0.000257647     0.000124136        -0.980357      -0.0210355      8.56728e-05    -0.000154152
                    -0.000315941     0.000274654        0.0173201       -0.106068      8.09798e-05    -1.45689e-05       -0.0498305       -0.992212
                       -0.980177      -0.0213231      0.000102792     -0.00010403          -0.1642      0.00946466     -5.22521e-05     0.000327314
                     8.07186e-05    -0.000270992       -0.0496418       -0.992305     -7.59101e-05      0.00028102        0.0277617        0.103925
281758                  0.164268       0.0156282     -0.000257539     0.000124244        -0.980362      -0.0207008      8.53731e-05    -0.000154138
                    -0.000315779     0.000274802        0.0173074       -0.106066        8.048e-05    -1.41262e-05       -0.0500726       -0.992201
                       -0.980182      -0.0209883      0.000102741    -0.000104042        -0.164204       0.0095605     -5.20946e-05     0.000327256
                     8.05899e-05    -0.000270839       -0.0498834       -0.992293     -7.58748e-05     0.000280557        0.0277994         0.10391
281760                  0.164279       0.0156125     -0.000257431     0.000124351        -0.980366      -0.0203661      8.50728e-05    -0.000154122
                    -0.000315606     0.000274953        0.0172948       -0.106063      7.99828e-05    -1.36816e-05       -0.0503147       -0.992189
                       -0.980187      -0.0206532       0.00010269    -0.000104054        -0.164208      0.00965635     -5.19384e-05     0.000327197
                     8.03697e-05     -0.00027095        -0.050125       -0.992282     -7.58393e-05     0.000280097        0.0278371        0.103895
281762                   0.16429       0.0155967     -0.000257323     0.000124459         -0.98037      -0.0200314      8.47716e-05    -0.000154106
                    -0.000315442     0.000275105        0.0172821        -0.10606      7.94881e-05    -1.32353e-05       -0.0505568       -0.992177
                       -0.980192      -0.0203184      0.000102639    -0.000104066        -0.164211      0.00975221     -5.17836e-05     0.000327139
