! TOUCHSTONE file generated by CST MICROWAVE STUDIO
! Date and time: Wed Oct 15 17:30:46 2025
! Project name: Teste_Macro_Metasurface_Nanopilar.cst
! Parameters = {H=600; L_x=120; L_y=140; Lambda=1064; Max_L=200; Min_L=70; PathPara=1; Phi=0; Step_L=10; Theta=0; p=520; phaseX=180; phaseY=0}
! Header version: 2018
! Port assignment regex: !\s*Touchstone port\s*([0-9]+)\s*=\s*(CST MWS port|CST DS port)\s*([0-9]+|Zmin|Zmax)\s*\(\"(.*)\"\)(\s*mode\s*([0-9]+))?.*
! Touchstone port assignment:
! Touchstone port 1 = CST MWS port Zmax ("") mode 1
! Touchstone port 2 = CST MWS port Zmax ("") mode 2
! Touchstone port 3 = CST MWS port Zmin ("") mode 1
! Touchstone port 4 = CST MWS port Zmin ("") mode 2
! S-Parameters are not renormalized. Each port impedance will be approximated by the real part at minimum frequency. The values are described via the [Reference] keyword.
! Default impedance is overridden by [Reference]
[Version] 2.0
# GHz S RI R 376.73
[Number of Ports] 4
[Reference]
376.73 376.73 259.888 259.888 
[Number of Frequencies] 51
[Network Data]
281700                 0.0762946        0.137947      0.000164159    -0.000438398         0.982164      -0.0130632      0.000311745    -2.32372e-05
                     0.000151104    -0.000408962         0.035209       0.0169539     -0.000191955    -0.000226666         0.661882        0.737908
                        0.982058      -0.0132365      -0.00014425    -0.000220251       -0.0713737        0.140165      0.000196028    -0.000430296
                     0.000301269    -8.75538e-06         0.662066        0.737833      0.000234085    -0.000363543       -0.0131832       -0.034083
281702                 0.0763124        0.137959      0.000163933    -0.000438433         0.982156      -0.0133854      0.000311748    -2.33607e-05
                     0.000150915    -0.000408892        0.0352062       0.0169777      -0.00019213    -0.000226718         0.662161        0.737658
                        0.982051      -0.0135589     -0.000144309    -0.000220203       -0.0712991        0.140224      0.000195987    -0.000430388
                     0.000301303    -8.76104e-06         0.662345        0.737583      0.000233914    -0.000363645       -0.0132332       -0.034073
281704                 0.0763303        0.137972      0.000163707    -0.000438468         0.982149      -0.0137077      0.000311764    -2.34962e-05
                     0.000150727    -0.000408821        0.0352034       0.0170015     -0.000192305    -0.000226768          0.66244        0.737408
                        0.982044      -0.0138813     -0.000144369    -0.000220155       -0.0712244        0.140283      0.000195947     -0.00043048
                     0.000301338    -8.76605e-06         0.662623        0.737332      0.000233742    -0.000363746       -0.0132832      -0.0340629
281706                 0.0763481        0.137984      0.000163482    -0.000438502         0.982141      -0.0140299      0.000311786    -2.36255e-05
                      0.00015054    -0.000408749        0.0352006       0.0170253     -0.000192481    -0.000226818         0.662719        0.737158
                        0.982037      -0.0142036     -0.000144429    -0.000220107       -0.0711498        0.140343      0.000195906    -0.000430571
                     0.000301374    -8.77041e-06         0.662902        0.737082       0.00023357    -0.000363847       -0.0133332      -0.0340529
281708                 0.0763659        0.137996      0.000163256    -0.000438537         0.982134      -0.0143521      0.000311807    -2.37516e-05
                     0.000150353    -0.000408677        0.0351979        0.017049     -0.000192656    -0.000226867         0.662998        0.736907
                         0.98203       -0.014526     -0.000144488    -0.000220059        -0.071075        0.140402      0.000195866    -0.000430661
                      0.00030141    -8.77412e-06         0.663181        0.736831      0.000233398    -0.000363946       -0.0133832      -0.0340427
281710                 0.0763837        0.138008       0.00016303    -0.000438571         0.982126      -0.0146743      0.000311828    -2.38765e-05
                     0.000150166    -0.000408604        0.0351951       0.0170728     -0.000192832    -0.000226915         0.663277        0.736657
                        0.982022      -0.0148484     -0.000144548    -0.000220011       -0.0710003        0.140461      0.000195825    -0.000430751
                     0.000301447    -8.77715e-06         0.663459         0.73658      0.000233225    -0.000364045       -0.0134332      -0.0340325
281712                 0.0764015        0.138021      0.000162805    -0.000438605         0.982118      -0.0149965      0.000311848     -2.4001e-05
                      0.00014998    -0.000408529        0.0351923       0.0170966     -0.000193008    -0.000226961         0.663555        0.736407
                        0.982015      -0.0151707     -0.000144608    -0.000219964       -0.0709255         0.14052      0.000195785     -0.00043084
                     0.000301485    -8.77952e-06         0.663738        0.736329      0.000233052    -0.000364143       -0.0134831      -0.0340223
281714                 0.0764194        0.138033      0.000162579    -0.000438639          0.98211      -0.0153187      0.000311868    -2.41253e-05
                     0.000149795    -0.000408454        0.0351895       0.0171204     -0.000193184    -0.000227007         0.663834        0.736156
                        0.982007      -0.0154931     -0.000144667    -0.000219916       -0.0708506        0.140579      0.000195745    -0.000430929
                     0.000301524     -8.7812e-06         0.664016        0.736079      0.000232878    -0.000364241       -0.0135331       -0.034012
281716                 0.0764372        0.138045      0.000162353    -0.000438673         0.982102      -0.0156408      0.000311887    -2.42495e-05
                      0.00014961    -0.000408379        0.0351868       0.0171442      -0.00019336    -0.000227051         0.664112        0.735905
                           0.982      -0.0158154     -0.000144727    -0.000219868       -0.0707757        0.140639      0.000195705    -0.000431018
                     0.000301563     -8.7822e-06         0.664294        0.735828      0.000232703    -0.000364337        -0.013583      -0.0340017
281718                  0.076455        0.138057      0.000162128    -0.000438706         0.982093       -0.015963      0.000311907    -2.43738e-05
                     0.000149425    -0.000408302         0.035184       0.0171679     -0.000193536    -0.000227094          0.66439        0.735655
                        0.981992      -0.0161378     -0.000144786     -0.00021982       -0.0707008        0.140698      0.000195665    -0.000431106
                     0.000301603     -8.7825e-06         0.664573        0.735576      0.000232529    -0.000364433       -0.0136329      -0.0339913
281720                 0.0764729         0.13807      0.000161902     -0.00043874         0.982085      -0.0162852      0.000311926     -2.4498e-05
                     0.000149241    -0.000408224        0.0351813       0.0171917     -0.000193712    -0.000227136         0.664668        0.735404
                        0.981984      -0.0164601     -0.000144846    -0.000219773       -0.0706258        0.140757      0.000195625    -0.000431194
                     0.000301643     -8.7821e-06         0.664851        0.735325      0.000232354    -0.000364529       -0.0136829      -0.0339809
281722                 0.0764907        0.138082      0.000161676    -0.000438773         0.982076      -0.0166073      0.000311945    -2.46223e-05
                     0.000149058    -0.000408146        0.0351786       0.0172155     -0.000193888    -0.000227177         0.664946        0.735153
                        0.981976      -0.0167824     -0.000144905    -0.000219725       -0.0705507        0.140816      0.000195586    -0.000431282
                     0.000301685    -8.78098e-06         0.665129        0.735074      0.000232178    -0.000364623       -0.0137328      -0.0339705
281724                 0.0765085        0.138094      0.000161451    -0.000438806         0.982068      -0.0169295      0.000311963    -2.47466e-05
                     0.000148875    -0.000408067        0.0351758       0.0172393     -0.000194065    -0.000227217         0.665224        0.734902
                        0.981968      -0.0171048     -0.000144964    -0.000219677       -0.0704756        0.140874      0.000195547    -0.000431369
                     0.000301727    -8.77915e-06         0.665406        0.734822      0.000232002    -0.000364717       -0.0137827      -0.0339599
281726                 0.0765263        0.138106      0.000161225    -0.000438839         0.982059      -0.0172516      0.000311982     -2.4871e-05
                     0.000148693    -0.000407987        0.0351731       0.0172631     -0.000194242    -0.000227256         0.665502        0.734651
                         0.98196      -0.0174271     -0.000145024    -0.000219629       -0.0704005        0.140933      0.000195507    -0.000431456
                      0.00030177     -8.7766e-06         0.665684        0.734571      0.000231826     -0.00036481       -0.0138326      -0.0339494
281728                 0.0765442        0.138119      0.000160999    -0.000438872          0.98205      -0.0175737      0.000312001    -2.49954e-05
                     0.000148512    -0.000407906        0.0351704       0.0172869     -0.000194418    -0.000227294          0.66578          0.7344
                        0.981952      -0.0177494     -0.000145083    -0.000219582       -0.0703253        0.140992      0.000195469    -0.000431543
                     0.000301814    -8.77331e-06         0.665962        0.734319      0.000231649    -0.000364902       -0.0138824      -0.0339388
281730                  0.076562        0.138131      0.000160773    -0.000438904         0.982041      -0.0178958      0.000312019    -2.51198e-05
                     0.000148331    -0.000407824        0.0351677       0.0173106     -0.000194595     -0.00022733         0.666057        0.734148
                        0.981944      -0.0180717     -0.000145142    -0.000219534       -0.0702501        0.141051       0.00019543    -0.000431629
                     0.000301859    -8.76928e-06         0.666239        0.734068      0.000231472    -0.000364993       -0.0139323      -0.0339281
281732                 0.0765798        0.138143      0.000160548    -0.000438937         0.982032       -0.018218      0.000312037    -2.52443e-05
                     0.000148151    -0.000407741         0.035165       0.0173344     -0.000194772    -0.000227366         0.666335        0.733897
                        0.981935       -0.018394     -0.000145202    -0.000219487       -0.0701749         0.14111      0.000195391    -0.000431716
                     0.000301905    -8.76451e-06         0.666517        0.733816      0.000231294    -0.000365084       -0.0139822      -0.0339174
281734                 0.0765976        0.138155      0.000160322    -0.000438969         0.982023      -0.0185401      0.000312055    -2.53688e-05
                     0.000147971    -0.000407657        0.0351623       0.0173582     -0.000194949      -0.0002274         0.666612        0.733645
                        0.981927      -0.0187163     -0.000145261    -0.000219439       -0.0700996        0.141168      0.000195353    -0.000431802
                     0.000301952    -8.75897e-06         0.666794        0.733564      0.000231116    -0.000365174        -0.014032      -0.0339066
281736                 0.0766155        0.138168      0.000160096    -0.000439001         0.982014      -0.0188622      0.000312074    -2.54935e-05
                     0.000147793    -0.000407573        0.0351597        0.017382     -0.000195127    -0.000227434          0.66689        0.733394
                        0.981918      -0.0190385      -0.00014532    -0.000219391       -0.0700242        0.141227      0.000195315    -0.000431888
                     0.000301999    -8.75267e-06         0.667071        0.733312      0.000230938    -0.000365263       -0.0140819      -0.0338958
281738                 0.0766333         0.13818       0.00015987    -0.000439033         0.982005      -0.0191843      0.000312092    -2.56182e-05
                     0.000147615    -0.000407487         0.035157       0.0174058     -0.000195304    -0.000227466         0.667167        0.733142
                        0.981909      -0.0193608     -0.000145379    -0.000219344       -0.0699488        0.141286      0.000195277    -0.000431975
                     0.000302048    -8.74561e-06         0.667348         0.73306      0.000230759    -0.000365352       -0.0141317       -0.033885
281740                 0.0766511        0.138192      0.000159644    -0.000439064         0.981995      -0.0195063       0.00031211    -2.57431e-05
                     0.000147437    -0.000407401        0.0351543       0.0174295     -0.000195481    -0.000227497         0.667444         0.73289
                          0.9819      -0.0196831     -0.000145438    -0.000219296       -0.0698734        0.141344       0.00019524    -0.000432061
                     0.000302097    -8.73776e-06         0.667625        0.732808       0.00023058     -0.00036544       -0.0141815       -0.033874
281742                  0.076669        0.138205      0.000159419    -0.000439096         0.981986      -0.0198284      0.000312128    -2.58682e-05
                     0.000147261    -0.000407313        0.0351517       0.0174533     -0.000195659    -0.000227527         0.667721        0.732638
                        0.981891      -0.0200053     -0.000145498    -0.000219249       -0.0697979        0.141403      0.000195203    -0.000432147
                     0.000302147    -8.72912e-06         0.667902        0.732555        0.0002304    -0.000365527       -0.0142313      -0.0338631
281744                 0.0766868        0.138217      0.000159193    -0.000439127         0.981976      -0.0201505      0.000312146    -2.59937e-05
                     0.000147085    -0.000407225         0.035149       0.0174771     -0.000195836    -0.000227556         0.667998        0.732386
                        0.981882      -0.0203276     -0.000145557    -0.000219201       -0.0697223        0.141461      0.000195166    -0.000432233
                     0.000302199    -8.71969e-06         0.668179        0.732303       0.00023022    -0.000365613       -0.0142811      -0.0338521
281746                 0.0767046        0.138229      0.000158967    -0.000439158         0.981967      -0.0204725      0.000312163    -2.61198e-05
                      0.00014691    -0.000407136        0.0351464       0.0175009     -0.000196014    -0.000227584         0.668275        0.732134
                        0.981873      -0.0206498     -0.000145616    -0.000219154       -0.0696468         0.14152       0.00019513     -0.00043232
                     0.000302251    -8.70946e-06         0.668456         0.73205       0.00023004    -0.000365699       -0.0143309       -0.033841
281748                 0.0767225        0.138241      0.000158741    -0.000439189         0.981957      -0.0207946       0.00031218    -2.62473e-05
                     0.000146736    -0.000407046        0.0351437       0.0175247     -0.000196191     -0.00022761         0.668551        0.731882
                        0.981864      -0.0209721     -0.000145675    -0.000219106       -0.0695712        0.141578      0.000195094    -0.000432409
                     0.000302305    -8.69841e-06         0.668733        0.731798      0.000229859    -0.000365784       -0.0143807      -0.0338299
281750                 0.0767403        0.138254      0.000158515     -0.00043922         0.981947      -0.0211166      0.000312194     -2.6376e-05
                     0.000146563    -0.000406955        0.0351411       0.0175484     -0.000196369    -0.000227636         0.668828         0.73163
                        0.981854      -0.0212943     -0.000145734    -0.000219059       -0.0694955        0.141637      0.000195061    -0.000432501
                     0.000302359    -8.68655e-06         0.669009        0.731545      0.000229678    -0.000365868       -0.0144305      -0.0338188
281752                 0.0767581        0.138266       0.00015829     -0.00043925         0.981937      -0.0214387      0.000312203    -2.64973e-05
                     0.000146391    -0.000406863        0.0351385       0.0175722     -0.000196547     -0.00022766         0.669104        0.731377
                        0.981845      -0.0216165     -0.000145793    -0.000219012       -0.0694198        0.141695      0.000195029    -0.000432616
                     0.000302415    -8.67386e-06         0.669285        0.731292      0.000229496    -0.000365952       -0.0144802      -0.0338076
281754                  0.076776        0.138278      0.000158065     -0.00043928         0.981926      -0.0217607       0.00031222    -2.66156e-05
                     0.000146219     -0.00040677        0.0351359        0.017596     -0.000196724    -0.000227684         0.669381        0.731125
                        0.981835      -0.0219388     -0.000145852    -0.000218964        -0.069344        0.141754      0.000194895    -0.000432655
                     0.000302472    -8.66034e-06         0.669562        0.731039      0.000229315    -0.000366034       -0.0145299      -0.0337964
281756                 0.0767938         0.13829      0.000157833    -0.000439321         0.981916      -0.0220827       0.00031224    -2.67382e-05
                     0.000146049    -0.000406677        0.0351333       0.0176198     -0.000196902    -0.000227706         0.669657        0.730872
                        0.981826       -0.022261     -0.000145912    -0.000218918       -0.0692682        0.141812      0.000194913    -0.000432725
                      0.00030253    -8.64597e-06         0.669838        0.730786      0.000229132    -0.000366116       -0.0145797      -0.0337851
281758                 0.0768116        0.138303       0.00015761    -0.000439342         0.981906      -0.0224047      0.000312258    -2.68625e-05
                     0.000145879    -0.000406582        0.0351307       0.0176436      -0.00019708    -0.000227727         0.669933        0.730619
                        0.981816      -0.0225832     -0.000145968    -0.000218869       -0.0691924         0.14187      0.000194887    -0.000432813
                     0.000302589    -8.63076e-06         0.670114        0.730533       0.00022895    -0.000366198       -0.0146294      -0.0337737
281760                 0.0768295        0.138315      0.000157384    -0.000439372         0.981895      -0.0227267      0.000312276    -2.69872e-05
                      0.00014571    -0.000406486        0.0351281       0.0176674     -0.000197258    -0.000227747          0.67021        0.730367
                        0.981806      -0.0229054     -0.000146028    -0.000218822       -0.0691165        0.141928      0.000194855      -0.0004329
                      0.00030265    -8.61468e-06          0.67039         0.73028      0.000228767    -0.000366278       -0.0146792      -0.0337623
281762                 0.0768473        0.138327      0.000157159    -0.000439402         0.981885      -0.0230487      0.000312293    -2.71121e-05
                     0.000145543     -0.00040639        0.0351255       0.0176911     -0.000197436    -0.000227765         0.670486        0.730114
                        0.981796      -0.0232276     -0.000146086    -0.000218774       -0.0690406        0.141986       0.00019482    -0.000432987
