! TOUCHSTONE file generated by CST MICROWAVE STUDIO
! Date and time: Wed Oct 15 17:29:32 2025
! Project name: Teste_Macro_Metasurface_Nanopilar.cst
! Parameters = {H=600; L_x=100; L_y=105; Lambda=1064; Max_L=200; Min_L=70; PathPara=1; Phi=0; Step_L=10; Theta=0; p=520; phaseX=180; phaseY=0}
! Header version: 2018
! Port assignment regex: !\s*Touchstone port\s*([0-9]+)\s*=\s*(CST MWS port|CST DS port)\s*([0-9]+|Zmin|Zmax)\s*\(\"(.*)\"\)(\s*mode\s*([0-9]+))?.*
! Touchstone port assignment:
! Touchstone port 1 = CST MWS port Zmax ("") mode 1
! Touchstone port 2 = CST MWS port Zmax ("") mode 2
! Touchstone port 3 = CST MWS port Zmin ("") mode 1
! Touchstone port 4 = CST MWS port Zmin ("") mode 2
! S-Parameters are not renormalized. Each port impedance will be approximated by the real part at minimum frequency. The values are described via the [Reference] keyword.
! Default impedance is overridden by [Reference]
[Version] 2.0
# GHz S RI R 376.73
[Number of Ports] 4
[Reference]
376.73 376.73 259.888 259.888 
[Number of Frequencies] 51
[Network Data]
281700                 0.0117484       0.0375164     -0.000138306     0.000290214        -0.740415       -0.666366     -9.16721e-05    -9.43513e-05
                    -0.000194483     0.000316969      -0.00870398      0.00887233      0.000228966      0.00013207        -0.616346       -0.784387
                       -0.740431       -0.666935      0.000206209     0.000216566       -0.0385436     -0.00677853     -0.000492022     6.70829e-05
                    -4.54635e-05    -6.24825e-05         -0.61637       -0.784489      -0.00048999     0.000113194       -0.0108376      0.00712428
281702                 0.0117515       0.0375308     -0.000138417     0.000290339         -0.74061       -0.666149     -0.000156917     3.03571e-05
                    -0.000194591      0.00031697      -0.00870685      0.00888687      0.000229135     0.000132177        -0.616813       -0.784131
                       -0.740626       -0.666718      0.000206317     0.000216452       -0.0385623     -0.00675742     -0.000489981    -4.81766e-05
                    -4.54457e-05    -6.24215e-05         -0.61659       -0.784316     -0.000490127     0.000113577       -0.0108362      0.00712156
281704                 0.0117545       0.0375452     -0.000138528     0.000290464        -0.740805       -0.665932     -0.000156695     3.07894e-05
                    -0.000194698     0.000316971      -0.00870971      0.00890141      0.000229304     0.000132286        -0.617031        -0.78396
                        -0.74082       -0.666501      0.000206426     0.000216339       -0.0385809      -0.0067363     -0.000490365    -4.74241e-05
                     -4.5428e-05    -6.23608e-05        -0.616809       -0.784143     -0.000490264     0.000113961        -0.010847      0.00712704
281706                 0.0117576       0.0375596     -0.000138639     0.000290588        -0.740999       -0.665715     -0.000156468     3.11634e-05
                    -0.000194805     0.000316972      -0.00871257      0.00891595      0.000229473     0.000132395        -0.617248       -0.783788
                       -0.741015       -0.666283      0.000206534     0.000216226       -0.0385996     -0.00671517      -0.00049076     -4.6669e-05
                    -4.54104e-05    -6.23004e-05        -0.617028       -0.783971     -0.000490402     0.000114347       -0.0108579      0.00713254
281708                 0.0117607        0.037574      -0.00013875     0.000290713        -0.741194       -0.665497      -0.00015624      3.1523e-05
                    -0.000194912     0.000316974      -0.00871542       0.0089305      0.000229643     0.000132505        -0.617465       -0.783617
                       -0.741209       -0.666066      0.000206643     0.000216112       -0.0386183     -0.00669402     -0.000491157    -4.59122e-05
                     -4.5393e-05    -6.22403e-05        -0.617247       -0.783798     -0.000490541     0.000114735       -0.0108688      0.00713804
281710                 0.0117638       0.0375884     -0.000138861     0.000290837        -0.741388        -0.66528     -0.000156011      3.1877e-05
                    -0.000195019     0.000316976      -0.00871828      0.00894504      0.000229813     0.000132616        -0.617683       -0.783445
                       -0.741403       -0.665849      0.000206751     0.000215999       -0.0386369     -0.00667285     -0.000491554    -4.51541e-05
                    -4.53757e-05    -6.21804e-05        -0.617466       -0.783625     -0.000490681     0.000115124       -0.0108796      0.00714356
281712                 0.0117669       0.0376028     -0.000138972     0.000290962        -0.741583       -0.665063     -0.000155781     3.22284e-05
                    -0.000195126     0.000316978      -0.00872113      0.00895959      0.000229984     0.000132727          -0.6179       -0.783274
                       -0.741597       -0.665631      0.000206859     0.000215886       -0.0386556     -0.00665166     -0.000491952    -4.43946e-05
                    -4.53586e-05    -6.21208e-05        -0.617685       -0.783452     -0.000490822     0.000115515       -0.0108905      0.00714909
281714                   0.01177       0.0376172     -0.000139083     0.000291087        -0.741777       -0.664845     -0.000155551     3.25783e-05
                    -0.000195232     0.000316981      -0.00872397      0.00897413      0.000230155      0.00013284        -0.618118       -0.783102
                       -0.741791       -0.665414      0.000206968     0.000215772       -0.0386742     -0.00663046      -0.00049235    -4.36338e-05
                    -4.53416e-05    -6.20615e-05        -0.617904       -0.783279     -0.000490963     0.000115907       -0.0109013      0.00715463
281716                 0.0117732       0.0376316     -0.000139194     0.000291212        -0.741972       -0.664628      -0.00015532     3.29275e-05
                    -0.000195339     0.000316984      -0.00872682      0.00898868      0.000230327     0.000132954        -0.618335        -0.78293
                       -0.741985       -0.665196      0.000207076     0.000215659       -0.0386928     -0.00660924     -0.000492748    -4.28717e-05
                    -4.53247e-05    -6.20024e-05        -0.618122       -0.783105     -0.000491105     0.000116301       -0.0109122      0.00716018
281718                 0.0117763        0.037646     -0.000139305     0.000291336        -0.742166        -0.66441     -0.000155089     3.32762e-05
                    -0.000195446     0.000316988      -0.00872966      0.00900323      0.000230499     0.000133068        -0.618552       -0.782759
                       -0.742179       -0.664979      0.000207185     0.000215545       -0.0387114     -0.00658801     -0.000493147    -4.21084e-05
                     -4.5308e-05    -6.19436e-05        -0.618341       -0.782932     -0.000491248     0.000116697        -0.010923      0.00716574
281720                 0.0117794       0.0376604     -0.000139416     0.000291461         -0.74236       -0.664192     -0.000154857     3.36245e-05
                    -0.000195552     0.000316991       -0.0087325      0.00901778      0.000230672     0.000133184        -0.618769       -0.782587
                       -0.742373       -0.664761      0.000207293     0.000215432         -0.03873     -0.00656676     -0.000493544    -4.13439e-05
                    -4.52914e-05    -6.18851e-05         -0.61856       -0.782759     -0.000491392     0.000117094       -0.0109338      0.00717132
281722                 0.0117825       0.0376748     -0.000139527     0.000291586        -0.742554       -0.663975     -0.000154625     3.39728e-05
                    -0.000195659     0.000316995      -0.00873534      0.00903233      0.000230845       0.0001333        -0.618987       -0.782415
                       -0.742567       -0.664543      0.000207401     0.000215318       -0.0387486     -0.00654549     -0.000493942    -4.05782e-05
                     -4.5275e-05    -6.18268e-05        -0.618779       -0.782585     -0.000491537     0.000117493       -0.0109447       0.0071769
281724                 0.0117856       0.0376892     -0.000139638     0.000291711        -0.742748       -0.663757     -0.000154393     3.43209e-05
                    -0.000195765        0.000317      -0.00873817      0.00904689      0.000231018     0.000133418        -0.619204       -0.782243
                       -0.742761       -0.664325       0.00020751     0.000215205       -0.0387672      -0.0065242      -0.00049434    -3.98113e-05
                    -4.52587e-05    -6.17688e-05        -0.618997       -0.782412     -0.000491683     0.000117894       -0.0109555       0.0071825
281726                 0.0117888       0.0377036     -0.000139749     0.000291836        -0.742942       -0.663539      -0.00015416     3.46689e-05
                    -0.000195871     0.000317005        -0.008741      0.00906144      0.000231192     0.000133536        -0.619421       -0.782071
                       -0.742954       -0.664108      0.000207618     0.000215091       -0.0387858      -0.0065029     -0.000494737    -3.90432e-05
                    -4.52425e-05    -6.17111e-05        -0.619216       -0.782239     -0.000491829     0.000118296       -0.0109663      0.00718811
281728                 0.0117919        0.037718      -0.00013986     0.000291961        -0.743136       -0.663321     -0.000153927     3.50169e-05
                    -0.000195978      0.00031701      -0.00874383      0.00907599      0.000231366     0.000133655        -0.619638       -0.781899
                       -0.743148        -0.66389      0.000207726     0.000214978       -0.0388043     -0.00648159     -0.000495134    -3.82739e-05
                    -4.52265e-05    -6.16536e-05        -0.619435       -0.782065     -0.000491976     0.000118701       -0.0109772      0.00719373
281730                  0.011795       0.0377324      -0.00013997     0.000292086         -0.74333       -0.663104     -0.000153694     3.53649e-05
                    -0.000196084     0.000317015      -0.00874666      0.00909055      0.000231541     0.000133775        -0.619855       -0.781727
                       -0.743342       -0.663672      0.000207834     0.000214864       -0.0388229     -0.00646025     -0.000495531    -3.75035e-05
                    -4.52106e-05    -6.15964e-05        -0.619653       -0.781891     -0.000492125     0.000119107        -0.010988      0.00719936
281732                 0.0117982       0.0377468     -0.000140081     0.000292211        -0.743524       -0.662886      -0.00015346     3.57128e-05
                     -0.00019619     0.000317021      -0.00874948      0.00910511      0.000231716     0.000133897        -0.620072       -0.781555
                       -0.743535       -0.663454      0.000207943     0.000214751       -0.0388414      -0.0064389     -0.000495928     -3.6732e-05
                    -4.51948e-05    -6.15394e-05        -0.619872       -0.781718     -0.000492274     0.000119515       -0.0109988        0.007205
281734                 0.0118013       0.0377612     -0.000140192     0.000292336        -0.743718       -0.662668     -0.000153226     3.60607e-05
                    -0.000196296     0.000317027       -0.0087523      0.00911966      0.000231892     0.000134019        -0.620289       -0.781383
                       -0.743729       -0.663236      0.000208051     0.000214637       -0.0388599     -0.00641754     -0.000496325    -3.59594e-05
                    -4.51792e-05    -6.14827e-05         -0.62009       -0.781544     -0.000492423     0.000119924       -0.0110097      0.00721066
281736                 0.0118044       0.0377756     -0.000140303     0.000292461        -0.743912        -0.66245     -0.000152991     3.64086e-05
                    -0.000196401     0.000317033      -0.00875512      0.00913422      0.000232068     0.000134142        -0.620505        -0.78121
                       -0.743922       -0.663017      0.000208159     0.000214523       -0.0388784     -0.00639615     -0.000496721    -3.51857e-05
                    -4.51637e-05    -6.14263e-05        -0.620308        -0.78137     -0.000492574     0.000120336       -0.0110205      0.00721632
281738                 0.0118076         0.03779     -0.000140413     0.000292586        -0.744105       -0.662232     -0.000152756     3.67565e-05
                    -0.000196507      0.00031704      -0.00875793      0.00914878      0.000232245     0.000134266        -0.620722       -0.781038
                       -0.744116       -0.662799      0.000208267      0.00021441       -0.0388969     -0.00637475     -0.000497117     -3.4411e-05
                    -4.51484e-05    -6.13701e-05        -0.620527       -0.781196     -0.000492726      0.00012075       -0.0110313        0.007222
281740                 0.0118107       0.0378044     -0.000140524     0.000292711        -0.744299       -0.662013     -0.000152521     3.71043e-05
                    -0.000196613     0.000317047      -0.00876074      0.00916334      0.000232422     0.000134391        -0.620939       -0.780866
                       -0.744309       -0.662581      0.000208376     0.000214296       -0.0389154     -0.00635334     -0.000497513    -3.36352e-05
                    -4.51332e-05    -6.13142e-05        -0.620745       -0.781022     -0.000492879     0.000121165       -0.0110421      0.00722769
281742                 0.0118139       0.0378188     -0.000140635     0.000292836        -0.744493       -0.661795     -0.000152285      3.7452e-05
                    -0.000196718     0.000317055      -0.00876355      0.00917791      0.000232599     0.000134517        -0.621156       -0.780693
                       -0.744502       -0.662363      0.000208484     0.000214182       -0.0389339      -0.0063319     -0.000497908    -3.28583e-05
                    -4.51181e-05    -6.12585e-05        -0.620963       -0.780848     -0.000493032     0.000121582       -0.0110529      0.00723338
281744                 0.0118171       0.0378332     -0.000140746     0.000292962        -0.744686       -0.661577     -0.000152049     3.77997e-05
                    -0.000196824     0.000317062      -0.00876636      0.00919247      0.000232777     0.000134645        -0.621372       -0.780521
                       -0.744695       -0.662144      0.000208592     0.000214068       -0.0389524     -0.00631045     -0.000498304    -3.20805e-05
                    -4.51032e-05    -6.12031e-05        -0.621181       -0.780674     -0.000493187     0.000122001       -0.0110637      0.00723909
281746                 0.0118202       0.0378476     -0.000140857     0.000293087         -0.74488       -0.661359     -0.000151812     3.81473e-05
                    -0.000196929      0.00031707      -0.00876916      0.00920703      0.000232956     0.000134773        -0.621589       -0.780348
                       -0.744888       -0.661926        0.0002087     0.000213954       -0.0389708     -0.00628899     -0.000498699    -3.13016e-05
                    -4.50884e-05     -6.1148e-05          -0.6214         -0.7805     -0.000493342     0.000122423       -0.0110745      0.00724482
281748                 0.0118234        0.037862     -0.000140968     0.000293213        -0.745073       -0.661141     -0.000151576     3.84948e-05
                    -0.000197035     0.000317079      -0.00877196       0.0092216      0.000233135     0.000134902        -0.621806       -0.780176
                       -0.745081       -0.661707      0.000208809      0.00021384       -0.0389893     -0.00626751     -0.000499093    -3.05218e-05
                    -4.50739e-05    -6.10933e-05        -0.621618       -0.780326     -0.000493498     0.000122846       -0.0110854      0.00725055
281750                 0.0118265       0.0378764     -0.000141081     0.000293341        -0.745266       -0.660922     -0.000151339     3.88422e-05
                     -0.00019714     0.000317088      -0.00877476      0.00923616      0.000233315     0.000135032        -0.622022       -0.780003
                       -0.745274       -0.661489      0.000208918     0.000213723       -0.0390077     -0.00624601     -0.000499488    -2.97409e-05
                    -4.50596e-05     -6.1039e-05        -0.621836       -0.780152     -0.000493656     0.000123271       -0.0110962      0.00725629
281752                 0.0118297       0.0378908     -0.000141172     0.000293447         -0.74546       -0.660704     -0.000151101     3.91894e-05
                    -0.000197244     0.000317101      -0.00877755      0.00925073      0.000233495     0.000135164        -0.622239        -0.77983
                       -0.745467        -0.66127       0.00020902     0.000213632       -0.0390261     -0.00622449     -0.000499882    -2.89592e-05
                    -4.50469e-05    -6.09868e-05        -0.622054       -0.779978     -0.000493814     0.000123699        -0.011107      0.00726205
281754                 0.0118329       0.0379052     -0.000141295     0.000293584        -0.745653       -0.660486     -0.000150864     3.95366e-05
                    -0.000197352     0.000317102      -0.00878035       0.0092653      0.000233675     0.000135296        -0.622455       -0.779657
                        -0.74566       -0.661051      0.000209132     0.000213504       -0.0390445     -0.00620296     -0.000500276    -2.81765e-05
                    -4.50286e-05    -6.09276e-05        -0.622272       -0.779803     -0.000493973     0.000124128       -0.0111178      0.00726782
281756                 0.0118361       0.0379196     -0.000141406      0.00029371        -0.745846       -0.660267     -0.000150626     3.98835e-05
                    -0.000197456     0.000317113      -0.00878313      0.00927987      0.000233857      0.00013543        -0.622671       -0.779485
                       -0.745853       -0.660833       0.00020924     0.000213389       -0.0390629     -0.00618141     -0.000500669    -2.73929e-05
                    -4.50154e-05    -6.08749e-05         -0.62249       -0.779629     -0.000494134      0.00012456       -0.0111286      0.00727359
281758                 0.0118393        0.037934     -0.000141517     0.000293836        -0.746039       -0.660049     -0.000150387     4.02303e-05
                    -0.000197561     0.000317124      -0.00878592      0.00929444      0.000234038     0.000135565        -0.622888       -0.779312
                       -0.746046       -0.660614      0.000209348     0.000213275       -0.0390813     -0.00615985     -0.000501062    -2.66084e-05
                    -4.50017e-05    -6.08215e-05        -0.622708       -0.779454     -0.000494296     0.000124994       -0.0111393      0.00727938
281760                 0.0118424       0.0379484     -0.000141628     0.000293962        -0.746232        -0.65983     -0.000150149     4.05768e-05
                    -0.000197666     0.000317134       -0.0087887      0.00930901      0.000234221     0.000135701        -0.623104       -0.779139
                       -0.746238       -0.660395      0.000209457     0.000213161       -0.0390997     -0.00613827     -0.000501455    -2.58231e-05
                    -4.49879e-05    -6.07682e-05        -0.622925        -0.77928     -0.000494459     0.000125431       -0.0111501      0.00728518
281762                 0.0118456       0.0379628     -0.000141738     0.000294087        -0.746425       -0.659611      -0.00014991     4.09232e-05
                     -0.00019777     0.000317145      -0.00879148      0.00932358      0.000234405      0.00013584         -0.62332       -0.778966
                       -0.746431       -0.660176      0.000209565     0.000213047       -0.0391181     -0.00611667     -0.000501848    -2.50369e-05
