! TOUCHSTONE file generated by CST MICROWAVE STUDIO
! Date and time: Wed Oct 15 17:32:44 2025
! Project name: Teste_Macro_Metasurface_Nanopilar.cst
! Parameters = {H=600; L_x=155; L_y=120; Lambda=1064; Max_L=200; Min_L=70; PathPara=1; Phi=0; Step_L=10; Theta=0; p=520; phaseX=180; phaseY=0}
! Header version: 2018
! Port assignment regex: !\s*Touchstone port\s*([0-9]+)\s*=\s*(CST MWS port|CST DS port)\s*([0-9]+|Zmin|Zmax)\s*\(\"(.*)\"\)(\s*mode\s*([0-9]+))?.*
! Touchstone port assignment:
! Touchstone port 1 = CST MWS port Zmax ("") mode 1
! Touchstone port 2 = CST MWS port Zmax ("") mode 2
! Touchstone port 3 = CST MWS port Zmin ("") mode 1
! Touchstone port 4 = CST MWS port Zmin ("") mode 2
! S-Parameters are not renormalized. Each port impedance will be approximated by the real part at minimum frequency. The values are described via the [Reference] keyword.
! Default impedance is overridden by [Reference]
[Version] 2.0
# GHz S RI R 376.73
[Number of Ports] 4
[Reference]
376.73 376.73 259.888 259.888 
[Number of Frequencies] 51
[Network Data]
281700                 0.0529138       0.0577568     -3.14521e-05     -0.00123126          0.87308        0.467135         0.001014      0.00145021
                    -3.81125e-06     -0.00126021         0.167397        0.285841     -0.000192017      0.00165176         0.735791       -0.580574
                        0.872786        0.467011      -0.00022452      0.00162002       -0.0763732      -0.0100398     -0.000866644     -0.00141353
                      0.00101077      0.00149912          0.73618       -0.580638     -0.000854119     -0.00133189         0.240576        0.222692
281702                 0.0529215       0.0577746     -3.17522e-05     -0.00123159         0.873245        0.466825       0.00101484       0.0014499
                    -4.36996e-06     -0.00126049         0.167453        0.285907       -0.0001913      0.00165208         0.735545       -0.580834
                        0.872949        0.466702     -0.000223721      0.00162037       -0.0763998     -0.00998245     -0.000867707     -0.00141349
                      0.00101175      0.00149867         0.735934       -0.580899     -0.000855144     -0.00133182         0.240798        0.222573
281704                 0.0529292       0.0577925     -3.20527e-05     -0.00123192         0.873409        0.466516       0.00101567      0.00144958
                    -4.92936e-06     -0.00126077         0.167508        0.285972     -0.000190583       0.0016524         0.735299       -0.581095
                        0.873113        0.466393     -0.000222922      0.00162073       -0.0764262      -0.0099251     -0.000868769     -0.00141345
                      0.00101274      0.00149822         0.735688        -0.58116      -0.00085617     -0.00133174         0.241021        0.222454
281706                 0.0529369       0.0578103     -3.23536e-05     -0.00123225         0.873572        0.466207       0.00101651      0.00144926
                    -5.48946e-06     -0.00126106         0.167564        0.286038     -0.000189866      0.00165271         0.735052       -0.581355
                        0.873276        0.466084     -0.000222122      0.00162108       -0.0764527     -0.00986771     -0.000869832     -0.00141341
                      0.00101372      0.00149777         0.735441        -0.58142     -0.000857196     -0.00133167         0.241244        0.222335
281708                 0.0529446       0.0578282     -3.26548e-05     -0.00123258         0.873736        0.465898       0.00101735      0.00144895
                    -6.05027e-06     -0.00126134          0.16762        0.286103     -0.000189149      0.00165303         0.734806       -0.581616
                         0.87344        0.465775     -0.000221322      0.00162143       -0.0764791     -0.00981031     -0.000870896     -0.00141337
                      0.00101471      0.00149731         0.735194       -0.581681     -0.000858223      -0.0013316         0.241467        0.222215
281710                 0.0529523        0.057846     -3.29564e-05      -0.0012329           0.8739        0.465588       0.00101818      0.00144863
                    -6.61178e-06     -0.00126162         0.167675        0.286169     -0.000188432      0.00165335         0.734559       -0.581876
                        0.873603        0.465466     -0.000220521      0.00162179       -0.0765054     -0.00975287      -0.00087196     -0.00141334
                       0.0010157      0.00149685         0.734948       -0.581941     -0.000859251     -0.00133152          0.24169        0.222095
281712                 0.0529601       0.0578639     -3.32584e-05     -0.00123323         0.874063        0.465279       0.00101902      0.00144831
                      -7.174e-06      -0.0012619         0.167731        0.286234     -0.000187715      0.00165367         0.734312       -0.582136
                        0.873766        0.465157     -0.000219719      0.00162214       -0.0765317     -0.00969541     -0.000873024      -0.0014133
                      0.00101669       0.0014964         0.734701       -0.582202      -0.00086028     -0.00133145         0.241912        0.221976
281714                 0.0529678       0.0578817     -3.35607e-05     -0.00123356         0.874227         0.46497       0.00101985      0.00144799
                    -7.73694e-06     -0.00126218         0.167787          0.2863     -0.000186999      0.00165399         0.734065       -0.582397
                        0.873929        0.464847     -0.000218917      0.00162249        -0.076558     -0.00963793     -0.000874088     -0.00141326
                      0.00101768      0.00149594         0.734453       -0.582462     -0.000861309     -0.00133138         0.242135        0.221855
281716                 0.0529755       0.0578996     -3.38634e-05     -0.00123389          0.87439         0.46466       0.00102069      0.00144767
                    -8.30059e-06     -0.00126246         0.167843        0.286366     -0.000186282      0.00165431         0.733818       -0.582657
                        0.874092        0.464538     -0.000218115      0.00162284       -0.0765842     -0.00958042     -0.000875153     -0.00141322
                      0.00101867      0.00149548         0.734206       -0.582722     -0.000862339     -0.00133131         0.242358        0.221735
281718                 0.0529833       0.0579174     -3.41665e-05     -0.00123422         0.874553        0.464351       0.00102153      0.00144735
                    -8.86497e-06     -0.00126274         0.167899        0.286431     -0.000185566      0.00165462          0.73357       -0.582917
                        0.874255        0.464229     -0.000217312      0.00162319       -0.0766104     -0.00952288     -0.000876218     -0.00141318
                      0.00101966      0.00149502         0.733959       -0.582982      -0.00086337     -0.00133123         0.242581        0.221615
281720                  0.052991       0.0579353       -3.447e-05     -0.00123455         0.874716        0.464041       0.00102236      0.00144702
                    -9.43005e-06     -0.00126302         0.167955        0.286497     -0.000184849      0.00165494         0.733323       -0.583176
                        0.874417        0.463919     -0.000216508      0.00162355       -0.0766365     -0.00946532     -0.000877284     -0.00141314
                      0.00102065      0.00149456         0.733711       -0.583242     -0.000864402     -0.00133116         0.242804        0.221494
281722                 0.0529987       0.0579531     -3.47738e-05     -0.00123488         0.874879        0.463731        0.0010232       0.0014467
                    -9.99585e-06      -0.0012633         0.168011        0.286563     -0.000184132      0.00165526         0.733075       -0.583436
                         0.87458         0.46361     -0.000215704       0.0016239       -0.0766626     -0.00940774      -0.00087835      -0.0014131
                      0.00102164       0.0014941         0.733463       -0.583502     -0.000865434     -0.00133109         0.243026        0.221373
281724                 0.0530065       0.0579709     -3.50778e-05     -0.00123521         0.875042        0.463422       0.00102403      0.00144638
                    -1.05623e-05     -0.00126358         0.168067        0.286629     -0.000183416      0.00165557         0.732827       -0.583696
                        0.874742          0.4633       -0.0002149      0.00162425       -0.0766886     -0.00935012     -0.000879416     -0.00141306
                      0.00102264      0.00149364         0.733215       -0.583762     -0.000866467     -0.00133101         0.243249        0.221252
281726                 0.0530142       0.0579888     -3.53819e-05     -0.00123554         0.875205        0.463112       0.00102487      0.00144605
                    -1.11295e-05     -0.00126386         0.168123        0.286695     -0.000182699      0.00165589         0.732579       -0.583956
                        0.874905         0.46299     -0.000214095       0.0016246       -0.0767146     -0.00929249     -0.000880482     -0.00141301
                      0.00102363      0.00149317         0.732967       -0.584022     -0.000867501     -0.00133094         0.243472        0.221131
281728                  0.053022       0.0580066      -3.5686e-05     -0.00123587         0.875368        0.462802       0.00102571      0.00144573
                    -1.16974e-05     -0.00126413         0.168179        0.286761     -0.000181982      0.00165621         0.732331       -0.584215
                        0.875067        0.462681     -0.000213289      0.00162495       -0.0767406     -0.00923483     -0.000881549     -0.00141297
                      0.00102462      0.00149271         0.732719       -0.584282     -0.000868536     -0.00133087         0.243695        0.221009
281730                 0.0530298       0.0580244     -3.59897e-05      -0.0012362          0.87553        0.462492       0.00102654       0.0014454
                     -1.2266e-05     -0.00126441         0.168235        0.286827     -0.000181265      0.00165652         0.732083       -0.584475
                        0.875229        0.462371     -0.000212484       0.0016253       -0.0767665     -0.00917714     -0.000882617     -0.00141293
                      0.00102562      0.00149225         0.732471       -0.584541     -0.000869572     -0.00133079         0.243918        0.220888
281732                 0.0530375       0.0580423     -3.62927e-05     -0.00123653         0.875692        0.462182       0.00102738      0.00144507
                    -1.28352e-05     -0.00126469         0.168291        0.286893     -0.000180549      0.00165684         0.731834       -0.584734
                        0.875391        0.462061     -0.000211677      0.00162565       -0.0767923     -0.00911943     -0.000883684     -0.00141289
                      0.00102661      0.00149178         0.732222       -0.584801     -0.000870608     -0.00133071         0.244141        0.220766
281734                 0.0530453       0.0580601     -3.65945e-05     -0.00123687         0.875855        0.461873       0.00102821      0.00144475
                     -1.3405e-05     -0.00126497         0.168348        0.286959     -0.000179831      0.00165716         0.731586       -0.584994
                        0.875553        0.461752      -0.00021087        0.001626       -0.0768182     -0.00906169     -0.000884752     -0.00141284
                      0.00102761      0.00149132         0.731973        -0.58506     -0.000871645     -0.00133064         0.244364        0.220644
281736                 0.0530531       0.0580779     -3.68954e-05      -0.0012372         0.876017        0.461563       0.00102905      0.00144442
                    -1.39754e-05     -0.00126525         0.168404        0.287025     -0.000179114      0.00165747         0.731337       -0.585253
                        0.875715        0.461442     -0.000210063      0.00162635       -0.0768439     -0.00900392     -0.000885821      -0.0014128
                      0.00102861      0.00149085         0.731725        -0.58532     -0.000872683     -0.00133056         0.244587        0.220522
281738                 0.0530608       0.0580957     -3.71958e-05     -0.00123753         0.876179        0.461253       0.00102989      0.00144409
                    -1.45463e-05     -0.00126553          0.16846        0.287091     -0.000178397      0.00165779         0.731088       -0.585512
                        0.875876        0.461132     -0.000209256       0.0016267       -0.0768697     -0.00894614     -0.000886889     -0.00141276
                       0.0010296      0.00149039         0.731476       -0.585579     -0.000873721     -0.00133048         0.244809        0.220399
281740                 0.0530686       0.0581135     -3.74967e-05     -0.00123785         0.876341        0.460942       0.00103072      0.00144376
                    -1.51178e-05     -0.00126581         0.168517        0.287157     -0.000177679       0.0016581         0.730839       -0.585771
                        0.876038        0.460822     -0.000208448      0.00162705       -0.0768954     -0.00888832     -0.000887958     -0.00141271
                       0.0010306      0.00148992         0.731227       -0.585838      -0.00087476      -0.0013304         0.245032        0.220277
281742                 0.0530764       0.0581313      -3.7799e-05     -0.00123818         0.876503        0.460632       0.00103156      0.00144343
                    -1.56897e-05     -0.00126608         0.168573        0.287223     -0.000176962      0.00165842          0.73059        -0.58603
                        0.876199        0.460512     -0.000207639       0.0016274        -0.076921     -0.00883048     -0.000889028     -0.00141267
                       0.0010316      0.00148946         0.730977       -0.586098       -0.0008758     -0.00133033         0.245255        0.220154
281744                 0.0530842       0.0581491     -3.81029e-05     -0.00123851         0.876664        0.460322       0.00103239       0.0014431
                     -1.6262e-05     -0.00126636          0.16863        0.287289     -0.000176244      0.00165873          0.73034       -0.586289
                         0.87636        0.460202      -0.00020683      0.00162775       -0.0769466     -0.00877262     -0.000890097     -0.00141262
                       0.0010326      0.00148899         0.730728       -0.586357     -0.000876841     -0.00133025         0.245478        0.220031
281746                  0.053092       0.0581669     -3.84082e-05     -0.00123883         0.876826        0.460012       0.00103323      0.00144276
                    -1.68347e-05     -0.00126664         0.168686        0.287355     -0.000175526      0.00165904         0.730091       -0.586548
                        0.876522        0.459892     -0.000206021       0.0016281       -0.0769722     -0.00871473     -0.000891168     -0.00141258
                       0.0010336      0.00148853         0.730478       -0.586616     -0.000877882     -0.00133016         0.245701        0.219908
281748                 0.0530998       0.0581848     -3.87148e-05     -0.00123916         0.876987        0.459702       0.00103406      0.00144243
                    -1.74076e-05     -0.00126692         0.168743        0.287422     -0.000174808      0.00165936         0.729841       -0.586807
                        0.876683        0.459582     -0.000205211      0.00162845       -0.0769977     -0.00865681     -0.000892238     -0.00141253
                       0.0010346      0.00148806         0.730229       -0.586875     -0.000878924     -0.00133008         0.245924        0.219784
281750                 0.0531076       0.0582026     -3.90222e-05     -0.00123948         0.877149        0.459391        0.0010349       0.0014421
                    -1.79808e-05      -0.0012672         0.168799        0.287488     -0.000174089      0.00165967         0.729591       -0.587065
                        0.876844        0.459271     -0.000204401       0.0016288       -0.0770232     -0.00859887     -0.000893309     -0.00141249
                       0.0010356      0.00148759         0.729979       -0.587133     -0.000879967        -0.00133         0.246147        0.219661
281752                 0.0531154       0.0582204     -3.93303e-05     -0.00123981          0.87731        0.459081       0.00103574      0.00144176
                     -1.8554e-05     -0.00126748         0.168856        0.287554     -0.000173371      0.00165999         0.729342       -0.587324
                        0.877005        0.458961     -0.000203591      0.00162915       -0.0770486     -0.00854091      -0.00089438     -0.00141244
                       0.0010366      0.00148713         0.729729       -0.587392      -0.00088101     -0.00132992          0.24637        0.219537
281754                 0.0531232       0.0582381     -3.96389e-05     -0.00124014         0.877471        0.458771       0.00103657      0.00144142
                    -1.91273e-05     -0.00126776         0.168913        0.287621     -0.000172652       0.0016603         0.729091       -0.587582
                        0.877165        0.458651      -0.00020278       0.0016295        -0.077074     -0.00848292     -0.000895451      -0.0014124
                       0.0010376      0.00148666         0.729479       -0.587651     -0.000882054     -0.00132983         0.246593        0.219413
281756                  0.053131       0.0582559     -3.99479e-05     -0.00124047         0.877632         0.45846       0.00103741      0.00144109
                    -1.97006e-05     -0.00126804         0.168969        0.287687     -0.000171932      0.00166061         0.728841       -0.587841
                        0.877326        0.458341     -0.000201968      0.00162985       -0.0770993      -0.0084249     -0.000896523     -0.00141235
                       0.0010386       0.0014862         0.729228       -0.587909     -0.000883099     -0.00132975         0.246816        0.219289
281758                 0.0531388       0.0582737     -4.02573e-05     -0.00124079         0.877793         0.45815       0.00103824      0.00144075
                    -2.02736e-05     -0.00126831         0.169026        0.287753     -0.000171213      0.00166092         0.728591       -0.588099
                        0.877486         0.45803     -0.000201156       0.0016302       -0.0771246     -0.00836686     -0.000897596      -0.0014123
                       0.0010396      0.00148573         0.728978       -0.588168     -0.000884144     -0.00132966         0.247039        0.219164
281760                 0.0531467       0.0582915      -4.0567e-05     -0.00124112         0.877954        0.457839       0.00103908      0.00144041
                    -2.08465e-05     -0.00126859         0.169083         0.28782     -0.000170493      0.00166124          0.72834       -0.588357
                        0.877647         0.45772     -0.000200343      0.00163055       -0.0771499      -0.0083088     -0.000898668     -0.00141225
                      0.00104059      0.00148527         0.728727       -0.588426     -0.000885191     -0.00132958         0.247262         0.21904
281762                 0.0531545       0.0583093     -4.08771e-05     -0.00124145         0.878115        0.457528       0.00103992      0.00144007
                     -2.1419e-05     -0.00126887          0.16914        0.287886     -0.000169774      0.00166155          0.72809       -0.588616
                        0.877807        0.457409     -0.000199529       0.0016309       -0.0771751      -0.0082507     -0.000899741     -0.00141221
