! TOUCHSTONE file generated by CST MICROWAVE STUDIO
! Date and time: Wed Oct 15 17:30:45 2025
! Project name: Teste_Macro_Metasurface_Nanopilar.cst
! Parameters = {H=600; L_x=120; L_y=135; Lambda=1064; Max_L=200; Min_L=70; PathPara=1; Phi=0; Step_L=10; Theta=0; p=520; phaseX=180; phaseY=0}
! Header version: 2018
! Port assignment regex: !\s*Touchstone port\s*([0-9]+)\s*=\s*(CST MWS port|CST DS port)\s*([0-9]+|Zmin|Zmax)\s*\(\"(.*)\"\)(\s*mode\s*([0-9]+))?.*
! Touchstone port assignment:
! Touchstone port 1 = CST MWS port Zmax ("") mode 1
! Touchstone port 2 = CST MWS port Zmax ("") mode 2
! Touchstone port 3 = CST MWS port Zmin ("") mode 1
! Touchstone port 4 = CST MWS port Zmin ("") mode 2
! S-Parameters are not renormalized. Each port impedance will be approximated by the real part at minimum frequency. The values are described via the [Reference] keyword.
! Default impedance is overridden by [Reference]
[Version] 2.0
# GHz S RI R 376.73
[Number of Ports] 4
[Reference]
376.73 376.73 259.888 259.888 
[Number of Frequencies] 51
[Network Data]
281700                  0.043281        0.105638      -0.00106674    -0.000618566         0.957366        0.243106     -0.000271634     0.000451481
                      -0.0011153    -0.000511788        0.0365254     -0.00679286     -6.08757e-05     0.000286052         0.541945        0.829509
                        0.956964          0.2435     -0.000204598     0.000203969       -0.0874036       0.0733598      0.000874644     0.000766169
                    -0.000137043     0.000415332          0.54209         0.82985      0.000740205     0.000961456        0.0201051       -0.027941
281702                 0.0432972        0.105655      -0.00106712     -0.00061822         0.957447        0.242777     -0.000271527     0.000451467
                     -0.00111551    -0.000511471        0.0365152     -0.00676984     -6.11194e-05     0.000285765         0.542267          0.8293
                        0.957045        0.243172     -0.000204511     0.000204105       -0.0873756       0.0734263      0.000874942     0.000765771
                    -0.000136659     0.000415378         0.542411        0.829641      0.000740806     0.000961396         0.020058      -0.0279567
281704                 0.0433135        0.105671       -0.0010675    -0.000617874         0.957528        0.242449     -0.000271419     0.000451452
                     -0.00111572    -0.000511153        0.0365051     -0.00674682       -6.245e-05     0.000285976         0.542588        0.829091
                        0.957126        0.242843     -0.000204423     0.000204241       -0.0873476       0.0734927      0.000875241     0.000765372
                    -0.000136274     0.000415423         0.542732        0.829432      0.000741405     0.000961333        0.0200109      -0.0279724
281706                 0.0433297        0.105687      -0.00106788     -0.00061753         0.957609        0.242121      -0.00027131     0.000451437
                     -0.00111592    -0.000510836         0.036495      -0.0067238     -6.12551e-05      0.00028775         0.542909        0.828882
                        0.957208        0.242515     -0.000204336     0.000204378       -0.0873196       0.0735592      0.000875542     0.000764972
                     -0.00013589     0.000415468         0.543053        0.829223      0.000742002     0.000961267        0.0199638       -0.027988
281708                 0.0433459        0.105704      -0.00106826    -0.000617187          0.95769        0.241793       -0.0002712     0.000451422
                     -0.00111612    -0.000510518        0.0364849     -0.00670078     -6.05524e-05      0.00028726         0.543231        0.828672
                        0.957289        0.242186     -0.000204249     0.000204515       -0.0872915       0.0736256      0.000875843     0.000764571
                    -0.000135506     0.000415512         0.543374        0.829013      0.000742597     0.000961198        0.0199167      -0.0280036
281710                 0.0433622         0.10572      -0.00106864    -0.000616845          0.95777        0.241465     -0.000271088     0.000451407
                     -0.00111633    -0.000510199        0.0364747     -0.00667775     -6.03713e-05     0.000286999         0.543552        0.828463
                         0.95737        0.241857     -0.000204163     0.000204652       -0.0872633        0.073692      0.000876146     0.000764169
                    -0.000135121     0.000415555         0.543695        0.828804       0.00074319     0.000961125        0.0198695      -0.0280191
281712                 0.0433784        0.105737      -0.00106903    -0.000616503         0.957851        0.241136     -0.000270976     0.000451391
                     -0.00111653     -0.00050988        0.0364646     -0.00665472     -6.02727e-05     0.000286855         0.543873        0.828253
                        0.957451        0.241529     -0.000204076     0.000204789       -0.0872351       0.0737585      0.000876449     0.000763766
                    -0.000134736     0.000415598         0.544015        0.828594      0.000743782     0.000961048        0.0198224      -0.0280346
281714                 0.0433946        0.105753      -0.00106941    -0.000616161         0.957931        0.240808     -0.000270863     0.000451376
                     -0.00111673    -0.000509561        0.0364545     -0.00663168     -6.01951e-05     0.000286762         0.544194        0.828043
                        0.957532          0.2412     -0.000203989     0.000204927       -0.0872069       0.0738249      0.000876754     0.000763361
                    -0.000134351      0.00041564         0.544336        0.828385      0.000744372     0.000960967        0.0197753      -0.0280501
281716                 0.0434109         0.10577      -0.00106979     -0.00061582         0.958011         0.24048     -0.000270748      0.00045136
                     -0.00111693    -0.000509242        0.0364445     -0.00660865     -6.01249e-05     0.000286695         0.544514        0.827833
                        0.957612        0.240872     -0.000203903     0.000205065       -0.0871786       0.0738913       0.00087706     0.000762956
                    -0.000133966     0.000415681         0.544657        0.828175      0.000744962     0.000960882        0.0197281      -0.0280654
281718                 0.0434271        0.105786      -0.00107017     -0.00061548         0.958091        0.240152     -0.000270632     0.000451344
                     -0.00111713    -0.000508922        0.0364344     -0.00658561     -6.00577e-05     0.000286642         0.544835        0.827623
                        0.957693        0.240543     -0.000203816     0.000205205       -0.0871502       0.0739577      0.000877367     0.000762549
                    -0.000133581     0.000415722         0.544977        0.827965      0.000745551     0.000960792        0.0196809      -0.0280808
281720                 0.0434434        0.105803      -0.00107055     -0.00061514         0.958171        0.239823     -0.000270516     0.000451328
                     -0.00111733    -0.000508601        0.0364243     -0.00656257     -5.99919e-05     0.000286598         0.545156        0.827413
                        0.957773        0.240214     -0.000203729     0.000205345       -0.0871218        0.074024      0.000877676     0.000762141
                    -0.000133195     0.000415762         0.545297        0.827755       0.00074614     0.000960697        0.0196337      -0.0280961
281722                 0.0434596        0.105819      -0.00107093    -0.000614799         0.958251        0.239495     -0.000270398     0.000451311
                     -0.00111753    -0.000508281        0.0364142     -0.00653953     -5.99268e-05     0.000286561         0.545476        0.827203
                        0.957854        0.239886     -0.000203642     0.000205486       -0.0870934       0.0740904      0.000877985     0.000761732
                    -0.000132809     0.000415801         0.545618        0.827545       0.00074673     0.000960598        0.0195865      -0.0281113
281724                 0.0434758        0.105836      -0.00107131     -0.00061446          0.95833        0.239166     -0.000270279     0.000451294
                     -0.00111772     -0.00050796        0.0364042     -0.00651648     -5.98621e-05     0.000286528         0.545797        0.826993
                        0.957934        0.239557     -0.000203554     0.000205629       -0.0870649       0.0741568      0.000878296     0.000761322
                    -0.000132423      0.00041584         0.545938        0.827334       0.00074732     0.000960495        0.0195393      -0.0281265
281726                 0.0434921        0.105852      -0.00107169     -0.00061412          0.95841        0.238838     -0.000270159     0.000451277
                     -0.00111792    -0.000507638        0.0363941     -0.00649343     -5.97977e-05     0.000286498         0.546117        0.826782
                        0.958014        0.239228     -0.000203464     0.000205772       -0.0870364       0.0742231      0.000878608     0.000760911
                    -0.000132037     0.000415879         0.546258        0.827124      0.000747911     0.000960387        0.0194921      -0.0281417
281728                 0.0435083        0.105868      -0.00107207     -0.00061378         0.958489        0.238509     -0.000270038      0.00045126
                     -0.00111812    -0.000507317        0.0363841     -0.00647038     -5.97333e-05      0.00028647         0.546437        0.826571
                        0.958094        0.238899     -0.000203372     0.000205916       -0.0870078       0.0742895      0.000878921     0.000760499
                     -0.00013165     0.000415916         0.546578        0.826914      0.000748503     0.000960275        0.0194449      -0.0281568
281730                 0.0435246        0.105885      -0.00107245    -0.000613441         0.958569        0.238181     -0.000269915     0.000451242
                     -0.00111832    -0.000506995         0.036374     -0.00644733      -5.9669e-05     0.000286443         0.546758        0.826361
                        0.958174        0.238571     -0.000203279      0.00020606       -0.0869791       0.0743558      0.000879236     0.000760086
                    -0.000131263     0.000415954         0.546898        0.826703      0.000749096     0.000960159        0.0193976      -0.0281718
281732                 0.0435408        0.105901      -0.00107283    -0.000613101         0.958648        0.237852     -0.000269792     0.000451225
                     -0.00111851    -0.000506673         0.036364     -0.00642427     -5.96048e-05     0.000286419         0.547078         0.82615
                        0.958254        0.238242     -0.000203184     0.000206203       -0.0869504       0.0744221      0.000879552     0.000759671
                    -0.000130876     0.000415991         0.547218        0.826492      0.000749691      0.00096004        0.0193504      -0.0281868
281734                 0.0435571        0.105918      -0.00107321    -0.000612762         0.958727        0.237524     -0.000269667     0.000451206
                     -0.00111871     -0.00050635         0.036354     -0.00640121     -5.95406e-05     0.000286395         0.547398        0.825939
                        0.958334        0.237913     -0.000203086     0.000206345       -0.0869217       0.0744884      0.000879869     0.000759256
                    -0.000130489     0.000416027         0.547538        0.826281      0.000750288     0.000959916        0.0193031      -0.0282018
281736                 0.0435733        0.105934      -0.00107359    -0.000612423         0.958806        0.237195     -0.000269541     0.000451188
                      -0.0011189    -0.000506027         0.036344     -0.00637815     -5.94764e-05     0.000286372         0.547718        0.825728
                        0.958413        0.237584     -0.000202987     0.000206486       -0.0868929       0.0745547      0.000880188     0.000758839
                    -0.000130101     0.000416063         0.547857         0.82607      0.000750886      0.00095979        0.0192559      -0.0282167
281738                 0.0435896        0.105951      -0.00107397    -0.000612084         0.958885        0.236866     -0.000269415     0.000451169
                      -0.0011191    -0.000505704         0.036334     -0.00635509     -5.94122e-05      0.00028635         0.548038        0.825516
                        0.958493        0.237255     -0.000202888     0.000206625       -0.0868641        0.074621      0.000880508     0.000758422
                    -0.000129713     0.000416099         0.548177        0.825859      0.000751487     0.000959661        0.0192086      -0.0282316
281740                 0.0436059        0.105967      -0.00107435    -0.000611745         0.958964        0.236538     -0.000269286      0.00045115
                     -0.00111929    -0.000505381         0.036324     -0.00633202     -5.93481e-05     0.000286328         0.548357        0.825305
                        0.958572        0.236926     -0.000202788     0.000206762       -0.0868352       0.0746872       0.00088083     0.000758004
                    -0.000129325     0.000416134         0.548496        0.825648      0.000752088     0.000959529        0.0191613      -0.0282464
281742                 0.0436221        0.105983      -0.00107473    -0.000611406         0.959042        0.236209     -0.000269157     0.000451131
                     -0.00111949    -0.000505057         0.036314     -0.00630895     -5.92839e-05     0.000286308         0.548677        0.825094
                        0.958651        0.236597     -0.000202688     0.000206896       -0.0868063       0.0747535      0.000881153     0.000757584
                    -0.000128936     0.000416169         0.548816        0.825437      0.000752692     0.000959394         0.019114      -0.0282611
281744                 0.0436384           0.106      -0.00107511    -0.000611067         0.959121         0.23588     -0.000269027     0.000451111
                     -0.00111968    -0.000504733         0.036304     -0.00628588     -5.92198e-05     0.000286287         0.548997        0.824882
                        0.958731        0.236269      -0.00020259      0.00020703       -0.0867773       0.0748198      0.000881478     0.000757164
                    -0.000128547     0.000416203         0.549135        0.825225      0.000753296     0.000959257        0.0190667      -0.0282759
281746                 0.0436547        0.106016       -0.0010755    -0.000610728         0.959199        0.235551     -0.000268895     0.000451091
                     -0.00111988    -0.000504409         0.036294     -0.00626281     -5.91557e-05     0.000286268         0.549316         0.82467
                         0.95881         0.23594     -0.000202492     0.000207162       -0.0867483        0.074886      0.000881804     0.000756743
                    -0.000128158     0.000416238         0.549454        0.825013      0.000753903     0.000959119        0.0190194      -0.0282905
281748                 0.0436709        0.106033      -0.00107588    -0.000610389         0.959278        0.235223     -0.000268762      0.00045107
                     -0.00112007    -0.000504085        0.0362841     -0.00623973     -5.90916e-05     0.000286249         0.549635        0.824458
                        0.958888        0.235611     -0.000202396     0.000207294       -0.0867193       0.0749523      0.000882133     0.000756321
                    -0.000127768     0.000416272         0.549773        0.824802       0.00075451     0.000958978         0.018972      -0.0283051
281750                 0.0436872        0.106049      -0.00107626    -0.000610047         0.959356        0.234894     -0.000268628     0.000451049
                     -0.00112027     -0.00050376        0.0362741     -0.00621665     -5.90275e-05      0.00028623         0.549955        0.824246
                        0.958967        0.235282       -0.0002023     0.000207426       -0.0866902       0.0750185      0.000882463     0.000755899
                    -0.000127378     0.000416307         0.550092         0.82459      0.000755118     0.000958836        0.0189247      -0.0283197
281752                 0.0437035        0.106065      -0.00107665    -0.000609702         0.959434        0.234565     -0.000268494     0.000451028
                     -0.00112046    -0.000503435        0.0362641     -0.00619356     -5.89634e-05     0.000286212         0.550274        0.824034
                        0.959046        0.234953     -0.000202206     0.000207558        -0.086661       0.0750847      0.000882796     0.000755476
                    -0.000126988     0.000416341         0.550411        0.824378      0.000755726     0.000958693        0.0188774      -0.0283342
281754                 0.0437197        0.106082      -0.00107703    -0.000609353         0.959512        0.234237     -0.000268358     0.000451006
                     -0.00112065     -0.00050311        0.0362542     -0.00617047     -5.88992e-05     0.000286196         0.550593        0.823822
                        0.959124        0.234624     -0.000202113      0.00020769       -0.0866318        0.075151       0.00088313     0.000755054
                    -0.000126598     0.000416376          0.55073        0.824166      0.000756336     0.000958549          0.01883      -0.0283487
281756                  0.043736        0.106098      -0.00107741    -0.000609004          0.95959        0.233908     -0.000268221     0.000450983
                     -0.00112084    -0.000502784        0.0362443     -0.00614738     -5.88348e-05      0.00028618         0.550912         0.82361
                        0.959203        0.234295      -0.00020202     0.000207824       -0.0866025       0.0752172      0.000883466     0.000754632
                    -0.000126208     0.000416411         0.551049        0.823954      0.000756945     0.000958403        0.0187826      -0.0283631
281758                 0.0437523        0.106115      -0.00107778    -0.000608657         0.959667        0.233579     -0.000268085     0.000450961
                     -0.00112104    -0.000502458        0.0362343     -0.00612429       -5.877e-05     0.000286167         0.551231        0.823397
                        0.959281        0.233965     -0.000201928     0.000207958       -0.0865732       0.0752834      0.000883802     0.000754212
                    -0.000125818     0.000416447         0.551368        0.823741      0.000757554     0.000958257        0.0187352      -0.0283775
281760                 0.0437686        0.106131      -0.00107816    -0.000608312         0.959745         0.23325     -0.000267951     0.000450938
                     -0.00112123    -0.000502132        0.0362244     -0.00610119     -5.87038e-05     0.000286157          0.55155        0.823185
                        0.959359        0.233636     -0.000201835     0.000208093       -0.0865439       0.0753496      0.000884138     0.000753793
                     -0.00012543     0.000416483         0.551686        0.823529      0.000758163      0.00095811        0.0186879      -0.0283919
281762                 0.0437848        0.106147      -0.00107853    -0.000607968         0.959822        0.232921     -0.000267823     0.000450924
                     -0.00112142    -0.000501806        0.0362145     -0.00607809     -5.86332e-05     0.000286155         0.551869        0.822972
                        0.959437        0.233307     -0.000201742     0.000208229       -0.0865145       0.0754158      0.000884473     0.000753373
