! TOUCHSTONE file generated by CST MICROWAVE STUDIO
! Date and time: Wed Oct 15 17:28:34 2025
! Project name: Teste_Macro_Metasurface_Nanopilar.cst
! Parameters = {H=600; L_x=80; L_y=185; Lambda=1064; Max_L=200; Min_L=70; PathPara=1; Phi=0; Step_L=10; Theta=0; p=520; phaseX=180; phaseY=0}
! Header version: 2018
! Port assignment regex: !\s*Touchstone port\s*([0-9]+)\s*=\s*(CST MWS port|CST DS port)\s*([0-9]+|Zmin|Zmax)\s*\(\"(.*)\"\)(\s*mode\s*([0-9]+))?.*
! Touchstone port assignment:
! Touchstone port 1 = CST MWS port Zmax ("") mode 1
! Touchstone port 2 = CST MWS port Zmax ("") mode 2
! Touchstone port 3 = CST MWS port Zmin ("") mode 1
! Touchstone port 4 = CST MWS port Zmin ("") mode 2
! S-Parameters are not renormalized. Each port impedance will be approximated by the real part at minimum frequency. The values are described via the [Reference] keyword.
! Default impedance is overridden by [Reference]
[Version] 2.0
# GHz S RI R 376.73
[Number of Ports] 4
[Reference]
376.73 376.73 259.888 259.888 
[Number of Frequencies] 51
[Network Data]
281700                 0.0978408        0.277019      0.000371998    -0.000177697         0.886383       -0.341556      0.000200038    -0.000117451
                     0.000382619    -0.000193376       -0.0368706      -0.0278824       0.00021367     0.000351676        -0.485589       -0.871486
                        0.886626        -0.34163      0.000215916     0.000339573         0.115423        0.268548      0.000231597     0.000458245
                     0.000252129    -0.000101247        -0.485667       -0.871167      0.000248087     0.000481406       0.00436066       0.0465765
281702                 0.0978802        0.277058      0.000371973    -0.000177819         0.886247       -0.341867      0.000200127    -0.000117542
                     0.000382571    -0.000193466       -0.0368799      -0.0278697      0.000213795       0.0003517        -0.485818       -0.871358
                         0.88649       -0.341941      0.000216107      0.00033959         0.115612         0.26852      0.000232081     0.000458442
                     0.000252182    -0.000101312        -0.485897       -0.871039      0.000248338     0.000481272       0.00436949       0.0465755
281704                 0.0979197        0.277096      0.000371947    -0.000177941          0.88611       -0.342178      0.000200215    -0.000117634
                     0.000382523    -0.000193555       -0.0368892      -0.0278571      0.000213919     0.000351725        -0.486047        -0.87123
                        0.886353       -0.342252      0.000216299     0.000339607         0.115801        0.268492      0.000232565     0.000458639
                     0.000252234    -0.000101378        -0.486126       -0.870911      0.000248589     0.000481138       0.00437832       0.0465745
281706                 0.0979592        0.277135      0.000371922    -0.000178063         0.885974       -0.342489      0.000200304    -0.000117726
                     0.000382475    -0.000193644       -0.0368985      -0.0278445      0.000214044     0.000351749        -0.486276       -0.871101
                        0.886217       -0.342562      0.000216491     0.000339623          0.11599        0.268464      0.000233051     0.000458836
                     0.000252286    -0.000101443        -0.486356       -0.870782       0.00024884     0.000481004       0.00438714       0.0465735
281708                 0.0979987        0.277173      0.000371896    -0.000178185         0.885837       -0.342799      0.000200392    -0.000117819
                     0.000382427    -0.000193732       -0.0369078      -0.0278319      0.000214169     0.000351773        -0.486505       -0.870973
                         0.88608       -0.342873      0.000216683      0.00033964          0.11618        0.268436      0.000233537     0.000459032
                     0.000252337    -0.000101509        -0.486585       -0.870654      0.000249091      0.00048087       0.00439597       0.0465725
281710                 0.0980382        0.277212      0.000371871    -0.000178307           0.8857        -0.34311      0.000200482    -0.000117912
                      0.00038238    -0.000193821       -0.0369171      -0.0278193      0.000214294     0.000351798        -0.486735       -0.870844
                        0.885943       -0.343184      0.000216875     0.000339656         0.116369        0.268407      0.000234025     0.000459228
                     0.000252388    -0.000101575        -0.486814       -0.870526      0.000249342     0.000480736       0.00440479       0.0465715
281712                 0.0980777        0.277251      0.000371845    -0.000178429         0.885563       -0.343421      0.000200571    -0.000118005
                     0.000382333    -0.000193909       -0.0369264      -0.0278067      0.000214418     0.000351822        -0.486964       -0.870716
                        0.885806       -0.343494      0.000217067     0.000339672         0.116558        0.268379      0.000234513     0.000459424
                     0.000252438     -0.00010164        -0.487043       -0.870397      0.000249592     0.000480602       0.00441361       0.0465704
281714                 0.0981172        0.277289      0.000371819    -0.000178551         0.885426       -0.343731       0.00020066    -0.000118099
                     0.000382286    -0.000193996       -0.0369357      -0.0277941      0.000214543     0.000351846        -0.487193       -0.870587
                        0.885669       -0.343805      0.000217259     0.000339688         0.116747         0.26835      0.000235002      0.00045962
                     0.000252487    -0.000101706        -0.487273       -0.870269      0.000249843     0.000480468       0.00442244       0.0465694
281716                 0.0981567        0.277328      0.000371793    -0.000178673         0.885289       -0.344042       0.00020075    -0.000118193
                     0.000382239    -0.000194084        -0.036945      -0.0277814      0.000214668      0.00035187        -0.487422       -0.870458
                        0.885532       -0.344115      0.000217451     0.000339704         0.116937        0.268321      0.000235491     0.000459815
                     0.000252536    -0.000101773        -0.487502        -0.87014      0.000250093     0.000480334       0.00443126       0.0465684
281718                 0.0981963        0.277367      0.000371768    -0.000178794         0.885152       -0.344352       0.00020084    -0.000118288
                     0.000382192    -0.000194171       -0.0369543      -0.0277688      0.000214793     0.000351894        -0.487651       -0.870329
                        0.885395       -0.344426      0.000217644      0.00033972         0.117126        0.268292      0.000235982     0.000460009
                     0.000252583    -0.000101839        -0.487731       -0.870012      0.000250343     0.000480201       0.00444008       0.0465674
281720                 0.0982359        0.277405      0.000371742    -0.000178916         0.885014       -0.344663      0.000200929    -0.000118383
                     0.000382146    -0.000194258       -0.0369636      -0.0277562      0.000214918     0.000351918         -0.48788       -0.870201
                        0.885257       -0.344736      0.000217836     0.000339736         0.117315        0.268263      0.000236473     0.000460204
                     0.000252631    -0.000101905         -0.48796       -0.869883      0.000250592     0.000480067        0.0044489       0.0465664
281722                 0.0982754        0.277444      0.000371716    -0.000179038         0.884877       -0.344973       0.00020102    -0.000118479
                       0.0003821    -0.000194345       -0.0369729      -0.0277435      0.000215043     0.000351942        -0.488109       -0.870072
                         0.88512       -0.345047      0.000218028     0.000339751         0.117505        0.268234      0.000236965     0.000460398
                     0.000252678    -0.000101972        -0.488189       -0.869755      0.000250842     0.000479933       0.00445773       0.0465654
281724                  0.098315        0.277483      0.000371689     -0.00017916         0.884739       -0.345284       0.00020111    -0.000118575
                     0.000382054    -0.000194431       -0.0369821      -0.0277309      0.000215168     0.000351966        -0.488338       -0.869943
                        0.884982       -0.345357      0.000218221     0.000339767         0.117694        0.268205      0.000237458     0.000460591
                     0.000252724    -0.000102038        -0.488418       -0.869626      0.000251092       0.0004798       0.00446655       0.0465644
281726                 0.0983546        0.277521      0.000371663    -0.000179281         0.884601       -0.345594        0.0002012    -0.000118671
                     0.000382008    -0.000194517       -0.0369914      -0.0277183      0.000215293      0.00035199        -0.488567       -0.869814
                        0.884844       -0.345667      0.000218413     0.000339782         0.117884        0.268175      0.000237951     0.000460785
                      0.00025277    -0.000102105        -0.488647       -0.869497      0.000251341     0.000479666       0.00447537       0.0465634
281728                 0.0983942         0.27756      0.000371637    -0.000179403         0.884464       -0.345904      0.000201291    -0.000118768
                     0.000381962    -0.000194603       -0.0370007      -0.0277057      0.000215418     0.000352014        -0.488795       -0.869685
                        0.884707       -0.345977      0.000218605     0.000339797         0.118073        0.268146      0.000238445     0.000460978
                     0.000252815    -0.000102172        -0.488876       -0.869368       0.00025159     0.000479533       0.00448419       0.0465624
281730                 0.0984338        0.277599      0.000371611    -0.000179524         0.884326       -0.346214      0.000201381    -0.000118865
                     0.000381917    -0.000194688         -0.03701       -0.027693      0.000215543     0.000352037        -0.489024       -0.869555
                        0.884568       -0.346287      0.000218798     0.000339812         0.118262        0.268116       0.00023894      0.00046117
                     0.000252859    -0.000102239        -0.489105       -0.869239      0.000251839       0.0004794       0.00449301       0.0465614
281732                 0.0984735        0.277637      0.000371584    -0.000179646         0.884187       -0.346524      0.000201472    -0.000118963
                     0.000381871    -0.000194774       -0.0370193      -0.0276804      0.000215668     0.000352061        -0.489253       -0.869426
                         0.88443       -0.346598       0.00021899     0.000339827         0.118452        0.268086      0.000239436     0.000461362
                     0.000252904    -0.000102306        -0.489334        -0.86911      0.000252088     0.000479266       0.00450183       0.0465604
281734                 0.0985131        0.277676      0.000371558    -0.000179767         0.884049       -0.346835      0.000201563    -0.000119061
                     0.000381824    -0.000194858       -0.0370286      -0.0276677      0.000215793     0.000352084        -0.489482       -0.869297
                        0.884292       -0.346908      0.000219183     0.000339842         0.118641        0.268056      0.000239933     0.000461554
                     0.000252949    -0.000102374        -0.489563       -0.868981      0.000252337     0.000479133       0.00451064       0.0465594
281736                 0.0985528        0.277715      0.000371531    -0.000179889         0.883911       -0.347145      0.000201654    -0.000119159
                     0.000381776    -0.000194942       -0.0370378      -0.0276551      0.000215919     0.000352108         -0.48971       -0.869168
                        0.884154       -0.347218      0.000219375     0.000339856         0.118831        0.268026       0.00024043     0.000461745
                     0.000252994    -0.000102442        -0.489792       -0.868852      0.000252586        0.000479       0.00451946       0.0465584
281738                 0.0985924        0.277753      0.000371504     -0.00018001         0.883772       -0.347455      0.000201744    -0.000119258
                     0.000381723    -0.000195025       -0.0370471      -0.0276425      0.000216044     0.000352131        -0.489939       -0.869038
                        0.884015       -0.347528      0.000219568     0.000339871          0.11902        0.267996      0.000240928     0.000461936
                     0.000253045    -0.000102512        -0.490021       -0.868723      0.000252834     0.000478867       0.00452828       0.0465574
281740                 0.0986321        0.277792      0.000371478    -0.000180131         0.883634       -0.347764      0.000201835    -0.000119358
                     0.000381621    -0.000195096       -0.0370564      -0.0276298      0.000216169     0.000352154        -0.490168       -0.868909
                        0.883877       -0.347838       0.00021976     0.000339885          0.11921        0.267966      0.000241426     0.000462127
                     0.000253138    -0.000102592         -0.49025       -0.868593      0.000253083     0.000478734        0.0045371       0.0465564
281742                 0.0986718        0.277831      0.000371451    -0.000180252         0.883495       -0.348074      0.000201926    -0.000119458
                     0.000381712    -0.000195213       -0.0370657      -0.0276172      0.000216294     0.000352178        -0.490397       -0.868779
                        0.883738       -0.348147      0.000219953     0.000339899         0.119399        0.267935      0.000241925     0.000462317
                     0.000253046    -0.000102632        -0.490479       -0.868464      0.000253331     0.000478601       0.00454592       0.0465555
281744                 0.0987115        0.277869      0.000371424    -0.000180373         0.883356       -0.348384      0.000202017    -0.000119558
                     0.000381636    -0.000195288       -0.0370749      -0.0276045       0.00021642     0.000352201        -0.490625        -0.86865
                        0.883599       -0.348457      0.000220145     0.000339913         0.119589        0.267905      0.000242425     0.000462506
                     0.000253121    -0.000102706        -0.490707       -0.868335      0.000253579     0.000478468       0.00455473       0.0465545
281746                 0.0987512        0.277908      0.000371396    -0.000180492         0.883217       -0.348694      0.000202109    -0.000119659
                     0.000381585     -0.00019537       -0.0370842      -0.0275919      0.000216545     0.000352224        -0.490854        -0.86852
                         0.88346       -0.348767      0.000220337     0.000339926         0.119778        0.267874      0.000242926     0.000462696
                     0.000253168    -0.000102775        -0.490936       -0.868205      0.000253827     0.000478335       0.00456355       0.0465535
281748                  0.098791        0.277947      0.000371369     -0.00018061         0.883078       -0.349004        0.0002022     -0.00011976
                     0.000381539    -0.000195452       -0.0370935      -0.0275792      0.000216671     0.000352247        -0.491082        -0.86839
                        0.883321       -0.349077      0.000220528     0.000339938         0.119968        0.267843      0.000243427     0.000462885
                      0.00025321    -0.000102844        -0.491165       -0.868076      0.000254075     0.000478202       0.00457236       0.0465525
281750                 0.0988307        0.277986      0.000371345    -0.000180722         0.882939       -0.349313      0.000202291    -0.000119861
                     0.000381495    -0.000195535       -0.0371028      -0.0275666      0.000216796     0.000352269        -0.491311       -0.868261
                        0.883182       -0.349386      0.000220713     0.000339945         0.120158        0.267812      0.000243928     0.000463074
                     0.000253249    -0.000102912        -0.491394       -0.867946      0.000254323      0.00047807       0.00458118       0.0465515
281752                 0.0988705        0.278024      0.000371336    -0.000180851           0.8828       -0.349623      0.000202381    -0.000119963
                     0.000381452    -0.000195618        -0.037112      -0.0275539      0.000216921     0.000352292        -0.491539       -0.868131
                        0.883043       -0.349696      0.000220878     0.000339991         0.120347        0.267781      0.000244429     0.000463265
                     0.000253287    -0.000102981        -0.491622       -0.867816      0.000254571     0.000477937          0.00459       0.0465505
281754                 0.0989102        0.278063      0.000371304    -0.000180981         0.882661       -0.349933      0.000202472    -0.000120066
                     0.000381409    -0.000195701       -0.0371213      -0.0275413      0.000217047     0.000352315        -0.491768       -0.868001
                        0.882903       -0.350005      0.000221105     0.000340005         0.120537         0.26775      0.000244922     0.000463441
                     0.000253324    -0.000103049        -0.491851       -0.867687      0.000254818     0.000477805       0.00459881       0.0465496
281756                   0.09895        0.278102      0.000371274    -0.000181103         0.882521       -0.350242      0.000202563    -0.000120168
                     0.000381367    -0.000195783       -0.0371305      -0.0275286      0.000217173     0.000352337        -0.491996       -0.867871
                        0.882764       -0.350315        0.0002213     0.000340014         0.120726        0.267719      0.000245435     0.000463629
                      0.00025336    -0.000103118        -0.492079       -0.867557      0.000255066     0.000477673       0.00460762       0.0465486
281758                 0.0989898        0.278141      0.000371246    -0.000181224         0.882382       -0.350552      0.000202652     -0.00012027
                     0.000381326    -0.000195865       -0.0371398      -0.0275159      0.000217299     0.000352359        -0.492224       -0.867741
                        0.882624       -0.350624      0.000221493     0.000340026         0.120916        0.267687       0.00024594     0.000463816
                     0.000253395    -0.000103186        -0.492308       -0.867427      0.000255315     0.000477541       0.00461644       0.0465476
281760                 0.0990296        0.278179      0.000371218    -0.000181345         0.882242       -0.350861      0.000202743     -0.00012037
                     0.000381284    -0.000195947       -0.0371491      -0.0275033      0.000217426     0.000352381        -0.492453       -0.867611
                        0.882484       -0.350934      0.000221686     0.000340039         0.121106        0.267656      0.000246444     0.000464002
                     0.000253429    -0.000103255        -0.492536       -0.867297      0.000255568     0.000477408       0.00462525       0.0465466
281762                 0.0990694        0.278218      0.000371192    -0.000181465         0.882102        -0.35117       0.00020284    -0.000120471
                     0.000381243    -0.000196029       -0.0371583      -0.0274906      0.000217552     0.000352406        -0.492681       -0.867481
                        0.882344       -0.351243      0.000221879     0.000340053         0.121295        0.267624      0.000246949     0.000464187
