! TOUCHSTONE file generated by CST MICROWAVE STUDIO
! Date and time: Wed Oct 15 17:32:59 2025
! Project name: Teste_Macro_Metasurface_Nanopilar.cst
! Parameters = {H=600; L_x=160; L_y=100; Lambda=1064; Max_L=200; Min_L=70; PathPara=1; Phi=0; Step_L=10; Theta=0; p=520; phaseX=180; phaseY=0}
! Header version: 2018
! Port assignment regex: !\s*Touchstone port\s*([0-9]+)\s*=\s*(CST MWS port|CST DS port)\s*([0-9]+|Zmin|Zmax)\s*\(\"(.*)\"\)(\s*mode\s*([0-9]+))?.*
! Touchstone port assignment:
! Touchstone port 1 = CST MWS port Zmax ("") mode 1
! Touchstone port 2 = CST MWS port Zmax ("") mode 2
! Touchstone port 3 = CST MWS port Zmin ("") mode 1
! Touchstone port 4 = CST MWS port Zmin ("") mode 2
! S-Parameters are not renormalized. Each port impedance will be approximated by the real part at minimum frequency. The values are described via the [Reference] keyword.
! Default impedance is overridden by [Reference]
[Version] 2.0
# GHz S RI R 376.73
[Number of Ports] 4
[Reference]
376.73 376.73 259.888 259.888 
[Number of Frequencies] 51
[Network Data]
281700                   0.12989        0.119637     -0.000234178     0.000773905        -0.938946        0.272268     -2.06941e-05    -0.000607422
                    -0.000271089      0.00090155         0.100258        0.201434       0.00054515     0.000421977         0.925511       -0.288126
                       -0.938612        0.272674      0.000475022     0.000465233       -0.0444581        0.170254     -0.000907456    -0.000610697
                     -8.9731e-06     -0.00074716         0.925352       -0.288313     -0.000924868    -0.000574166        0.0331909        0.221511
281702                  0.129915        0.119629     -0.000233997     0.000774001        -0.938845        0.272607     -2.09744e-05    -0.000607393
                    -0.000270919     0.000901683         0.100281        0.201456      0.000545315     0.000421782         0.925408       -0.288432
                       -0.938511        0.273013      0.000475163     0.000465033       -0.0443602        0.170293     -0.000907824    -0.000610299
                    -9.22008e-06    -0.000747149         0.925249       -0.288618      -0.00092522    -0.000573775        0.0333317         0.22152
281704                   0.12994        0.119622     -0.000233817     0.000774098        -0.938744        0.272946     -2.12549e-05    -0.000607363
                    -0.000270749     0.000901815         0.100305        0.201479      0.000545479     0.000421588         0.925305       -0.288737
                       -0.938409        0.273352      0.000475303     0.000464834       -0.0442623        0.170332     -0.000908192    -0.000609902
                    -9.46696e-06    -0.000747138         0.925146       -0.288923     -0.000925571    -0.000573383        0.0334725         0.22153
281706                  0.129965        0.119614     -0.000233636     0.000774195        -0.938642        0.273285     -2.15356e-05    -0.000607333
                    -0.000270579     0.000901948         0.100329        0.201502      0.000545643     0.000421393         0.925203       -0.289043
                       -0.938307        0.273691      0.000475443     0.000464634       -0.0441643        0.170371     -0.000908559    -0.000609504
                    -9.71375e-06    -0.000747127         0.925044       -0.289229     -0.000925923    -0.000572992        0.0336134        0.221539
281708                  0.129989        0.119606     -0.000233455     0.000774291         -0.93854        0.273623     -2.18163e-05    -0.000607302
                    -0.000270409     0.000902081         0.100353        0.201524      0.000545807     0.000421198           0.9251       -0.289348
                       -0.938205        0.274029      0.000475583     0.000464434       -0.0440663         0.17041     -0.000908927    -0.000609106
                    -9.96043e-06    -0.000747115          0.92494       -0.289534     -0.000926273      -0.0005726        0.0337543        0.221548
281710                  0.130014        0.119598     -0.000233274     0.000774388        -0.938438        0.273962     -2.20972e-05    -0.000607272
                    -0.000270238     0.000902213         0.100377        0.201547      0.000545971     0.000421003         0.924997       -0.289653
                       -0.938103        0.274368      0.000475724     0.000464234       -0.0439683        0.170449     -0.000909294    -0.000608707
                     -1.0207e-05    -0.000747103         0.924837       -0.289839     -0.000926624    -0.000572209        0.0338952        0.221558
281712                  0.130039        0.119591     -0.000233094     0.000774484        -0.938336        0.274301     -2.23781e-05    -0.000607242
                    -0.000270068     0.000902345           0.1004        0.201569      0.000546135     0.000420809         0.924894       -0.289958
                       -0.938001        0.274707      0.000475864     0.000464034       -0.0438702        0.170487      -0.00090966    -0.000608309
                    -1.04535e-05    -0.000747091         0.924734       -0.290144     -0.000926975    -0.000571818        0.0340361        0.221567
281714                  0.130064        0.119583     -0.000232913      0.00077458        -0.938234        0.274639     -2.26592e-05    -0.000607211
                    -0.000269898     0.000902478         0.100424        0.201592      0.000546299     0.000420614          0.92479       -0.290264
                       -0.937899        0.275046      0.000476004     0.000463834       -0.0437722        0.170526     -0.000910027     -0.00060791
                    -1.06998e-05    -0.000747078         0.924631       -0.290449     -0.000927325    -0.000571426        0.0341771        0.221576
281716                  0.130089        0.119575     -0.000232732     0.000774676        -0.938132        0.274978     -2.29403e-05     -0.00060718
                    -0.000269727      0.00090261         0.100448        0.201614      0.000546463     0.000420419         0.924687       -0.290569
                       -0.937796        0.275384      0.000476144     0.000463634        -0.043674        0.170564     -0.000910393    -0.000607511
                    -1.09461e-05    -0.000747065         0.924527       -0.290755     -0.000927674    -0.000571034        0.0343181        0.221585
281718                  0.130114        0.119567     -0.000232551     0.000774772         -0.93803        0.275317     -2.32216e-05    -0.000607149
                    -0.000269557     0.000902742         0.100472        0.201637      0.000546627     0.000420224         0.924584       -0.290874
                       -0.937694        0.275723      0.000476284     0.000463434       -0.0435759        0.170603     -0.000910759    -0.000607111
                    -1.11922e-05    -0.000747052         0.924424        -0.29106     -0.000928024    -0.000570643        0.0344592        0.221594
281720                  0.130139        0.119559      -0.00023237     0.000774868        -0.937927        0.275655     -2.35029e-05    -0.000607118
                    -0.000269386     0.000902873         0.100496        0.201659       0.00054679     0.000420029          0.92448       -0.291179
                       -0.937591        0.276061      0.000476424     0.000463234       -0.0434777        0.170641     -0.000911125    -0.000606712
                    -1.14382e-05    -0.000747039          0.92432       -0.291365     -0.000928373    -0.000570251        0.0346002        0.221603
281722                  0.130164        0.119552     -0.000232189     0.000774964        -0.937824        0.275994     -2.37843e-05    -0.000607087
                    -0.000269215     0.000903005          0.10052        0.201682      0.000546954     0.000419834         0.924377       -0.291484
                       -0.937489          0.2764      0.000476563     0.000463033       -0.0433795         0.17068      -0.00091149    -0.000606312
                    -1.16841e-05    -0.000747026         0.924216        -0.29167     -0.000928722    -0.000569859        0.0347413        0.221611
281724                  0.130188        0.119544     -0.000232008      0.00077506        -0.937722        0.276332     -2.40657e-05    -0.000607056
                    -0.000269045     0.000903136         0.100543        0.201705      0.000547117     0.000419638         0.924273       -0.291789
                       -0.937386        0.276738      0.000476703     0.000462833       -0.0432813        0.170718     -0.000911856    -0.000605912
                    -1.19299e-05    -0.000747012         0.924112       -0.291975     -0.000929071    -0.000569467        0.0348824         0.22162
281726                  0.130213        0.119536     -0.000231827     0.000775155        -0.937619         0.27667     -2.43472e-05    -0.000607025
                    -0.000268874     0.000903268         0.100567        0.201727       0.00054728     0.000419443         0.924169       -0.292094
                       -0.937283        0.277077      0.000476843     0.000462633        -0.043183        0.170756     -0.000912221    -0.000605511
                    -1.21755e-05    -0.000746998         0.924008        -0.29228      -0.00092942    -0.000569075        0.0350236        0.221629
281728                  0.130238        0.119528     -0.000231646     0.000775251        -0.937516        0.277009     -2.46288e-05    -0.000606993
                    -0.000268703     0.000903399         0.100591         0.20175      0.000547444     0.000419248         0.924065       -0.292399
                        -0.93718        0.277415      0.000476982     0.000462432       -0.0430847        0.170794     -0.000912586     -0.00060511
                    -1.24211e-05    -0.000746983         0.923904       -0.292585     -0.000929768    -0.000568683        0.0351647        0.221637
281730                  0.130263         0.11952     -0.000231465     0.000775346        -0.937413        0.277347     -2.49104e-05    -0.000606962
                    -0.000268532      0.00090353         0.100615        0.201772      0.000547607     0.000419053         0.923961       -0.292704
                       -0.937076        0.277754      0.000477122     0.000462232       -0.0429863        0.170833      -0.00091295     -0.00060471
                    -1.26665e-05    -0.000746968           0.9238       -0.292889     -0.000930116    -0.000568291        0.0353059        0.221646
281732                  0.130288        0.119513     -0.000231284     0.000775442         -0.93731        0.277686     -2.51921e-05     -0.00060693
                    -0.000268361     0.000903661         0.100639        0.201795       0.00054777     0.000418857         0.923857       -0.293009
                       -0.936973        0.278092      0.000477261     0.000462031        -0.042888        0.170871     -0.000913314    -0.000604308
                    -1.29117e-05    -0.000746954         0.923696       -0.293194     -0.000930464    -0.000567898        0.0354472        0.221654
281734                  0.130313        0.119505     -0.000231103     0.000775537        -0.937206        0.278024     -2.54738e-05    -0.000606898
                    -0.000268191     0.000903791         0.100663        0.201818      0.000547933     0.000418662         0.923753       -0.293314
                        -0.93687        0.278431      0.000477401     0.000461831       -0.0427896        0.170909     -0.000913678    -0.000603907
                    -1.31569e-05    -0.000746938         0.923591       -0.293499     -0.000930811    -0.000567506        0.0355884        0.221662
281736                  0.130338        0.119497     -0.000230922     0.000775632        -0.937103        0.278362     -2.57555e-05    -0.000606866
                     -0.00026802     0.000903922         0.100687         0.20184      0.000548096     0.000418467         0.923648       -0.293619
                       -0.936766        0.278769       0.00047754      0.00046163       -0.0426911        0.170947     -0.000914042    -0.000603505
                    -1.34019e-05    -0.000746923         0.923487       -0.293804     -0.000931158    -0.000567113        0.0357297         0.22167
281738                  0.130363        0.119489     -0.000230741     0.000775727        -0.936999          0.2787     -2.60373e-05    -0.000606834
                    -0.000267849     0.000904052          0.10071        0.201863      0.000548259     0.000418271         0.923544       -0.293924
                       -0.936662        0.279107      0.000477679     0.000461429       -0.0425927        0.170984     -0.000914406    -0.000603103
                    -1.36467e-05    -0.000746907         0.923382       -0.294109     -0.000931505     -0.00056672         0.035871        0.221678
281740                  0.130387        0.119481     -0.000230559     0.000775822        -0.936895        0.279039     -2.63191e-05    -0.000606802
                    -0.000267678     0.000904182         0.100734        0.201886      0.000548422     0.000418076         0.923439       -0.294229
                       -0.936558        0.279445      0.000477818     0.000461228       -0.0424942        0.171022     -0.000914769    -0.000602701
                    -1.38915e-05    -0.000746891         0.923277       -0.294413     -0.000931852    -0.000566327        0.0360123        0.221686
281742                  0.130412        0.119473     -0.000230378     0.000775916        -0.936792        0.279377      -2.6601e-05    -0.000606769
                    -0.000267506     0.000904313         0.100758        0.201908      0.000548584      0.00041788         0.923335       -0.294533
                       -0.936454        0.279784      0.000477958     0.000461028       -0.0423956         0.17106     -0.000915132    -0.000602299
                     -1.4136e-05    -0.000746875         0.923173       -0.294718     -0.000932198    -0.000565934        0.0361537        0.221694
281744                  0.130437        0.119465     -0.000230197     0.000776011        -0.936688        0.279715     -2.68829e-05    -0.000606737
                    -0.000267335     0.000904442         0.100782        0.201931      0.000548747     0.000417684          0.92323       -0.294838
                        -0.93635        0.280122      0.000478097     0.000460827       -0.0422971        0.171098     -0.000915495    -0.000601896
                    -1.43805e-05    -0.000746858         0.923068       -0.295023     -0.000932545    -0.000565541        0.0362951        0.221702
281746                  0.130462        0.119458     -0.000230016     0.000776106        -0.936583        0.280053     -2.71649e-05    -0.000606704
                    -0.000267164     0.000904572         0.100806        0.201953      0.000548909     0.000417488         0.923125       -0.295143
                       -0.936246         0.28046      0.000478236     0.000460626       -0.0421985        0.171135     -0.000915857    -0.000601493
                    -1.46248e-05    -0.000746841         0.922963       -0.295327     -0.000932891    -0.000565148        0.0364365         0.22171
281748                  0.130487         0.11945     -0.000229834       0.0007762        -0.936479        0.280391     -2.74471e-05    -0.000606672
                    -0.000266993     0.000904702          0.10083        0.201976      0.000549072     0.000417293          0.92302       -0.295447
                       -0.936142        0.280798      0.000478375     0.000460425       -0.0420998        0.171173      -0.00091622     -0.00060109
                    -1.48689e-05    -0.000746824         0.922858       -0.295632     -0.000933236    -0.000564754        0.0365779        0.221717
281750                  0.130512        0.119442     -0.000229653     0.000776294        -0.936375        0.280729     -2.77296e-05     -0.00060664
                    -0.000266822     0.000904831         0.100854        0.201999      0.000549234     0.000417097         0.922915       -0.295752
                       -0.936037        0.281136      0.000478513     0.000460224       -0.0420012        0.171211     -0.000916581    -0.000600686
                     -1.5113e-05    -0.000746807         0.922752       -0.295936     -0.000933582    -0.000564361        0.0367194        0.221725
281752                  0.130537        0.119434     -0.000229471     0.000776389         -0.93627        0.281067     -2.80127e-05    -0.000606608
                     -0.00026665     0.000904961         0.100878        0.202021      0.000549396     0.000416901          0.92281       -0.296057
                       -0.935933        0.281474      0.000478652     0.000460022       -0.0419025        0.171248      -0.00091694    -0.000600282
                    -1.53568e-05    -0.000746789         0.922647       -0.296241     -0.000933927    -0.000563967        0.0368609        0.221732
281754                  0.130561        0.119426      -0.00022929     0.000776483        -0.936166        0.281405     -2.82939e-05    -0.000606584
                    -0.000266479      0.00090509         0.100902        0.202044      0.000549559     0.000416705         0.922705       -0.296361
                       -0.935828        0.281812      0.000478791     0.000459821       -0.0418038        0.171285     -0.000917316    -0.000599893
                    -1.56005e-05    -0.000746771         0.922542       -0.296545     -0.000934272    -0.000563573        0.0370024         0.22174
281756                  0.130586        0.119418     -0.000229108     0.000776576        -0.936061        0.281743     -2.85626e-05    -0.000606541
                    -0.000266308     0.000905219         0.100926        0.202067      0.000549721     0.000416509         0.922599       -0.296666
                       -0.935723         0.28215       0.00047893     0.000459619        -0.041705        0.171323     -0.000917672    -0.000599478
                    -1.58441e-05    -0.000746752         0.922436        -0.29685     -0.000934617    -0.000563179        0.0371439        0.221747
281758                  0.130611         0.11941     -0.000228931     0.000776671        -0.935956        0.282081      -2.8849e-05    -0.000606505
                    -0.000266136     0.000905347          0.10095        0.202089      0.000549883     0.000416312         0.922494        -0.29697
                       -0.935618        0.282488      0.000479069     0.000459422       -0.0416062         0.17136     -0.000918032    -0.000599073
                    -1.60875e-05    -0.000746734          0.92233       -0.297154     -0.000934961    -0.000562785        0.0372855        0.221754
281760                  0.130636        0.119402     -0.000228747     0.000776765        -0.935851        0.282419     -2.91323e-05    -0.000606471
                    -0.000265965     0.000905476         0.100973        0.202112      0.000550045     0.000416116         0.922388       -0.297275
                       -0.935513        0.282826      0.000479207     0.000459218       -0.0415074        0.171397     -0.000918393    -0.000598668
                    -1.63307e-05    -0.000746715         0.922225       -0.297459     -0.000935305     -0.00056239        0.0374271        0.221761
281762                  0.130661        0.119394     -0.000228565     0.000776858        -0.935746        0.282757     -2.94148e-05    -0.000606437
                    -0.000265793     0.000905604         0.100997        0.202135      0.000550206      0.00041592         0.922282       -0.297579
                       -0.935408        0.283164      0.000479346     0.000459017       -0.0414086        0.171435     -0.000918754    -0.000598263
