! TOUCHSTONE file generated by CST MICROWAVE STUDIO
! Date and time: Wed Oct 15 17:31:01 2025
! Project name: Teste_Macro_Metasurface_Nanopilar.cst
! Parameters = {H=600; L_x=125; L_y=125; Lambda=1064; Max_L=200; Min_L=70; PathPara=1; Phi=0; Step_L=10; Theta=0; p=520; phaseX=180; phaseY=0}
! Header version: 2018
! Port assignment regex: !\s*Touchstone port\s*([0-9]+)\s*=\s*(CST MWS port|CST DS port)\s*([0-9]+|Zmin|Zmax)\s*\(\"(.*)\"\)(\s*mode\s*([0-9]+))?.*
! Touchstone port assignment:
! Touchstone port 1 = CST MWS port Zmax ("") mode 1
! Touchstone port 2 = CST MWS port Zmax ("") mode 2
! Touchstone port 3 = CST MWS port Zmin ("") mode 1
! Touchstone port 4 = CST MWS port Zmin ("") mode 2
! S-Parameters are not renormalized. Each port impedance will be approximated by the real part at minimum frequency. The values are described via the [Reference] keyword.
! Default impedance is overridden by [Reference]
[Version] 2.0
# GHz S RI R 376.73
[Number of Ports] 4
[Reference]
376.73 376.73 259.888 259.888 
[Number of Frequencies] 51
[Network Data]
281700                 0.0211762        0.028587     -5.16511e-05      0.00019059         0.662868         0.73757     -0.000302655     0.000275886
                    -8.80138e-05     0.000197796        0.0207492        0.027118     -2.89129e-05     0.000247052         0.664676        0.735612
                        0.663119        0.736826     -0.000165242     0.000330349       -0.0266814      -0.0214121     -0.000283608     6.61589e-06
                    -0.000300416      0.00016373         0.664481        0.735877     -0.000302615     0.000210198       -0.0253364       -0.020762
281702                   0.02118       0.0286129     -5.16822e-05      0.00019044         0.663146        0.737318     -0.000302479     0.000275919
                    -8.78766e-05      0.00019771        0.0207527       0.0271436     -2.88559e-05     0.000247137         0.664954         0.73536
                        0.663397        0.736575     -0.000165148     0.000330499       -0.0267232      -0.0213988     -0.000283428     6.80059e-06
                    -0.000300352     0.000163824         0.664759        0.735624     -0.000302271     0.000210055       -0.0253775      -0.0207491
281704                 0.0211838       0.0286387     -5.17134e-05      0.00019029         0.663424        0.737065     -0.000302303     0.000275954
                    -8.77395e-05     0.000197625        0.0207562       0.0271691     -2.87997e-05     0.000247222         0.665233        0.735108
                        0.663676        0.736323     -0.000165055     0.000330648        -0.026765      -0.0213853     -0.000283249     6.98507e-06
                    -0.000300287     0.000163918         0.665038         0.73537     -0.000301927     0.000209913       -0.0254185      -0.0207361
281706                 0.0211876       0.0286646     -5.17448e-05      0.00019014         0.663702        0.736813     -0.000302128     0.000275989
                    -8.76026e-05     0.000197539        0.0207597       0.0271947     -2.87441e-05     0.000247308         0.665511        0.734856
                        0.663954        0.736072     -0.000164963     0.000330797       -0.0268068      -0.0213719     -0.000283069     7.16935e-06
                    -0.000300223     0.000164011         0.665316        0.735117     -0.000301582      0.00020977       -0.0254596      -0.0207231
281708                 0.0211914       0.0286905     -5.17763e-05      0.00018999          0.66398         0.73656     -0.000301953     0.000276024
                    -8.74659e-05     0.000197453        0.0207631       0.0272203     -2.86891e-05     0.000247393         0.665789        0.734603
                        0.664233         0.73582      -0.00016487     0.000330946       -0.0268485      -0.0213584      -0.00028289     7.35342e-06
                    -0.000300159     0.000164104         0.665594        0.734863     -0.000301237     0.000209627       -0.0255006      -0.0207101
281710                 0.0211953       0.0287163      -5.1808e-05      0.00018984         0.664258        0.736307     -0.000301778      0.00027606
                    -8.73293e-05     0.000197367        0.0207666       0.0272459     -2.86347e-05     0.000247478         0.666067        0.734351
                        0.664511        0.735568     -0.000164777     0.000331094       -0.0268903      -0.0213448      -0.00028271      7.5373e-06
                    -0.000300095     0.000164198         0.665871         0.73461     -0.000300892     0.000209485       -0.0255416       -0.020697
281712                 0.0211991       0.0287422     -5.18399e-05      0.00018969         0.664535        0.736054     -0.000301602     0.000276096
                    -8.71928e-05     0.000197281        0.0207701       0.0272715      -2.8581e-05     0.000247563         0.666344        0.734099
                        0.664789        0.735317     -0.000164685     0.000331242       -0.0269321      -0.0213312     -0.000282531     7.72098e-06
                    -0.000300031     0.000164291         0.666149        0.734356     -0.000300546     0.000209343       -0.0255826      -0.0206839
281714                 0.0212029        0.028768     -5.18718e-05      0.00018954         0.664813        0.735801     -0.000301427     0.000276132
                    -8.70565e-05     0.000197195        0.0207736        0.027297     -2.85279e-05     0.000247647         0.666622        0.733846
                        0.665067        0.735065     -0.000164593      0.00033139       -0.0269738      -0.0213176     -0.000282351     7.90446e-06
                    -0.000299967     0.000164384         0.666427        0.734102       -0.0003002       0.0002092       -0.0256236      -0.0206707
281716                 0.0212068       0.0287939      -5.1904e-05      0.00018939         0.665091        0.735548     -0.000301252     0.000276168
                    -8.69203e-05     0.000197109        0.0207772       0.0273226     -2.84753e-05     0.000247732           0.6669        0.733593
                        0.665345        0.734813     -0.000164501     0.000331537       -0.0270156      -0.0213039     -0.000282171     8.08774e-06
                    -0.000299903     0.000164477         0.666704        0.733848     -0.000299854     0.000209058       -0.0256646      -0.0206575
281718                 0.0212107       0.0288197     -5.19362e-05     0.000189239         0.665368        0.735295     -0.000301077     0.000276205
                    -8.67843e-05     0.000197022        0.0207807       0.0273482     -2.84234e-05     0.000247817         0.667177         0.73334
                        0.665623        0.734561     -0.000164409     0.000331684       -0.0270573      -0.0212902     -0.000281991     8.27079e-06
                    -0.000299839      0.00016457         0.666982        0.733594     -0.000299507     0.000208916       -0.0257056      -0.0206443
281720                 0.0212145       0.0288456     -5.19687e-05     0.000189089         0.665645        0.735041     -0.000300902     0.000276241
                    -8.66484e-05     0.000196936        0.0207842       0.0273737     -2.83721e-05     0.000247901         0.667454        0.733087
                        0.665901        0.734308     -0.000164317     0.000331831        -0.027099      -0.0212764     -0.000281811     8.45361e-06
                    -0.000299776     0.000164662         0.667259         0.73334      -0.00029916     0.000208774       -0.0257466       -0.020631
281722                 0.0212184       0.0288714     -5.20013e-05     0.000188938         0.665922        0.734788     -0.000300727     0.000276277
                    -8.65126e-05     0.000196849        0.0207878       0.0273993     -2.83214e-05     0.000247985         0.667732        0.732834
                        0.666179        0.734056     -0.000164226     0.000331978       -0.0271407      -0.0212626     -0.000281631     8.63616e-06
                    -0.000299712     0.000164755         0.667536        0.733086     -0.000298813     0.000208632       -0.0257875      -0.0206177
281724                 0.0212223       0.0288973      -5.2034e-05     0.000188788         0.666199        0.734534     -0.000300552     0.000276313
                     -8.6377e-05     0.000196763        0.0207913       0.0274249     -2.82713e-05      0.00024807         0.668009        0.732581
                        0.666456        0.733804     -0.000164134     0.000332124       -0.0271825      -0.0212488      -0.00028145     8.81842e-06
                    -0.000299649     0.000164848         0.667813        0.732832     -0.000298466     0.000208491       -0.0258285      -0.0206043
281726                 0.0212262       0.0289231      -5.2067e-05     0.000188637         0.666476        0.734281     -0.000300377     0.000276348
                    -8.62414e-05     0.000196676        0.0207949       0.0274504     -2.82217e-05     0.000248154         0.668286        0.732328
                        0.666734        0.733551     -0.000164043      0.00033227       -0.0272241      -0.0212349      -0.00028127     9.00037e-06
                    -0.000299586      0.00016494          0.66809        0.732577     -0.000298118     0.000208349       -0.0258694      -0.0205909
281728                 0.0212301       0.0289489     -5.21002e-05     0.000188487         0.666753        0.734027     -0.000300202     0.000276384
                    -8.61059e-05     0.000196589        0.0207984        0.027476     -2.81727e-05     0.000248238         0.668563        0.732075
                        0.667011        0.733298     -0.000163952     0.000332416       -0.0272658      -0.0212209     -0.000281089     9.18197e-06
                    -0.000299523     0.000165033         0.668367        0.732323     -0.000297769     0.000208207       -0.0259103      -0.0205774
281730                  0.021234       0.0289748     -5.21338e-05     0.000188336          0.66703        0.733773     -0.000300027      0.00027642
                    -8.59704e-05     0.000196503         0.020802       0.0275015     -2.81243e-05     0.000248322          0.66884        0.731821
                        0.667289        0.733046     -0.000163859     0.000332563       -0.0273075      -0.0212069     -0.000280908      9.3632e-06
                    -0.000299459     0.000165125         0.668644        0.732068     -0.000297421     0.000208066       -0.0259513      -0.0205639
281732                 0.0212379       0.0290006     -5.21675e-05     0.000188186         0.667307        0.733519     -0.000299853     0.000276455
                    -8.58347e-05     0.000196416        0.0208056        0.027527     -2.80765e-05     0.000248405         0.669116        0.731568
                        0.667566        0.732793     -0.000163765     0.000332714       -0.0273492      -0.0211929     -0.000280726     9.54403e-06
                    -0.000299396     0.000165217          0.66892        0.731813     -0.000297072     0.000207924       -0.0259922      -0.0205503
281734                 0.0212418       0.0290264     -5.22012e-05     0.000188036         0.667583        0.733265     -0.000299678     0.000276491
                    -8.56979e-05     0.000196329        0.0208091       0.0275526     -2.80292e-05     0.000248489         0.669393        0.731314
                        0.667843         0.73254     -0.000163799     0.000332852       -0.0273908      -0.0211788     -0.000280544     9.72443e-06
                    -0.000299333      0.00016531         0.669198        0.731558     -0.000296723     0.000207783       -0.0260331      -0.0205368
281736                 0.0212457       0.0290522     -5.22343e-05     0.000187886          0.66786        0.733011     -0.000299503     0.000276526
                    -8.55536e-05     0.000196264        0.0208127       0.0275781     -2.79824e-05     0.000248573          0.66967        0.731061
                         0.66812        0.732287     -0.000163603     0.000332983       -0.0274325      -0.0211647     -0.000280362     9.90436e-06
                    -0.000299271     0.000165402         0.669474        0.731303     -0.000296374     0.000207641        -0.026074      -0.0205231
281738                 0.0212497        0.029078     -5.22673e-05     0.000187736         0.668136        0.732756     -0.000299329     0.000276561
                    -8.54376e-05     0.000196155        0.0208163       0.0276037     -2.79362e-05     0.000248656         0.669946        0.730807
                        0.668397        0.732034     -0.000163508      0.00033313       -0.0274741      -0.0211506      -0.00028018     1.00838e-05
                    -0.000299208     0.000165494          0.66975        0.731048     -0.000296024       0.0002075       -0.0261149      -0.0205095
281740                 0.0212536       0.0291039     -5.23004e-05     0.000187585         0.668412        0.732502     -0.000299154     0.000276596
                    -8.53007e-05     0.000196067        0.0208199       0.0276292     -2.78906e-05     0.000248739         0.670222        0.730553
                        0.668673         0.73178     -0.000163417     0.000333274       -0.0275157      -0.0211364     -0.000279998     1.02628e-05
                    -0.000299145     0.000165586         0.670027        0.730793     -0.000295674     0.000207359       -0.0261557      -0.0204957
281742                 0.0212576       0.0291297     -5.23338e-05     0.000187434         0.668689        0.732248     -0.000298979     0.000276631
                    -8.51656e-05      0.00019598        0.0208235       0.0276547     -2.78454e-05     0.000248822         0.670499        0.730299
                         0.66895        0.731527     -0.000163327     0.000333418       -0.0275573      -0.0211221     -0.000279815     1.04412e-05
                    -0.000299083     0.000165677         0.670303        0.730538     -0.000295324     0.000207217       -0.0261966       -0.020482
281744                 0.0212615       0.0291555     -5.23674e-05     0.000187283         0.668965        0.731993     -0.000298805     0.000276665
                     -8.5031e-05     0.000195892        0.0208272       0.0276803     -2.78008e-05     0.000248905         0.670775        0.730045
                        0.669227        0.731274     -0.000163237     0.000333561       -0.0275989      -0.0211078     -0.000279633      1.0619e-05
                    -0.000299021      0.00016577         0.670579        0.730283     -0.000294973     0.000207076       -0.0262375      -0.0204682
281746                 0.0212655       0.0291813     -5.24012e-05     0.000187132         0.669241        0.731738      -0.00029863       0.0002767
                    -8.48967e-05     0.000195805        0.0208308       0.0277058     -2.77568e-05     0.000248988         0.671051         0.72979
                        0.669503         0.73102     -0.000163148     0.000333703       -0.0276405      -0.0210935      -0.00027945     1.07963e-05
                    -0.000298959     0.000165862         0.670855        0.730027     -0.000294622     0.000206935       -0.0262783      -0.0204543
281748                 0.0212694       0.0292071     -5.24352e-05     0.000186981         0.669517        0.731484     -0.000298456     0.000276734
                    -8.47626e-05     0.000195717        0.0208344       0.0277313     -2.77132e-05     0.000249071         0.671327        0.729536
                        0.669779        0.730767     -0.000163059     0.000333845       -0.0276821      -0.0210791     -0.000279266      1.0973e-05
                    -0.000298896     0.000165955         0.671131        0.729772     -0.000294271     0.000206794       -0.0263191      -0.0204404
281750                 0.0212734       0.0292329     -5.24693e-05      0.00018683         0.669792        0.731229     -0.000298282     0.000276769
                    -8.46287e-05     0.000195629        0.0208381       0.0277568     -2.76702e-05     0.000249154         0.671603        0.729282
                        0.670056        0.730513      -0.00016297     0.000333987       -0.0277237      -0.0210647     -0.000279083     1.11491e-05
                    -0.000298834     0.000166047         0.671407        0.729516      -0.00029392     0.000206653         -0.02636      -0.0204265
281752                 0.0212774       0.0292587     -5.25035e-05     0.000186679         0.670068        0.730974     -0.000298108     0.000276803
                    -8.44949e-05     0.000195541        0.0208417       0.0277823     -2.76277e-05     0.000249236         0.671878        0.729027
                        0.670332        0.730259     -0.000162882     0.000334128       -0.0277653      -0.0210503       -0.0002789     1.13245e-05
                    -0.000298771     0.000166139         0.671682        0.729261     -0.000293568     0.000206512       -0.0264008      -0.0204125
281754                 0.0212814       0.0292844     -5.25378e-05     0.000186528         0.670344        0.730719     -0.000297933     0.000276837
                    -8.43613e-05     0.000195453        0.0208454       0.0278078     -2.75856e-05     0.000249319         0.672154        0.728773
                        0.670608        0.730005     -0.000162793     0.000334269       -0.0278068      -0.0210358     -0.000278716     1.14993e-05
                    -0.000298709     0.000166231         0.671958        0.729005     -0.000293216     0.000206371       -0.0264416      -0.0203985
281756                 0.0212854       0.0293102     -5.25722e-05     0.000186376         0.670619        0.730464     -0.000297759      0.00027687
                    -8.42278e-05     0.000195365         0.020849       0.0278333     -2.75441e-05     0.000249401         0.672429        0.728518
                        0.670884        0.729751     -0.000162705     0.000334409       -0.0278483      -0.0210212     -0.000278533     1.16734e-05
                    -0.000298646     0.000166323         0.672233        0.728749     -0.000292864     0.000206229       -0.0264824      -0.0203845
281758                 0.0212894        0.029336     -5.26068e-05     0.000186225         0.670895        0.730208     -0.000297585     0.000276904
                    -8.40945e-05     0.000195277        0.0208527       0.0278588     -2.75031e-05     0.000249483         0.672705        0.728263
                         0.67116        0.729497     -0.000162617     0.000334549       -0.0278899      -0.0210066     -0.000278349     1.18469e-05
                    -0.000298584     0.000166415         0.672509        0.728493     -0.000292512     0.000206088       -0.0265231      -0.0203704
281760                 0.0212934       0.0293618     -5.26414e-05     0.000186074          0.67117        0.729953     -0.000297411     0.000276937
                    -8.39613e-05     0.000195189        0.0208564       0.0278843     -2.74625e-05     0.000249565          0.67298        0.728008
                        0.671435        0.729243     -0.000162529     0.000334688       -0.0279314       -0.020992     -0.000278165     1.20196e-05
                    -0.000298521     0.000166507         0.672784        0.728237     -0.000292159     0.000205947       -0.0265639      -0.0203562
281762                 0.0212975       0.0293876     -5.26761e-05     0.000185923         0.671445        0.729698     -0.000297237      0.00027697
                    -8.38282e-05     0.000195101        0.0208601       0.0279098     -2.74225e-05     0.000249647         0.673255        0.727753
                        0.671711        0.728988     -0.000162442     0.000334828       -0.0279729      -0.0209773     -0.000277982     1.21916e-05
