! TOUCHSTONE file generated by CST MICROWAVE STUDIO
! Date and time: Wed Oct 15 17:31:38 2025
! Project name: Teste_Macro_Metasurface_Nanopilar.cst
! Parameters = {H=600; L_x=135; L_y=145; Lambda=1064; Max_L=200; Min_L=70; PathPara=1; Phi=0; Step_L=10; Theta=0; p=520; phaseX=180; phaseY=0}
! Header version: 2018
! Port assignment regex: !\s*Touchstone port\s*([0-9]+)\s*=\s*(CST MWS port|CST DS port)\s*([0-9]+|Zmin|Zmax)\s*\(\"(.*)\"\)(\s*mode\s*([0-9]+))?.*
! Touchstone port assignment:
! Touchstone port 1 = CST MWS port Zmax ("") mode 1
! Touchstone port 2 = CST MWS port Zmax ("") mode 2
! Touchstone port 3 = CST MWS port Zmin ("") mode 1
! Touchstone port 4 = CST MWS port Zmin ("") mode 2
! S-Parameters are not renormalized. Each port impedance will be approximated by the real part at minimum frequency. The values are described via the [Reference] keyword.
! Default impedance is overridden by [Reference]
[Version] 2.0
# GHz S RI R 376.73
[Number of Ports] 4
[Reference]
376.73 376.73 259.888 259.888 
[Number of Frequencies] 51
[Network Data]
281700                  0.136895        0.219608      0.000509541     0.000220277         0.830479       -0.483368     -0.000130302     0.000113252
                     0.000549217     0.000149219         0.104809        0.146471       5.9716e-05     0.000119353         0.951062        -0.23256
                        0.830479       -0.483156      0.000115819     7.19034e-05         0.124836        0.223919     -0.000353504     0.000613668
                    -0.000213618     0.000154085         0.950157       -0.232536     -0.000324485     0.000437047       -0.0241779        0.177585
281702                  0.136925         0.21965      0.000509595      0.00022005           0.8303       -0.483648     -0.000130093     0.000113408
                     0.000549386     0.000149023         0.104825        0.146485      5.97654e-05     0.000119333         0.950984       -0.232862
                          0.8303       -0.483436      0.000116338     7.16667e-05         0.125014        0.223877     -0.000353335     0.000614267
                    -0.000213488     0.000154167         0.950077       -0.232838     -0.000324116        0.000437       -0.0240708         0.17762
281704                  0.136954        0.219691       0.00050965     0.000219821          0.83012       -0.483927     -0.000129884     0.000113564
                     0.000549554     0.000148827          0.10484          0.1465      5.98147e-05     0.000119312         0.950905       -0.233165
                         0.83012       -0.483715      0.000116859      7.1431e-05         0.125192        0.223834     -0.000353165     0.000614864
                    -0.000213358     0.000154248         0.949996        -0.23314     -0.000323748     0.000436953       -0.0239637        0.177655
281706                  0.136984        0.219733      0.000509705      0.00021959         0.829941       -0.484206     -0.000129676     0.000113718
                     0.000549722     0.000148631         0.104855        0.146514      5.98638e-05     0.000119291         0.950827       -0.233468
                         0.82994       -0.483994      0.000117383     7.11964e-05         0.125369        0.223792     -0.000352993     0.000615459
                    -0.000213228     0.000154328         0.949915       -0.233443     -0.000323379     0.000436906       -0.0238565         0.17769
281708                  0.137013        0.219775       0.00050976     0.000219357         0.829761       -0.484486     -0.000129467     0.000113872
                     0.000549889     0.000148433         0.104871        0.146529      5.99126e-05     0.000119269         0.950748       -0.233771
                        0.829761       -0.484274       0.00011791     7.09629e-05         0.125547        0.223749     -0.000352821     0.000616053
                    -0.000213098     0.000154407         0.949834       -0.233745     -0.000323011     0.000436858       -0.0237493        0.177726
281710                  0.137043        0.219816      0.000509816     0.000219123         0.829581       -0.484765     -0.000129258     0.000114024
                     0.000550055     0.000148236         0.104886        0.146544      5.99613e-05     0.000119246         0.950669       -0.234074
                        0.829581       -0.484553       0.00011844     7.07305e-05         0.125725        0.223706     -0.000352647     0.000616646
                    -0.000212967     0.000154486         0.949753       -0.234047     -0.000322644      0.00043681       -0.0236421        0.177761
281712                  0.137072        0.219858      0.000509871     0.000218886         0.829401       -0.485044     -0.000129049     0.000114175
                      0.00055022     0.000148038         0.104901        0.146558      6.00098e-05     0.000119223          0.95059       -0.234376
                          0.8294       -0.484832      0.000118972     7.04993e-05         0.125903        0.223663     -0.000352472     0.000617237
                    -0.000212836     0.000154564         0.949672       -0.234349     -0.000322276     0.000436762       -0.0235348        0.177796
281714                  0.137102          0.2199      0.000509927     0.000218648         0.829221       -0.485323     -0.000128841     0.000114325
                     0.000550385     0.000147839         0.104917        0.146573       6.0058e-05     0.000119199         0.950511       -0.234679
                         0.82922       -0.485111      0.000119508     7.02692e-05         0.126081         0.22362     -0.000352296     0.000617827
                    -0.000212705     0.000154642         0.949591       -0.234652     -0.000321909     0.000436714       -0.0234275         0.17783
281716                  0.137131        0.219942      0.000509983     0.000218408         0.829041       -0.485602     -0.000128632     0.000114474
                      0.00055055     0.000147639         0.104932        0.146588      6.01062e-05     0.000119175         0.950432       -0.234982
                         0.82904       -0.485391      0.000120046     7.00404e-05         0.126258        0.223577     -0.000352119     0.000618416
                    -0.000212573     0.000154718          0.94951       -0.234954     -0.000321542     0.000436665       -0.0233201        0.177865
281718                  0.137161        0.219983      0.000510039     0.000218166          0.82886       -0.485881     -0.000128424     0.000114623
                     0.000550713      0.00014744         0.104947        0.146602      6.01541e-05      0.00011915         0.950353       -0.235284
                        0.828859        -0.48567      0.000120586     6.98129e-05         0.126436        0.223534     -0.000351941     0.000619003
                    -0.000212441     0.000154794         0.949429       -0.235256     -0.000321176     0.000436617       -0.0232128          0.1779
281720                   0.13719        0.220025      0.000510096     0.000217922          0.82868        -0.48616     -0.000128216      0.00011477
                     0.000550876     0.000147239         0.104963        0.146617      6.02019e-05     0.000119125         0.950274       -0.235587
                        0.828679       -0.485949       0.00012113     6.95867e-05         0.126614         0.22349     -0.000351762     0.000619588
                    -0.000212309      0.00015487         0.949347       -0.235558     -0.000320809     0.000436568       -0.0231054        0.177935
281722                   0.13722        0.220067      0.000510152     0.000217677           0.8285       -0.486439     -0.000128008     0.000114916
                     0.000551038     0.000147038         0.104978        0.146632      6.02496e-05     0.000119099         0.950194       -0.235889
                        0.828498       -0.486228      0.000121676     6.93619e-05         0.126792        0.223447     -0.000351582     0.000620172
                    -0.000212176     0.000154944         0.949265        -0.23586     -0.000320443     0.000436519       -0.0229979        0.177969
281724                   0.13725        0.220109      0.000510209     0.000217429         0.828319       -0.486718       -0.0001278     0.000115061
                     0.000551199     0.000146837         0.104993        0.146646      6.02971e-05     0.000119072         0.950115       -0.236192
                        0.828317       -0.486507      0.000122225     6.91384e-05          0.12697        0.223403     -0.000351401     0.000620754
                    -0.000212043     0.000155018         0.949184       -0.236162     -0.000320078     0.000436469       -0.0228904        0.178004
281726                  0.137279        0.220151      0.000510267      0.00021718         0.828138       -0.486997     -0.000127592     0.000115205
                      0.00055136     0.000146635         0.105009        0.146661      6.03445e-05     0.000119045         0.950035       -0.236494
                        0.828136       -0.486786      0.000122777     6.89164e-05         0.127148        0.223359     -0.000351219     0.000621335
                     -0.00021191     0.000155091         0.949102       -0.236464     -0.000319712      0.00043642       -0.0227829        0.178038
281728                  0.137309        0.220193      0.000510324     0.000216928         0.827957       -0.487276     -0.000127385     0.000115348
                      0.00055152     0.000146433         0.105024        0.146676      6.03917e-05     0.000119017         0.949956       -0.236797
                        0.827955       -0.487064      0.000123332     6.86958e-05         0.127326        0.223315     -0.000351037     0.000621914
                    -0.000211776     0.000155163          0.94902       -0.236767     -0.000319347      0.00043637       -0.0226753        0.178073
281730                  0.137338        0.220235      0.000510381     0.000216675         0.827776       -0.487554     -0.000127177     0.000115489
                     0.000551679      0.00014623         0.105039         0.14669      6.04389e-05     0.000118989         0.949876       -0.237099
                        0.827774       -0.487343      0.000123889     6.84768e-05         0.127504        0.223271     -0.000350853     0.000622492
                    -0.000211642     0.000155235         0.948938       -0.237069     -0.000318983     0.000436321       -0.0225678        0.178107
281732                  0.137368        0.220276      0.000510439      0.00021642         0.827595       -0.487833      -0.00012697      0.00011563
                     0.000551838     0.000146026         0.105055        0.146705      6.04859e-05      0.00011896         0.949796       -0.237402
                        0.827592       -0.487622      0.000124449     6.82593e-05         0.127682        0.223227     -0.000350668     0.000623068
                    -0.000211508     0.000155306         0.948856       -0.237371     -0.000318618     0.000436271       -0.0224601        0.178142
281734                  0.137398        0.220318      0.000510497     0.000216163         0.827414       -0.488112     -0.000126764      0.00011577
                     0.000551996     0.000145822          0.10507         0.14672      6.05328e-05      0.00011893         0.949716       -0.237704
                        0.827411       -0.487901      0.000125012     6.80434e-05          0.12786        0.223183     -0.000350483     0.000623642
                    -0.000211373     0.000155376         0.948774       -0.237673     -0.000318254     0.000436221       -0.0223525        0.178176
281736                  0.137427         0.22036      0.000510556     0.000215904         0.827232        -0.48839     -0.000126557     0.000115908
                     0.000552153     0.000145618         0.105086        0.146734      6.05797e-05       0.0001189         0.949636       -0.238006
                        0.827229       -0.488179      0.000125578     6.78291e-05         0.128038        0.223138     -0.000350296     0.000624215
                    -0.000211238     0.000155446         0.948692       -0.237975      -0.00031789      0.00043617       -0.0222448         0.17821
281738                  0.137457        0.220402      0.000510614     0.000215643         0.827051       -0.488669     -0.000126351     0.000116045
                     0.000552309     0.000145413         0.105101        0.146749      6.06264e-05     0.000118869         0.949556       -0.238309
                        0.827048       -0.488458      0.000126147     6.76165e-05         0.128216        0.223094     -0.000350109     0.000624786
                    -0.000211103     0.000155514         0.948609       -0.238277     -0.000317527      0.00043612       -0.0221371        0.178244
281740                  0.137487        0.220444      0.000510673      0.00021538         0.826869       -0.488947     -0.000126145     0.000116181
                     0.000552465     0.000145208         0.105116        0.146764      6.06731e-05     0.000118837         0.949476       -0.238611
                        0.826866       -0.488737      0.000126718     6.74055e-05         0.128395        0.223049      -0.00034992     0.000625356
                    -0.000210967     0.000155582         0.948527       -0.238579     -0.000317164      0.00043607       -0.0220293        0.178278
281742                  0.137517        0.220486      0.000510732     0.000215115         0.826688       -0.489226     -0.000125939     0.000116315
                      0.00055262     0.000145002         0.105132        0.146778      6.07197e-05     0.000118805         0.949396       -0.238913
                        0.826684       -0.489015      0.000127292     6.71963e-05         0.128573        0.223004      -0.00034973     0.000625924
                    -0.000210831      0.00015565         0.948444       -0.238881     -0.000316801     0.000436019       -0.0219215        0.178312
281744                  0.137546        0.220529      0.000510791     0.000214848         0.826506       -0.489504     -0.000125733     0.000116447
                     0.000552774     0.000144795         0.105147        0.146793      6.07662e-05     0.000118772         0.949315       -0.239216
                        0.826502       -0.489294      0.000127868     6.69889e-05         0.128751        0.222959      -0.00034954      0.00062649
                    -0.000210694     0.000155716         0.948361       -0.239182     -0.000316439     0.000435968       -0.0218137        0.178346
281746                  0.137576        0.220571      0.000510851      0.00021458         0.826324       -0.489783     -0.000125528     0.000116577
                     0.000552927     0.000144589         0.105163        0.146808      6.08126e-05     0.000118738         0.949235       -0.239518
                         0.82632       -0.489572      0.000128447     6.67834e-05         0.128929        0.222914     -0.000349347     0.000627054
                    -0.000210557     0.000155782         0.948279       -0.239484     -0.000316078     0.000435916       -0.0217058         0.17838
281748                  0.137606        0.220613       0.00051091     0.000214309         0.826142       -0.490061     -0.000125322     0.000116704
                      0.00055308     0.000144381         0.105178        0.146823      6.08587e-05     0.000118704         0.949154        -0.23982
                        0.826137       -0.489851      0.000129025     6.65812e-05         0.129107        0.222869     -0.000349153     0.000627617
                     -0.00021042     0.000155847         0.948196       -0.239786     -0.000315718      0.00043586       -0.0215979        0.178414
281750                  0.137636        0.220655      0.000510971     0.000214033         0.825959       -0.490339     -0.000125115     0.000116825
                     0.000553232     0.000144173         0.105193        0.146837      6.09033e-05     0.000118669         0.949073       -0.240122
                        0.825955       -0.490129      0.000129621     6.63855e-05         0.129286        0.222824     -0.000348956     0.000628177
                    -0.000210283     0.000155911         0.948113       -0.240088     -0.000315343     0.000435805         -0.02149        0.178448
281752                  0.137666        0.220697      0.000511031      0.00021376         0.825777       -0.490617     -0.000124907     0.000116938
                     0.000553383     0.000143968         0.105209        0.146852      6.09537e-05     0.000118632         0.948993       -0.240425
                        0.825772       -0.490407      0.000130208     6.61809e-05         0.129464        0.222778     -0.000348754     0.000628736
                    -0.000210139     0.000155976          0.94803        -0.24039      -0.00031498     0.000435762       -0.0213821        0.178481
281754                  0.137696        0.220739      0.000511092     0.000213484         0.825595       -0.490895     -0.000124694     0.000117036
                     0.000553534     0.000143758         0.105224        0.146867      6.09997e-05     0.000118597         0.948912       -0.240727
                         0.82559       -0.490685      0.000130797     6.59824e-05         0.129642        0.222733     -0.000348545     0.000629293
                    -0.000210003     0.000156038         0.947947       -0.240692      -0.00031462     0.000435714       -0.0212741        0.178515
281756                  0.137725        0.220781      0.000511153     0.000213205         0.825412       -0.491174     -0.000124466     0.000117095
                     0.000553683     0.000143549         0.105239        0.146881       6.1046e-05      0.00011856         0.948831       -0.241029
                        0.825407       -0.490964      0.000131391     6.57865e-05         0.129821        0.222687     -0.000348316     0.000629851
                    -0.000209863     0.000156101         0.947863       -0.240993      -0.00031426     0.000435664       -0.0211661        0.178548
281758                  0.137755        0.220824      0.000511214     0.000212924          0.82523       -0.491452     -0.000124136     0.000117013
                     0.000553832     0.000143339         0.105255        0.146896      6.10925e-05     0.000118523         0.948751       -0.241331
                        0.825224       -0.491242      0.000131986     6.55928e-05         0.129999        0.222641     -0.000348025     0.000630433
                    -0.000209724     0.000156162          0.94778       -0.241295     -0.000313899     0.000435613       -0.0210583        0.178582
281760                  0.137785        0.220866      0.000511275     0.000212641         0.825047        -0.49173     -0.000122807     0.000118362
                     0.000553981      0.00014313          0.10527        0.146911      6.11389e-05     0.000118485         0.948661       -0.241631
                        0.825041        -0.49152      0.000132585     6.54014e-05         0.130177        0.222595     -0.000347767     0.000631507
                    -0.000209583     0.000156223         0.947696       -0.241597     -0.000313538     0.000435563       -0.0209467        0.178616
281762                  0.137815        0.220908      0.000511337     0.000212356         0.824864       -0.492008     -0.000123869       0.0001181
                     0.000554128     0.000142919         0.105286        0.146926      6.11855e-05     0.000118446         0.948586       -0.241935
                        0.824858       -0.491798      0.000133187     6.52122e-05         0.130356        0.222549     -0.000348052      0.00063169
