! TOUCHSTONE file generated by CST MICROWAVE STUDIO
! Date and time: Wed Oct 15 17:28:06 2025
! Project name: Teste_Macro_Metasurface_Nanopilar.cst
! Parameters = {H=600; L_x=75; L_y=100; Lambda=1064; Max_L=200; Min_L=70; PathPara=1; Phi=0; Step_L=10; Theta=0; p=520; phaseX=180; phaseY=0}
! Header version: 2018
! Port assignment regex: !\s*Touchstone port\s*([0-9]+)\s*=\s*(CST MWS port|CST DS port)\s*([0-9]+|Zmin|Zmax)\s*\(\"(.*)\"\)(\s*mode\s*([0-9]+))?.*
! Touchstone port assignment:
! Touchstone port 1 = CST MWS port Zmax ("") mode 1
! Touchstone port 2 = CST MWS port Zmax ("") mode 2
! Touchstone port 3 = CST MWS port Zmin ("") mode 1
! Touchstone port 4 = CST MWS port Zmin ("") mode 2
! S-Parameters are not renormalized. Each port impedance will be approximated by the real part at minimum frequency. The values are described via the [Reference] keyword.
! Default impedance is overridden by [Reference]
[Version] 2.0
# GHz S RI R 376.73
[Number of Ports] 4
[Reference]
376.73 376.73 259.888 259.888 
[Number of Frequencies] 51
[Network Data]
281700                0.00886016      -0.0735262      0.000146493     2.96113e-05        -0.209762       -0.974163     -3.30524e-05    -5.74434e-05
                      0.00012633     0.000111269        0.0405387       -0.121602     -5.98811e-05     5.61882e-05         0.090805        -0.98707
                       -0.209683       -0.973913     -1.03868e-06     6.94509e-05        0.0381174       0.0635654     -5.64335e-05    -8.99007e-05
                     1.70421e-05    -4.95178e-05        0.0909223        -0.98732      4.78959e-05    -0.000270843        0.0176184        0.127031
281702                0.00884953      -0.0735209      0.000146179     2.94985e-05        -0.210008       -0.974111     -3.30708e-05    -5.74149e-05
                       0.0001263     0.000111165        0.0405264       -0.121602     -5.98748e-05     5.62288e-05         0.090569       -0.987092
                       -0.209929        -0.97386     -8.64552e-07     6.95661e-05        0.0381375       0.0635458     -5.66392e-05    -8.99797e-05
                     1.70636e-05    -4.94796e-05        0.0906862       -0.987342      4.78352e-05    -0.000270911        0.0176669        0.127021
281704                0.00883889      -0.0735156      0.000145865     2.93867e-05        -0.210253       -0.974058     -3.30893e-05    -5.73864e-05
                      0.00012627     0.000111062        0.0405141       -0.121603     -5.98684e-05     5.62694e-05         0.090333       -0.987114
                       -0.210174       -0.973808     -6.89858e-07      6.9681e-05        0.0381577       0.0635262     -5.68451e-05    -9.00592e-05
                     1.70851e-05    -4.94414e-05        0.0904501       -0.987364      4.77744e-05    -0.000270978        0.0177154        0.127011
281706                0.00882826      -0.0735104       0.00014555     2.92758e-05        -0.210499       -0.974005     -3.31077e-05    -5.73579e-05
                     0.000126239     0.000110958        0.0405018       -0.121604      -5.9862e-05     5.63099e-05         0.090097       -0.987136
                       -0.210419       -0.973755     -5.14614e-07     6.97955e-05        0.0381777       0.0635065     -5.70514e-05     -9.0139e-05
                     1.71068e-05    -4.94032e-05         0.090214       -0.987385      4.77135e-05    -0.000271046        0.0177639        0.127001
281708                0.00881763      -0.0735051      0.000145235     2.91658e-05        -0.210744       -0.973953     -3.31261e-05    -5.73294e-05
                     0.000126209     0.000110855        0.0404895       -0.121605     -5.98555e-05     5.63505e-05         0.089861       -0.987157
                       -0.210665       -0.973702     -3.38832e-07     6.99097e-05        0.0381978       0.0634869      -5.7258e-05    -9.02194e-05
                     1.71286e-05    -4.93649e-05        0.0899779       -0.987407      4.76526e-05    -0.000271114        0.0178124        0.126991
281710                  0.008807      -0.0734998       0.00014492     2.90567e-05        -0.210989         -0.9739     -3.31444e-05    -5.73008e-05
                     0.000126178     0.000110752        0.0404772       -0.121606      -5.9849e-05     5.63911e-05        0.0896249       -0.987179
                        -0.21091        -0.97365     -1.62527e-07     7.00236e-05        0.0382179       0.0634673     -5.74648e-05    -9.03001e-05
                     1.71505e-05    -4.93267e-05        0.0897418       -0.987429      4.75915e-05    -0.000271182        0.0178609        0.126982
281712                0.00879637      -0.0734945      0.000144605     2.89485e-05        -0.211235       -0.973847     -3.31628e-05    -5.72723e-05
                     0.000126148     0.000110649        0.0404649       -0.121607     -5.98425e-05     5.64317e-05        0.0893889       -0.987201
                       -0.211155       -0.973597      1.42887e-08     7.01371e-05         0.038238       0.0634476     -5.76719e-05    -9.03813e-05
                     1.71725e-05    -4.92884e-05        0.0895056        -0.98745      4.75303e-05     -0.00027125        0.0179093        0.126972
281714                0.00878574      -0.0734892       0.00014429     2.88411e-05         -0.21148       -0.973795     -3.31811e-05    -5.72436e-05
                     0.000126117     0.000110546        0.0404526       -0.121607     -5.98358e-05     5.64722e-05        0.0891529       -0.987222
                         -0.2114       -0.973544      1.91599e-07     7.02502e-05         0.038258       0.0634279     -5.78794e-05    -9.04629e-05
                     1.71946e-05    -4.92501e-05        0.0892695       -0.987472       4.7469e-05    -0.000271318        0.0179578        0.126962
281716                0.00877511      -0.0734839      0.000143974     2.87347e-05        -0.211725       -0.973742     -3.31994e-05     -5.7215e-05
                     0.000126086     0.000110444        0.0404403       -0.121608     -5.98291e-05     5.65128e-05        0.0889168       -0.987244
                       -0.211646       -0.973491       3.6939e-07     7.03631e-05        0.0382781       0.0634083     -5.80871e-05    -9.05449e-05
                     1.72168e-05    -4.92117e-05        0.0890334       -0.987493      4.74077e-05    -0.000271386        0.0180063        0.126952
281718                0.00876448      -0.0734786      0.000143659      2.8629e-05         -0.21197       -0.973689     -3.32178e-05    -5.71863e-05
                     0.000126056     0.000110342         0.040428       -0.121609     -5.98224e-05     5.65534e-05        0.0886807       -0.987265
                       -0.211891       -0.973438      5.47645e-07     7.04755e-05        0.0382981       0.0633886      -5.8295e-05    -9.06274e-05
                     1.72391e-05    -4.91734e-05        0.0887972       -0.987514      4.73462e-05    -0.000271454        0.0180548        0.126942
281720                0.00875385      -0.0734734      0.000143343     2.85241e-05        -0.212216       -0.973636     -3.32361e-05    -5.71576e-05
                     0.000126025     0.000110239        0.0404157        -0.12161     -5.98156e-05     5.65939e-05        0.0884447       -0.987287
                       -0.212136       -0.973385      7.26349e-07     7.05877e-05        0.0383182       0.0633689     -5.85033e-05    -9.07102e-05
                     1.72616e-05     -4.9135e-05        0.0885611       -0.987536      4.72847e-05    -0.000271522        0.0181032        0.126932
281722                0.00874322      -0.0734681      0.000143027       2.842e-05        -0.212461       -0.973583     -3.32543e-05    -5.71289e-05
                     0.000125994     0.000110137        0.0404035       -0.121611     -5.98087e-05     5.66345e-05        0.0882086       -0.987308
                       -0.212381       -0.973332      9.05486e-07     7.06995e-05        0.0383382       0.0633493     -5.87118e-05    -9.07934e-05
                     1.72841e-05    -4.90966e-05         0.088325       -0.987557       4.7223e-05     -0.00027159        0.0181517        0.126922
281724                 0.0087326      -0.0734628      0.000142711     2.83166e-05        -0.212706        -0.97353     -3.32726e-05    -5.71002e-05
                     0.000125962     0.000110035        0.0403912       -0.121612     -5.98018e-05      5.6675e-05        0.0879725       -0.987329
                       -0.212627       -0.973279      1.08504e-06     7.08109e-05        0.0383582       0.0633296     -5.89206e-05    -9.08771e-05
                     1.73068e-05    -4.90582e-05        0.0880888       -0.987578      4.71613e-05    -0.000271658        0.0182001        0.126912
281726                0.00872197      -0.0734575      0.000142395      2.8214e-05        -0.212951       -0.973477     -3.32909e-05    -5.70714e-05
                     0.000125931     0.000109933        0.0403789       -0.121612     -5.97949e-05     5.67156e-05        0.0877364       -0.987351
                       -0.212872       -0.973226      1.26499e-06      7.0922e-05        0.0383782       0.0633099     -5.91297e-05    -9.09611e-05
                     1.73295e-05    -4.90197e-05        0.0878526       -0.987599      4.70995e-05    -0.000271726        0.0182486        0.126902
281728                0.00871135      -0.0734522      0.000142079     2.81121e-05        -0.213197       -0.973423     -3.33091e-05    -5.70426e-05
                       0.0001259     0.000109832        0.0403666       -0.121613     -5.97879e-05     5.67561e-05        0.0875003       -0.987372
                       -0.213117       -0.973172      1.44532e-06     7.10328e-05        0.0383982       0.0632902      -5.9339e-05    -9.10455e-05
                     1.73524e-05    -4.89812e-05        0.0876165        -0.98762      4.70376e-05    -0.000271793         0.018297        0.126892
281730                0.00870072      -0.0734469      0.000141763     2.80108e-05        -0.213442        -0.97337     -3.33274e-05    -5.70137e-05
                     0.000125868      0.00010973        0.0403543       -0.121614     -5.97808e-05     5.67966e-05        0.0872642       -0.987393
                       -0.213362       -0.973119      1.62602e-06     7.11432e-05        0.0384181       0.0632705     -5.95486e-05    -9.11302e-05
                     1.73753e-05    -4.89427e-05        0.0873803       -0.987641      4.69757e-05    -0.000271861        0.0183454        0.126882
281732                 0.0086901      -0.0734416      0.000141446     2.79103e-05        -0.213687       -0.973317     -3.33456e-05    -5.69849e-05
                     0.000125837     0.000109629         0.040342       -0.121615     -5.97737e-05     5.68371e-05        0.0870281       -0.987414
                       -0.213607       -0.973066      1.80707e-06     7.12533e-05        0.0384381       0.0632508     -5.97584e-05    -9.12154e-05
                     1.73984e-05    -4.89042e-05        0.0871441       -0.987662      4.69136e-05    -0.000271929        0.0183939        0.126872
281734                0.00867947      -0.0734363      0.000141129     2.78104e-05        -0.213932       -0.973263     -3.33638e-05     -5.6956e-05
                     0.000125805     0.000109528        0.0403297       -0.121616     -5.97665e-05     5.68776e-05         0.086792       -0.987435
                       -0.213853       -0.973012      1.98845e-06      7.1363e-05        0.0384581        0.063231     -5.99686e-05    -9.13009e-05
                     1.74216e-05    -4.88656e-05         0.086908       -0.987683      4.68515e-05    -0.000271997        0.0184423        0.126862
281736                0.00866885       -0.073431      0.000140812     2.77111e-05        -0.214177        -0.97321      -3.3382e-05     -5.6927e-05
                     0.000125773     0.000109427        0.0403174       -0.121617     -5.97593e-05     5.69181e-05        0.0865559       -0.987456
                       -0.214098       -0.972959      2.17014e-06     7.14724e-05         0.038478       0.0632113     -6.01789e-05    -9.13868e-05
                     1.74449e-05    -4.88271e-05        0.0866718       -0.987704      4.67893e-05    -0.000272065        0.0184907        0.126851
281738                0.00865823      -0.0734257      0.000140495     2.76124e-05        -0.214423       -0.973156     -3.34002e-05    -5.68981e-05
                     0.000125742     0.000109326        0.0403051       -0.121617      -5.9752e-05     5.69586e-05        0.0863197       -0.987477
                       -0.214343       -0.972905      2.35212e-06     7.15815e-05        0.0384979       0.0631916     -6.03896e-05    -9.14731e-05
                     1.74683e-05    -4.87885e-05        0.0864356       -0.987725      4.67271e-05    -0.000272133        0.0185391        0.126841
281740                0.00864761      -0.0734204      0.000140178     2.75143e-05        -0.214668       -0.973103     -3.34184e-05    -5.68691e-05
                      0.00012571     0.000109225        0.0402928       -0.121618     -5.97447e-05     5.69991e-05        0.0860836       -0.987498
                       -0.214588       -0.972852       2.5344e-06     7.16902e-05        0.0385179       0.0631719     -6.06005e-05    -9.15598e-05
                     1.74918e-05    -4.87498e-05        0.0861994       -0.987746      4.66649e-05      -0.0002722        0.0185875        0.126831
281742                0.00863698      -0.0734151      0.000139861     2.74168e-05        -0.214913       -0.973049     -3.34365e-05    -5.68401e-05
                     0.000125678     0.000109125        0.0402805       -0.121619     -5.97373e-05     5.70395e-05        0.0858475       -0.987519
                       -0.214833       -0.972798      2.71695e-06     7.17985e-05        0.0385378       0.0631521     -6.08116e-05    -9.16469e-05
                     1.75154e-05    -4.87112e-05        0.0859632       -0.987766      4.66026e-05    -0.000272268        0.0186359        0.126821
281744                0.00862636      -0.0734098      0.000139543     2.73198e-05        -0.215158       -0.972995     -3.34547e-05     -5.6811e-05
                     0.000125646     0.000109024        0.0402682        -0.12162       -5.973e-05       5.708e-05        0.0856113       -0.987539
                       -0.215078       -0.972744      2.89977e-06     7.19066e-05        0.0385577       0.0631324      -6.1023e-05    -9.17344e-05
                     1.75391e-05    -4.86725e-05         0.085727       -0.987787      4.65404e-05    -0.000272336        0.0186843        0.126811
281746                0.00861574      -0.0734044      0.000139226     2.72234e-05        -0.215403       -0.972941     -3.34728e-05     -5.6782e-05
                     0.000125613     0.000108924        0.0402559       -0.121621     -5.97226e-05     5.71203e-05        0.0853751        -0.98756
                       -0.215323        -0.97269      3.08288e-06     7.20143e-05        0.0385776       0.0631126     -6.12347e-05    -9.18223e-05
                     1.75629e-05    -4.86338e-05        0.0854908       -0.987808      4.64783e-05    -0.000272403        0.0187327        0.126801
281748                0.00860512      -0.0733991      0.000138908     2.71275e-05        -0.215648       -0.972888     -3.34908e-05    -5.67529e-05
                     0.000125581     0.000108824        0.0402436       -0.121622     -5.97152e-05     5.71607e-05         0.085139       -0.987581
                       -0.215568       -0.972636       3.2663e-06     7.21216e-05        0.0385975       0.0630929     -6.14467e-05    -9.19108e-05
                     1.75869e-05    -4.85951e-05        0.0852546       -0.987828      4.64164e-05    -0.000272471        0.0187811         0.12679
281750                 0.0085945      -0.0733938       0.00013859     2.70321e-05        -0.215893       -0.972834     -3.35088e-05    -5.67238e-05
                     0.000125549     0.000108724        0.0402313       -0.121622     -5.97079e-05     5.72008e-05        0.0849028       -0.987601
                       -0.215813       -0.972582      3.45011e-06     7.22286e-05        0.0386174       0.0630731     -6.16589e-05    -9.19999e-05
                     1.76109e-05    -4.85563e-05        0.0850184       -0.987849      4.63552e-05    -0.000272538        0.0188295         0.12678
281752                0.00858389      -0.0733885      0.000138272     2.69373e-05        -0.216138        -0.97278     -3.35266e-05    -5.66948e-05
                     0.000125516     0.000108624         0.040219       -0.121623     -5.97009e-05     5.72407e-05        0.0846666       -0.987622
                       -0.216058       -0.972528      3.63454e-06     7.23352e-05        0.0386372       0.0630533     -6.18715e-05    -9.20899e-05
                     1.76351e-05    -4.85175e-05        0.0847822       -0.987869      4.62961e-05    -0.000272605        0.0188779         0.12677
281754                0.00857327      -0.0733832      0.000137953     2.68434e-05        -0.216383       -0.972726     -3.35442e-05    -5.66658e-05
                     0.000125483     0.000108525        0.0402067       -0.121624     -5.96959e-05     5.72786e-05        0.0844304       -0.987642
                       -0.216303       -0.972474      3.82013e-06     7.24414e-05        0.0386571       0.0630336     -6.20845e-05     -9.2181e-05
                     1.76594e-05    -4.84787e-05        0.0845459       -0.987889       4.6248e-05    -0.000272668        0.0189262         0.12676
281756                0.00856265      -0.0733779      0.000137633     2.67512e-05        -0.216628       -0.972671     -3.35614e-05     -5.6637e-05
                     0.000125448     0.000108425        0.0401944       -0.121625     -5.96717e-05     5.73335e-05        0.0841941       -0.987663
                       -0.216548        -0.97242      4.00899e-06     7.25469e-05        0.0386769       0.0630138      -6.2298e-05    -9.22744e-05
                     1.76847e-05    -4.84412e-05        0.0843097        -0.98791      4.60999e-05    -0.000272756        0.0189746        0.126749
281758                0.00855204      -0.0733726      0.000137315     2.66833e-05        -0.216873       -0.972617     -3.35775e-05    -5.66087e-05
                     0.000125418     0.000108325        0.0401821       -0.121626      -5.9673e-05     5.73662e-05        0.0839578       -0.987683
                       -0.216793       -0.972366      4.21823e-06     7.26501e-05        0.0386968        0.062994     -6.25128e-05     -9.2373e-05
                     1.77078e-05     -4.8401e-05        0.0840735        -0.98793      4.60822e-05    -0.000272814         0.019023        0.126739
281760                0.00854142      -0.0733672       0.00013701     2.65564e-05        -0.217118       -0.972563     -3.35901e-05    -5.65822e-05
                     0.000125385     0.000108226        0.0401698       -0.121626     -5.96662e-05     5.74056e-05        0.0837212       -0.987704
                       -0.217038       -0.972312      4.30726e-06     7.27695e-05        0.0387166       0.0629742     -6.27336e-05    -9.24926e-05
                     1.77324e-05    -4.83621e-05        0.0838372        -0.98795      4.60248e-05     -0.00027288        0.0190713        0.126729
281762                 0.0085308      -0.0733619      0.000136687     2.64645e-05        -0.217363       -0.972509     -3.35566e-05    -5.65877e-05
                     0.000125352     0.000108127        0.0401575       -0.121627     -5.96587e-05     5.74456e-05        0.0834968       -0.987715
                       -0.217283       -0.972257       4.5273e-06     7.28678e-05        0.0387364       0.0629544     -6.32802e-05    -9.21969e-05
