! TOUCHSTONE file generated by CST MICROWAVE STUDIO
! Date and time: Wed Oct 15 17:35:05 2025
! Project name: Teste_Macro_Metasurface_Nanopilar.cst
! Parameters = {H=600; L_x=195; L_y=155; Lambda=1064; Max_L=200; Min_L=70; PathPara=1; Phi=0; Step_L=10; Theta=0; p=520; phaseX=180; phaseY=0}
! Header version: 2018
! Port assignment regex: !\s*Touchstone port\s*([0-9]+)\s*=\s*(CST MWS port|CST DS port)\s*([0-9]+|Zmin|Zmax)\s*\(\"(.*)\"\)(\s*mode\s*([0-9]+))?.*
! Touchstone port assignment:
! Touchstone port 1 = CST MWS port Zmax ("") mode 1
! Touchstone port 2 = CST MWS port Zmax ("") mode 2
! Touchstone port 3 = CST MWS port Zmin ("") mode 1
! Touchstone port 4 = CST MWS port Zmin ("") mode 2
! S-Parameters are not renormalized. Each port impedance will be approximated by the real part at minimum frequency. The values are described via the [Reference] keyword.
! Default impedance is overridden by [Reference]
[Version] 2.0
# GHz S RI R 376.73
[Number of Ports] 4
[Reference]
376.73 376.73 259.888 259.888 
[Number of Frequencies] 51
[Network Data]
281700                -0.0254897        0.596487     -0.000166706       0.0006075          0.46498       -0.281209      -0.00155696    -0.000871235
                     1.23613e-05     0.000443719         0.246108       0.0952233     -0.000397421    -0.000237106         0.175269       -0.944902
                        0.464925       -0.280946     -0.000530392    -8.69639e-05         0.114001         0.63367     -0.000652223     -0.00118606
                    -0.000294098     6.81837e-05         0.175277       -0.945064      0.000734702    -0.000420415         0.261861     -0.00248856
281702                -0.0219805        0.595785     -0.000166061     0.000606531         0.467898       -0.282585      -0.00156396    -0.000869863
                    -1.57854e-06     0.000451831         0.246127       0.0952234     -0.000397983    -0.000235887         0.174997       -0.944948
                        0.467733       -0.282355      -0.00053037    -8.77417e-05         0.116789        0.632001      -0.00065039     -0.00118566
                    -0.000319112     0.000105214         0.175003        -0.94511      0.000734826    -0.000421852         0.261878     -0.00263351
281704                -0.0184507        0.595041     -0.000165369     0.000605562          0.47078       -0.283984      -0.00156896    -0.000867894
                    -2.84355e-06     0.000459369         0.246145       0.0952236      -0.00039853    -0.000234671         0.174724       -0.944994
                        0.470594       -0.283747     -0.000530309    -8.85324e-05          0.11954        0.630315     -0.000648189     -0.00118439
                    -0.000323004      0.00011137          0.17473       -0.945156      0.000734934    -0.000423281         0.261894     -0.00277843
281706                -0.0149571        0.594261     -0.000164632     0.000604596         0.473628       -0.285406      -0.00157205    -0.000865277
                    -2.42072e-06     0.000463239         0.246164       0.0952237     -0.000399062    -0.000233459         0.174451        -0.94504
                        0.473434       -0.285165     -0.000530209    -8.93342e-05         0.122256        0.628614     -0.000645572     -0.00118226
                    -0.000324181      0.00011364         0.174457       -0.945203      0.000735027    -0.000424704          0.26191      -0.0029233
281708                 -0.011498         0.59345     -0.000163851     0.000603635          0.47644        -0.28685       -0.0015733    -0.000861969
                    -2.07069e-06      0.00046565         0.246183       0.0952239      -0.00039958    -0.000232248         0.174178       -0.945085
                        0.476244       -0.286606     -0.000530071    -9.01456e-05         0.124935        0.626898     -0.000642497     -0.00117928
                    -0.000324486     0.000114658         0.174183       -0.945249      0.000735105    -0.000426118         0.261927     -0.00306816
281710               -0.00807278         0.59261     -0.000163027      0.00060268         0.479217       -0.288314      -0.00157281    -0.000857936
                    -1.90889e-06     0.000467431         0.246201        0.095224     -0.000400083    -0.000231042         0.173906        -0.94513
                        0.479021       -0.288068     -0.000529893    -9.09647e-05          0.12758        0.625168     -0.000638921     -0.00117547
                    -0.000324411     0.000115121          0.17391       -0.945295      0.000735168    -0.000427525         0.261943     -0.00321301
281712               -0.00468134        0.591742      -0.00016216     0.000601735         0.481958       -0.289799      -0.00157066    -0.000853152
                    -1.88852e-06     0.000468902          0.24622       0.0952242     -0.000400572    -0.000229838         0.173633       -0.945175
                        0.481763       -0.289552     -0.000529677      -9.179e-05         0.130189        0.623425     -0.000634804     -0.00117086
                     -0.00032414      0.00011529         0.173636        -0.94534      0.000735216    -0.000428925         0.261959     -0.00335787
281714               -0.00132361        0.590847     -0.000161253     0.000600801         0.484665       -0.291304      -0.00156697    -0.000847599
                     -1.9628e-06     0.000470202         0.246239       0.0952243     -0.000401047    -0.000228638          0.17336       -0.945219
                        0.484471       -0.291055     -0.000529422    -9.26196e-05         0.132763        0.621669     -0.000630111      -0.0011655
                    -0.000323758     0.000115286         0.173363       -0.945386       0.00073525    -0.000430316         0.261975     -0.00350277
281716                0.00200044        0.589926     -0.000160305     0.000599879         0.487337       -0.292827      -0.00156181    -0.000841267
                    -2.09885e-06     0.000471402         0.246257       0.0952244     -0.000401508    -0.000227441         0.173088       -0.945264
                        0.487145       -0.292578     -0.000529128    -9.34521e-05         0.135302        0.619902      -0.00062481     -0.00115943
                    -0.000323312     0.000115173          0.17309       -0.945432       0.00073527      -0.0004317         0.261992     -0.00364772
281718                0.00529082        0.588979      -0.00015932     0.000598972         0.489975       -0.294368      -0.00155528    -0.000834151
                    -2.27454e-06     0.000472537         0.246276       0.0952245     -0.000401956    -0.000226248         0.172816       -0.945308
                        0.489784       -0.294118     -0.000528797    -9.42858e-05         0.137806        0.618123     -0.000618877     -0.00115269
                    -0.000322825     0.000114988         0.172816       -0.945478      0.000735277    -0.000433076         0.262008     -0.00379273
281720                0.00854757        0.588007     -0.000158297      0.00059808         0.492577       -0.295927      -0.00154741    -0.000826253
                    -2.47491e-06     0.000473631         0.246294       0.0952247      -0.00040239     -0.00022506         0.172544       -0.945352
                        0.492389       -0.295676     -0.000528428    -9.51191e-05         0.140276        0.616333     -0.000612291     -0.00114534
                    -0.000322314     0.000114752         0.172543       -0.945523       0.00073527    -0.000434443         0.262024     -0.00393783
281722                 0.0117707        0.587012     -0.000157239     0.000597206         0.495145       -0.297502      -0.00153824    -0.000817587
                    -2.68965e-06     0.000474696         0.246313       0.0952248     -0.000402811    -0.000223875         0.172272       -0.945396
                        0.494959       -0.297251     -0.000528023    -9.59507e-05         0.142711        0.614534     -0.000605039     -0.00113744
                    -0.000321789     0.000114481          0.17227       -0.945569       0.00073525    -0.000435802          0.26204     -0.00408301
281724                 0.0149603        0.585993     -0.000156148      0.00059635         0.497679       -0.299093      -0.00152769    -0.000808198
                    -2.91148e-06      0.00047574         0.246332       0.0952249     -0.000403219    -0.000222695            0.172        -0.94544
                        0.497495       -0.298842     -0.000527581    -9.67789e-05         0.145113        0.612724     -0.000597114     -0.00112905
                    -0.000321257     0.000114184         0.171996       -0.945614      0.000735217    -0.000437153         0.262056     -0.00422828
281726                 0.0181163        0.584952     -0.000155024     0.000595513         0.500178       -0.300699      -0.00151559    -0.000798245
                     -3.1352e-06      0.00047677          0.24635        0.095225     -0.000403615    -0.000221519         0.171728       -0.945485
                        0.499996       -0.300448     -0.000527103    -9.76024e-05         0.147481        0.610907     -0.000588516     -0.00112023
                    -0.000320721     0.000113868         0.171723       -0.945659      0.000735171    -0.000438496         0.262072     -0.00437364
281728                  0.021239        0.583889     -0.000153871     0.000594698         0.502644        -0.30232      -0.00150159    -0.000788253
                    -3.35702e-06     0.000477789         0.246369       0.0952251     -0.000403998    -0.000220347         0.171456       -0.945529
                        0.502464       -0.302069     -0.000526591    -9.84199e-05         0.149815         0.60908     -0.000579249     -0.00111105
                    -0.000320186     0.000113538          0.17145       -0.945704      0.000735113     -0.00043983         0.262088     -0.00451907
281730                 0.0243282        0.582806     -0.000152688     0.000593903         0.505075       -0.303956      -0.00148564    -0.000779696
                    -3.57413e-06     0.000478799         0.246388       0.0952252     -0.000404368     -0.00021918         0.171184       -0.945573
                        0.504898       -0.303704     -0.000526044      -9.923e-05         0.152116        0.607246     -0.000569324     -0.00110157
                    -0.000319654     0.000113196         0.171177       -0.945749      0.000735043    -0.000441155         0.262103     -0.00466456
281732                 0.0273842        0.581702     -0.000151478     0.000593131         0.507473       -0.305604      -0.00147014    -0.000774583
                    -3.78448e-06     0.000479802         0.246406       0.0952252     -0.000404727    -0.000218018         0.170912       -0.945617
                        0.507298       -0.305352     -0.000525464    -0.000100032         0.154384        0.605405     -0.000558755     -0.00109186
                    -0.000319126     0.000112847         0.170903       -0.945794      0.000734961    -0.000442472         0.262119     -0.00481011
281734                 0.0304069        0.580578     -0.000150244     0.000592382         0.509838       -0.307265      -0.00145946    -0.000770277
                    -3.98652e-06     0.000480799         0.246425       0.0952253     -0.000405073     -0.00021686          0.17064       -0.945662
                        0.509664       -0.307014     -0.000524851    -0.000100824          0.15662        0.603557     -0.000547559     -0.00108196
                    -0.000318603     0.000112491          0.17063       -0.945839      0.000734867     -0.00044378         0.262134     -0.00495569
281736                 0.0333966        0.579435     -0.000148985     0.000591656         0.512169       -0.308939      -0.00145137    -0.000761567
                    -4.17909e-06     0.000481792         0.246443       0.0952254     -0.000405408    -0.000215708         0.170368       -0.945706
                        0.511998       -0.308687     -0.000524208    -0.000101605         0.158823        0.601703     -0.000535757     -0.00107194
                    -0.000318087     0.000112131         0.170357       -0.945884      0.000734763     -0.00044508          0.26215      -0.0051013
281738                 0.0363534        0.578274     -0.000147705     0.000590954         0.514467       -0.310624      -0.00144177    -0.000749464
                    -4.36134e-06      0.00048278         0.246462       0.0952255     -0.000405732     -0.00021456         0.170096        -0.94575
                        0.514298       -0.310372     -0.000523533    -0.000102374         0.160993        0.599844     -0.000523366     -0.00106184
                    -0.000317577     0.000111768         0.170084       -0.945929      0.000734647    -0.000446371         0.262165     -0.00524692
281740                 0.0392773        0.577096     -0.000146404     0.000590276         0.516732        -0.31232      -0.00143029    -0.000736222
                    -4.53266e-06     0.000483764         0.246481       0.0952255     -0.000406044    -0.000213418         0.169824       -0.945794
                        0.516565       -0.312068     -0.000522829    -0.000103131         0.163132        0.597979     -0.000510406      -0.0010517
                    -0.000317075     0.000111402         0.169811       -0.945973       0.00073452    -0.000447653          0.26218     -0.00539255
281742                 0.0421686        0.575901     -0.000145085     0.000589621         0.518965       -0.314026      -0.00141759    -0.000722722
                    -4.69259e-06     0.000484744         0.246499       0.0952256     -0.000406345    -0.000212281         0.169552       -0.945838
                          0.5188       -0.313775     -0.000522097    -0.000103873          0.16524         0.59611     -0.000496893     -0.00104154
                    -0.000316581     0.000111034         0.169537       -0.946018      0.000734383    -0.000448927         0.262194     -0.00553818
281744                 0.0450273        0.574689     -0.000143748     0.000588991         0.521165       -0.315743      -0.00140416    -0.000709196
                    -4.84085e-06     0.000485721         0.246518       0.0952256     -0.000406635     -0.00021115         0.169279       -0.945883
                        0.521002       -0.315491     -0.000521337    -0.000104602         0.167316        0.594236     -0.000482848     -0.00103137
                    -0.000316095     0.000110665         0.169264       -0.946062      0.000734235    -0.000450191         0.262209      -0.0056838
281746                 0.0478536        0.573461     -0.000142396     0.000588385         0.523333       -0.317468      -0.00139027     -0.00069569
                    -4.97725e-06     0.000486693         0.246536       0.0952257     -0.000406915    -0.000210023         0.169007       -0.945927
                        0.523172       -0.317217     -0.000520551    -0.000105315         0.169361        0.592359     -0.000468301     -0.00102118
                    -0.000315616     0.000110295         0.168991       -0.946106      0.000734077    -0.000451447         0.262224      -0.0058294
281748                 0.0506478        0.572219     -0.000141031     0.000587803         0.525469       -0.319203       -0.0013761    -0.000682215
                    -5.10168e-06     0.000487663         0.246555       0.0952257     -0.000407184    -0.000208903         0.168734       -0.945971
                        0.525311       -0.318951      -0.00051974    -0.000106012         0.171376        0.590478     -0.000453303     -0.00101092
                    -0.000315146     0.000109925         0.168718       -0.946151       0.00073391    -0.000452694         0.262238       -0.005975
281750                 0.0534098        0.570962     -0.000139652     0.000587244         0.527573       -0.320945      -0.00136175    -0.000668774
                    -5.21413e-06     0.000488628         0.246574       0.0952258     -0.000407442    -0.000207788         0.168461       -0.946015
                        0.527417       -0.320694     -0.000518904    -0.000106692          0.17336        0.588595     -0.000437938     -0.00100056
                    -0.000314684     0.000109555         0.168444       -0.946195      0.000733732    -0.000453932         0.262252     -0.00612057
281752                 0.0561401         0.56969     -0.000138262     0.000586707         0.529647       -0.322696      -0.00134729    -0.000655377
                    -5.31462e-06     0.000489589         0.246592       0.0952258     -0.000407691    -0.000206678         0.168189       -0.946058
                        0.529492       -0.322445     -0.000518046    -0.000107355         0.175314        0.586709     -0.000422327    -0.000990049
                     -0.00031423     0.000109185         0.168171       -0.946239      0.000733546    -0.000455162         0.262267     -0.00626613
281754                 0.0588386        0.568406      -0.00013686     0.000586192         0.531689       -0.324454      -0.00133278    -0.000642036
                    -5.40325e-06     0.000490547         0.246611       0.0952258      -0.00040793    -0.000205575         0.167916       -0.946102
                        0.531536       -0.324203     -0.000517166    -0.000108001         0.177239        0.584821     -0.000406615    -0.000979412
                    -0.000313784     0.000108816         0.167898       -0.946283       0.00073335    -0.000456382         0.262281     -0.00641168
281756                 0.0615057        0.567109     -0.000135446       0.0005857           0.5337       -0.326219      -0.00131826    -0.000628764
                    -5.48013e-06     0.000491501          0.24663       0.0952259     -0.000408159    -0.000204477         0.167643       -0.946146
                        0.533549       -0.325968     -0.000516265    -0.000108628         0.179134        0.582932     -0.000390935    -0.000968702
                    -0.000313347     0.000108447         0.167625       -0.946326      0.000733145    -0.000457594         0.262295      -0.0065572
281758                 0.0641415        0.565799     -0.000134023     0.000585231          0.53568        -0.32799      -0.00130375    -0.000615579
                    -5.54541e-06      0.00049245         0.246648       0.0952259     -0.000408379    -0.000203385          0.16737        -0.94619
                        0.535532       -0.327739     -0.000515345    -0.000109235            0.181        0.581041     -0.000375381     -0.00095801
                    -0.000312917     0.000108078         0.167352        -0.94637      0.000732932    -0.000458797         0.262309     -0.00670272
281760                 0.0667463        0.564477     -0.000132591     0.000584788          0.53763       -0.329767      -0.00128929    -0.000602495
                    -5.59927e-06     0.000493395         0.246667       0.0952259      -0.00040859      -0.0002023         0.167097       -0.946233
                        0.537484       -0.329517     -0.000514406    -0.000109824         0.182837         0.57915     -0.000359999    -0.000947429
                    -0.000312495     0.000107711         0.167078       -0.946414      0.000732709    -0.000459991         0.262323     -0.00684821
281762                 0.0693201        0.563145     -0.000131154     0.000584368          0.53955       -0.331549       -0.0012749    -0.000589528
                    -5.64191e-06     0.000494336         0.246685       0.0952259     -0.000408793    -0.000201221         0.166824       -0.946277
                        0.539406       -0.331299     -0.000513449    -0.000110392         0.184646        0.577258     -0.000344794    -0.000937032
