! TOUCHSTONE file generated by CST MICROWAVE STUDIO
! Date and time: Wed Oct 15 17:28:22 2025
! Project name: Teste_Macro_Metasurface_Nanopilar.cst
! Parameters = {H=600; L_x=80; L_y=90; Lambda=1064; Max_L=200; Min_L=70; PathPara=1; Phi=0; Step_L=10; Theta=0; p=520; phaseX=180; phaseY=0}
! Header version: 2018
! Port assignment regex: !\s*Touchstone port\s*([0-9]+)\s*=\s*(CST MWS port|CST DS port)\s*([0-9]+|Zmin|Zmax)\s*\(\"(.*)\"\)(\s*mode\s*([0-9]+))?.*
! Touchstone port assignment:
! Touchstone port 1 = CST MWS port Zmax ("") mode 1
! Touchstone port 2 = CST MWS port Zmax ("") mode 2
! Touchstone port 3 = CST MWS port Zmin ("") mode 1
! Touchstone port 4 = CST MWS port Zmin ("") mode 2
! S-Parameters are not renormalized. Each port impedance will be approximated by the real part at minimum frequency. The values are described via the [Reference] keyword.
! Default impedance is overridden by [Reference]
[Version] 2.0
# GHz S RI R 376.73
[Number of Ports] 4
[Reference]
376.73 376.73 259.888 259.888 
[Number of Frequencies] 51
[Network Data]
281700                 0.0205608       -0.101385     -0.000382584    -0.000255985       -0.0478248       -0.993374      0.000235166     1.41339e-05
                    -0.000328507    -3.27714e-05        0.0346635       -0.118074      0.000200229    -2.91713e-05        0.0610936       -0.989871
                      -0.0478698       -0.993033      0.000310302    -0.000157035        0.0301141       0.0990295      -0.00040984      0.00021295
                     0.000172233     9.93802e-05        0.0609717       -0.990091     -0.000424564      0.00011931        0.0197188        0.121522
281702                 0.0205487       -0.101383     -0.000382123    -0.000256169       -0.0480679       -0.993363      0.000235168     1.40616e-05
                    -0.000328415    -3.25942e-05         0.034651       -0.118074      0.000200251     -2.9215e-05        0.0608557       -0.989886
                      -0.0481127       -0.993022      0.000309931    -0.000157068        0.0301504       0.0990136     -0.000409849     0.000213023
                     0.000172201     9.92632e-05        0.0607335       -0.990106     -0.000424585      0.00011944        0.0197648        0.121511
281704                 0.0205367       -0.101381     -0.000381662    -0.000256352        -0.048311       -0.993352       0.00023517     1.39893e-05
                    -0.000328323    -3.24169e-05        0.0346386       -0.118074      0.000200273    -2.92588e-05        0.0606179       -0.989901
                      -0.0483557        -0.99301      0.000309561      -0.0001571        0.0301866       0.0989977     -0.000409859     0.000213097
                      0.00017217     9.91462e-05        0.0604953       -0.990122     -0.000424605     0.000119571        0.0198107          0.1215
281706                 0.0205247       -0.101378       -0.0003812    -0.000256534       -0.0485541        -0.99334      0.000235173     1.39171e-05
                     -0.00032823    -3.22396e-05        0.0346261       -0.118074      0.000200295    -2.93027e-05          0.06038       -0.989916
                      -0.0485986       -0.992999       0.00030919    -0.000157132        0.0302228       0.0989818     -0.000409869      0.00021317
                     0.000172138     9.90289e-05        0.0602572       -0.990137     -0.000424624     0.000119701        0.0198567        0.121489
281708                 0.0205127       -0.101376     -0.000380737    -0.000256715       -0.0487972       -0.993328      0.000235175     1.38448e-05
                    -0.000328138    -3.20623e-05        0.0346137       -0.118074      0.000200317    -2.93467e-05        0.0601421       -0.989931
                      -0.0488415       -0.992987      0.000308819    -0.000157162        0.0302591       0.0989659     -0.000409879     0.000213244
                     0.000172107     9.89116e-05         0.060019       -0.990153     -0.000424644     0.000119832        0.0199027        0.121478
281710                 0.0205006       -0.101374     -0.000380273    -0.000256896       -0.0490403       -0.993317      0.000235177     1.37726e-05
                    -0.000328045     -3.1885e-05        0.0346012       -0.118074      0.000200339     -2.9391e-05        0.0599042       -0.989946
                      -0.0490844       -0.992976      0.000308449    -0.000157192        0.0302953       0.0989499     -0.000409888     0.000213317
                     0.000172075     9.87941e-05        0.0597808       -0.990168     -0.000424663     0.000119962        0.0199486        0.121467
281712                 0.0204886       -0.101371     -0.000379808    -0.000257076       -0.0492833       -0.993305      0.000235179     1.37003e-05
                    -0.000327952    -3.17077e-05        0.0345888       -0.118074      0.000200361    -2.94353e-05        0.0596664       -0.989961
                      -0.0493273       -0.992964      0.000308078    -0.000157222        0.0303315       0.0989339     -0.000409898      0.00021339
                     0.000172044     9.86765e-05        0.0595426       -0.990184     -0.000424682     0.000120092        0.0199946        0.121456
281714                 0.0204766       -0.101369     -0.000379342    -0.000257255       -0.0495264       -0.993293      0.000235181     1.36281e-05
                    -0.000327859    -3.15304e-05        0.0345764       -0.118074      0.000200383    -2.94798e-05        0.0594285       -0.989975
                      -0.0495703       -0.992952      0.000307708     -0.00015725        0.0303677        0.098918     -0.000409908     0.000213464
                     0.000172012     9.85587e-05        0.0593045       -0.990199     -0.000424701     0.000120223        0.0200405        0.121445
281716                 0.0204646       -0.101367     -0.000378876    -0.000257433       -0.0497695       -0.993282      0.000235184     1.35559e-05
                    -0.000327765    -3.13531e-05        0.0345639       -0.118074      0.000200404    -2.95244e-05        0.0591906        -0.98999
                      -0.0498132        -0.99294      0.000307337    -0.000157278        0.0304039        0.098902     -0.000409918     0.000213537
                      0.00017198     9.84408e-05        0.0590663       -0.990214     -0.000424719     0.000120353        0.0200864        0.121434
281718                 0.0204525       -0.101364     -0.000378409    -0.000257611       -0.0500126        -0.99327      0.000235186     1.34836e-05
                    -0.000327672    -3.11758e-05        0.0345515       -0.118074      0.000200426    -2.95692e-05        0.0589527       -0.990005
                      -0.0500561       -0.992929      0.000306967    -0.000157305        0.0304401        0.098886     -0.000409927     0.000213611
                     0.000171949     9.83227e-05        0.0588281        -0.99023     -0.000424737     0.000120483        0.0201324        0.121423
281720                 0.0204405       -0.101362     -0.000377941    -0.000257787       -0.0502557       -0.993258      0.000235188     1.34114e-05
                    -0.000327578    -3.09984e-05         0.034539       -0.118074      0.000200448     -2.9614e-05        0.0587148       -0.990019
                       -0.050299       -0.992917      0.000306596    -0.000157332        0.0304762       0.0988699     -0.000409937     0.000213684
                     0.000171917     9.82045e-05        0.0585899       -0.990245     -0.000424755     0.000120612        0.0201783        0.121411
281722                 0.0204285        -0.10136     -0.000377472    -0.000257963       -0.0504987       -0.993246       0.00023519     1.33392e-05
                    -0.000327484    -3.08211e-05        0.0345266       -0.118074      0.000200469    -2.96591e-05        0.0584769       -0.990033
                      -0.0505419       -0.992905      0.000306226    -0.000157357        0.0305124       0.0988539     -0.000409947     0.000213758
                     0.000171885     9.80861e-05        0.0583517        -0.99026     -0.000424773     0.000120742        0.0202242          0.1214
281724                 0.0204165       -0.101357     -0.000377002    -0.000258138       -0.0507418       -0.993234      0.000235192      1.3267e-05
                     -0.00032739    -3.06437e-05        0.0345141       -0.118074      0.000200491    -2.97042e-05         0.058239       -0.990048
                      -0.0507848       -0.992893      0.000305856    -0.000157382        0.0305485       0.0988379     -0.000409957     0.000213832
                     0.000171854     9.79676e-05        0.0581135       -0.990275      -0.00042479     0.000120872        0.0202701        0.121389
281726                 0.0204044       -0.101355     -0.000376532    -0.000258313       -0.0509849       -0.993221      0.000235194     1.31948e-05
                    -0.000327296    -3.04663e-05        0.0345017       -0.118074      0.000200512    -2.97495e-05         0.058001       -0.990062
                      -0.0510277       -0.992881      0.000305485    -0.000157406        0.0305847       0.0988218     -0.000409966     0.000213905
                     0.000171822     9.78489e-05        0.0578753        -0.99029     -0.000424807     0.000121002         0.020316        0.121378
281728                 0.0203924       -0.101353     -0.000376061    -0.000258486        -0.051228       -0.993209      0.000235196     1.31226e-05
                    -0.000327202    -3.02889e-05        0.0344892       -0.118074      0.000200534    -2.97949e-05        0.0577631       -0.990076
                      -0.0512706       -0.992868      0.000305115     -0.00015743        0.0306208       0.0988057     -0.000409976     0.000213979
                      0.00017179       9.773e-05        0.0576371       -0.990305     -0.000424824     0.000121131        0.0203619        0.121367
281730                 0.0203804        -0.10135     -0.000375589    -0.000258659        -0.051471       -0.993197      0.000235198     1.30504e-05
                    -0.000327107    -3.01116e-05        0.0344768       -0.118074      0.000200555    -2.98405e-05        0.0575252       -0.990091
                      -0.0515135       -0.992856      0.000304745    -0.000157453         0.030657       0.0987896     -0.000409986     0.000214052
                     0.000171758      9.7611e-05        0.0573989        -0.99032     -0.000424841      0.00012126        0.0204078        0.121356
281732                 0.0203684       -0.101348     -0.000375116    -0.000258831       -0.0517141       -0.993185        0.0002352     1.29782e-05
                    -0.000327012    -2.99342e-05        0.0344643       -0.118074      0.000200577    -2.98862e-05        0.0572873       -0.990105
                      -0.0517564       -0.992844      0.000304375    -0.000157475        0.0306931       0.0987735     -0.000409996     0.000214126
                     0.000171727     9.74919e-05        0.0571607       -0.990335     -0.000424857      0.00012139        0.0204537        0.121344
281734                 0.0203563       -0.101346     -0.000374642    -0.000259002       -0.0519571       -0.993172      0.000235202     1.29061e-05
                    -0.000326917    -2.97568e-05        0.0344519       -0.118074      0.000200598     -2.9932e-05        0.0570493       -0.990119
                      -0.0519993       -0.992832      0.000304005    -0.000157496        0.0307292       0.0987574     -0.000410005     0.000214199
                     0.000171695     9.73726e-05        0.0569225       -0.990349     -0.000424873     0.000121519        0.0204996        0.121333
281736                 0.0203443       -0.101343     -0.000374168    -0.000259172       -0.0522002        -0.99316      0.000235204     1.28339e-05
                    -0.000326822    -2.95794e-05        0.0344395       -0.118074      0.000200619    -2.99779e-05        0.0568114       -0.990133
                      -0.0522422       -0.992819      0.000303635    -0.000157517        0.0307653       0.0987413     -0.000410015     0.000214273
                     0.000171663     9.72531e-05        0.0566843       -0.990364     -0.000424889     0.000121648        0.0205455        0.121322
281738                 0.0203323       -0.101341     -0.000373693    -0.000259341       -0.0524433       -0.993147      0.000235206     1.27617e-05
                    -0.000326727     -2.9402e-05         0.034427       -0.118074       0.00020064     -3.0024e-05        0.0565735       -0.990147
                      -0.0524851       -0.992807      0.000303265    -0.000157536        0.0308014       0.0987252     -0.000410025     0.000214347
                     0.000171632     9.71334e-05        0.0564461       -0.990379     -0.000424905     0.000121777        0.0205913         0.12131
281740                 0.0203203       -0.101338     -0.000373217     -0.00025951       -0.0526863       -0.993135      0.000235207     1.26896e-05
                    -0.000326632    -2.92245e-05        0.0344146       -0.118074      0.000200662    -3.00702e-05        0.0563355       -0.990161
                       -0.052728       -0.992794      0.000302896    -0.000157555        0.0308375        0.098709     -0.000410035      0.00021442
                     0.000171601     9.70135e-05        0.0562079       -0.990393      -0.00042492     0.000121906        0.0206372        0.121299
281742                 0.0203083       -0.101336      -0.00037274    -0.000259678       -0.0529294       -0.993122      0.000235209     1.26174e-05
                    -0.000326537    -2.90472e-05        0.0344021       -0.118074      0.000200683    -3.01165e-05        0.0560976       -0.990175
                      -0.0529708       -0.992782      0.000302526    -0.000157574        0.0308736       0.0986929     -0.000410044     0.000214494
                      0.00017157     9.68933e-05        0.0559697       -0.990408     -0.000424935     0.000122035        0.0206831        0.121288
281744                 0.0202962       -0.101334     -0.000372263    -0.000259844       -0.0531724       -0.993109      0.000235211     1.25453e-05
                    -0.000326442    -2.88698e-05        0.0343897       -0.118074      0.000200704     -3.0163e-05        0.0558596       -0.990189
                      -0.0532137       -0.992769      0.000302157    -0.000157591        0.0309097       0.0986767     -0.000410054     0.000214568
                      0.00017154     9.67728e-05        0.0557315       -0.990423      -0.00042495     0.000122164        0.0207289        0.121276
281746                 0.0202842       -0.101331     -0.000371785    -0.000260011       -0.0534155       -0.993097      0.000235213     1.24732e-05
                    -0.000326348    -2.86927e-05        0.0343772       -0.118074      0.000200725    -3.02096e-05        0.0556217       -0.990202
                      -0.0534566       -0.992756      0.000301787    -0.000157608        0.0309457       0.0986605     -0.000410064     0.000214641
                     0.000171513     9.66512e-05        0.0554933       -0.990437     -0.000424964     0.000122292        0.0207748        0.121265
281748                 0.0202722       -0.101329     -0.000371306    -0.000260176       -0.0536585       -0.993084      0.000235214      1.2401e-05
                    -0.000326292    -2.85277e-05        0.0343648       -0.118074      0.000200746    -3.02563e-05        0.0553837       -0.990216
                      -0.0536996       -0.992744      0.000301418    -0.000157624        0.0309818       0.0986443     -0.000410074     0.000214715
                     0.000171649     9.65998e-05        0.0552551       -0.990451     -0.000424979     0.000122421        0.0208206        0.121254
281750                 0.0202602       -0.101327     -0.000370826     -0.00026034       -0.0539015       -0.993071      0.000235216     1.23289e-05
                    -0.000326146    -2.83365e-05        0.0343523       -0.118074      0.000200767    -3.03031e-05        0.0551458        -0.99023
                      -0.0539423       -0.992731      0.000301048    -0.000157639        0.0310179       0.0986281     -0.000410085     0.000214788
                     0.000171426     9.64175e-05        0.0550169       -0.990466     -0.000424993      0.00012255        0.0208664        0.121242
281752                 0.0202482       -0.101324     -0.000370346    -0.000260504       -0.0541446       -0.993058      0.000235218      1.2257e-05
                    -0.000326053    -2.81593e-05        0.0343399       -0.118074      0.000200787      -3.035e-05        0.0549078       -0.990243
                      -0.0541852       -0.992718      0.000300679    -0.000157654        0.0310539       0.0986118     -0.000410095     0.000214861
                     0.000171401     9.62945e-05        0.0547786        -0.99048     -0.000425006     0.000122678        0.0209123        0.121231
281754                 0.0202361       -0.101322     -0.000369865    -0.000260666       -0.0543876       -0.993045       0.00023522     1.21848e-05
                    -0.000325957     -2.7982e-05        0.0343274       -0.118073      0.000200808    -3.03971e-05        0.0546698       -0.990257
                      -0.0544281       -0.992705       0.00030031    -0.000157667        0.0310899       0.0985956     -0.000410103     0.000214934
                     0.000171371      9.6173e-05        0.0545404       -0.990494      -0.00042502     0.000122806        0.0209581        0.121219
281756                 0.0202241        -0.10132     -0.000369383    -0.000260828       -0.0546307       -0.993032      0.000235221     1.21127e-05
                    -0.000325861    -2.78045e-05         0.034315       -0.118073      0.000200829    -3.04442e-05        0.0544319        -0.99027
                       -0.054671       -0.992692       0.00029994     -0.00015768         0.031126       0.0985794     -0.000410113     0.000215008
                      0.00017134     9.60517e-05        0.0543022       -0.990509     -0.000425034     0.000122934        0.0210039        0.121208
281758                 0.0202121       -0.101317     -0.000368899     -0.00026099       -0.0548737       -0.993019      0.000235223     1.20406e-05
                    -0.000325764    -2.76271e-05        0.0343026       -0.118073       0.00020085    -3.04913e-05        0.0541939       -0.990284
                      -0.0549138       -0.992679      0.000299569    -0.000157691         0.031162       0.0985631     -0.000410122     0.000215082
                     0.000171309     9.59303e-05         0.054064       -0.990523     -0.000425047     0.000123063        0.0210497        0.121196
281760                 0.0202001       -0.101315      -0.00036841    -0.000261155       -0.0551167       -0.993006      0.000235225     1.19685e-05
                    -0.000325667    -2.74496e-05        0.0342901       -0.118073      0.000200871    -3.05376e-05        0.0539559       -0.990297
                      -0.0551567       -0.992666      0.000299192    -0.000157697         0.031198       0.0985468     -0.000410132     0.000215155
                     0.000171277     9.58088e-05        0.0538258       -0.990537     -0.000425063     0.000123192        0.0210955        0.121185
281762                 0.0201881       -0.101313     -0.000367947    -0.000261301       -0.0553598       -0.992993      0.000235226     1.18964e-05
                     -0.00032557    -2.72721e-05        0.0342777       -0.118073       0.00020089    -3.05887e-05        0.0537179        -0.99031
                      -0.0553995       -0.992653      0.000298865    -0.000157771         0.031234       0.0985305     -0.000410142     0.000215229
