! TOUCHSTONE file generated by CST MICROWAVE STUDIO
! Date and time: Wed Oct 15 17:30:15 2025
! Project name: Teste_Macro_Metasurface_Nanopilar.cst
! Parameters = {H=600; L_x=110; L_y=170; Lambda=1064; Max_L=200; Min_L=70; PathPara=1; Phi=0; Step_L=10; Theta=0; p=520; phaseX=180; phaseY=0}
! Header version: 2018
! Port assignment regex: !\s*Touchstone port\s*([0-9]+)\s*=\s*(CST MWS port|CST DS port)\s*([0-9]+|Zmin|Zmax)\s*\(\"(.*)\"\)(\s*mode\s*([0-9]+))?.*
! Touchstone port assignment:
! Touchstone port 1 = CST MWS port Zmax ("") mode 1
! Touchstone port 2 = CST MWS port Zmax ("") mode 2
! Touchstone port 3 = CST MWS port Zmin ("") mode 1
! Touchstone port 4 = CST MWS port Zmin ("") mode 2
! S-Parameters are not renormalized. Each port impedance will be approximated by the real part at minimum frequency. The values are described via the [Reference] keyword.
! Default impedance is overridden by [Reference]
[Version] 2.0
# GHz S RI R 376.73
[Number of Ports] 4
[Reference]
376.73 376.73 259.888 259.888 
[Number of Frequencies] 51
[Network Data]
281700                  0.637726        0.472224     -0.000652188     9.76426e-06        0.0888484       -0.565003     -0.000698235    -0.000127127
                    -0.000567619     0.000112351        0.0998435      -0.0206262      0.000218256      -0.0010019         0.359877        0.918133
                       0.0889392       -0.564937        0.0005889    -0.000985864         0.712914       -0.322899      0.000839262    -0.000945394
                    -0.000511985    -6.84664e-05          0.35961        0.917731      0.000594496    -0.000804444        0.0861277      -0.0499314
281702                  0.638244        0.472076     -0.000652397     1.03098e-05        0.0883138       -0.564591     -0.000698807    -0.000126483
                    -0.000567649     0.000112984         0.099824      -0.0206181      0.000217347     -0.00100235         0.360236        0.917995
                       0.0884056       -0.564525       0.00058851    -0.000986647         0.712806       -0.323914      0.000839053    -0.000946658
                    -0.000512178    -6.80052e-05         0.359968        0.917592      0.000594024    -0.000805155        0.0860686      -0.0499912
281704                  0.638762        0.471928     -0.000652605      1.0856e-05        0.0877796       -0.564178     -0.000699378    -0.000125837
                    -0.000567678     0.000113617        0.0998044      -0.0206101      0.000216437      -0.0010028         0.360596        0.917857
                       0.0878725       -0.564112      0.000588119    -0.000987432         0.712697        -0.32493       0.00083884    -0.000947922
                     -0.00051237    -6.75436e-05         0.360327        0.917453       0.00059355    -0.000805865        0.0860094       -0.050051
281706                   0.63928        0.471779     -0.000652814     1.14029e-05        0.0872458       -0.563763     -0.000699947    -0.000125189
                    -0.000567706     0.000114251        0.0997849       -0.020602      0.000215525     -0.00100325         0.360955        0.917718
                       0.0873398       -0.563698      0.000587727    -0.000988217         0.712586       -0.325947      0.000838623    -0.000949186
                    -0.000512562    -6.70816e-05         0.360686        0.917313      0.000593074    -0.000806576        0.0859501      -0.0501108
281708                  0.639799        0.471629     -0.000653022     1.19504e-05        0.0867124       -0.563348     -0.000700515     -0.00012454
                    -0.000567733     0.000114884        0.0997654      -0.0205939      0.000214613      -0.0010037         0.361314         0.91758
                       0.0868075       -0.563283      0.000587334    -0.000989002         0.712474       -0.326964      0.000838403    -0.000950452
                    -0.000512753    -6.66194e-05         0.361044        0.917174      0.000592596    -0.000807287        0.0858908      -0.0501705
281710                  0.640318        0.471478     -0.000653231     1.24986e-05        0.0861795       -0.562932     -0.000701083    -0.000123889
                    -0.000567759     0.000115519        0.0997458      -0.0205859      0.000213699     -0.00100415         0.361673        0.917441
                       0.0862756       -0.562867      0.000586941    -0.000989788          0.71236       -0.327982       0.00083818    -0.000951717
                    -0.000512945    -6.61568e-05         0.361403        0.917035      0.000592117    -0.000807998        0.0858315      -0.0502301
281712                  0.640837        0.471327     -0.000653439     1.30474e-05         0.085647       -0.562514     -0.000701649    -0.000123235
                    -0.000567784     0.000116154        0.0997263      -0.0205778      0.000212784     -0.00100459         0.362032        0.917302
                       0.0857441       -0.562449      0.000586547    -0.000990575         0.712244       -0.329001      0.000837953    -0.000952984
                    -0.000513135    -6.56938e-05         0.361761        0.916895      0.000591637    -0.000808709        0.0857721      -0.0502897
281714                  0.641357        0.471174     -0.000653647     1.35968e-05        0.0851149       -0.562095     -0.000702213     -0.00012258
                    -0.000567807     0.000116789        0.0997068      -0.0205697      0.000211868     -0.00100504         0.362392        0.917163
                       0.0852131       -0.562031      0.000586152    -0.000991362         0.712127        -0.33002      0.000837723    -0.000954251
                    -0.000513326    -6.52305e-05          0.36212        0.916755      0.000591155     -0.00080942        0.0857127      -0.0503492
281716                  0.641877        0.471021     -0.000653855     1.41468e-05        0.0845832       -0.561675     -0.000702777    -0.000121924
                     -0.00056783     0.000117425        0.0996873      -0.0205616      0.000210951     -0.00100549         0.362751        0.917023
                       0.0846825       -0.561611      0.000585756    -0.000992149         0.712008        -0.33104      0.000837489    -0.000955519
                    -0.000513516    -6.47668e-05         0.362478        0.916616      0.000590671    -0.000810132        0.0856533      -0.0504087
281718                  0.642397        0.470868     -0.000654063     1.46974e-05         0.084052       -0.561255     -0.000703339    -0.000121265
                    -0.000567852     0.000118062        0.0996678      -0.0205535      0.000210032     -0.00100593          0.36311        0.916884
                       0.0841523        -0.56119       0.00058536    -0.000992937         0.711888       -0.332061      0.000837252    -0.000956787
                    -0.000513706    -6.43027e-05         0.362836        0.916476      0.000590186    -0.000810844        0.0855938      -0.0504681
281720                  0.642917        0.470713     -0.000654271     1.52486e-05        0.0835212       -0.560832       -0.0007039    -0.000120604
                    -0.000567872     0.000118698        0.0996483      -0.0205454      0.000209112     -0.00100638         0.363468        0.916745
                       0.0836226       -0.560769      0.000584963    -0.000993726         0.711766       -0.333082      0.000837011    -0.000958056
                    -0.000513895    -6.38382e-05         0.363194        0.916335      0.000589699    -0.000811555        0.0855343      -0.0505275
281722                  0.643438        0.470558      -0.00065448     1.58003e-05        0.0829909       -0.560409      -0.00070446    -0.000119942
                    -0.000567892     0.000119336        0.0996288      -0.0205373      0.000208191     -0.00100682         0.363827        0.916605
                       0.0830933       -0.560346      0.000584565    -0.000994515         0.711642       -0.334104      0.000836766    -0.000959326
                    -0.000514084    -6.33734e-05         0.363553        0.916195       0.00058921    -0.000812267        0.0854747      -0.0505868
281724                  0.643959        0.470402     -0.000654688     1.63527e-05         0.082461       -0.559985     -0.000705018    -0.000119277
                     -0.00056791     0.000119973        0.0996093      -0.0205291      0.000207268     -0.00100726         0.364186        0.916465
                       0.0825645       -0.559921      0.000584166    -0.000995305         0.711517       -0.335127      0.000836518    -0.000960596
                    -0.000514273    -6.29081e-05         0.363911        0.916055       0.00058872     -0.00081298        0.0854151      -0.0506461
281726                  0.644481        0.470245     -0.000654895     1.69055e-05        0.0819316       -0.559559     -0.000705575    -0.000118611
                    -0.000567928     0.000120612        0.0995898       -0.020521      0.000206344     -0.00100771         0.364545        0.916325
                       0.0820361       -0.559496      0.000583767    -0.000996095          0.71139        -0.33615      0.000836267    -0.000961867
                    -0.000514461    -6.24424e-05         0.364269        0.915914      0.000588228    -0.000813692        0.0853554      -0.0507053
281728                  0.645002        0.470087     -0.000655103      1.7459e-05        0.0814026       -0.559133     -0.000706131    -0.000117943
                    -0.000567944     0.000121251        0.0995703      -0.0205128      0.000205419     -0.00100815         0.364903        0.916185
                       0.0815082        -0.55907      0.000583368    -0.000996886         0.711261       -0.337174      0.000836012    -0.000963139
                    -0.000514649    -6.19763e-05         0.364627        0.915774      0.000587735    -0.000814404        0.0852957      -0.0507645
281730                  0.645524        0.469929     -0.000655311      1.8013e-05        0.0808741       -0.558705     -0.000706686    -0.000117273
                     -0.00056796      0.00012189        0.0995508      -0.0205047      0.000204492     -0.00100859         0.365262        0.916045
                       0.0809807       -0.558642      0.000582968    -0.000997678         0.711131       -0.338198      0.000835753    -0.000964411
                    -0.000514836    -6.15097e-05         0.364985        0.915633      0.000587239    -0.000815117         0.085236      -0.0508236
281732                  0.646046         0.46977     -0.000655519     1.85675e-05         0.080346       -0.558276     -0.000707239    -0.000116602
                    -0.000567974      0.00012253        0.0995313      -0.0204965      0.000203563     -0.00100903         0.365621        0.915905
                       0.0804537       -0.558213      0.000582567     -0.00099847         0.710999       -0.339223      0.000835491    -0.000965684
                    -0.000515023    -6.10428e-05         0.365342        0.915492      0.000586742     -0.00081583        0.0851762      -0.0508826
281734                  0.646569         0.46961     -0.000655727     1.91225e-05        0.0798183       -0.557846     -0.000707792    -0.000115928
                    -0.000567987      0.00012317        0.0995118      -0.0204884      0.000202631     -0.00100947         0.365979        0.915764
                       0.0799271       -0.557784      0.000582165    -0.000999262         0.710866       -0.340249      0.000835226    -0.000966958
                    -0.000515209    -6.05754e-05           0.3657        0.915351      0.000586243    -0.000816544        0.0851164      -0.0509416
281736                  0.647092        0.469449     -0.000655935     1.96781e-05        0.0792912       -0.557415     -0.000708343    -0.000115254
                       -0.000568     0.000123811        0.0994924      -0.0204802      0.000201694     -0.00100991         0.366338        0.915623
                        0.079401       -0.557353      0.000581763     -0.00100006         0.710731       -0.341276      0.000834958    -0.000968231
                    -0.000515395    -6.01075e-05         0.366058        0.915209       0.00058574    -0.000817259        0.0850565      -0.0510005
281738                  0.647615        0.469288     -0.000656143     2.02342e-05        0.0787644       -0.556983     -0.000708892    -0.000114578
                    -0.000568011     0.000124452        0.0994729       -0.020472      0.000200743     -0.00101035         0.366696        0.915483
                       0.0788753       -0.556921      0.000581361     -0.00100085         0.710594       -0.342303      0.000834686    -0.000969505
                     -0.00051558    -5.96392e-05         0.366416        0.915068      0.000585231    -0.000817978        0.0849966      -0.0510594
281740                  0.648138        0.469125     -0.000656351     2.07908e-05        0.0782382       -0.556549     -0.000709441    -0.000113901
                    -0.000568021     0.000125094        0.0994534      -0.0204638      0.000199475     -0.00101086         0.367054        0.915342
                       0.0783501       -0.556487      0.000580958     -0.00100164         0.710455        -0.34333      0.000834412    -0.000970778
                    -0.000515765    -5.91705e-05         0.366773        0.914927      0.000584726     -0.00081884        0.0849366      -0.0511182
281742                  0.648662        0.468962     -0.000656559     2.13479e-05        0.0777127       -0.556115     -0.000709988    -0.000113225
                     -0.00056803     0.000125736         0.099434      -0.0204557      0.000198987     -0.00101119         0.367413        0.915201
                       0.0778254       -0.556053      0.000580554     -0.00100244         0.710315       -0.344358      0.000834137    -0.000972049
                    -0.000515949    -5.87013e-05         0.367131        0.914785      0.000584266    -0.000819381        0.0848767       -0.051177
281744                  0.649186        0.468798     -0.000656767     2.19056e-05        0.0771873       -0.555679     -0.000710535    -0.000112553
                    -0.000568038     0.000126379        0.0994145      -0.0204475      0.000198021     -0.00101164         0.367771         0.91506
                       0.0773012       -0.555618       0.00058015     -0.00100323         0.710173       -0.345387      0.000833864    -0.000973315
                    -0.000516133    -5.82316e-05         0.367488        0.914643      0.000583747    -0.000820098        0.0848166      -0.0512357
281746                   0.64971        0.468634     -0.000656975     2.24637e-05        0.0766624       -0.555242     -0.000711081    -0.000111908
                    -0.000568046     0.000127022        0.0993951      -0.0204392      0.000197076     -0.00101208         0.368129        0.914918
                       0.0767774       -0.555181      0.000579745     -0.00100403          0.71003       -0.346416      0.000833612    -0.000974552
                    -0.000516317    -5.77615e-05         0.367846        0.914501      0.000583236    -0.000820813        0.0847566      -0.0512944
281748                  0.650235        0.468468     -0.000657183     2.30224e-05        0.0761381       -0.554804     -0.000711629     -0.00011006
                    -0.000568052     0.000127666        0.0993756       -0.020431      0.000196136     -0.00101251          0.36851        0.914753
                       0.0762541       -0.554743       0.00057934     -0.00100483         0.709885       -0.347446      0.000832595    -0.000977022
                    -0.000516499    -5.72909e-05         0.368203        0.914359      0.000582725    -0.000821528        0.0846964      -0.0513548
281750                  0.650759        0.468302     -0.000657391     2.35815e-05        0.0756142       -0.554365     -0.000712161    -0.000110379
                    -0.000568057     0.000128311        0.0993562      -0.0204228      0.000195196     -0.00101294         0.368845        0.914635
                       0.0757313       -0.554304      0.000578934     -0.00100562         0.709738       -0.348477      0.000832897    -0.000977269
                    -0.000516682    -5.68199e-05          0.36856        0.914217      0.000582213    -0.000822241        0.0846363      -0.0514116
281752                  0.651284        0.468135     -0.000657599     2.41411e-05        0.0750908       -0.553925     -0.000712703     -0.00010972
                    -0.000568061     0.000128955        0.0993368      -0.0204146      0.000194256     -0.00101338         0.369203        0.914494
                        0.075209       -0.553864      0.000578528     -0.00100642          0.70959       -0.349508      0.000832626    -0.000978516
                    -0.000516864    -5.63483e-05         0.368918        0.914075        0.0005817    -0.000822955        0.0845761        -0.05147
281754                   0.65181        0.467967     -0.000657807     2.47013e-05        0.0745679       -0.553484     -0.000713243    -0.000109037
                    -0.000568064     0.000129601        0.0993173      -0.0204063      0.000193315     -0.00101381         0.369561        0.914352
                       0.0746871       -0.553423      0.000578121     -0.00100722          0.70944        -0.35054      0.000832333    -0.000979787
                    -0.000517045    -5.58763e-05         0.369275        0.913932      0.000581185    -0.000823669        0.0845158      -0.0515285
281756                  0.652335        0.467798     -0.000658015     2.52619e-05        0.0740455       -0.553041     -0.000713781    -0.000108346
                    -0.000568066     0.000130247        0.0992979      -0.0203981      0.000192374     -0.00101424         0.369919         0.91421
                       0.0741658       -0.552981      0.000577714     -0.00100802         0.709288       -0.351573      0.000832031    -0.000981065
                    -0.000517225    -5.54038e-05         0.369632         0.91379      0.000580669    -0.000824383        0.0844556      -0.0515869
281758                  0.652861        0.467629     -0.000658223      2.5823e-05        0.0735236       -0.552597     -0.000714318    -0.000107651
                    -0.000568067     0.000130893        0.0992785      -0.0203898      0.000191432     -0.00101467         0.370277        0.914067
                       0.0736449       -0.552538      0.000577306     -0.00100882         0.709134       -0.352606      0.000831724    -0.000982346
                    -0.000517406    -5.49308e-05         0.369989        0.913647      0.000580152    -0.000825097        0.0843952      -0.0516452
281760                  0.653388        0.467459     -0.000658431     2.63846e-05        0.0730022       -0.552153     -0.000714854    -0.000106952
                    -0.000568067     0.000131541        0.0992591      -0.0203816      0.000190489      -0.0010151         0.370634        0.913925
                       0.0731246       -0.552093      0.000576898     -0.00100962         0.708979       -0.353639      0.000831412     -0.00098363
                    -0.000517585    -5.44574e-05         0.370346        0.913504      0.000579633    -0.000825811        0.0843349      -0.0517035
281762                  0.653914        0.467287     -0.000658639     2.69467e-05        0.0724813       -0.551707     -0.000715389    -0.000106251
                    -0.000568065     0.000132188        0.0992396      -0.0203733      0.000189545     -0.00101553         0.370992        0.913783
                       0.0726047       -0.551647      0.000576489     -0.00101042         0.708822       -0.354673      0.000831096    -0.000984915
