! TOUCHSTONE file generated by CST MICROWAVE STUDIO
! Date and time: Wed Oct 15 17:32:25 2025
! Project name: Teste_Macro_Metasurface_Nanopilar.cst
! Parameters = {H=600; L_x=150; L_y=105; Lambda=1064; Max_L=200; Min_L=70; PathPara=1; Phi=0; Step_L=10; Theta=0; p=520; phaseX=180; phaseY=0}
! Header version: 2018
! Port assignment regex: !\s*Touchstone port\s*([0-9]+)\s*=\s*(CST MWS port|CST DS port)\s*([0-9]+|Zmin|Zmax)\s*\(\"(.*)\"\)(\s*mode\s*([0-9]+))?.*
! Touchstone port assignment:
! Touchstone port 1 = CST MWS port Zmax ("") mode 1
! Touchstone port 2 = CST MWS port Zmax ("") mode 2
! Touchstone port 3 = CST MWS port Zmin ("") mode 1
! Touchstone port 4 = CST MWS port Zmin ("") mode 2
! S-Parameters are not renormalized. Each port impedance will be approximated by the real part at minimum frequency. The values are described via the [Reference] keyword.
! Default impedance is overridden by [Reference]
[Version] 2.0
# GHz S RI R 376.73
[Number of Ports] 4
[Reference]
376.73 376.73 259.888 259.888 
[Number of Frequencies] 51
[Network Data]
281700                  0.173791       0.0535524      6.60428e-05    -0.000145902        -0.756199        0.615223      0.000586591     0.000253081
                     2.53082e-06    -0.000106858          0.07544        0.154681      0.000339986    -0.000641544         0.977663      -0.0600259
                       -0.756393         0.61528      0.000209578    -0.000530309        0.0169412        0.180071      0.000304325    -1.96216e-05
                      0.00053572      0.00024768         0.978506      -0.0599226      0.000317837     0.000119999       -0.0547551        0.162722
281702                  0.173798       0.0535286      6.60729e-05    -0.000145993        -0.755961        0.615515      0.000586715     0.000252944
                     2.63575e-06    -0.000106953         0.075459        0.154694      0.000339708    -0.000641845          0.97764      -0.0603486
                       -0.756155        0.615573       0.00020939    -0.000530514        0.0170555         0.18006      0.000304449    -1.97332e-05
                     0.000535895      0.00024752         0.978482      -0.0602455      0.000318093     0.000119854       -0.0546648        0.162773
281704                  0.173805       0.0535048      6.61029e-05    -0.000146084        -0.755722        0.615807      0.000586839     0.000252806
                     2.74071e-06    -0.000107048         0.075478        0.154707      0.000339428    -0.000642147         0.977617      -0.0606713
                       -0.755916        0.615865      0.000209201    -0.000530718        0.0171697        0.180049      0.000304573     -1.9845e-05
                      0.00053607      0.00024736         0.978459      -0.0605684      0.000318348     0.000119708       -0.0545744        0.162824
281706                  0.173812       0.0534809      6.61329e-05    -0.000146175        -0.755483        0.616099      0.000586963     0.000252668
                      2.8457e-06    -0.000107143        0.0754969        0.154719      0.000339149    -0.000642448         0.977594       -0.060994
                       -0.755678        0.616157      0.000209012    -0.000530923        0.0172839        0.180037      0.000304698     -1.9957e-05
                     0.000536245       0.0002472         0.978435      -0.0608912      0.000318604     0.000119562        -0.054484        0.162875
281708                  0.173819       0.0534571      6.61629e-05    -0.000146266        -0.755244        0.616391      0.000587087      0.00025253
                     2.95071e-06    -0.000107237        0.0755159        0.154732      0.000338869     -0.00064275          0.97757      -0.0613166
                       -0.755439        0.616449      0.000208823    -0.000531127        0.0173982        0.180026      0.000304822    -2.00691e-05
                      0.00053642      0.00024704         0.978412      -0.0612141       0.00031886     0.000119415       -0.0543936        0.162926
281710                  0.173826       0.0534333      6.61929e-05    -0.000146357        -0.755005        0.616682      0.000587211     0.000252392
                     3.05573e-06    -0.000107332        0.0755349        0.154745      0.000338589    -0.000643052         0.977547      -0.0616393
                         -0.7552        0.616741      0.000208634    -0.000531331        0.0175124        0.180014      0.000304947    -2.01815e-05
                     0.000536595      0.00024688         0.978388      -0.0615369      0.000319116     0.000119267       -0.0543031        0.162976
281712                  0.173833       0.0534094      6.62229e-05    -0.000146448        -0.754766        0.616974      0.000587334     0.000252253
                     3.16077e-06    -0.000107426        0.0755539        0.154758      0.000338308    -0.000643354         0.977523      -0.0619619
                       -0.754961        0.617033      0.000208445    -0.000531535        0.0176266        0.180002      0.000305072    -2.02939e-05
                      0.00053677      0.00024672         0.978364      -0.0618597      0.000319372     0.000119119       -0.0542125        0.163027
281714                  0.173839       0.0533856      6.62528e-05    -0.000146539        -0.754527        0.617265      0.000587458     0.000252115
                     3.26582e-06    -0.000107521        0.0755728         0.15477      0.000338027    -0.000643657           0.9775      -0.0622846
                       -0.754722        0.617325      0.000208255    -0.000531739        0.0177408        0.179991      0.000305197    -2.04064e-05
                     0.000536945      0.00024656          0.97834      -0.0621825      0.000319628      0.00011897        -0.054122        0.163078
281716                  0.173846       0.0533617      6.62828e-05    -0.000146631        -0.754287        0.617557      0.000587582     0.000251977
                     3.37088e-06    -0.000107615        0.0755918        0.154783      0.000337745     -0.00064396         0.977476      -0.0626072
                       -0.754483        0.617616      0.000208065    -0.000531943         0.017855        0.179979      0.000305323     -2.0519e-05
                      0.00053712       0.0002464         0.978316      -0.0625053      0.000319884      0.00011882       -0.0540313        0.163129
281718                  0.173853       0.0533379      6.63127e-05    -0.000146722        -0.754048        0.617848      0.000587706     0.000251838
                     3.47595e-06    -0.000107709        0.0756108        0.154796      0.000337464    -0.000644263         0.977452      -0.0629298
                       -0.754244        0.617908      0.000207875    -0.000532146        0.0179692        0.179967      0.000305449    -2.06316e-05
                     0.000537295      0.00024624         0.978292      -0.0628281       0.00032014     0.000118669       -0.0539407        0.163179
281720                   0.17386        0.053314      6.63426e-05    -0.000146813        -0.753808        0.618139       0.00058783     0.000251699
                     3.58102e-06    -0.000107804        0.0756298        0.154809      0.000337182    -0.000644567         0.977428      -0.0632524
                       -0.754005        0.618199      0.000207685     -0.00053235        0.0180834        0.179955      0.000305575    -2.07442e-05
                      0.00053747      0.00024608         0.978268      -0.0631509      0.000320396     0.000118518         -0.05385         0.16323
281722                  0.173867       0.0532902      6.63725e-05    -0.000146905        -0.753569         0.61843      0.000587954     0.000251561
                     3.68609e-06    -0.000107898        0.0756488        0.154822      0.000336899    -0.000644871         0.977404       -0.063575
                       -0.753765        0.618491      0.000207494    -0.000532553        0.0181976        0.179943      0.000305701    -2.08567e-05
                     0.000537645      0.00024592         0.978244      -0.0634737      0.000320651     0.000118366       -0.0537592         0.16328
281724                  0.173874       0.0532663      6.64024e-05    -0.000146997        -0.753329        0.618721      0.000588078     0.000251422
                     3.79116e-06    -0.000107992        0.0756677        0.154834      0.000336617    -0.000645175         0.977379      -0.0638976
                       -0.753525        0.618782      0.000207304    -0.000532756        0.0183118        0.179931      0.000305827    -2.09692e-05
                      0.00053782     0.000245759         0.978219      -0.0637964      0.000320906     0.000118214       -0.0536684        0.163331
281726                  0.173881       0.0532425      6.64323e-05    -0.000147088        -0.753089        0.619012      0.000588202     0.000251283
                     3.89623e-06    -0.000108086        0.0756867        0.154847      0.000336334    -0.000645479         0.977355      -0.0642202
                       -0.753286        0.619073      0.000207113    -0.000532959         0.018426        0.179919      0.000305953    -2.10816e-05
                     0.000537995     0.000245599         0.978195      -0.0641192      0.000321161     0.000118061       -0.0535776        0.163381
281728                  0.173888       0.0532186      6.64621e-05     -0.00014718        -0.752849        0.619303      0.000588326     0.000251144
                     4.00129e-06     -0.00010818        0.0757057         0.15486      0.000336051    -0.000645784         0.977331      -0.0645427
                       -0.753046        0.619365      0.000206922    -0.000533162        0.0185401        0.179906       0.00030608     -2.1194e-05
                      0.00053817     0.000245439          0.97817      -0.0644419      0.000321416     0.000117907       -0.0534867        0.163431
281730                  0.173895       0.0531948      6.64919e-05    -0.000147272        -0.752609        0.619594       0.00058845     0.000251005
                     4.10634e-06    -0.000108274        0.0757247        0.154873      0.000335768    -0.000646089         0.977306      -0.0648653
                       -0.752806        0.619656       0.00020673    -0.000533365        0.0186543        0.179894      0.000306206    -2.13062e-05
                     0.000538345     0.000245279         0.978145      -0.0647646      0.000321671     0.000117753       -0.0533958        0.163482
281732                  0.173901       0.0531709      6.65217e-05    -0.000147364        -0.752368        0.619884      0.000588575     0.000250865
                     4.21138e-06    -0.000108368        0.0757436        0.154885      0.000335485    -0.000646395         0.977281      -0.0651878
                       -0.752566        0.619947      0.000206539    -0.000533568        0.0187685        0.179881      0.000306332    -2.14185e-05
                      0.00053852     0.000245119          0.97812      -0.0650873      0.000321925     0.000117598       -0.0533049        0.163532
281734                  0.173908        0.053147      6.65515e-05    -0.000147456        -0.752128        0.620175      0.000588699     0.000250726
                      4.3164e-06    -0.000108461        0.0757626        0.154898      0.000335201      -0.0006467         0.977256      -0.0655103
                       -0.752326        0.620238      0.000206347     -0.00053377        0.0188826        0.179869      0.000306459    -2.15306e-05
                     0.000538695     0.000244958         0.978095        -0.06541      0.000322179     0.000117443       -0.0532138        0.163582
281736                  0.173915       0.0531232      6.65813e-05    -0.000147548        -0.751887        0.620465      0.000588823     0.000250587
                      4.4214e-06    -0.000108555        0.0757816        0.154911      0.000334917    -0.000647006         0.977232      -0.0658328
                       -0.752085        0.620529      0.000206155    -0.000533973        0.0189968        0.179856      0.000306585    -2.16428e-05
                     0.000538869     0.000244798          0.97807      -0.0657327      0.000322432     0.000117288       -0.0531228        0.163632
281738                  0.173922       0.0530993       6.6611e-05     -0.00014764        -0.751647        0.620756      0.000588947     0.000250448
                     4.52638e-06    -0.000108649        0.0758006        0.154924      0.000334633    -0.000647312         0.977207      -0.0661553
                       -0.751845        0.620819      0.000205963    -0.000534175        0.0191109        0.179844      0.000306711     -2.1755e-05
                     0.000539044     0.000244638         0.978045      -0.0660553      0.000322686     0.000117132       -0.0530317        0.163683
281740                  0.173929       0.0530754      6.66408e-05    -0.000147732        -0.751406        0.621046      0.000589071     0.000250308
                     4.63134e-06    -0.000108742        0.0758195        0.154936      0.000334349    -0.000647618         0.977181      -0.0664778
                       -0.751604         0.62111      0.000205771    -0.000534377         0.019225        0.179831      0.000306837    -2.18672e-05
                     0.000539219     0.000244477          0.97802       -0.066378      0.000322939     0.000116976       -0.0529406        0.163733
281742                  0.173936       0.0530516      6.66705e-05    -0.000147824        -0.751165        0.621336      0.000589196     0.000250169
                     4.73628e-06    -0.000108836        0.0758385        0.154949      0.000334065    -0.000647925         0.977156      -0.0668003
                       -0.751364        0.621401      0.000205579    -0.000534579        0.0193392        0.179818      0.000306963    -2.19795e-05
                     0.000539393     0.000244317         0.977994      -0.0667006      0.000323193     0.000116819       -0.0528494        0.163783
281744                  0.173942       0.0530277      6.67002e-05    -0.000147917        -0.750924        0.621627       0.00058932     0.000250029
                     4.84118e-06    -0.000108929        0.0758575        0.154962      0.000333781    -0.000648232         0.977131      -0.0671228
                       -0.751123        0.621691      0.000205386    -0.000534781        0.0194533        0.179805      0.000307089    -2.20919e-05
                     0.000539568     0.000244157         0.977969      -0.0670233      0.000323446     0.000116662       -0.0527582        0.163833
281746                  0.173949       0.0530038      6.67298e-05    -0.000148009        -0.750683        0.621917      0.000589445      0.00024989
                     4.94605e-06    -0.000109023        0.0758765        0.154975      0.000333496    -0.000648539         0.977105      -0.0674452
                       -0.750882        0.621981      0.000205193    -0.000534983        0.0195674        0.179792      0.000307214    -2.22044e-05
                     0.000539742     0.000243996         0.977943      -0.0673459      0.000323699     0.000116505       -0.0526669        0.163883
281748                  0.173956       0.0529799      6.67595e-05    -0.000148102        -0.750442        0.622207      0.000589569      0.00024975
                     5.05089e-06    -0.000109116        0.0758954        0.154988      0.000333211    -0.000648846          0.97708      -0.0677676
                       -0.750641        0.622272         0.000205    -0.000535184        0.0196815        0.179779       0.00030734     -2.2317e-05
                     0.000539917     0.000243836         0.977917      -0.0676685      0.000323952     0.000116347       -0.0525756        0.163932
281750                  0.173963        0.052956      6.67891e-05    -0.000148194        -0.750201        0.622496      0.000589694      0.00024961
                      5.1557e-06    -0.000109209        0.0759144           0.155      0.000332926    -0.000649154         0.977054      -0.0680901
                         -0.7504        0.622562      0.000204807    -0.000535386        0.0197956        0.179766      0.000307465    -2.24297e-05
                     0.000540091     0.000243675         0.977891      -0.0679911      0.000324205     0.000116189       -0.0524843        0.163982
281752                   0.17397       0.0529322      6.68187e-05    -0.000148287        -0.749959        0.622786      0.000589818     0.000249471
                     5.26046e-06    -0.000109302        0.0759334        0.155013      0.000332641    -0.000649462         0.977028      -0.0684125
                       -0.750159        0.622852      0.000204613    -0.000535587        0.0199097        0.179753       0.00030759    -2.25426e-05
                     0.000540265     0.000243515         0.977865      -0.0683137      0.000324458      0.00011603       -0.0523929        0.164032
281754                  0.173976       0.0529083      6.68483e-05     -0.00014838        -0.749718        0.623076      0.000589943     0.000249331
                     5.36519e-06    -0.000109395        0.0759524        0.155026      0.000332356     -0.00064977         0.977003      -0.0687349
                       -0.749917        0.623142       0.00020442    -0.000535788        0.0200238        0.179739      0.000307715    -2.26557e-05
                      0.00054044     0.000243354         0.977839      -0.0686363      0.000324711     0.000115871       -0.0523015        0.164082
281756                  0.173983       0.0528844      6.68779e-05    -0.000148473        -0.749476        0.623366      0.000590068     0.000249192
                     5.46988e-06    -0.000109488        0.0759713        0.155039       0.00033207    -0.000650078         0.976977      -0.0690573
                       -0.749676        0.623432      0.000204226    -0.000535989        0.0201379        0.179726       0.00030784     -2.2769e-05
                     0.000540614     0.000243194         0.977813      -0.0689588      0.000324964     0.000115711         -0.05221        0.164131
281758                   0.17399       0.0528605      6.69074e-05    -0.000148566        -0.749234        0.623655      0.000590193     0.000249052
                     5.57452e-06    -0.000109581        0.0759903        0.155051      0.000331784    -0.000650387         0.976951      -0.0693796
                       -0.749434        0.623722      0.000204032     -0.00053619         0.020252        0.179713      0.000307964    -2.28825e-05
                     0.000540788     0.000243033         0.977787      -0.0692814      0.000325216     0.000115551       -0.0521185        0.164181
281760                  0.173997       0.0528366       6.6937e-05    -0.000148659        -0.748992        0.623945      0.000590318     0.000248913
                     5.67912e-06    -0.000109674        0.0760093        0.155064      0.000331498    -0.000650696         0.976924       -0.069702
                       -0.749193        0.624012      0.000203837    -0.000536391         0.020366        0.179699      0.000308089    -2.29962e-05
                     0.000540962     0.000242873         0.977761      -0.0696039      0.000325469      0.00011539       -0.0520269        0.164231
281762                  0.174003       0.0528127      6.69665e-05    -0.000148752         -0.74875        0.624234      0.000590443     0.000248774
                     5.78367e-06    -0.000109767        0.0760283        0.155077      0.000331212    -0.000651005         0.976898      -0.0700243
                       -0.748951        0.624302      0.000203643    -0.000536591        0.0204801        0.179685      0.000308213    -2.31101e-05
