! TOUCHSTONE file generated by CST MICROWAVE STUDIO
! Date and time: Wed Oct 15 17:32:15 2025
! Project name: Teste_Macro_Metasurface_Nanopilar.cst
! Parameters = {H=600; L_x=145; L_y=165; Lambda=1064; Max_L=200; Min_L=70; PathPara=1; Phi=0; Step_L=10; Theta=0; p=520; phaseX=180; phaseY=0}
! Header version: 2018
! Port assignment regex: !\s*Touchstone port\s*([0-9]+)\s*=\s*(CST MWS port|CST DS port)\s*([0-9]+|Zmin|Zmax)\s*\(\"(.*)\"\)(\s*mode\s*([0-9]+))?.*
! Touchstone port assignment:
! Touchstone port 1 = CST MWS port Zmax ("") mode 1
! Touchstone port 2 = CST MWS port Zmax ("") mode 2
! Touchstone port 3 = CST MWS port Zmin ("") mode 1
! Touchstone port 4 = CST MWS port Zmin ("") mode 2
! S-Parameters are not renormalized. Each port impedance will be approximated by the real part at minimum frequency. The values are described via the [Reference] keyword.
! Default impedance is overridden by [Reference]
[Version] 2.0
# GHz S RI R 376.73
[Number of Ports] 4
[Reference]
376.73 376.73 259.888 259.888 
[Number of Frequencies] 51
[Network Data]
281700                  0.172238      -0.0410659      0.000360739    -0.000598472         0.742046       -0.639165     -7.84007e-05     0.000231988
                     0.000332235     -0.00052058         0.306376       -0.208527       1.5505e-05     0.000173784         0.890268       -0.196543
                        0.742543       -0.639075     -0.000131905     0.000278886       -0.0653497        0.158552     -0.000607974    -0.000257643
                    -0.000201327     0.000254646         0.890357       -0.196969     -0.000690456    -0.000155762         -0.34413      -0.0870442
281702                  0.172232      -0.0410353       0.00036016    -0.000598642         0.741847       -0.639401     -7.79762e-05     0.000231626
                     0.000331812    -0.000520594          0.30615       -0.208378      1.60383e-05     0.000173374         0.890277         -0.1971
                        0.742344       -0.639311     -0.000131322     0.000278871       -0.0652184        0.158593     -0.000608564    -0.000256955
                    -0.000200859     0.000254495         0.890364       -0.197525     -0.000690526    -0.000154777        -0.343985      -0.0865481
281704                  0.172225      -0.0410046      0.000359582    -0.000598811         0.741648       -0.639637     -7.75533e-05     0.000231263
                     0.000331389    -0.000520608         0.305924       -0.208229      1.65697e-05     0.000172967         0.890286       -0.197657
                        0.742144       -0.639546     -0.000130739     0.000278856        -0.065087        0.158633     -0.000609153    -0.000256263
                    -0.000200392     0.000254342         0.890371        -0.19808     -0.000690593    -0.000153795         -0.34384      -0.0860528
281706                  0.172218       -0.040974      0.000359004    -0.000598979         0.741448       -0.639872     -7.71319e-05     0.000230898
                     0.000330966     -0.00052062         0.305699       -0.208081      1.70993e-05      0.00017256         0.890294       -0.198213
                        0.741945       -0.639782     -0.000130158      0.00027884       -0.0649556        0.158674      -0.00060974    -0.000255569
                    -0.000199926     0.000254189         0.890377       -0.198635     -0.000690659    -0.000152817        -0.343695      -0.0855582
281708                  0.172212      -0.0409435      0.000358426    -0.000599147         0.741249       -0.640108      -7.6712e-05     0.000230532
                     0.000330543    -0.000520632         0.305474       -0.207932      1.76271e-05     0.000172156         0.890302       -0.198769
                        0.741745       -0.640017     -0.000129578     0.000278825       -0.0648242        0.158715     -0.000610324    -0.000254872
                     -0.00019946     0.000254035         0.890382        -0.19919     -0.000690723    -0.000151843         -0.34355      -0.0850644
281710                  0.172205      -0.0409129      0.000357849    -0.000599313          0.74105       -0.640343     -7.62936e-05     0.000230164
                     0.000330121    -0.000520642         0.305249       -0.207784      1.81531e-05     0.000171752         0.890309       -0.199324
                        0.741546       -0.640252     -0.000128999      0.00027881       -0.0646928        0.158755     -0.000610907    -0.000254171
                    -0.000198994     0.000253881         0.890387       -0.199744     -0.000690784    -0.000150873        -0.343404      -0.0845713
281712                  0.172198      -0.0408823      0.000357272    -0.000599479         0.740851       -0.640579     -7.58767e-05     0.000229794
                     0.000329698    -0.000520652         0.305025       -0.207635      1.86772e-05     0.000171351         0.890316       -0.199879
                        0.741346       -0.640488     -0.000128421     0.000278795       -0.0645614        0.158795     -0.000611488    -0.000253468
                    -0.000198529     0.000253726         0.890392       -0.200298     -0.000690844    -0.000149906        -0.343257       -0.084079
281714                  0.172192      -0.0408518      0.000356695    -0.000599645         0.740651       -0.640814     -7.54612e-05     0.000229423
                     0.000329275    -0.000520661         0.304801       -0.207487      1.91995e-05      0.00017095         0.890322       -0.200434
                        0.741146       -0.640723     -0.000127844      0.00027878         -0.06443        0.158835     -0.000612067    -0.000252762
                    -0.000198064     0.000253571         0.890395       -0.200852     -0.000690903    -0.000148944        -0.343111      -0.0835874
281716                  0.172185      -0.0408212      0.000356119     -0.00059981         0.740452       -0.641049     -7.50473e-05      0.00022905
                     0.000328853    -0.000520669         0.304578       -0.207339        1.972e-05     0.000170552         0.890327       -0.200988
                        0.740947       -0.640958     -0.000127268     0.000278764       -0.0642985        0.158875     -0.000612645    -0.000252053
                      -0.0001976     0.000253414         0.890399       -0.201405     -0.000690959    -0.000147985        -0.342964      -0.0830966
281718                  0.172178      -0.0407907      0.000355543    -0.000599974         0.740253       -0.641284     -7.46348e-05     0.000228675
                      0.00032843    -0.000520676         0.304356       -0.207191      2.02387e-05     0.000170154         0.890332       -0.201542
                        0.740747       -0.641193     -0.000126693     0.000278749       -0.0641671        0.158915      -0.00061322    -0.000251341
                    -0.000197136     0.000253257         0.890402       -0.201958     -0.000691014     -0.00014703        -0.342816      -0.0826065
281720                  0.172172      -0.0407602      0.000354967    -0.000600137         0.740053       -0.641519     -7.42237e-05     0.000228299
                     0.000328008    -0.000520682         0.304133       -0.207042      2.07556e-05     0.000169758         0.890337       -0.202096
                        0.740547       -0.641428     -0.000126119     0.000278733       -0.0640357        0.158955     -0.000613794    -0.000250627
                    -0.000196672       0.0002531         0.890404        -0.20251     -0.000691067    -0.000146079        -0.342669      -0.0821172
281722                  0.172165      -0.0407297      0.000354392    -0.000600299         0.739853       -0.641754      -7.3814e-05     0.000227921
                     0.000327585    -0.000520687         0.303911       -0.206894      2.12706e-05     0.000169364         0.890341       -0.202649
                        0.740347       -0.641662     -0.000125546     0.000278718       -0.0639043        0.158995     -0.000614365     -0.00024991
                    -0.000196209     0.000252942         0.890405       -0.203062     -0.000691119    -0.000145131        -0.342521      -0.0816286
281724                  0.172158      -0.0406992      0.000353817    -0.000600461         0.739654       -0.641989     -7.34058e-05     0.000227542
                     0.000327163    -0.000520692          0.30369       -0.206746      2.17839e-05     0.000168971         0.890344       -0.203202
                        0.740147       -0.641897     -0.000124974     0.000278702       -0.0637728        0.159035     -0.000614935    -0.000249191
                    -0.000195747     0.000252783         0.890407       -0.203614     -0.000691168    -0.000144188        -0.342372      -0.0811408
281726                  0.172152      -0.0406687      0.000353243    -0.000600622         0.739454       -0.642224      -7.2999e-05     0.000227161
                      0.00032674    -0.000520695         0.303469       -0.206598      2.22953e-05      0.00016858         0.890347       -0.203754
                        0.739947       -0.642132     -0.000124404     0.000278686       -0.0636414        0.159074     -0.000615504    -0.000248469
                    -0.000195284     0.000252623         0.890407       -0.204165     -0.000691217    -0.000143248        -0.342223      -0.0806537
281728                  0.172145      -0.0406382      0.000352668    -0.000600783         0.739254       -0.642458     -7.25935e-05     0.000226778
                     0.000326318    -0.000520698         0.303248        -0.20645      2.28049e-05      0.00016819         0.890349       -0.204306
                        0.739747       -0.642366     -0.000123834      0.00027867       -0.0635099        0.159114      -0.00061607    -0.000247744
                    -0.000194823     0.000252463         0.890407       -0.204716     -0.000691263    -0.000142312        -0.342074      -0.0801673
281730                  0.172139      -0.0406078      0.000352095    -0.000600943         0.739054       -0.642693     -7.21893e-05     0.000226394
                     0.000325895      -0.0005207         0.303028       -0.206302      2.33127e-05     0.000167801         0.890351       -0.204858
                        0.739547       -0.642601     -0.000123265     0.000278654       -0.0633785        0.159153     -0.000616635    -0.000247017
                    -0.000194361     0.000252303         0.890407       -0.205266     -0.000691308    -0.000141379        -0.341925      -0.0796817
281732                  0.172132      -0.0405774      0.000351521    -0.000601102         0.738854       -0.642928     -7.17866e-05     0.000226009
                     0.000325473      -0.0005207         0.302809       -0.206155      2.38187e-05     0.000167414         0.890352       -0.205409
                        0.739346       -0.642835     -0.000122697     0.000278638        -0.063247        0.159192     -0.000617198    -0.000246287
                      -0.0001939     0.000252141         0.890406       -0.205816     -0.000691352    -0.000140451        -0.341775      -0.0791968
281734                  0.172125      -0.0405469      0.000350948     -0.00060126         0.738654       -0.643162     -7.13851e-05     0.000225622
                      0.00032505      -0.0005207         0.302589       -0.206007       2.4323e-05     0.000167028         0.890353        -0.20596
                        0.739146       -0.643069      -0.00012213     0.000278622       -0.0631156        0.159232     -0.000617759    -0.000245555
                     -0.00019344      0.00025198         0.890405       -0.206366     -0.000691394    -0.000139526        -0.341625      -0.0787127
281736                  0.172119      -0.0405165      0.000350376    -0.000601418         0.738454       -0.643396     -7.09849e-05     0.000225233
                     0.000324628    -0.000520699         0.302371       -0.205859      2.48255e-05     0.000166644         0.890353       -0.206511
                        0.738946       -0.643304     -0.000121565     0.000278606       -0.0629841        0.159271     -0.000618318    -0.000244821
                     -0.00019298     0.000251817         0.890403       -0.206915     -0.000691435    -0.000138605        -0.341474      -0.0782293
281738                  0.172112      -0.0404861      0.000349804    -0.000601575         0.738254       -0.643631      -7.0586e-05     0.000224843
                     0.000324206    -0.000520698         0.302152       -0.205711      2.53262e-05     0.000166261         0.890353       -0.207061
                        0.738745       -0.643538        -0.000121     0.000278589       -0.0628526         0.15931     -0.000618876    -0.000244083
                     -0.00019252     0.000251654           0.8904       -0.207464     -0.000691474    -0.000137687        -0.341323      -0.0777466
281740                  0.172106      -0.0404557      0.000349232    -0.000601731         0.738054       -0.643865     -7.01882e-05     0.000224451
                     0.000323783    -0.000520695         0.301934       -0.205564      2.58253e-05     0.000165879         0.890352        -0.20761
                        0.738545       -0.643772     -0.000120436     0.000278573       -0.0627212        0.159349     -0.000619432    -0.000243344
                    -0.000192061      0.00025149         0.890397       -0.208013     -0.000691512    -0.000136774        -0.341172      -0.0772647
281742                  0.172099      -0.0404254      0.000348661    -0.000601887         0.737854       -0.644099     -6.97916e-05     0.000224058
                     0.000323361    -0.000520691         0.301717       -0.205416      2.63228e-05       0.0001655          0.89035        -0.20816
                        0.738344       -0.644006     -0.000119874     0.000278556       -0.0625897        0.159387     -0.000619986    -0.000242602
                    -0.000191602     0.000251326         0.890394       -0.208561     -0.000691549    -0.000135864        -0.341021      -0.0767835
281744                  0.172093       -0.040395       0.00034809    -0.000602041         0.737653       -0.644333     -6.93961e-05     0.000223663
                     0.000322939    -0.000520687         0.301499       -0.205269      2.68192e-05     0.000165122         0.890348       -0.208709
                        0.738143        -0.64424     -0.000119312     0.000278539       -0.0624582        0.159426     -0.000620539    -0.000241857
                    -0.000191143     0.000251161          0.89039       -0.209109     -0.000691584    -0.000134958        -0.340869       -0.076303
281746                  0.172086      -0.0403646      0.000347519    -0.000602196         0.737453       -0.644567     -6.90013e-05     0.000223266
                     0.000322516    -0.000520681         0.301283       -0.205121       2.7316e-05     0.000164749         0.890346       -0.209257
                        0.737943       -0.644474     -0.000118751     0.000278522       -0.0623267        0.159465      -0.00062109    -0.000241109
                    -0.000190686     0.000250995         0.890385       -0.209657     -0.000691619    -0.000134055        -0.340716      -0.0758233
281748                   0.17208      -0.0403343      0.000346949    -0.000602349         0.737253       -0.644801      -6.8607e-05     0.000222866
                     0.000322094    -0.000520674         0.301066       -0.204974      2.78509e-05     0.000164439         0.890343       -0.209806
                        0.737742       -0.644707     -0.000118192     0.000278505       -0.0621952        0.159503      -0.00062164    -0.000240358
                    -0.000190228     0.000250829          0.89038       -0.210204     -0.000691654    -0.000133156        -0.340564      -0.0753443
281750                  0.172073       -0.040304       0.00034638    -0.000602502         0.737052       -0.645035     -6.82119e-05     0.000222461
                     0.000321659    -0.000520665         0.300851       -0.204827       2.8278e-05     0.000163975         0.890339       -0.210354
                        0.737541       -0.644941     -0.000117634     0.000278488       -0.0620638        0.159542      -0.00062219    -0.000239601
                    -0.000189775     0.000250644         0.890374       -0.210751     -0.000691685    -0.000132256        -0.340411       -0.074866
281752                  0.172067      -0.0402737      0.000345811    -0.000602654         0.736851       -0.645269     -6.78111e-05     0.000222041
                      0.00032125    -0.000520662         0.300635        -0.20468      2.87719e-05     0.000163608         0.890335       -0.210901
                         0.73734       -0.645175     -0.000117076      0.00027847       -0.0619323         0.15958     -0.000622741    -0.000238831
                    -0.000189314     0.000250495         0.890368       -0.211297     -0.000691712    -0.000131364        -0.340258      -0.0743885
281754                   0.17206      -0.0402434      0.000345244    -0.000602802         0.736651       -0.645502     -6.73075e-05     0.000221411
                     0.000320828    -0.000520652          0.30042       -0.204532      2.92597e-05     0.000163237         0.890331       -0.211448
                        0.737139       -0.645408     -0.000116522     0.000278448       -0.0618008        0.159618     -0.000623325    -0.000237827
                    -0.000188858     0.000250327         0.890362       -0.211843      -0.00069174    -0.000130477        -0.340104      -0.0739118
281756                  0.172054      -0.0402131      0.000344671    -0.000602955          0.73645       -0.645736     -6.70985e-05     0.000221352
                     0.000320405    -0.000520642         0.300205       -0.204385      2.97448e-05     0.000162867         0.890326       -0.211995
                        0.736938       -0.645642      -0.00011596     0.000278439       -0.0616692        0.159656     -0.000623785    -0.000237407
                    -0.000188403     0.000250159         0.890354       -0.212388     -0.000691768    -0.000129593         -0.33995      -0.0734355
281758                  0.172047      -0.0401828      0.000344104    -0.000603105         0.736249       -0.645969     -6.66911e-05     0.000220913
                     0.000319983    -0.000520631         0.299991       -0.204238      3.02277e-05     0.000162498          0.89032       -0.212541
                        0.736737       -0.645875     -0.000115407     0.000278419       -0.0615377        0.159694     -0.000624339    -0.000236622
                    -0.000187947     0.000249989         0.890347       -0.212934     -0.000691795    -0.000128712        -0.339796      -0.0729602
281760                  0.172041      -0.0401526      0.000343537    -0.000603254         0.736048       -0.646203     -6.63003e-05     0.000220499
                     0.000319561     -0.00052062         0.299777       -0.204091      3.07087e-05     0.000162129         0.890314       -0.213087
                        0.736536       -0.646108     -0.000114854     0.000278401       -0.0614062        0.159732     -0.000624881    -0.000235852
                    -0.000187493      0.00024982         0.890338       -0.213479      -0.00069182    -0.000127835        -0.339642      -0.0724856
281762                  0.172034      -0.0401223       0.00034297    -0.000603403         0.735848       -0.646436     -6.59138e-05     0.000220089
                     0.000319139    -0.000520607         0.299564       -0.203944      3.11877e-05     0.000161762         0.890307       -0.213633
                        0.736335       -0.646341     -0.000114301     0.000278382       -0.0612747         0.15977     -0.000625418    -0.000235085
