! TOUCHSTONE file generated by CST MICROWAVE STUDIO
! Date and time: Wed Oct 15 17:30:58 2025
! Project name: Teste_Macro_Metasurface_Nanopilar.cst
! Parameters = {H=600; L_x=125; L_y=100; Lambda=1064; Max_L=200; Min_L=70; PathPara=1; Phi=0; Step_L=10; Theta=0; p=520; phaseX=180; phaseY=0}
! Header version: 2018
! Port assignment regex: !\s*Touchstone port\s*([0-9]+)\s*=\s*(CST MWS port|CST DS port)\s*([0-9]+|Zmin|Zmax)\s*\(\"(.*)\"\)(\s*mode\s*([0-9]+))?.*
! Touchstone port assignment:
! Touchstone port 1 = CST MWS port Zmax ("") mode 1
! Touchstone port 2 = CST MWS port Zmax ("") mode 2
! Touchstone port 3 = CST MWS port Zmin ("") mode 1
! Touchstone port 4 = CST MWS port Zmin ("") mode 2
! S-Parameters are not renormalized. Each port impedance will be approximated by the real part at minimum frequency. The values are described via the [Reference] keyword.
! Default impedance is overridden by [Reference]
[Version] 2.0
# GHz S RI R 376.73
[Number of Ports] 4
[Reference]
376.73 376.73 259.888 259.888 
[Number of Frequencies] 51
[Network Data]
281700                 0.0222875       0.0728065      0.000336001     0.000391086         -0.86419       -0.489426      0.000255836     -0.00019801
                     0.000290587      0.00038971         0.116462      -0.0881881       -0.0002867    -5.92264e-05         -0.44286        0.874236
                       -0.864325       -0.489569     -0.000248385    -5.38679e-05          -0.0734        0.019422     -7.94492e-05     0.000496993
                     0.000242944    -0.000153679        -0.442635        0.873959     -8.29923e-05     0.000457987      -0.00400258        0.145375
281702                 0.0222968       0.0728201      0.000336063     0.000391072         -0.86434       -0.489159      0.000255796    -0.000198148
                     0.000290626     0.000389721         0.116431      -0.0881957     -0.000286698     -5.9158e-05        -0.442504        0.874419
                       -0.864475       -0.489302     -0.000248445    -5.38607e-05       -0.0734044       0.0194663     -7.91827e-05     0.000497016
                     0.000242872     -0.00015386         -0.44228        0.874142     -8.27657e-05     0.000458073      -0.00390893        0.145358
281704                 0.0223061       0.0728336      0.000336125     0.000391058        -0.864489       -0.488891      0.000255757    -0.000198285
                     0.000290664     0.000389733           0.1164      -0.0882032     -0.000286696    -5.90897e-05        -0.442149        0.874602
                       -0.864624       -0.489035     -0.000248504    -5.38535e-05       -0.0734089       0.0195107      -7.8916e-05     0.000497039
                     0.000242799    -0.000154041        -0.441925        0.874325      -8.2539e-05     0.000458159      -0.00381529         0.14534
281706                 0.0223154       0.0728472      0.000336187     0.000391043        -0.864638       -0.488624      0.000255717    -0.000198423
                     0.000290702     0.000389746         0.116369      -0.0882107     -0.000286694    -5.90215e-05        -0.441793        0.874784
                       -0.864774       -0.488768     -0.000248564    -5.38464e-05       -0.0734133        0.019555     -7.86493e-05     0.000497062
                     0.000242726    -0.000154222        -0.441569        0.874507     -8.23121e-05     0.000458245      -0.00372168        0.145322
281708                 0.0223247       0.0728607      0.000336249     0.000391029        -0.864787       -0.488356      0.000255678    -0.000198561
                     0.000290739     0.000389759         0.116338      -0.0882182     -0.000286692    -5.89533e-05        -0.441438        0.874967
                       -0.864923       -0.488501     -0.000248623    -5.38392e-05       -0.0734177       0.0195994     -7.83826e-05     0.000497084
                     0.000242653    -0.000154403        -0.441214         0.87469     -8.20851e-05     0.000458331       -0.0036281        0.145304
281710                  0.022334       0.0728743      0.000336311     0.000391015        -0.864937       -0.488088      0.000255638    -0.000198698
                     0.000290775     0.000389773         0.116307      -0.0882257     -0.000286689    -5.88853e-05        -0.441082        0.875149
                       -0.865072       -0.488234     -0.000248682    -5.38321e-05       -0.0734221       0.0196438     -7.81157e-05     0.000497107
                     0.000242579    -0.000154584        -0.440858        0.874872      -8.1858e-05     0.000458417      -0.00353453        0.145286
281712                 0.0223433       0.0728878      0.000336373        0.000391        -0.865085       -0.487821      0.000255598    -0.000198835
                      0.00029081     0.000389787         0.116275      -0.0882332     -0.000286687    -5.88173e-05        -0.440726        0.875331
                       -0.865221       -0.487967     -0.000248742    -5.38249e-05       -0.0734265       0.0196882     -7.78489e-05     0.000497129
                     0.000242506    -0.000154765        -0.440502        0.875054     -8.16308e-05     0.000458503      -0.00344099        0.145268
281714                 0.0223526       0.0729014      0.000336435     0.000390986        -0.865234       -0.487553      0.000255559    -0.000198973
                     0.000290843     0.000389802         0.116244      -0.0882407     -0.000286684    -5.87495e-05         -0.44037        0.875513
                        -0.86537       -0.487699     -0.000248801    -5.38178e-05       -0.0734308       0.0197326     -7.75819e-05      0.00049715
                     0.000242432    -0.000154946        -0.440147        0.875236     -8.14034e-05     0.000458589      -0.00334748         0.14525
281716                 0.0223619       0.0729149      0.000336497     0.000390971        -0.865383       -0.487285      0.000255519     -0.00019911
                     0.000290875     0.000389816         0.116213      -0.0882481     -0.000286682    -5.86817e-05        -0.440014        0.875695
                       -0.865519       -0.487432      -0.00024886    -5.38106e-05       -0.0734351        0.019777      -7.7315e-05     0.000497172
                     0.000242358    -0.000155126        -0.439791        0.875418     -8.11758e-05     0.000458676      -0.00325399        0.145232
281718                 0.0223713       0.0729285      0.000336559     0.000390957        -0.865532       -0.487017       0.00025548    -0.000199248
                     0.000290905     0.000389829         0.116182      -0.0882556     -0.000286679    -5.86141e-05        -0.439658        0.875877
                       -0.865668       -0.487165     -0.000248919    -5.38035e-05       -0.0734394       0.0198214     -7.70479e-05     0.000497193
                     0.000242285    -0.000155307        -0.439435        0.875599     -8.09482e-05     0.000458762      -0.00316052        0.145214
281720                 0.0223806        0.072942      0.000336621     0.000390943        -0.865681       -0.486749       0.00025544    -0.000199385
                     0.000290935     0.000389841         0.116151       -0.088263     -0.000286676    -5.85466e-05        -0.439302        0.876058
                       -0.865816       -0.486897     -0.000248978    -5.37963e-05       -0.0734436       0.0198659     -7.67809e-05     0.000497214
                      0.00024221    -0.000155487        -0.439079        0.875781     -8.07204e-05     0.000458848      -0.00306707        0.145195
281722                 0.0223899       0.0729555      0.000336683     0.000390928        -0.865829       -0.486481      0.000255401    -0.000199522
                     0.000290964     0.000389852          0.11612      -0.0882704     -0.000286673    -5.84791e-05        -0.438946         0.87624
                       -0.865965        -0.48663     -0.000249037    -5.37892e-05       -0.0734478       0.0199103     -7.65137e-05     0.000497234
                     0.000242136    -0.000155667        -0.438723        0.875962     -8.04924e-05     0.000458934      -0.00297365        0.145177
281724                 0.0223992       0.0729691      0.000336745     0.000390914        -0.865978       -0.486213      0.000255361    -0.000199659
                     0.000290992     0.000389862         0.116088      -0.0882779      -0.00028667    -5.84118e-05         -0.43859        0.876421
                       -0.866114       -0.486362     -0.000249096     -5.3782e-05        -0.073452       0.0199548     -7.62466e-05     0.000497255
                     0.000242062    -0.000155847        -0.438367        0.876144     -8.02643e-05     0.000459021      -0.00288026        0.145159
281726                 0.0224085       0.0729826      0.000336806       0.0003909        -0.866126       -0.485945      0.000255321    -0.000199796
                     0.000291021     0.000389871         0.116057      -0.0882853     -0.000286667    -5.83445e-05        -0.438233        0.876602
                       -0.866262       -0.486094     -0.000249155    -5.37748e-05       -0.0734562       0.0199992     -7.59794e-05     0.000497275
                     0.000241988    -0.000156027        -0.438011        0.876325      -8.0036e-05     0.000459107      -0.00278688         0.14514
281728                 0.0224179       0.0729961      0.000336868     0.000390885        -0.866274       -0.485677      0.000255282    -0.000199933
                     0.000291049     0.000389878         0.116026      -0.0882927     -0.000286663    -5.82774e-05        -0.437877        0.876783
                       -0.866411       -0.485827     -0.000249214    -5.37676e-05       -0.0734603       0.0200437     -7.57121e-05     0.000497295
                     0.000241914    -0.000156206        -0.437654        0.876506     -7.98076e-05     0.000459194      -0.00269354        0.145121
281730                 0.0224272       0.0730097       0.00033693     0.000390871        -0.866423       -0.485408      0.000255242     -0.00020007
                     0.000291079     0.000389885         0.115995         -0.0883      -0.00028666    -5.82104e-05         -0.43752        0.876964
                       -0.866559       -0.485559     -0.000249273    -5.37603e-05       -0.0734645       0.0200882     -7.54449e-05     0.000497314
                      0.00024184    -0.000156385        -0.437298        0.876687      -7.9579e-05      0.00045928      -0.00260021        0.145103
281732                 0.0224365       0.0730232      0.000336992     0.000390857        -0.866571        -0.48514      0.000255202    -0.000200207
                     0.000291109      0.00038989         0.115964      -0.0883074     -0.000286656    -5.81436e-05        -0.437164        0.877145
                       -0.866707       -0.485291     -0.000249331    -5.37531e-05       -0.0734685       0.0201327     -7.51776e-05     0.000497334
                     0.000241766    -0.000156563        -0.436942        0.876867     -7.93502e-05     0.000459367      -0.00250691        0.145084
281734                 0.0224459       0.0730367      0.000337054     0.000390842        -0.866719       -0.484872      0.000255162    -0.000200344
                     0.000291139     0.000389896         0.115933      -0.0883148     -0.000286653    -5.80768e-05        -0.436807        0.877325
                       -0.866856       -0.485024      -0.00024939    -5.37458e-05       -0.0734726       0.0201772     -7.49103e-05     0.000497353
                     0.000241691     -0.00015674        -0.436585        0.877048     -7.91213e-05     0.000459454      -0.00241363        0.145065
281736                 0.0224552       0.0730503      0.000337115     0.000390828        -0.866867       -0.484603      0.000255122    -0.000200481
                     0.000291171       0.0003899         0.115901      -0.0883221     -0.000286649    -5.80102e-05        -0.436451        0.877506
                       -0.867004       -0.484756     -0.000249449    -5.37385e-05       -0.0734766       0.0202217      -7.4643e-05     0.000497372
                     0.000241617    -0.000156916        -0.436228        0.877228     -7.88921e-05      0.00045954      -0.00232038        0.145047
281738                 0.0224646       0.0730638      0.000337177     0.000390813        -0.867015       -0.484335      0.000255083    -0.000200618
                     0.000291203     0.000389905          0.11587      -0.0883295     -0.000286645    -5.79437e-05        -0.436094        0.877686
                       -0.867152       -0.484488     -0.000249507    -5.37312e-05       -0.0734806       0.0202663     -7.43757e-05      0.00049739
                     0.000241542    -0.000157089        -0.435872        0.877408     -7.86628e-05     0.000459627      -0.00222716        0.145028
281740                 0.0224739       0.0730773      0.000337239     0.000390799        -0.867163       -0.484067      0.000255043    -0.000200755
                     0.000291235      0.00038991         0.115839      -0.0883368     -0.000286641    -5.78774e-05        -0.435737        0.877866
                         -0.8673        -0.48422     -0.000249566    -5.37238e-05       -0.0734846       0.0203108     -7.41085e-05     0.000497409
                     0.000241465    -0.000157261        -0.435515        0.877589     -7.84332e-05     0.000459714      -0.00213395        0.145009
281742                 0.0224833       0.0730908        0.0003373     0.000390785        -0.867311       -0.483798      0.000255002    -0.000200891
                     0.000291269     0.000389915         0.115808      -0.0883441     -0.000286637    -5.78113e-05         -0.43538        0.878046
                       -0.867448       -0.483952     -0.000249624    -5.37164e-05       -0.0734886       0.0203553     -7.38414e-05     0.000497427
                     0.000241384     -0.00015743        -0.435158        0.877769     -7.82034e-05     0.000459801      -0.00204077         0.14499
281744                 0.0224926       0.0731043      0.000337362      0.00039077        -0.867458       -0.483529      0.000254962    -0.000201028
                     0.000291303      0.00038992         0.115777      -0.0883514     -0.000286632    -5.77454e-05        -0.435023        0.878226
                       -0.867595       -0.483684     -0.000249683    -5.37089e-05       -0.0734925       0.0203999     -7.35746e-05     0.000497445
                     0.000241296    -0.000157599        -0.434801        0.877948     -7.79732e-05     0.000459888      -0.00194762        0.144971
281746                  0.022502       0.0731179      0.000337423     0.000390756        -0.867606       -0.483261      0.000254921    -0.000201164
                     0.000291338     0.000389926         0.115745      -0.0883587     -0.000286628      -5.768e-05        -0.434666        0.878406
                       -0.867743       -0.483416     -0.000249741    -5.37014e-05       -0.0734964       0.0204445     -7.33083e-05     0.000497464
                     0.000241201    -0.000157776        -0.434444        0.878128     -7.77424e-05     0.000459975      -0.00185449        0.144951
281748                 0.0225113       0.0731314      0.000337485     0.000390742        -0.867753       -0.482992       0.00025488    -0.000201301
                     0.000291375     0.000389932         0.115714       -0.088366     -0.000286623    -5.76153e-05        -0.434309        0.878585
                       -0.867891       -0.483148       -0.0002498    -5.36938e-05       -0.0735003        0.020489     -7.30437e-05     0.000497483
                     0.000241108    -0.000157964        -0.434087        0.878308     -7.75104e-05     0.000460063      -0.00176138        0.144932
281750                 0.0225207       0.0731449      0.000337546     0.000390727        -0.867901       -0.482723      0.000254833    -0.000201437
                     0.000291413     0.000389941         0.115683      -0.0883733     -0.000286616    -5.75534e-05        -0.433951        0.878764
                       -0.868038       -0.482879     -0.000249858    -5.36861e-05       -0.0735041       0.0205336     -7.27876e-05     0.000497507
                     0.000241024    -0.000158159         -0.43373        0.878487     -7.72739e-05     0.000460153      -0.00166831        0.144913
281752                 0.0225301       0.0731584      0.000337607     0.000390713        -0.868048       -0.482454      0.000254835    -0.000201577
                     0.000291455     0.000389955         0.115652      -0.0883805     -0.000286631    -5.73338e-05        -0.433594        0.878944
                       -0.868186       -0.482611     -0.000249917    -5.36782e-05        -0.073508       0.0205782     -7.24456e-05     0.000497485
                     0.000240951    -0.000158352        -0.433373        0.878666     -7.72346e-05     0.000460169      -0.00157523        0.144894
281754                 0.0225395        0.073172      0.000337668     0.000390696        -0.868195       -0.482186      0.000254772    -0.000201712
                     0.000291502      0.00038999         0.115621      -0.0883878     -0.000286614    -5.74071e-05        -0.433236        0.879123
                       -0.868333       -0.482343     -0.000249976    -5.36699e-05       -0.0735117       0.0206228     -7.22202e-05     0.000497522
                     0.000240885    -0.000158538        -0.433016        0.878845     -7.68364e-05     0.000460316      -0.00148221        0.144874
281756                 0.0225488       0.0731854      0.000337731     0.000390682        -0.868343       -0.481917      0.000254729    -0.000201848
                     0.000291437     0.000390071         0.115589       -0.088395     -0.000286608    -5.73451e-05        -0.432879        0.879302
                        -0.86848       -0.482074     -0.000250035    -5.36665e-05       -0.0735155       0.0206674     -7.19574e-05     0.000497541
                     0.000240823    -0.000158715        -0.432658        0.879024     -7.66005e-05     0.000460406       -0.0013892        0.144855
281758                 0.0225582       0.0731989      0.000337793     0.000390668         -0.86849       -0.481648      0.000254688    -0.000201984
                      0.00029146     0.000389949         0.115558      -0.0884023     -0.000286602     -5.7281e-05        -0.432521        0.879481
                       -0.868628       -0.481806     -0.000250091    -5.36576e-05       -0.0735192       0.0207121     -7.16915e-05     0.000497558
                     0.000240758    -0.000158878        -0.432301        0.879203     -7.63678e-05     0.000460494      -0.00129622        0.144835
281760                 0.0225675       0.0732124      0.000337854     0.000390654        -0.868637       -0.481379      0.000254647     -0.00020212
                     0.000291526     0.000389943         0.115527      -0.0884095     -0.000286597    -5.72164e-05        -0.432164         0.87966
                       -0.868775       -0.481538     -0.000250149    -5.36494e-05        -0.073523       0.0207567     -7.14246e-05     0.000497574
                      0.00024068    -0.000159031        -0.431943        0.879382     -7.61359e-05     0.000460581      -0.00120326        0.144816
281762                 0.0225769       0.0732259      0.000337915      0.00039064        -0.868784        -0.48111      0.000254607    -0.000202256
                     0.000291573     0.000389947         0.115496      -0.0884167     -0.000286592    -5.71517e-05        -0.431806        0.879838
                       -0.868922       -0.481269     -0.000250208    -5.36414e-05       -0.0735266       0.0208014     -7.11573e-05      0.00049759
