! TOUCHSTONE file generated by CST MICROWAVE STUDIO
! Date and time: Wed Oct 15 17:33:00 2025
! Project name: Teste_Macro_Metasurface_Nanopilar.cst
! Parameters = {H=600; L_x=160; L_y=110; Lambda=1064; Max_L=200; Min_L=70; PathPara=1; Phi=0; Step_L=10; Theta=0; p=520; phaseX=180; phaseY=0}
! Header version: 2018
! Port assignment regex: !\s*Touchstone port\s*([0-9]+)\s*=\s*(CST MWS port|CST DS port)\s*([0-9]+|Zmin|Zmax)\s*\(\"(.*)\"\)(\s*mode\s*([0-9]+))?.*
! Touchstone port assignment:
! Touchstone port 1 = CST MWS port Zmax ("") mode 1
! Touchstone port 2 = CST MWS port Zmax ("") mode 2
! Touchstone port 3 = CST MWS port Zmin ("") mode 1
! Touchstone port 4 = CST MWS port Zmin ("") mode 2
! S-Parameters are not renormalized. Each port impedance will be approximated by the real part at minimum frequency. The values are described via the [Reference] keyword.
! Default impedance is overridden by [Reference]
[Version] 2.0
# GHz S RI R 376.73
[Number of Ports] 4
[Reference]
376.73 376.73 259.888 259.888 
[Number of Frequencies] 51
[Network Data]
281700                  0.115753      -0.0272398     -0.000744598    -0.000784977         0.115922        0.977112      0.000301604    -0.000187483
                    -0.000706674    -0.000759793         0.151032        0.272864      -0.00014598     0.000105624         0.776059        -0.53817
                        0.116001        0.976943     -0.000169249     6.42048e-05         0.116827      0.00127064       0.00113712     1.21676e-05
                      0.00022206    -0.000168991         0.776595       -0.538342       0.00111394    -4.57317e-05         0.204052         0.23236
281702                  0.115731      -0.0272392     -0.000745143    -0.000784775         0.116313        0.977068      0.000141158    -0.000198023
                    -0.000707154    -0.000759582         0.151077        0.272916     -0.000146019     0.000105623         0.775848       -0.538441
                        0.116392        0.976899     -0.000169299     6.42593e-05         0.116807      0.00118169       0.00111304     5.22451e-05
                     0.000222105    -0.000169237         0.776381        -0.53861       0.00111419    -4.60995e-05         0.204254         0.23227
281704                  0.115709      -0.0272386     -0.000745688    -0.000784574         0.116703        0.977024      0.000302851     -1.5587e-05
                    -0.000707634     -0.00075937         0.151123        0.272967     -0.000146058     0.000105621         0.775636        -0.53871
                        0.116782        0.976855     -0.000169349     6.43139e-05         0.116786      0.00109278       0.00110331     6.08012e-05
                     0.000222151    -0.000169482         0.776167       -0.538878       0.00111444    -4.64675e-05         0.204457         0.23218
281706                  0.115688      -0.0272379     -0.000746233    -0.000784372         0.117094         0.97698       0.00033262    -6.61857e-05
                    -0.000708115    -0.000759158         0.151168        0.273019     -0.000146097     0.000105619         0.775424       -0.538979
                        0.117173        0.976811     -0.000169399     6.43685e-05         0.116765      0.00100388       0.00109907     6.39359e-05
                     0.000222196    -0.000169728         0.775953       -0.539145       0.00111469    -4.68357e-05         0.204659        0.232089
281708                  0.115666      -0.0272373     -0.000746777     -0.00078417         0.117484        0.976936      0.000335683    -8.00153e-05
                    -0.000708595    -0.000758945         0.151213         0.27307     -0.000146135     0.000105617          0.77521       -0.539248
                        0.117563        0.976767     -0.000169449     6.44232e-05         0.116745     0.000915017       0.00109755     6.51808e-05
                     0.000222242    -0.000169974         0.775739       -0.539413       0.00111495    -4.72041e-05         0.204861        0.231999
281710                  0.115645      -0.0272366     -0.000747322    -0.000783968         0.117875        0.976891      0.000334449    -7.80247e-05
                    -0.000709075    -0.000758733         0.151258        0.273122     -0.000146173     0.000105615         0.774996       -0.539515
                        0.117954        0.976723     -0.000169499     6.44779e-05         0.116724     0.000826177        0.0010984     6.52469e-05
                     0.000222287     -0.00017022         0.775525       -0.539681        0.0011152    -4.75726e-05         0.205064        0.231908
281712                  0.115623       -0.027236     -0.000747867    -0.000783766         0.118265        0.976847      0.000309849    -3.68917e-05
                    -0.000709555     -0.00075852         0.151304        0.273174     -0.000146211     0.000105612          0.77478       -0.539781
                        0.118344        0.976678     -0.000169549     6.45328e-05         0.116703     0.000737364       0.00110414     6.30466e-05
                     0.000222333    -0.000170466         0.775311       -0.539948       0.00111545    -4.79413e-05         0.205266        0.231817
281714                  0.115601      -0.0272353     -0.000748411    -0.000783564         0.118656        0.976802       0.00030202    -0.000188765
                    -0.000710034    -0.000758307         0.151349        0.273225     -0.000146248     0.000105609         0.774562       -0.540043
                        0.118735        0.976634     -0.000169598     6.45876e-05         0.116682     0.000648576       0.00113884     1.04759e-05
                     0.000222378    -0.000170712         0.775097       -0.540216        0.0011157    -4.83102e-05         0.205468        0.231726
281716                   0.11558      -0.0272346     -0.000748956    -0.000783361         0.119046        0.976757      0.000331744    -0.000147329
                    -0.000710514    -0.000758093         0.151394        0.273277     -0.000146286     0.000105605         0.774341       -0.540299
                        0.119125        0.976589     -0.000169648     6.46425e-05         0.116661     0.000559815       0.00106256      6.6595e-05
                     0.000222424    -0.000170959         0.774882       -0.540483       0.00111595    -4.86793e-05         0.205669        0.231635
281718                  0.115558      -0.0272339       -0.0007495    -0.000783159         0.119437        0.976712      0.000334866     -0.00013846
                    -0.000710994    -0.000757879          0.15144        0.273329     -0.000146323     0.000105602          0.77412       -0.540536
                        0.119516        0.976544     -0.000169697     6.46975e-05          0.11664     0.000471081       0.00107549      6.8512e-05
                     0.000222469    -0.000171205         0.774668        -0.54075       0.00111621    -4.90486e-05         0.205871        0.231544
281720                  0.115536      -0.0272332     -0.000750045    -0.000782956         0.119827        0.976667      0.000335834    -0.000135387
                    -0.000711474    -0.000757665         0.151485        0.273381      -0.00014636     0.000105598         0.773944       -0.540731
                        0.119906        0.976499     -0.000169747     6.47526e-05         0.116619     0.000382372       0.00107913     6.83988e-05
                     0.000222515    -0.000171452         0.774453       -0.541017       0.00111646     -4.9418e-05         0.206074        0.231453
281722                  0.115515      -0.0272325     -0.000750589    -0.000782753         0.120218        0.976622      0.000336282    -0.000134175
                    -0.000711953    -0.000757451         0.151531        0.273432     -0.000146397     0.000105594         0.773856       -0.541045
                        0.120297        0.976453     -0.000169796     6.48077e-05         0.116598      0.00029369       0.00108082     6.81404e-05
                     0.000222561    -0.000171698         0.774238       -0.541285       0.00111671    -4.97876e-05         0.206276        0.231362
281724                  0.115493      -0.0272318     -0.000751134    -0.000782549         0.120608        0.976576      0.000336544    -0.000133747
                    -0.000712433    -0.000757236         0.151576        0.273484     -0.000146434     0.000105589         0.773625       -0.541393
                        0.120687        0.976408     -0.000169845     6.48629e-05         0.116576     0.000205035        0.0010818      6.7852e-05
                     0.000222606    -0.000171945         0.774023       -0.541552       0.00111696    -5.01573e-05         0.206479        0.231271
281726                  0.115472      -0.0272311     -0.000751678    -0.000782346         0.120999        0.976531      0.000336724    -0.000133702
                    -0.000712912    -0.000757022         0.151622        0.273536      -0.00014647     0.000105584         0.773385        -0.54168
                        0.121077        0.976362     -0.000169894     6.49181e-05         0.116555     0.000116406       0.00108246     6.75492e-05
                     0.000222652    -0.000172192         0.773808       -0.541819       0.00111721    -5.05272e-05         0.206681        0.231179
281728                   0.11545      -0.0272303     -0.000752222    -0.000782142         0.121389        0.976485      0.000336862    -0.000133864
                    -0.000713392    -0.000756806         0.151667        0.273588     -0.000146506     0.000105579         0.773157       -0.541954
                        0.121468        0.976317     -0.000169942     6.49734e-05         0.116533     2.78036e-05       0.00108296     6.72355e-05
                     0.000222698    -0.000172439         0.773593       -0.542086       0.00111746    -5.08971e-05         0.206884        0.231087
281730                  0.115428      -0.0272296     -0.000752767    -0.000781938         0.121779        0.976439      0.000336979    -0.000134145
                    -0.000713871    -0.000756591         0.151713         0.27364     -0.000146543     0.000105574         0.772934       -0.542224
                        0.121858        0.976271     -0.000169991     6.50288e-05         0.116512     -6.0772e-05       0.00108337     6.69122e-05
                     0.000222744    -0.000172686         0.773377       -0.542353       0.00111772     -5.1267e-05         0.207086        0.230995
281732                  0.115407      -0.0272288     -0.000753311    -0.000781734          0.12217        0.976393      0.000337083    -0.000134497
                     -0.00071435    -0.000756375         0.151758        0.273692     -0.000146579     0.000105569         0.772714       -0.542492
                        0.122248        0.976225      -0.00017004     6.50843e-05          0.11649    -0.000149321       0.00108373     6.65803e-05
                     0.000222789    -0.000172933         0.773162       -0.542619       0.00111797    -5.16369e-05         0.207289        0.230903
281734                  0.115385      -0.0272281     -0.000753855     -0.00078153          0.12256        0.976347       0.00033718    -0.000134894
                     -0.00071483    -0.000756159         0.151804        0.273744     -0.000146615     0.000105563         0.772496        -0.54276
                        0.122639        0.976178     -0.000170088     6.51398e-05         0.116469    -0.000237843       0.00108406     6.62409e-05
                     0.000222835     -0.00017318         0.772946       -0.542886       0.00111822    -5.20064e-05         0.207491         0.23081
281736                  0.115363      -0.0272273       -0.0007544    -0.000781325          0.12295          0.9763      0.000337272    -0.000135319
                    -0.000715309    -0.000755943          0.15185        0.273795     -0.000146651     0.000105557         0.772279       -0.543027
                        0.123029        0.976132     -0.000170136     6.51954e-05         0.116447    -0.000326338       0.00108436     6.58947e-05
                     0.000222881    -0.000173427         0.772731       -0.543153       0.00111847    -5.23749e-05         0.207693        0.230718
281738                  0.115342      -0.0272266     -0.000754944    -0.000781121          0.12334        0.976254      0.000337361    -0.000135763
                    -0.000715788    -0.000755727         0.151895        0.273847     -0.000146689     0.000105551         0.772062       -0.543295
                        0.123419        0.976086     -0.000170184     6.52511e-05         0.116425    -0.000414806       0.00108465     6.55425e-05
                     0.000222927    -0.000173674         0.772515        -0.54342       0.00111872    -5.27405e-05         0.207896        0.230625
281740                   0.11532      -0.0272258     -0.000755488    -0.000780917         0.123731        0.976207      0.000337449    -0.000136219
                    -0.000716267     -0.00075551         0.151941        0.273899     -0.000146731     0.000105547         0.771845       -0.543562
                        0.123809        0.976039     -0.000170232     6.53068e-05         0.116403    -0.000503245       0.00108493     6.51849e-05
                     0.000222973    -0.000173922         0.772299       -0.543686       0.00111898    -5.30925e-05         0.208098        0.230532
281742                  0.115299       -0.027225     -0.000756033    -0.000780715         0.124122        0.976159      0.000337535    -0.000136683
                    -0.000716745    -0.000755292         0.151987        0.273951     -0.000146737     0.000105561         0.771629       -0.543829
                        0.124199        0.975992     -0.000170278     6.53624e-05         0.116382    -0.000591719       0.00108521     6.48225e-05
                     0.000223019    -0.000174169         0.772083       -0.543953       0.00111918    -5.37233e-05         0.208301        0.230439
281744                  0.115277      -0.0272242     -0.000756504    -0.000780496         0.124511        0.976113      0.000337621    -0.000137152
                     -0.00071722    -0.000755073         0.152032        0.274003      -0.00014678     0.000105534         0.771412       -0.544096
                         0.12459        0.975945     -0.000170321       6.541e-05          0.11636    -0.000680057       0.00108549     6.44558e-05
                     0.000223067    -0.000174415         0.771867       -0.544219       0.00111947    -5.39015e-05         0.208503        0.230346
281746                  0.115255      -0.0272234     -0.000757116    -0.000780292         0.124901        0.976066      0.000337706    -0.000137625
                    -0.000717712     -0.00075486         0.152078        0.274055     -0.000146818     0.000105526         0.771196       -0.544363
                         0.12498        0.975898      -0.00017038     6.54727e-05         0.116338    -0.000768416       0.00108576     6.40853e-05
                     0.000223095    -0.000174659          0.77165       -0.544485       0.00111972    -5.42611e-05         0.208705        0.230252
281748                  0.115234      -0.0272226     -0.000757661    -0.000780088         0.125292        0.976018      0.000337791    -0.000138099
                    -0.000718187    -0.000754641         0.152124        0.274107     -0.000146853     0.000105518         0.770979        -0.54463
                         0.12537        0.975851     -0.000170426     6.55299e-05         0.116315    -0.000856749       0.00108603     6.37113e-05
                     0.000223152    -0.000174914         0.771434       -0.544751       0.00111997    -5.46291e-05         0.208908        0.230159
281750                  0.115212      -0.0272217     -0.000758206    -0.000779883         0.125682        0.975971      0.000337876    -0.000138575
                    -0.000718665    -0.000754423          0.15217        0.274159     -0.000146888      0.00010551         0.770762       -0.544896
                         0.12576        0.975803     -0.000170473     6.55862e-05         0.116293    -0.000945055        0.0010863      6.3334e-05
                     0.000223199    -0.000175162         0.771217       -0.545018       0.00112023    -5.49997e-05          0.20911        0.230065
281752                   0.11519      -0.0272209      -0.00075875    -0.000779677         0.126072        0.975923      0.000337961    -0.000139052
                    -0.000719143    -0.000754204         0.152216        0.274212     -0.000146923     0.000105503         0.770545       -0.545163
                         0.12615        0.975755      -0.00017052     6.56425e-05         0.116271     -0.00103333       0.00108657     6.29539e-05
                     0.000223245     -0.00017541         0.771001       -0.545284       0.00112048    -5.53714e-05         0.209312        0.229971
281754                  0.115169      -0.0272201     -0.000759293     -0.00077947         0.126462        0.975875      0.000338045    -0.000139528
                    -0.000719622    -0.000753985         0.152262        0.274264     -0.000146957     0.000105495         0.770328       -0.545429
                         0.12654        0.975708     -0.000170568     6.56989e-05         0.116249     -0.00112159       0.00108684     6.25712e-05
                     0.000223291    -0.000175658         0.770784        -0.54555       0.00112073    -5.57439e-05         0.209515        0.229877
281756                  0.115147      -0.0272192     -0.000759837    -0.000779263         0.126852        0.975827      0.000338129    -0.000140005
                    -0.000720101    -0.000753766         0.152307        0.274316     -0.000146991     0.000105487         0.770111       -0.545696
                         0.12693         0.97566     -0.000170615     6.57553e-05         0.116226     -0.00120981       0.00108712      6.2186e-05
                     0.000223337    -0.000175907         0.770567       -0.545816       0.00112098    -5.61169e-05         0.209717        0.229783
281758                  0.115126      -0.0272184      -0.00076038    -0.000779056         0.127242        0.975779      0.000338213    -0.000140482
                     -0.00072058    -0.000753547         0.152353        0.274368     -0.000147025     0.000105479         0.769894       -0.545962
                         0.12732        0.975612     -0.000170662     6.58117e-05         0.116204     -0.00129801       0.00108739     6.17986e-05
                     0.000223382    -0.000176155          0.77035       -0.546082       0.00112123    -5.64902e-05          0.20992        0.229689
281760                  0.115104      -0.0272175     -0.000760924    -0.000778849         0.127632        0.975731      0.000338297    -0.000140958
                    -0.000721058    -0.000753328         0.152399         0.27442     -0.000147058      0.00010547         0.769676       -0.546229
                         0.12771        0.975563     -0.000170709     6.58683e-05         0.116181     -0.00138618       0.00108766     6.14091e-05
                     0.000223428    -0.000176404         0.770133       -0.546348       0.00112148     -5.6864e-05         0.210122        0.229594
281762                  0.115082      -0.0272166     -0.000761467    -0.000778641         0.128022        0.975682       0.00033838    -0.000141434
                    -0.000721537    -0.000753108         0.152445        0.274472     -0.000147092     0.000105462         0.769458       -0.546495
                          0.1281        0.975515     -0.000170755     6.59249e-05         0.116159     -0.00147432       0.00108794     6.10177e-05
