! TOUCHSTONE file generated by CST MICROWAVE STUDIO
! Date and time: Wed Oct 15 17:28:58 2025
! Project name: Teste_Macro_Metasurface_Nanopilar.cst
! Parameters = {H=600; L_x=90; L_y=105; Lambda=1064; Max_L=200; Min_L=70; PathPara=1; Phi=0; Step_L=10; Theta=0; p=520; phaseX=180; phaseY=0}
! Header version: 2018
! Port assignment regex: !\s*Touchstone port\s*([0-9]+)\s*=\s*(CST MWS port|CST DS port)\s*([0-9]+|Zmin|Zmax)\s*\(\"(.*)\"\)(\s*mode\s*([0-9]+))?.*
! Touchstone port assignment:
! Touchstone port 1 = CST MWS port Zmax ("") mode 1
! Touchstone port 2 = CST MWS port Zmax ("") mode 2
! Touchstone port 3 = CST MWS port Zmin ("") mode 1
! Touchstone port 4 = CST MWS port Zmin ("") mode 2
! S-Parameters are not renormalized. Each port impedance will be approximated by the real part at minimum frequency. The values are described via the [Reference] keyword.
! Default impedance is overridden by [Reference]
[Version] 2.0
# GHz S RI R 376.73
[Number of Ports] 4
[Reference]
376.73 376.73 259.888 259.888 
[Number of Frequencies] 51
[Network Data]
281700                0.00185805     0.000554892     -1.68435e-05    -2.64362e-05        -0.579607       -0.812198      0.000327204    -0.000170058
                    -5.30092e-06     3.46927e-06      -0.00381631      -0.0662264      0.000318167    -0.000163184        -0.266135       -0.960635
                        -0.57983       -0.812345      0.000223321    -9.54345e-05     -0.000168902     -0.00124886     -6.49048e-06     2.22231e-05
                     0.000333774    -0.000209558        -0.265906       -0.960589     -1.83911e-05     4.80459e-05        0.0306194       0.0590414
281702                0.00185482     0.000566858      -1.6819e-05     -2.6411e-05        -0.579831       -0.812038      0.000327155     -0.00017011
                    -5.21312e-06     3.54239e-06      -0.00382684      -0.0662196      0.000318147    -0.000163276        -0.266379       -0.960567
                       -0.580055       -0.812185      0.000223394    -9.55792e-05      -0.00018202     -0.00124957     -6.49541e-06     2.21145e-05
                     0.000333697    -0.000209653        -0.266151       -0.960521     -1.83639e-05     4.79765e-05        0.0306369       0.0590254
281704                0.00185159     0.000578826     -1.67943e-05    -2.63859e-05        -0.580055       -0.811877      0.000327107    -0.000170162
                    -5.12526e-06     3.61548e-06      -0.00383738      -0.0662128      0.000318128    -0.000163368        -0.266624       -0.960499
                       -0.580279       -0.812024      0.000223467    -9.57239e-05     -0.000195138     -0.00125026     -6.50027e-06     2.20059e-05
                      0.00033362    -0.000209748        -0.266396       -0.960453     -1.83367e-05     4.79072e-05        0.0306544       0.0590094
281706                0.00184836     0.000590794     -1.67696e-05    -2.63607e-05         -0.58028       -0.811717      0.000327058    -0.000170214
                    -5.03735e-06     3.68853e-06      -0.00384792       -0.066206      0.000318108     -0.00016346        -0.266869       -0.960432
                       -0.580504       -0.811864      0.000223541    -9.58686e-05     -0.000208258     -0.00125094     -6.50508e-06     2.18973e-05
                     0.000333544    -0.000209843         -0.26664       -0.960386     -1.83095e-05     4.78379e-05        0.0306719       0.0589934
281708                0.00184514     0.000602764     -1.67447e-05    -2.63356e-05        -0.580504       -0.811556       0.00032701    -0.000170266
                    -4.94939e-06     3.76153e-06      -0.00385845      -0.0661992      0.000318088    -0.000163553        -0.267113       -0.960364
                       -0.580728       -0.811703      0.000223614    -9.60134e-05     -0.000221379     -0.00125161     -6.50983e-06     2.17885e-05
                     0.000333467    -0.000209937        -0.266885       -0.960318     -1.82824e-05     4.77686e-05        0.0306894       0.0589775
281710                0.00184191     0.000614734     -1.67198e-05    -2.63104e-05        -0.580728       -0.811396      0.000326962    -0.000170318
                    -4.86137e-06      3.8345e-06      -0.00386899      -0.0661924      0.000318069    -0.000163645        -0.267358       -0.960296
                       -0.580953       -0.811543      0.000223688    -9.61581e-05     -0.000234501     -0.00125226     -6.51454e-06     2.16797e-05
                      0.00033339    -0.000210032         -0.26713        -0.96025     -1.82552e-05     4.76995e-05        0.0307068       0.0589615
281712                0.00183869     0.000626706     -1.66948e-05    -2.62853e-05        -0.580952       -0.811235      0.000326914     -0.00017037
                    -4.77331e-06     3.90743e-06      -0.00387952      -0.0661856      0.000318049    -0.000163737        -0.267603       -0.960229
                       -0.581177       -0.811382      0.000223761     -9.6303e-05     -0.000247624     -0.00125291      -6.5192e-06     2.15708e-05
                     0.000333313    -0.000210127        -0.267374       -0.960182     -1.82281e-05     4.76304e-05        0.0307243       0.0589455
281714                0.00183547     0.000638679     -1.66696e-05    -2.62601e-05        -0.581176       -0.811074      0.000326866    -0.000170422
                    -4.68519e-06     3.98031e-06      -0.00389005      -0.0661788       0.00031803     -0.00016383        -0.267847       -0.960161
                       -0.581402       -0.811221      0.000223835    -9.64479e-05     -0.000260748     -0.00125354     -6.52383e-06     2.14618e-05
                     0.000333236    -0.000210222        -0.267619       -0.960114      -1.8201e-05     4.75613e-05        0.0307418       0.0589295
281716                0.00183226     0.000650652     -1.66444e-05    -2.62349e-05          -0.5814       -0.810913      0.000326818    -0.000170474
                    -4.59702e-06     4.05316e-06      -0.00390059       -0.066172       0.00031801    -0.000163922        -0.268092       -0.960093
                       -0.581626       -0.811061      0.000223908    -9.65928e-05     -0.000273873     -0.00125416     -6.52843e-06     2.13527e-05
                     0.000333159    -0.000210316        -0.267863       -0.960046     -1.81739e-05     4.74924e-05        0.0307592       0.0589135
281718                0.00182904     0.000662627     -1.66191e-05    -2.62097e-05        -0.581624       -0.810752      0.000326771    -0.000170526
                    -4.50881e-06     4.12596e-06      -0.00391112      -0.0661652       0.00031799    -0.000164015        -0.268337       -0.960025
                        -0.58185         -0.8109      0.000223982    -9.67377e-05        -0.000287     -0.00125477     -6.53301e-06     2.12436e-05
                     0.000333083    -0.000210411        -0.268108       -0.959978     -1.81469e-05     4.74234e-05        0.0307767       0.0588975
281720                0.00182583     0.000674603     -1.65937e-05    -2.61846e-05        -0.581848       -0.810591      0.000326723    -0.000170578
                    -4.42054e-06     4.19872e-06      -0.00392165      -0.0661584      0.000317971    -0.000164107        -0.268581       -0.959957
                       -0.582074       -0.810739      0.000224056    -9.68827e-05     -0.000300127     -0.00125536     -6.53756e-06     2.11344e-05
                     0.000333006    -0.000210505        -0.268353        -0.95991     -1.81198e-05     4.73546e-05        0.0307941       0.0588815
281722                0.00182262     0.000686579     -1.65682e-05    -2.61594e-05        -0.582072        -0.81043      0.000326676     -0.00017063
                    -4.33222e-06     4.27145e-06      -0.00393218      -0.0661516      0.000317951      -0.0001642        -0.268826       -0.959889
                       -0.582299       -0.810578       0.00022413    -9.70278e-05     -0.000313256     -0.00125595     -6.54211e-06     2.10251e-05
                     0.000332929    -0.000210599        -0.268597       -0.959842     -1.80928e-05     4.72858e-05        0.0308115       0.0588654
281724                0.00181941     0.000698557     -1.65426e-05    -2.61342e-05        -0.582296       -0.810269      0.000326628    -0.000170682
                    -4.24385e-06     4.34413e-06      -0.00394271      -0.0661447      0.000317932    -0.000164293        -0.269071       -0.959821
                       -0.582523       -0.810417      0.000224203    -9.71728e-05     -0.000326385     -0.00125652     -6.54664e-06     2.09157e-05
                     0.000332852    -0.000210694        -0.268842       -0.959773     -1.80658e-05     4.72171e-05        0.0308289       0.0588494
281726                 0.0018162     0.000710536      -1.6517e-05     -2.6109e-05         -0.58252       -0.810108      0.000326581    -0.000170734
                    -4.15544e-06     4.41676e-06      -0.00395323      -0.0661379      0.000317912    -0.000164385        -0.269315       -0.959752
                       -0.582747       -0.810256      0.000224277     -9.7318e-05     -0.000339516     -0.00125708     -6.55118e-06     2.08063e-05
                     0.000332776    -0.000210788        -0.269086       -0.959705     -1.80388e-05     4.71484e-05        0.0308464       0.0588334
281728                  0.001813     0.000722516     -1.64912e-05    -2.60838e-05        -0.582744       -0.809947      0.000326534    -0.000170786
                    -4.06697e-06     4.48936e-06      -0.00396376      -0.0661311      0.000317892    -0.000164478         -0.26956       -0.959684
                       -0.582971       -0.810094      0.000224351    -9.74631e-05     -0.000352647     -0.00125763     -6.55571e-06     2.06969e-05
                     0.000332699    -0.000210882        -0.269331       -0.959637     -1.80118e-05     4.70798e-05        0.0308638       0.0588174
281730                0.00180979     0.000734497     -1.64654e-05    -2.60586e-05        -0.582968       -0.809786      0.000326487    -0.000170838
                    -3.97846e-06     4.56192e-06      -0.00397429      -0.0661243      0.000317873    -0.000164571        -0.269804       -0.959616
                       -0.583195       -0.809933      0.000224425    -9.76083e-05      -0.00036578     -0.00125817     -6.56026e-06     2.05873e-05
                     0.000332623    -0.000210976        -0.269575       -0.959568     -1.79848e-05     4.70112e-05        0.0308811       0.0588013
281732                0.00180659     0.000746478     -1.64395e-05    -2.60334e-05        -0.583192       -0.809624      0.000326441     -0.00017089
                    -3.88989e-06     4.63443e-06      -0.00398482      -0.0661175      0.000317853    -0.000164664        -0.270049       -0.959547
                       -0.583419       -0.809772      0.000224499    -9.77536e-05     -0.000378914     -0.00125869     -6.56483e-06     2.04778e-05
                     0.000332546     -0.00021107        -0.269819         -0.9595     -1.79579e-05     4.69427e-05        0.0308985       0.0587853
281734                 0.0018034     0.000758461     -1.64135e-05    -2.60082e-05        -0.583415       -0.809463      0.000326394    -0.000170942
                    -3.80128e-06      4.7069e-06      -0.00399534      -0.0661106      0.000317833    -0.000164757        -0.270293       -0.959479
                       -0.583643        -0.80961      0.000224573    -9.78989e-05     -0.000392048     -0.00125921     -6.56941e-06     2.03681e-05
                     0.000332469    -0.000211164        -0.270064       -0.959431      -1.7931e-05     4.68743e-05        0.0309159       0.0587693
281736                 0.0018002     0.000770445     -1.63874e-05     -2.5983e-05        -0.583639       -0.809301      0.000326347    -0.000170994
                    -3.71263e-06     4.77932e-06      -0.00400587      -0.0661038      0.000317814     -0.00016485        -0.270538        -0.95941
                       -0.583867       -0.809449      0.000224647    -9.80442e-05     -0.000405184     -0.00125971     -6.57402e-06     2.02584e-05
                     0.000332393    -0.000211258        -0.270308       -0.959362      -1.7904e-05     4.68059e-05        0.0309333       0.0587532
281738                  0.001797      0.00078243     -1.63612e-05    -2.59578e-05        -0.583863        -0.80914      0.000326301    -0.000171046
                    -3.62392e-06     4.85171e-06      -0.00401639       -0.066097      0.000317794    -0.000164943        -0.270782       -0.959342
                       -0.584091       -0.809288      0.000224721    -9.81896e-05     -0.000418321      -0.0012602     -6.57867e-06     2.01487e-05
                     0.000332316    -0.000211352        -0.270553       -0.959293     -1.78771e-05     4.67376e-05        0.0309506       0.0587372
281740                0.00179381     0.000794416      -1.6335e-05    -2.59325e-05        -0.584086       -0.808978      0.000326254    -0.000171098
                    -3.53517e-06     4.92405e-06      -0.00402691      -0.0660902      0.000317774    -0.000165036        -0.271027       -0.959273
                       -0.584315       -0.809126      0.000224795    -9.83351e-05     -0.000431459     -0.00126068     -6.58336e-06     2.00389e-05
                      0.00033224    -0.000211446        -0.270797       -0.959225     -1.78503e-05     4.66693e-05         0.030968       0.0587211
281742                0.00179062     0.000806403     -1.63087e-05    -2.59073e-05         -0.58431       -0.808817      0.000326208     -0.00017115
                    -3.44637e-06     4.99635e-06      -0.00403744      -0.0660833      0.000317755     -0.00016513        -0.271271       -0.959204
                       -0.584539       -0.808964      0.000224869    -9.84806e-05     -0.000444597     -0.00126114     -6.58809e-06      1.9929e-05
                     0.000332164    -0.000211539        -0.271042       -0.959156     -1.78234e-05     4.66011e-05        0.0309853       0.0587051
281744                0.00178743     0.000818391     -1.62823e-05    -2.58821e-05        -0.584533       -0.808655      0.000326162    -0.000171202
                    -3.35753e-06      5.0686e-06      -0.00404796      -0.0660765      0.000317735    -0.000165223        -0.271515       -0.959135
                       -0.584762       -0.808803      0.000224943    -9.86261e-05     -0.000457737      -0.0012616     -6.59287e-06     1.98191e-05
                     0.000332087    -0.000211633        -0.271286       -0.959087     -1.77965e-05      4.6533e-05        0.0310027        0.058689
281746                0.00178425      0.00083038     -1.62558e-05    -2.58569e-05        -0.584757       -0.808493      0.000326116    -0.000171254
                    -3.26863e-06     5.14081e-06      -0.00405848      -0.0660697      0.000317715    -0.000165316         -0.27176       -0.959067
                       -0.584986       -0.808641      0.000225017    -9.87717e-05     -0.000470878     -0.00126204     -6.59771e-06     1.97092e-05
                     0.000332011    -0.000211726         -0.27153       -0.959018     -1.77697e-05     4.64649e-05          0.03102       0.0586729
281748                0.00178106      0.00084237     -1.62293e-05    -2.58317e-05         -0.58498       -0.808331       0.00032607    -0.000171306
                     -3.1797e-06     5.21298e-06        -0.004069      -0.0660628      0.000317695     -0.00016541        -0.272004       -0.958998
                        -0.58521       -0.808479      0.000225091    -9.89173e-05     -0.000484019     -0.00126247     -6.60262e-06     1.95992e-05
                     0.000331935     -0.00021182        -0.271775       -0.958949     -1.77429e-05     4.63969e-05        0.0310373       0.0586569
281750                0.00177788     0.000854361     -1.62027e-05    -2.58065e-05        -0.585203       -0.808169      0.000326024    -0.000171357
                    -3.09071e-06      5.2851e-06      -0.00407952       -0.066056      0.000317676    -0.000165503        -0.272249       -0.958929
                       -0.585433       -0.808317      0.000225165     -9.9063e-05     -0.000497162     -0.00126289     -6.60759e-06     1.94892e-05
                     0.000331858    -0.000211913        -0.272019        -0.95888      -1.7716e-05     4.63289e-05        0.0310546       0.0586408
281752                 0.0017747     0.000866353      -1.6176e-05    -2.57813e-05        -0.585427       -0.808007      0.000325978    -0.000171409
                    -3.00168e-06     5.35718e-06      -0.00409004      -0.0660492      0.000317656    -0.000165597        -0.272493        -0.95886
                       -0.585657       -0.808155       0.00022524    -9.92087e-05     -0.000510305     -0.00126329     -6.61265e-06     1.93792e-05
                     0.000331782    -0.000212007        -0.272263       -0.958811     -1.76892e-05      4.6261e-05        0.0310719       0.0586247
281754                0.00177152     0.000878346     -1.61493e-05     -2.5756e-05         -0.58565       -0.807845      0.000325932    -0.000171461
                    -2.91261e-06     5.42922e-06      -0.00410056      -0.0660423      0.000317636     -0.00016569        -0.272737        -0.95879
                        -0.58588       -0.807993      0.000225314    -9.93545e-05      -0.00052345     -0.00126369     -6.61779e-06     1.92691e-05
                     0.000331706      -0.0002121        -0.272507       -0.958741     -1.76625e-05     4.61931e-05        0.0310892       0.0586086
281756                0.00176835      0.00089034     -1.61224e-05    -2.57308e-05        -0.585873       -0.807683      0.000325886    -0.000171513
                    -2.82349e-06     5.50121e-06      -0.00411107      -0.0660355      0.000317616    -0.000165784        -0.272982       -0.958721
                       -0.586104       -0.807831      0.000225388    -9.95003e-05     -0.000536595     -0.00126407     -6.62302e-06      1.9159e-05
                      0.00033163    -0.000212193        -0.272752       -0.958672     -1.76357e-05     4.61253e-05        0.0311065       0.0585926
281758                0.00176517     0.000902335     -1.60955e-05    -2.57056e-05        -0.586096       -0.807521      0.000325841    -0.000171565
                    -2.73432e-06     5.57315e-06      -0.00412159      -0.0660287      0.000317597    -0.000165878        -0.273226       -0.958652
                       -0.586327       -0.807669      0.000225462    -9.96462e-05     -0.000549742     -0.00126444     -6.62836e-06     1.90489e-05
                     0.000331554    -0.000212286        -0.272996       -0.958603     -1.76089e-05     4.60576e-05        0.0311238       0.0585765
281760                  0.001762     0.000914331     -1.60684e-05    -2.56804e-05         -0.58632       -0.807359      0.000325795    -0.000171617
                    -2.64511e-06     5.64506e-06      -0.00413211      -0.0660218      0.000317577    -0.000165971         -0.27347       -0.958583
                       -0.586551       -0.807507      0.000225537    -9.97921e-05     -0.000562889      -0.0012648     -6.63381e-06     1.89387e-05
                     0.000331478    -0.000212379         -0.27324       -0.958533     -1.75822e-05     4.59899e-05        0.0311411       0.0585604
281762                0.00175883     0.000926329     -1.60413e-05    -2.56552e-05        -0.586543       -0.807196       0.00032575    -0.000171668
                    -2.55585e-06     5.71691e-06      -0.00414262       -0.066015      0.000317557    -0.000166065        -0.273714       -0.958513
                       -0.586774       -0.807345      0.000225611     -9.9938e-05     -0.000576037     -0.00126515     -6.63938e-06     1.88286e-05
