! TOUCHSTONE file generated by CST MICROWAVE STUDIO
! Date and time: Wed Oct 15 17:30:16 2025
! Project name: Teste_Macro_Metasurface_Nanopilar.cst
! Parameters = {H=600; L_x=110; L_y=175; Lambda=1064; Max_L=200; Min_L=70; PathPara=1; Phi=0; Step_L=10; Theta=0; p=520; phaseX=180; phaseY=0}
! Header version: 2018
! Port assignment regex: !\s*Touchstone port\s*([0-9]+)\s*=\s*(CST MWS port|CST DS port)\s*([0-9]+|Zmin|Zmax)\s*\(\"(.*)\"\)(\s*mode\s*([0-9]+))?.*
! Touchstone port assignment:
! Touchstone port 1 = CST MWS port Zmax ("") mode 1
! Touchstone port 2 = CST MWS port Zmax ("") mode 2
! Touchstone port 3 = CST MWS port Zmin ("") mode 1
! Touchstone port 4 = CST MWS port Zmin ("") mode 2
! S-Parameters are not renormalized. Each port impedance will be approximated by the real part at minimum frequency. The values are described via the [Reference] keyword.
! Default impedance is overridden by [Reference]
[Version] 2.0
# GHz S RI R 376.73
[Number of Ports] 4
[Reference]
376.73 376.73 259.888 259.888 
[Number of Frequencies] 51
[Network Data]
281700                  0.835557       -0.251226      -0.00166666     0.000832693         0.379433        0.192794       0.00116255      0.00125047
                     -0.00166055     0.000883554        0.0978763      -0.0160758       0.00077952    -0.000601562         0.446178        0.879817
                        0.379826        0.192809      0.000696102    -0.000662687        -0.144987       -0.847404      -0.00142785      0.00111424
                     0.000914654      0.00143624         0.446252        0.880332      -0.00152772     0.000678995        0.0701654      -0.0666429
281702                   0.83509         -0.2517      -0.00166642     0.000834266         0.380193        0.192762       0.00116344      0.00124927
                     -0.00166004     0.000887307        0.0978579      -0.0160686      0.000778464    -0.000602996         0.446517        0.879646
                        0.380585        0.192776      0.000695072    -0.000664087        -0.146086       -0.846902      -0.00142755      0.00111593
                     0.000922278      0.00143338         0.446592        0.880162      -0.00152785     0.000680689        0.0700971      -0.0666861
281704                  0.834623       -0.252173      -0.00166617     0.000835838         0.380952        0.192728       0.00116432      0.00124806
                     -0.00166034     0.000886716        0.0978395      -0.0160615      0.000777406    -0.000604427         0.446856        0.879476
                        0.381348        0.192741       0.00069404    -0.000665485        -0.147184       -0.846399      -0.00142725      0.00111761
                     0.000916236      0.00143421         0.446931        0.879992      -0.00152798     0.000682381        0.0700289      -0.0667293
281706                  0.834157       -0.252645      -0.00166592     0.000837411         0.381712        0.192692        0.0011652      0.00124686
                      -0.0016613     0.000881697        0.0978211      -0.0160544      0.000776346    -0.000605856         0.447195        0.879305
                        0.382117        0.192704      0.000693005    -0.000666881        -0.148281       -0.845894      -0.00142695      0.00111929
                     0.000895277       0.0014181         0.447271        0.879822       -0.0015281     0.000684074        0.0699606      -0.0667724
281708                   0.83369       -0.253116      -0.00166567     0.000838984         0.382471        0.192655       0.00116609      0.00124566
                     -0.00166238     0.000874995        0.0978027      -0.0160473      0.000775283    -0.000607282         0.447534        0.879135
                        0.382894        0.192664      0.000691967    -0.000668276        -0.149376       -0.845387      -0.00142665      0.00112097
                     0.000905391      0.00139326         0.447611        0.879652      -0.00152823     0.000685767        0.0698924      -0.0668154
281710                  0.833223       -0.253585      -0.00166542     0.000840556         0.383229        0.192616       0.00116697      0.00124445
                     -0.00166319     0.000869313        0.0977843      -0.0160401      0.000774217    -0.000608706         0.447873        0.878964
                        0.383687        0.192621      0.000690926    -0.000669669         -0.15047       -0.844879      -0.00142635      0.00112265
                     0.000916585      0.00138917          0.44795        0.879482      -0.00152834     0.000687459         0.069824      -0.0668584
281712                  0.832758       -0.254053      -0.00166516     0.000842129         0.383988        0.192576       0.00116785      0.00124325
                     -0.00166366     0.000865569         0.097766       -0.016033       0.00077315    -0.000610128         0.448212        0.878793
                        0.384509        0.192574      0.000689882     -0.00067106        -0.151562       -0.844369      -0.00142605      0.00112432
                     0.000921916      0.00138852          0.44829        0.879311      -0.00152846     0.000689152        0.0697557      -0.0669013
281714                  0.832295       -0.254517      -0.00166491     0.000843701         0.384746        0.192534       0.00116872      0.00124205
                     -0.00166386     0.000863545        0.0977476      -0.0160258       0.00077208    -0.000611547         0.448551        0.878622
                        0.385406         0.19252      0.000688836    -0.000672449        -0.152653       -0.843857      -0.00142575      0.00112599
                     0.000924919      0.00138806         0.448629        0.879141      -0.00152857     0.000690844        0.0696873      -0.0669442
281716                  0.831842       -0.254969      -0.00166465     0.000845274         0.385504        0.192491        0.0011696      0.00124084
                     -0.00166388     0.000862751        0.0977292      -0.0160187      0.000771008    -0.000612963          0.44889        0.878451
                        0.386601        0.192458      0.000687787    -0.000673837        -0.153742       -0.843344      -0.00142544      0.00112766
                     0.000926947      0.00138748         0.448969         0.87897      -0.00152868     0.000692536        0.0696189       -0.066987
281718                  0.831363       -0.255276      -0.00166438     0.000846846         0.386261        0.192447       0.00117047      0.00123963
                     -0.00166377     0.000862771        0.0977108      -0.0160115      0.000769933    -0.000614377         0.449229         0.87828
                        0.389417        0.205151      0.000686735    -0.000675223         -0.15483       -0.842829      -0.00142514      0.00112933
                      0.00092851       0.0013868         0.449308        0.878799      -0.00152878     0.000694228        0.0695505      -0.0670297
281720                  0.830792       -0.255936      -0.00166412     0.000848418         0.387019        0.192401       0.00117135      0.00123843
                     -0.00166358     0.000863317        0.0976924      -0.0160043      0.000768857    -0.000615788         0.449567        0.878108
                        0.386319        0.192636      0.000685681    -0.000676607        -0.155916       -0.842312      -0.00142484        0.001131
                     0.000929826      0.00138605         0.449647        0.878628      -0.00152889      0.00069592         0.069482      -0.0670724
281722                  0.830357       -0.256403      -0.00166385      0.00084999         0.387776        0.192353       0.00117222      0.00123722
                     -0.00166334     0.000864205        0.0976741      -0.0159972      0.000767778    -0.000617197         0.449906        0.877937
                        0.387508        0.192476      0.000684624     -0.00067799        -0.157001       -0.841794      -0.00142453      0.00113266
                     0.000931002      0.00138525         0.449987        0.878457      -0.00152899     0.000697611        0.0694136       -0.067115
281724                  0.829897       -0.256865      -0.00166358     0.000851562         0.388532        0.192304       0.00117309      0.00123601
                     -0.00166307     0.000865315        0.0976557        -0.01599      0.000766696    -0.000618604         0.450244        0.877765
                        0.388405        0.192397      0.000683564     -0.00067937        -0.158084       -0.841274      -0.00142423      0.00113433
                     0.000932091      0.00138443         0.450326        0.878286      -0.00152908     0.000699302         0.069345      -0.0671576
281726                   0.82943       -0.257327      -0.00166331     0.000853133         0.389289        0.192254       0.00117395       0.0012348
                     -0.00166277     0.000866574        0.0976373      -0.0159828      0.000765613    -0.000620008         0.450583        0.877593
                        0.389228        0.192333      0.000682501    -0.000680749        -0.159165       -0.840753      -0.00142392      0.00113599
                     0.000933125      0.00138358         0.450665        0.878114      -0.00152918     0.000700993        0.0692765      -0.0672001
281728                  0.828961       -0.257788      -0.00166304     0.000854705         0.390045        0.192202       0.00117482      0.00123359
                     -0.00166245     0.000867932         0.097619      -0.0159756      0.000764527    -0.000621409         0.450921        0.877421
                        0.390022        0.192274      0.000681436    -0.000682126        -0.160246        -0.84023      -0.00142361      0.00113765
                     0.000934123      0.00138272         0.451004        0.877943      -0.00152927     0.000702684        0.0692079      -0.0672426
281730                   0.82849       -0.258248      -0.00166276     0.000856276           0.3908        0.192148       0.00117569      0.00123237
                     -0.00166212     0.000869358        0.0976006      -0.0159684      0.000763439    -0.000622808          0.45126        0.877249
                        0.390801        0.192216      0.000680368    -0.000683501        -0.161324       -0.839705       -0.0014233      0.00113931
                     0.000935097      0.00138185         0.451343        0.877771      -0.00152936     0.000704375        0.0691394      -0.0672849
281732                  0.828019       -0.258707      -0.00166248     0.000857847         0.391556        0.192094       0.00117655      0.00123116
                     -0.00166178      0.00087083        0.0975822      -0.0159612      0.000762349    -0.000624205         0.451598        0.877077
                        0.391571        0.192159      0.000679297    -0.000684874        -0.162402       -0.839179      -0.00142299      0.00114097
                     0.000936053      0.00138098         0.451682        0.877599      -0.00152944     0.000706066        0.0690707      -0.0673273
281734                  0.827546       -0.259166       -0.0016622     0.000859418         0.392311        0.192037       0.00117741      0.00122995
                     -0.00166144     0.000872334        0.0975639      -0.0159539      0.000761256    -0.000625599         0.451936        0.876905
                        0.392336          0.1921      0.000678224    -0.000686246        -0.163477       -0.838652      -0.00142267      0.00114264
                     0.000936996       0.0013801          0.45202        0.877427      -0.00152953     0.000707756        0.0690021      -0.0673695
281736                  0.827073       -0.259623      -0.00166192     0.000860988         0.393065         0.19198       0.00117827      0.00122873
                     -0.00166109     0.000873861        0.0975455      -0.0159467      0.000760162     -0.00062699         0.452274        0.876732
                        0.393098        0.192041      0.000677148    -0.000687615        -0.164551       -0.838122      -0.00142235      0.00114431
                      0.00093793      0.00137921         0.452359        0.877255      -0.00152961     0.000709446        0.0689334      -0.0674117
281738                    0.8266        -0.26008      -0.00166164     0.000862559          0.39382         0.19192       0.00117913      0.00122751
                     -0.00166073     0.000875403        0.0975272      -0.0159395      0.000759065    -0.000628379         0.452612         0.87656
                        0.393857        0.191981      0.000676069    -0.000688983        -0.165624       -0.837591      -0.00142202      0.00114599
                     0.000938857      0.00137833         0.452698        0.877083      -0.00152968     0.000711136        0.0688647      -0.0674539
281740                  0.826125       -0.260536      -0.00166135     0.000864129         0.394574         0.19186          0.00118      0.00122629
                     -0.00166037     0.000876957        0.0975088      -0.0159322      0.000757966    -0.000629766          0.45295        0.876387
                        0.394615         0.19192      0.000674988    -0.000690348        -0.166695       -0.837059      -0.00142169      0.00114771
                     0.000939778      0.00137744         0.453036        0.876911      -0.00152976     0.000712825         0.068796       -0.067496
281742                  0.825651       -0.260991      -0.00166106     0.000865699         0.395328        0.191797       0.00118087      0.00122508
                        -0.00166     0.000878517        0.0974905       -0.015925      0.000756864     -0.00063115         0.453287        0.876214
                        0.395371        0.191857      0.000673904    -0.000691712        -0.167765       -0.836525      -0.00142132      0.00114957
                     0.000940695      0.00137655         0.453375        0.876738      -0.00152983     0.000714515        0.0687273       -0.067538
281744                  0.825176       -0.261445      -0.00166077     0.000867268         0.396081        0.191734       0.00118176      0.00122388
                     -0.00165963     0.000880083        0.0974722      -0.0159177      0.000755761    -0.000632531         0.453627        0.876042
                        0.396126        0.191793      0.000672818    -0.000693074        -0.168833       -0.835989      -0.00142366      0.00115291
                     0.000941608      0.00137566         0.453713        0.876566       -0.0015299     0.000716204        0.0686584        -0.06758
281746                    0.8247       -0.261897      -0.00166047     0.000868837         0.396834        0.191669       0.00118259      0.00122275
                     -0.00165926     0.000881652        0.0974538      -0.0159105      0.000754655     -0.00063391         0.453964        0.875868
                         0.39688        0.191727      0.000671729    -0.000694433        -0.169899       -0.835452      -0.00142109      0.00115201
                     0.000942519      0.00137476         0.454052        0.876393      -0.00152996     0.000717893        0.0685896      -0.0676219
281748                  0.824225       -0.262349      -0.00166018     0.000870406         0.397587        0.191602       0.00118335      0.00122153
                     -0.00165889     0.000883222        0.0974355      -0.0159032      0.000753547    -0.000635286         0.454301        0.875695
                        0.397634        0.191661      0.000670637    -0.000695791        -0.170964       -0.834913      -0.00142062      0.00115385
                     0.000943427      0.00137387          0.45439         0.87622      -0.00153002     0.000719581        0.0685208      -0.0676637
281750                  0.823748         -0.2628      -0.00165988     0.000871975         0.398339        0.191534       0.00118417      0.00122028
                     -0.00165851     0.000884794        0.0974172       -0.015896      0.000752437     -0.00063666         0.454639        0.875522
                        0.398387        0.191593      0.000669543    -0.000697147        -0.172028       -0.834373      -0.00142026      0.00115555
                     0.000944333      0.00137297         0.454728        0.876048      -0.00153008     0.000721269         0.068452      -0.0677055
281752                  0.823272        -0.26325      -0.00165958     0.000873543         0.399091        0.191465       0.00118501      0.00121903
                     -0.00165813     0.000886366        0.0973988      -0.0158887      0.000751325    -0.000638031         0.454976        0.875348
                        0.399139        0.191523      0.000668446    -0.000698501         -0.17309       -0.833831      -0.00141991      0.00115723
                     0.000945237      0.00137208         0.455066        0.875874      -0.00153014     0.000722957        0.0683831      -0.0677473
281754                  0.822795       -0.263699      -0.00165928     0.000875111         0.399843        0.191394       0.00118585       0.0012178
                     -0.00165775     0.000887938        0.0973805      -0.0158814       0.00075021      -0.0006394         0.455314        0.875175
                        0.399891        0.191452      0.000667346    -0.000699853         -0.17415       -0.833288      -0.00141958      0.00115888
                     0.000946139      0.00137118         0.455404        0.875701      -0.00153019     0.000724645        0.0683142      -0.0677889
281756                  0.822317       -0.264147      -0.00165897     0.000876678         0.400594        0.191322       0.00118669      0.00121657
                     -0.00165737      0.00088951        0.0973622      -0.0158741      0.000749093    -0.000640766         0.455651        0.875001
                        0.400643         0.19138      0.000666244    -0.000701203        -0.175209       -0.832743      -0.00141924      0.00116053
                     0.000947039      0.00137028         0.455742        0.875528      -0.00153024     0.000726333        0.0682452      -0.0678305
281758                   0.82184       -0.264594      -0.00165867     0.000878245         0.401345        0.191248       0.00118752      0.00121533
                     -0.00165698     0.000891081        0.0973439      -0.0158668      0.000747975     -0.00064213         0.455988        0.874827
                        0.401394        0.191306       0.00066514     -0.00070255        -0.176267       -0.832197      -0.00141891      0.00116217
                     0.000947938      0.00136938          0.45608        0.875355      -0.00153029      0.00072802        0.0681763      -0.0678721
281760                  0.821362       -0.265041      -0.00165836     0.000879812         0.402095        0.191173       0.00118835       0.0012141
                     -0.00165659      0.00089265        0.0973255      -0.0158595      0.000746854    -0.000643492         0.456325        0.874653
                        0.402144         0.19123      0.000664033    -0.000703896        -0.177322       -0.831649      -0.00141857      0.00116381
                     0.000948836      0.00136848         0.456418        0.875181      -0.00153034     0.000729706        0.0681073      -0.0679136
281762                  0.820883       -0.265486      -0.00165805     0.000881378         0.402845        0.191096       0.00118918      0.00121287
                      -0.0016562     0.000894219        0.0973072      -0.0158522      0.000745731     -0.00064485         0.456662        0.874479
                        0.402895        0.191154      0.000662923     -0.00070524        -0.178377       -0.831099      -0.00141824      0.00116545
