! TOUCHSTONE file generated by CST MICROWAVE STUDIO
! Date and time: Wed Oct 15 17:31:59 2025
! Project name: Teste_Macro_Metasurface_Nanopilar.cst
! Parameters = {H=600; L_x=140; L_y=175; Lambda=1064; Max_L=200; Min_L=70; PathPara=1; Phi=0; Step_L=10; Theta=0; p=520; phaseX=180; phaseY=0}
! Header version: 2018
! Port assignment regex: !\s*Touchstone port\s*([0-9]+)\s*=\s*(CST MWS port|CST DS port)\s*([0-9]+|Zmin|Zmax)\s*\(\"(.*)\"\)(\s*mode\s*([0-9]+))?.*
! Touchstone port assignment:
! Touchstone port 1 = CST MWS port Zmax ("") mode 1
! Touchstone port 2 = CST MWS port Zmax ("") mode 2
! Touchstone port 3 = CST MWS port Zmin ("") mode 1
! Touchstone port 4 = CST MWS port Zmin ("") mode 2
! S-Parameters are not renormalized. Each port impedance will be approximated by the real part at minimum frequency. The values are described via the [Reference] keyword.
! Default impedance is overridden by [Reference]
[Version] 2.0
# GHz S RI R 376.73
[Number of Ports] 4
[Reference]
376.73 376.73 259.888 259.888 
[Number of Frequencies] 51
[Network Data]
281700                  0.171632      -0.0124654      -0.00107188     0.000642034         0.640008       -0.743953      0.000377485      -0.0011225
                    -0.000992785     0.000629697         0.536731       -0.263328     -0.000191809      -0.0013242         0.750948       0.0738868
                        0.639603       -0.743865     -0.000303479     -0.00129472        0.0131569        0.167153       0.00131434     0.000687982
                     0.000154484     -0.00097515         0.750922       0.0739766       0.00145317     0.000368889        -0.385193       -0.422621
281702                  0.171633      -0.0124456      -0.00107045     0.000642578         0.639782       -0.744148      0.000375491     -0.00112205
                    -0.000992013     0.000630152          0.53597       -0.263365     -0.000193258     -0.00132348         0.751644       0.0731109
                        0.639379       -0.744057      -0.00030451     -0.00129291        0.0132776        0.167144       0.00131434     0.000685431
                     0.000153475    -0.000974947         0.751618       0.0732009       0.00145314     0.000367444        -0.385573         -0.4214
281704                  0.171634      -0.0124258      -0.00106901     0.000643117         0.639556       -0.744343      0.000373502      -0.0011216
                    -0.000991238     0.000630603          0.53521         -0.2634     -0.000194699     -0.00132275         0.752336       0.0723345
                        0.639155       -0.744249     -0.000305536     -0.00129111        0.0133983        0.167135       0.00131434     0.000682884
                     0.000152466    -0.000974739         0.752311       0.0724247        0.0014531     0.000365997        -0.385949       -0.420182
281706                  0.171635      -0.0124059      -0.00106758     0.000643653          0.63933       -0.744537      0.000371518     -0.00112114
                     -0.00099046     0.000631051         0.534451       -0.263433     -0.000196131     -0.00132202         0.753026       0.0715575
                        0.638931       -0.744441     -0.000306556      -0.0012893         0.013519        0.167125       0.00131433     0.000680341
                     0.000151455    -0.000974527         0.753001        0.071648       0.00145305     0.000364549        -0.386322       -0.418964
281708                  0.171635      -0.0123861      -0.00106615     0.000644186         0.639104       -0.744732      0.000369539     -0.00112068
                    -0.000989678     0.000631496         0.533695       -0.263465     -0.000197556     -0.00132127         0.753713       0.0707801
                        0.638707       -0.744633     -0.000307571      -0.0012875        0.0136397        0.167116       0.00131432     0.000677803
                     0.000150443    -0.000974309         0.753689       0.0708707       0.00145297       0.0003631        -0.386691       -0.417749
281710                  0.171636      -0.0123663      -0.00106472     0.000644714         0.638878       -0.744927      0.000367564     -0.00112021
                    -0.000988892     0.000631937         0.532939       -0.263496     -0.000198973     -0.00132051         0.754397       0.0700023
                        0.638483       -0.744825      -0.00030858      -0.0012857        0.0137603        0.167106       0.00131431     0.000675269
                     0.000149429    -0.000974088         0.754373        0.070093       0.00145288      0.00036165        -0.387056       -0.416535
281712                  0.171637      -0.0123464      -0.00106329     0.000645239         0.638652       -0.745121      0.000365594     -0.00111974
                    -0.000988103     0.000632376         0.532186       -0.263525     -0.000200382     -0.00131975         0.755077       0.0692239
                        0.638259       -0.745017     -0.000309583     -0.00128391         0.013881        0.167096       0.00131429      0.00067274
                     0.000148415    -0.000973861         0.755055       0.0693149       0.00145278     0.000360198        -0.387419       -0.415322
281714                  0.171638      -0.0123266      -0.00106187     0.000645761         0.638426       -0.745315      0.000363628     -0.00111926
                    -0.000987311     0.000632812         0.531433       -0.263552     -0.000201783     -0.00131897         0.755756       0.0684451
                        0.638035       -0.745209     -0.000310581     -0.00128211        0.0140016        0.167086       0.00131426     0.000670217
                     0.000147399     -0.00097363         0.755734       0.0685362       0.00145265     0.000358746        -0.387778       -0.414112
281716                  0.171638      -0.0123068      -0.00106045     0.000646279           0.6382        -0.74551      0.000361667     -0.00111878
                    -0.000986516     0.000633245         0.530683       -0.263578     -0.000203176     -0.00131819         0.756431       0.0676658
                         0.63781         -0.7454     -0.000311573     -0.00128031        0.0141222        0.167076       0.00131424     0.000667698
                     0.000146382    -0.000973394         0.756409       0.0677572       0.00145251     0.000357293        -0.388133       -0.412902
281718                  0.171639       -0.012287      -0.00105903     0.000646793         0.637974       -0.745704      0.000359711     -0.00111829
                    -0.000985717     0.000633675         0.529934       -0.263602     -0.000204562      -0.0013174         0.757103       0.0668861
                        0.637586       -0.745592     -0.000312559     -0.00127852        0.0142428        0.167067        0.0013142     0.000665184
                     0.000145364    -0.000973154         0.757082       0.0669776       0.00145236      0.00035584        -0.388485       -0.411695
281720                   0.17164      -0.0122672      -0.00105761     0.000647303         0.637747       -0.745898      0.000357759      -0.0011178
                    -0.000984916     0.000634102         0.529186       -0.263625     -0.000205939     -0.00131661         0.757772        0.066106
                        0.637362       -0.745783      -0.00031354     -0.00127673        0.0143634        0.167056       0.00131417     0.000662675
                     0.000144345    -0.000972909         0.757752       0.0661977       0.00145219     0.000354386        -0.388834       -0.410489
281722                  0.171641      -0.0122474      -0.00105619      0.00064781         0.637521       -0.746092      0.000355812     -0.00111731
                    -0.000984111     0.000634526          0.52844       -0.263646     -0.000207307      -0.0013158         0.758439       0.0653255
                        0.637137       -0.745975     -0.000314516     -0.00127494        0.0144839        0.167046       0.00131413     0.000660172
                     0.000143325     -0.00097266          0.75842       0.0654173       0.00145201     0.000352932        -0.389179       -0.409284
281724                  0.171641      -0.0122276      -0.00105477     0.000648314         0.637295       -0.746286      0.000353869     -0.00111681
                    -0.000983303     0.000634948         0.527696       -0.263666     -0.000208667       -0.001315         0.759103       0.0645445
                        0.636913       -0.746166     -0.000315486     -0.00127316        0.0146045        0.167036       0.00131408     0.000657674
                     0.000142303    -0.000972406         0.759084       0.0646365       0.00145181     0.000351478        -0.389521       -0.408081
281726                  0.171642      -0.0122079      -0.00105336     0.000648814         0.637068       -0.746479      0.000351931     -0.00111631
                    -0.000982492     0.000635366         0.526953       -0.263684     -0.000210016     -0.00131418         0.759764       0.0637631
                        0.636688       -0.746357      -0.00031645     -0.00127137         0.014725        0.167026       0.00131403     0.000655182
                      0.00014128    -0.000972148         0.759745       0.0638553       0.00145159     0.000350023         -0.38986        -0.40688
281728                  0.171643      -0.0121881      -0.00105195      0.00064931         0.636842       -0.746673      0.000349997     -0.00111581
                    -0.000981677     0.000635782         0.526212       -0.263701      -0.00021135     -0.00131336         0.760422       0.0629814
                        0.636464       -0.746548     -0.000317409     -0.00126959        0.0148455        0.167016       0.00131398     0.000652695
                     0.000140257    -0.000971886         0.760404       0.0630738       0.00145136     0.000348565        -0.390195       -0.405681
281730                  0.171644      -0.0121683      -0.00105054     0.000649803         0.636615       -0.746867      0.000348069      -0.0011153
                     -0.00098086     0.000636195         0.525472       -0.263716     -0.000212659     -0.00131254         0.761077       0.0621993
                        0.636239        -0.74674     -0.000318363      -0.0012678         0.014966        0.167005       0.00131392     0.000650214
                     0.000139232    -0.000971619          0.76106       0.0622918       0.00145111     0.000347103        -0.390527       -0.404483
281732                  0.171645      -0.0121486      -0.00104913     0.000650293         0.636389        -0.74706      0.000346144     -0.00111479
                     -0.00098004     0.000636605         0.524734        -0.26373     -0.000213929     -0.00131167         0.761729       0.0614168
                        0.636014       -0.746931     -0.000319311     -0.00126602        0.0150865        0.166995       0.00131385     0.000647738
                     0.000138206    -0.000971349         0.761713       0.0615095       0.00145085     0.000345632        -0.390856       -0.403286
281734                  0.171645      -0.0121288      -0.00104773     0.000650779         0.636162       -0.747254      0.000344224     -0.00111427
                    -0.000979217     0.000637012         0.523998       -0.263743     -0.000215251     -0.00131072         0.762379       0.0606339
                         0.63579       -0.747121     -0.000320254     -0.00126424        0.0152069        0.166984       0.00131379     0.000645269
                     0.000137179    -0.000971073         0.762363       0.0607268       0.00145058     0.000344152        -0.391182       -0.402092
281736                  0.171646      -0.0121091      -0.00104632     0.000651262         0.635936       -0.747447      0.000342309     -0.00111376
                    -0.000978391     0.000637416         0.523263       -0.263754     -0.000216637     -0.00130983         0.763026       0.0598507
                        0.635565       -0.747312     -0.000321192     -0.00126247        0.0153274        0.166973       0.00131371     0.000642805
                      0.00013615    -0.000970794         0.763011       0.0599437       0.00145031     0.000342671        -0.391504       -0.400899
281738                  0.171647      -0.0120893      -0.00104492     0.000651741         0.635709       -0.747641      0.000340398     -0.00111324
                    -0.000977563     0.000637818         0.522529       -0.263763     -0.000217984     -0.00130898          0.76367       0.0590671
                         0.63534       -0.747503     -0.000322124     -0.00126069        0.0154478        0.166963       0.00131364     0.000640347
                     0.000135121     -0.00097051         0.763655       0.0591603       0.00145004     0.000341198        -0.391823       -0.399707
281740                  0.171648      -0.0120696      -0.00104352     0.000652217         0.635482       -0.747831      0.000338492     -0.00111272
                    -0.000976731     0.000638217         0.521797       -0.263772     -0.000219303     -0.00130812         0.764311       0.0582832
                        0.635115       -0.747694     -0.000323051     -0.00125892        0.0155682        0.166952       0.00131355     0.000637895
                     0.000134091    -0.000970222         0.764297       0.0583765       0.00144976     0.000339736        -0.392139       -0.398517
281742                  0.171649      -0.0120499      -0.00104213     0.000652689         0.635256       -0.748026       0.00033659     -0.00111219
                    -0.000975896     0.000638613         0.521067       -0.263778     -0.000220607     -0.00130725          0.76495        0.057499
                         0.63489       -0.747884     -0.000323973     -0.00125715        0.0156886        0.166941       0.00131347     0.000635448
                     0.000133059    -0.000969931         0.764936       0.0575925       0.00144947     0.000338279        -0.392451       -0.397329
281744                  0.171649      -0.0120301      -0.00104073     0.000653158         0.635029       -0.748219      0.000334692     -0.00111167
                    -0.000975059     0.000639006         0.520338       -0.263784     -0.000221901     -0.00130637         0.765585       0.0567144
                        0.634665       -0.748075     -0.000324889     -0.00125538         0.015809         0.16693       0.00131337     0.000633008
                     0.000132027    -0.000969634         0.765573       0.0568081       0.00144916     0.000336826        -0.392761       -0.396143
281746                   0.17165      -0.0120104      -0.00103934     0.000653624         0.634802       -0.748412      0.000332799     -0.00111114
                    -0.000974219     0.000639397         0.519611       -0.263788     -0.000223186     -0.00130549         0.766218       0.0559296
                         0.63444       -0.748266     -0.000325801     -0.00125361        0.0159293        0.166919       0.00131328     0.000630574
                     0.000130993    -0.000969334         0.766206       0.0560234       0.00144884     0.000335374        -0.393067       -0.394958
281748                  0.171651      -0.0119907      -0.00103795     0.000654086         0.634575       -0.748605       0.00033091     -0.00111061
                    -0.000973377     0.000639785         0.518885       -0.263791     -0.000224463      -0.0013046         0.766849       0.0551444
                        0.634215       -0.748456     -0.000326707     -0.00125184        0.0160497        0.166908       0.00131318     0.000628145
                     0.000129959     -0.00096903         0.766837       0.0552384        0.0014485     0.000333923         -0.39337       -0.393775
281750                  0.171652       -0.011971      -0.00103656     0.000654545         0.634348       -0.748798      0.000329026     -0.00111007
                    -0.000972531      0.00064017         0.518161       -0.263792     -0.000225732      -0.0013037         0.767476        0.054359
                         0.63399       -0.748646     -0.000327608     -0.00125008          0.01617        0.166896       0.00131307     0.000625723
                     0.000128923    -0.000968721         0.767465        0.054453       0.00144815     0.000332472         -0.39367       -0.392594
281752                  0.171653      -0.0119513      -0.00103517     0.000655001         0.634121       -0.748991      0.000327146     -0.00110954
                    -0.000971683     0.000640553         0.517439       -0.263792     -0.000226995     -0.00130279         0.768101       0.0535732
                        0.633765       -0.748837     -0.000328504     -0.00124831        0.0162903        0.166885       0.00131296     0.000623307
                     0.000127886    -0.000968409         0.768091       0.0536675       0.00144779     0.000331022        -0.393967       -0.391414
281754                  0.171654      -0.0119316      -0.00103378     0.000655453         0.633894       -0.749183       0.00032527       -0.001109
                    -0.000970832     0.000640933         0.516718        -0.26379      -0.00022825     -0.00130188         0.768723       0.0527872
                         0.63354       -0.749027     -0.000329395     -0.00124655        0.0164106        0.166874       0.00131284     0.000620897
                     0.000126848    -0.000968091         0.768713       0.0528816       0.00144742     0.000329573         -0.39426       -0.390236
281756                  0.171654      -0.0119119       -0.0010324     0.000655902         0.633667       -0.749376      0.000323399     -0.00110846
                    -0.000969978      0.00064131         0.515998       -0.263788     -0.000229498     -0.00130096         0.769342        0.052001
                        0.633314       -0.749217     -0.000330282     -0.00124479        0.0165309        0.166862       0.00131272     0.000618493
                     0.000125809     -0.00096777         0.769333       0.0520955       0.00144704     0.000328124        -0.394551       -0.389059
281758                  0.171655      -0.0118923      -0.00103102     0.000656347          0.63344       -0.749568      0.000321532     -0.00110792
                    -0.000969121     0.000641684          0.51528       -0.263784     -0.000230739     -0.00130004         0.769958       0.0512144
                        0.633089       -0.749407     -0.000331166     -0.00124302        0.0166512        0.166851        0.0013126     0.000616094
                     0.000124768    -0.000967444          0.76995       0.0513091       0.00144665     0.000326675        -0.394838       -0.387885
281760                  0.171656      -0.0118726      -0.00102966     0.000656784         0.633213       -0.749761      0.000319669     -0.00110737
                     -0.00096826     0.000642056         0.514564       -0.263778     -0.000231973     -0.00129911         0.770572       0.0504276
                        0.632864       -0.749597     -0.000332064      -0.0012412        0.0167714        0.166839       0.00131247     0.000613702
                     0.000123725    -0.000967112         0.770564       0.0505226       0.00144625     0.000325228        -0.395123       -0.386712
281762                  0.171657      -0.0118529      -0.00102825     0.000657238         0.632985       -0.749953       0.00031781     -0.00110683
                    -0.000967395     0.000642424         0.513849       -0.263771       -0.0002332     -0.00129817         0.771183       0.0496406
                        0.632638       -0.749787     -0.000332876      -0.0012396        0.0168917        0.166827       0.00131234     0.000611316
