! TOUCHSTONE file generated by CST MICROWAVE STUDIO
! Date and time: Wed Oct 15 17:34:46 2025
! Project name: Teste_Macro_Metasurface_Nanopilar.cst
! Parameters = {H=600; L_x=190; L_y=135; Lambda=1064; Max_L=200; Min_L=70; PathPara=1; Phi=0; Step_L=10; Theta=0; p=520; phaseX=180; phaseY=0}
! Header version: 2018
! Port assignment regex: !\s*Touchstone port\s*([0-9]+)\s*=\s*(CST MWS port|CST DS port)\s*([0-9]+|Zmin|Zmax)\s*\(\"(.*)\"\)(\s*mode\s*([0-9]+))?.*
! Touchstone port assignment:
! Touchstone port 1 = CST MWS port Zmax ("") mode 1
! Touchstone port 2 = CST MWS port Zmax ("") mode 2
! Touchstone port 3 = CST MWS port Zmin ("") mode 1
! Touchstone port 4 = CST MWS port Zmin ("") mode 2
! S-Parameters are not renormalized. Each port impedance will be approximated by the real part at minimum frequency. The values are described via the [Reference] keyword.
! Default impedance is overridden by [Reference]
[Version] 2.0
# GHz S RI R 376.73
[Number of Ports] 4
[Reference]
376.73 376.73 259.888 259.888 
[Number of Frequencies] 51
[Network Data]
281700                  0.804446       -0.111665      0.000178976    -0.000515888          0.41336         0.18184     -0.000350423     0.000234603
                     3.39845e-06    -0.000671344         0.179335       0.0309509      0.000279464     0.000934485          0.47471       -0.856651
                        0.413917        0.181924     -7.86926e-05      0.00095034        -0.127795       -0.765817      0.000332056     -0.00110597
                    -0.000306507     0.000284622         0.474032        -0.85635      8.61756e-05     -0.00103727         0.120129        0.131713
281702                  0.803456       -0.112851      0.000177221    -0.000518545         0.415149        0.181992      -0.00034914     0.000235385
                     2.22968e-06    -0.000671679         0.179346        0.030969      0.000281574     0.000934248         0.474455       -0.856789
                        0.415714        0.182071     -7.43084e-05     0.000951939        -0.129932        -0.76466      0.000329578     -0.00110578
                    -0.000305519     0.000286221         0.473777       -0.856489      8.31021e-05      -0.0010378         0.120228        0.131642
281704                  0.802462       -0.114031       0.00017544    -0.000521174         0.416938        0.182135     -0.000347869     0.000236203
                     1.05818e-06    -0.000672013         0.179357       0.0309872      0.000283634     0.000934108         0.474201       -0.856927
                         0.41751         0.18221     -6.99191e-05     0.000953488        -0.132061       -0.763494      0.000327089     -0.00110564
                    -0.000304522     0.000287814         0.473522       -0.856628      7.99882e-05     -0.00103832         0.120328        0.131571
281706                  0.801465       -0.115204      0.000173636    -0.000523776         0.418725        0.182269     -0.000346612     0.000237055
                    -1.15832e-07    -0.000672346         0.179368       0.0310053      0.000285619     0.000934061         0.473946       -0.857065
                        0.419303         0.18234     -6.55262e-05     0.000954987        -0.134181       -0.762321       0.00032459     -0.00110555
                    -0.000303518     0.000289402         0.473267       -0.856768       7.6826e-05     -0.00103883         0.120427          0.1315
281708                  0.800465       -0.116371       0.00017181     -0.00052635         0.420512        0.182394     -0.000345367      0.00023794
                    -1.29207e-06     -0.00067268         0.179379       0.0310235      0.000287502     0.000934099         0.473692       -0.857204
                        0.421095        0.182461     -6.11311e-05     0.000956437        -0.136293        -0.76114      0.000322081      -0.0011055
                    -0.000302506     0.000290984         0.473012       -0.856907      7.36052e-05     -0.00103935         0.120527        0.131428
281710                  0.799462       -0.117532      0.000169962    -0.000528896         0.422298         0.18251     -0.000344136     0.000238857
                    -2.47024e-06    -0.000673014          0.17939       0.0310416      0.000289258     0.000934202         0.473437       -0.857342
                        0.422884        0.182573     -5.67351e-05     0.000957838        -0.138396       -0.759952      0.000319563      -0.0011055
                    -0.000301487      0.00029256         0.472757       -0.857046       7.0312e-05     -0.00103986         0.120626        0.131357
281712                  0.798457       -0.118686      0.000168094    -0.000531414         0.424083        0.182618     -0.000342917     0.000239805
                       -3.65e-06    -0.000673348         0.179401       0.0310598      0.000290866     0.000934342         0.473182        -0.85748
                        0.424671        0.182678     -5.23397e-05     0.000959191         -0.14049       -0.758757      0.000317036     -0.00110554
                     -0.00030046      0.00029413         0.472501       -0.857185      6.69273e-05     -0.00104038         0.120726        0.131285
281714                  0.797449       -0.119835      0.000166206    -0.000533904         0.425866        0.182717      -0.00034171     0.000240784
                    -4.83099e-06    -0.000673683         0.179412       0.0310779      0.000292317     0.000934486         0.472928       -0.857617
                        0.426456        0.182773     -4.79462e-05     0.000960497        -0.142576       -0.757554        0.0003145     -0.00110561
                    -0.000299427     0.000295695         0.472246       -0.857324      6.34243e-05     -0.00104093         0.120825        0.131213
281716                  0.796437       -0.120977      0.000164301    -0.000536366         0.427648        0.182807     -0.000340517     0.000241792
                    -6.01282e-06    -0.000674018         0.179423       0.0310961       0.00029361     0.000934598         0.472673       -0.857755
                        0.428239         0.18286     -4.35559e-05     0.000961756        -0.144654       -0.756343      0.000311956     -0.00110573
                    -0.000298386     0.000297253         0.471991       -0.857463      5.97643e-05     -0.00104151         0.120924        0.131142
281718                  0.795424       -0.122112      0.000162379    -0.000538801         0.429429        0.182889     -0.000339335     0.000242829
                    -7.19508e-06    -0.000674353         0.179434       0.0311142      0.000294756     0.000934643         0.472418       -0.857893
                        0.430019        0.182939     -3.91701e-05     0.000962969        -0.146722       -0.755126      0.000309404     -0.00110589
                    -0.000297339     0.000298806         0.471736       -0.857601      5.58888e-05     -0.00104215         0.121023         0.13107
281720                  0.794407       -0.123242      0.000160441    -0.000541207         0.431208        0.182962     -0.000338166     0.000243894
                    -8.37733e-06    -0.000674689         0.179445       0.0311323      0.000295776     0.000934591         0.472163       -0.858031
                        0.431797        0.183009       -3.479e-05     0.000964137        -0.148782       -0.753901      0.000306844     -0.00110608
                    -0.000296285     0.000300352         0.471481        -0.85774      5.17065e-05      -0.0010429         0.121123        0.130998
281722                  0.793388       -0.124365      0.000158488    -0.000543586         0.432986        0.183027     -0.000337009     0.000244987
                    -9.55916e-06    -0.000675025         0.179455       0.0311504      0.000296698     0.000934423         0.471909       -0.858168
                        0.433573        0.183071     -3.04168e-05     0.000965261        -0.150834        -0.75267      0.000304276     -0.00110631
                    -0.000295225     0.000301892         0.471226       -0.857878      4.70666e-05     -0.00104387         0.121222        0.130926
281724                  0.792367       -0.125482      0.000156522    -0.000545937         0.434762        0.183084     -0.000335863     0.000246105
                    -1.07401e-05    -0.000675361         0.179466       0.0311685      0.000297552     0.000934128         0.471654       -0.858306
                        0.435346        0.183125     -2.60516e-05     0.000966342        -0.152876       -0.751432      0.000301701     -0.00110658
                    -0.000294159     0.000303425          0.47097       -0.858017      4.17059e-05     -0.00104525         0.121321        0.130854
281726                  0.791343       -0.126593      0.000154543    -0.000548261         0.436536        0.183133     -0.000334729     0.000247249
                    -1.19198e-05    -0.000675697         0.179477       0.0311867      0.000298367     0.000933706         0.471399       -0.858443
                        0.437117        0.183171     -2.16955e-05      0.00096738         -0.15491       -0.750187      0.000299119     -0.00110688
                    -0.000293086     0.000304952         0.470715       -0.858155      3.51366e-05     -0.00104756          0.12142        0.130782
281728                  0.790316       -0.127698      0.000152552    -0.000550557         0.438309        0.183174     -0.000333606     0.000248418
                    -1.30978e-05    -0.000676032         0.179488       0.0312048      0.000299169     0.000933163         0.471144        -0.85858
                        0.438886        0.183208     -1.73496e-05     0.000968378        -0.156935       -0.748936      0.000296531     -0.00110721
                    -0.000292007     0.000306473          0.47046       -0.858294      2.64494e-05      -0.0010523         0.121519         0.13071
281730                  0.789288       -0.128796      0.000150551    -0.000552827         0.440079        0.183206     -0.000332494     0.000249612
                    -1.42738e-05    -0.000676366         0.179499       0.0312229      0.000299978     0.000932511         0.470889       -0.858718
                        0.440651        0.183237     -1.30148e-05     0.000969336        -0.158952       -0.747678      0.000293935     -0.00110758
                    -0.000290923     0.000307987         0.470204       -0.858432      1.48393e-05     -0.00106506         0.121618        0.130638
281732                  0.788256       -0.129889      0.000148539    -0.000555071         0.441847        0.183231     -0.000331393     0.000250829
                    -1.54474e-05    -0.000676699          0.17951       0.0312409      0.000300807     0.000931764         0.470634       -0.858855
                        0.442414        0.183259     -8.69192e-06     0.000970255         -0.16096       -0.746414      0.000291332     -0.00110797
                    -0.000289833     0.000309494         0.469949        -0.85857      1.76978e-05     -0.00110366         0.121717        0.130566
281734                  0.787223       -0.130975      0.000146519    -0.000557288         0.443613        0.183248     -0.000330302     0.000252069
                    -1.66185e-05     -0.00067703         0.179521        0.031259      0.000301667     0.000930936         0.470378       -0.858992
                        0.444175        0.183272     -4.38194e-06     0.000971136        -0.162959       -0.745143      0.000288724      -0.0011084
                    -0.000288738     0.000310994         0.469694       -0.858708       7.6127e-05     -0.00109676         0.121816        0.130493
281736                  0.786187       -0.132055      0.000144491     -0.00055948         0.445377        0.183258     -0.000329222     0.000253331
                    -1.77869e-05    -0.000677359         0.179532       0.0312771      0.000302561     0.000930044         0.470123       -0.859129
                        0.445933        0.183277     -8.55917e-08     0.000971981        -0.164949       -0.743866      0.000286108     -0.00110886
                    -0.000287638     0.000312488         0.469438       -0.858846      7.23395e-05     -0.00106188         0.121915        0.130421
281738                  0.785149       -0.133129      0.000142456    -0.000561647         0.447138         0.18326     -0.000328151     0.000254615
                    -1.89523e-05    -0.000677685         0.179543       0.0312952      0.000303491     0.000929099         0.469868       -0.859266
                        0.447688        0.183275      4.19641e-06      0.00097279         -0.16693       -0.742584      0.000283487     -0.00110935
                    -0.000286532     0.000313975         0.469183       -0.858984      6.03698e-05     -0.00105151         0.122013        0.130349
281740                  0.784109       -0.134197      0.000140415    -0.000563789         0.448896        0.183254      -0.00032709      0.00025592
                     -2.0115e-05    -0.000678007         0.179554       0.0313133      0.000304454     0.000928113         0.469613       -0.859403
                         0.44944        0.183265      8.46343e-06     0.000973566        -0.168903       -0.741295      0.000280859     -0.00110986
                    -0.000285422     0.000315454         0.468927       -0.859121      5.17434e-05     -0.00104794         0.122112        0.130276
281742                  0.783067       -0.135259      0.000138368    -0.000565907         0.450651        0.183242     -0.000326037     0.000257246
                    -2.12748e-05    -0.000678325         0.179565       0.0313313      0.000305449     0.000927095         0.469358        -0.85954
                         0.45119        0.183247      1.27149e-05      0.00097431        -0.170868       -0.740001      0.000278225      -0.0011104
                    -0.000284307     0.000316927         0.468672       -0.859259      4.52239e-05     -0.00104643         0.122211        0.130203
281744                  0.782023       -0.136315      0.000136316    -0.000568001         0.452404        0.183222     -0.000324994     0.000258591
                    -2.24319e-05    -0.000678639         0.179576       0.0313494      0.000306469     0.000926054         0.469102       -0.859677
                        0.452937        0.183221      1.69503e-05     0.000975022        -0.172823       -0.738702      0.000275585     -0.00111097
                    -0.000283187     0.000318392         0.468416       -0.859397      3.98853e-05      -0.0010457          0.12231        0.130131
281746                  0.780976       -0.137364       0.00013426    -0.000570072         0.454153        0.183196     -0.000323959     0.000259956
                    -2.35867e-05    -0.000678948         0.179587       0.0313675      0.000307509     0.000924996         0.468847       -0.859814
                        0.454681        0.183187      2.11693e-05     0.000975705        -0.174771       -0.737397       0.00027294     -0.00111156
                    -0.000282064      0.00031985         0.468161       -0.859534      3.52478e-05     -0.00104532         0.122408        0.130058
281748                  0.779928       -0.138408      0.000132201    -0.000572121         0.455899        0.183162     -0.000322932     0.000261339
                    -2.47393e-05    -0.000679251         0.179598       0.0313855      0.000308562     0.000923927         0.468592        -0.85995
                        0.456422        0.183146      2.53715e-05      0.00097636         -0.17671       -0.736087      0.000270289     -0.00111218
                    -0.000280936     0.000321301         0.467905       -0.859672      3.10541e-05     -0.00104511         0.122507        0.129985
281750                  0.778878       -0.139446       0.00013014    -0.000574148          0.45764        0.183122     -0.000321912     0.000262739
                    -2.58902e-05    -0.000679547         0.179609       0.0314036      0.000309621      0.00092285         0.468336       -0.860087
                         0.45816        0.183098      2.95567e-05     0.000976987         -0.17864       -0.734772      0.000267633     -0.00111282
                    -0.000279805     0.000322744          0.46765       -0.859809      2.71571e-05     -0.00104499         0.122605        0.129913
281752                  0.777826       -0.140477      0.000128076    -0.000576154         0.459377        0.183076     -0.000320899     0.000264156
                    -2.70399e-05    -0.000679837          0.17962       0.0314216      0.000310675      0.00092177         0.468081       -0.860223
                        0.459895        0.183042      3.37247e-05     0.000977589        -0.180563       -0.733453      0.000264972     -0.00111348
                     -0.00027867     0.000324179         0.467394       -0.859946      2.34672e-05      -0.0010449         0.122704         0.12984
281754                  0.776772       -0.141503      0.000126011    -0.000578139          0.46111        0.183022     -0.000319893     0.000265589
                    -2.81888e-05     -0.00068012         0.179631       0.0314396      0.000311715      0.00092069         0.467825        -0.86036
                        0.461627        0.182978      3.78755e-05     0.000978167        -0.182477       -0.732131      0.000262307     -0.00111417
                    -0.000277531     0.000325607         0.467138       -0.860084      1.99274e-05     -0.00104484         0.122802        0.129767
281756                  0.775716       -0.142523      0.000123945    -0.000580105         0.462837        0.182961     -0.000318893     0.000267035
                    -2.93375e-05    -0.000680395         0.179642       0.0314577      0.000312726     0.000919614          0.46757       -0.860496
                        0.463356        0.182907       4.2009e-05     0.000978723        -0.184383       -0.730807      0.000259638     -0.00111487
                    -0.000276389     0.000327028         0.466882       -0.860221      1.64993e-05     -0.00104479         0.122901        0.129694
281758                  0.774659       -0.143536      0.000121879    -0.000582052         0.464558        0.182894     -0.000317898     0.000268491
                    -3.04866e-05    -0.000680662         0.179653       0.0314757       0.00031369     0.000918549         0.467314       -0.860632
                        0.465082        0.182829      4.61255e-05     0.000979258        -0.186282       -0.729481      0.000256969     -0.00111559
                    -0.000275245      0.00032844         0.466627       -0.860358      1.31566e-05     -0.00104472         0.122999        0.129621
281760                    0.7736       -0.144544      0.000119813     -0.00058398         0.466273        0.182817     -0.000316907     0.000269952
                    -3.16368e-05     -0.00068092         0.179665       0.0314937      0.000314583     0.000917503         0.467059       -0.860768
                        0.466805        0.182743      5.02252e-05     0.000979773        -0.188171       -0.728159      0.000254303     -0.00111632
                    -0.000274098     0.000329845         0.466371       -0.860495      9.88022e-06     -0.00104464         0.123097        0.129548
281762                  0.772539       -0.145546      0.000117747    -0.000585892         0.467981        0.182732     -0.000315921     0.000271405
                    -3.27885e-05    -0.000681168         0.179676       0.0315117      0.000315366      0.00091649         0.466803       -0.860904
                        0.468525         0.18265      5.43083e-05     0.000980269        -0.190046       -0.726844      0.000251647     -0.00111707
