! TOUCHSTONE file generated by CST MICROWAVE STUDIO
! Date and time: Wed Oct 15 17:30:28 2025
! Project name: Teste_Macro_Metasurface_Nanopilar.cst
! Parameters = {H=600; L_x=115; L_y=135; Lambda=1064; Max_L=200; Min_L=70; PathPara=1; Phi=0; Step_L=10; Theta=0; p=520; phaseX=180; phaseY=0}
! Header version: 2018
! Port assignment regex: !\s*Touchstone port\s*([0-9]+)\s*=\s*(CST MWS port|CST DS port)\s*([0-9]+|Zmin|Zmax)\s*\(\"(.*)\"\)(\s*mode\s*([0-9]+))?.*
! Touchstone port assignment:
! Touchstone port 1 = CST MWS port Zmax ("") mode 1
! Touchstone port 2 = CST MWS port Zmax ("") mode 2
! Touchstone port 3 = CST MWS port Zmin ("") mode 1
! Touchstone port 4 = CST MWS port Zmin ("") mode 2
! S-Parameters are not renormalized. Each port impedance will be approximated by the real part at minimum frequency. The values are described via the [Reference] keyword.
! Default impedance is overridden by [Reference]
[Version] 2.0
# GHz S RI R 376.73
[Number of Ports] 4
[Reference]
376.73 376.73 259.888 259.888 
[Number of Frequencies] 51
[Network Data]
281700                 0.0272236       0.0939115      0.000584917     -0.00040419         0.910676        0.383885      0.000294887    -1.66862e-05
                     0.000605054    -0.000402854          0.10077       -0.048248      6.80922e-05    -0.000238871       -0.0134544        0.984373
                        0.911068        0.383678     -6.95695e-05    -0.000283921       -0.0854083        0.047849      0.000604112    -0.000358682
                     0.000314821    -4.10256e-05       -0.0139071        0.983793      0.000660118    -0.000328416        0.0970118       0.0523193
281702                 0.0272402       0.0939318      0.000584449    -0.000404582          0.91081        0.383563      0.000294904    -1.67381e-05
                     0.000604673    -0.000403216         0.100743      -0.0482465      6.81036e-05    -0.000238943       -0.0130544        0.984381
                        0.911202        0.383357     -6.96901e-05    -0.000283988       -0.0854009       0.0479113      0.000603895     -0.00035867
                     0.000314771    -4.10367e-05       -0.0135069        0.983802      0.000659872    -0.000328457         0.097027        0.052238
281704                 0.0272568       0.0939522       0.00058398    -0.000404973         0.910944        0.383242      0.000294922      -1.679e-05
                     0.000604292    -0.000403578         0.100717      -0.0482449       6.8115e-05    -0.000239016       -0.0126543        0.984389
                        0.911335        0.383035     -6.98103e-05    -0.000284054       -0.0853935       0.0479736      0.000603679    -0.000358657
                      0.00031472    -4.10477e-05       -0.0131067         0.98381      0.000659627    -0.000328499        0.0970422       0.0521567
281706                 0.0272733       0.0939725      0.000583511    -0.000405362         0.911077         0.38292       0.00029494    -1.68419e-05
                      0.00060391    -0.000403939          0.10069      -0.0482433      6.81265e-05    -0.000239089       -0.0122543        0.984396
                        0.911469        0.382714     -6.99301e-05     -0.00028412        -0.085386        0.048036      0.000603462    -0.000358645
                      0.00031467    -4.10588e-05       -0.0127066        0.983819      0.000659382    -0.000328541        0.0970574       0.0520754
281708                 0.0272899       0.0939929      0.000583042    -0.000405751          0.91121        0.382599      0.000294958    -1.68938e-05
                     0.000603528    -0.000404299         0.100663      -0.0482417      6.81381e-05    -0.000239161       -0.0118543        0.984404
                        0.911602        0.382392     -7.00497e-05    -0.000284185       -0.0853785       0.0480983      0.000603245    -0.000358632
                      0.00031462    -4.10698e-05       -0.0123064        0.983827      0.000659137    -0.000328585        0.0970724       0.0519941
281710                 0.0273065       0.0940132      0.000582573    -0.000406139         0.911344        0.382278      0.000294976    -1.69457e-05
                     0.000603146    -0.000404659         0.100636      -0.0482401      6.81497e-05    -0.000239234       -0.0114542        0.984411
                        0.911735        0.382071     -7.01689e-05    -0.000284251       -0.0853709       0.0481607      0.000603028    -0.000358619
                     0.000314569    -4.10808e-05       -0.0119062        0.983836      0.000658894    -0.000328629        0.0970874       0.0519128
281712                 0.0273232       0.0940335      0.000582104    -0.000406525         0.911477        0.381956      0.000294994    -1.69976e-05
                     0.000602763    -0.000405018         0.100609      -0.0482385      6.81614e-05    -0.000239307       -0.0110542        0.984418
                        0.911868        0.381749     -7.02877e-05    -0.000284316       -0.0853633       0.0482231      0.000602811    -0.000358606
                     0.000314519    -4.10917e-05       -0.0115061        0.983844      0.000658652    -0.000328674        0.0971023       0.0518315
281714                 0.0273398       0.0940539      0.000581634    -0.000406911          0.91161        0.381634      0.000295012    -1.70495e-05
                      0.00060238    -0.000405376         0.100582      -0.0482369      6.81731e-05     -0.00023938       -0.0106542        0.984425
                        0.912001        0.381428     -7.04063e-05    -0.000284382       -0.0853557       0.0482854      0.000602594    -0.000358593
                     0.000314469    -4.11027e-05       -0.0111059        0.983852      0.000658411    -0.000328719        0.0971172       0.0517502
281716                 0.0273564       0.0940742      0.000581165    -0.000407295         0.911743        0.381313       0.00029503    -1.71014e-05
                     0.000601997    -0.000405734         0.100555      -0.0482352       6.8185e-05    -0.000239453       -0.0102541        0.984432
                        0.912134        0.381106     -7.05244e-05    -0.000284447        -0.085348       0.0483478      0.000602377     -0.00035858
                      0.00031442    -4.11136e-05       -0.0107057        0.983859      0.000658172    -0.000328765         0.097132       0.0516689
281718                  0.027373       0.0940945      0.000580695    -0.000407679         0.911875        0.380991      0.000295048    -1.71533e-05
                     0.000601613    -0.000406091         0.100529      -0.0482336       6.8197e-05    -0.000239525      -0.00985408        0.984439
                        0.912266        0.380784     -7.06423e-05    -0.000284511       -0.0853402       0.0484102       0.00060216    -0.000358566
                      0.00031437    -4.11245e-05       -0.0103055        0.983867      0.000657936     -0.00032881        0.0971467       0.0515877
281720                 0.0273896       0.0941148      0.000580225    -0.000408061         0.912008         0.38067      0.000295066    -1.72051e-05
                     0.000601229    -0.000406447         0.100502      -0.0482319      6.82091e-05    -0.000239598      -0.00945403        0.984445
                        0.912399        0.380463     -7.07598e-05    -0.000284576       -0.0853324       0.0484726      0.000601943    -0.000358553
                      0.00031432    -4.11353e-05      -0.00990534        0.983875      0.000657701    -0.000328854        0.0971614       0.0515064
281722                 0.0274062       0.0941351      0.000579754    -0.000408443          0.91214        0.380348      0.000295085     -1.7257e-05
                     0.000600844    -0.000406803         0.100475      -0.0482302      6.82213e-05    -0.000239671      -0.00905399        0.984451
                        0.912531        0.380141     -7.08769e-05    -0.000284641       -0.0853246        0.048535      0.000601725    -0.000358539
                     0.000314271    -4.11462e-05      -0.00950516        0.983882      0.000657469    -0.000328897         0.097176       0.0514251
281724                 0.0274228       0.0941554      0.000579284    -0.000408823         0.912273        0.380026      0.000295103    -1.73089e-05
                     0.000600459    -0.000407158         0.100448      -0.0482286      6.82337e-05    -0.000239744      -0.00865394        0.984458
                        0.912663        0.379819     -7.09938e-05    -0.000284705       -0.0853167       0.0485974      0.000601508    -0.000358525
                     0.000314221     -4.1157e-05      -0.00910497        0.983889      0.000657238    -0.000328938        0.0971905       0.0513438
281726                 0.0274395       0.0941757      0.000578813    -0.000409203         0.912405        0.379704      0.000295121    -1.73607e-05
                     0.000600074    -0.000407513         0.100421      -0.0482269      6.82463e-05    -0.000239817      -0.00825388        0.984464
                        0.912796        0.379497     -7.11102e-05    -0.000284769       -0.0853088       0.0486598       0.00060129    -0.000358511
                     0.000314172    -4.11677e-05      -0.00870478        0.983896      0.000657009    -0.000328977        0.0972049       0.0512625
281728                 0.0274561        0.094196      0.000578343    -0.000409581         0.912537        0.379383      0.000295139    -1.74126e-05
                     0.000599688    -0.000407867         0.100394      -0.0482252      6.82592e-05     -0.00023989      -0.00785383        0.984469
                        0.912928        0.379175     -7.12263e-05    -0.000284833       -0.0853008       0.0487222      0.000601073    -0.000358497
                     0.000314123    -4.11785e-05      -0.00830459        0.983903      0.000656779    -0.000329012        0.0972193       0.0511812
281730                 0.0274727       0.0942163      0.000577872    -0.000409959          0.91267        0.379061      0.000295158    -1.74645e-05
                     0.000599301     -0.00040822         0.100367      -0.0482234      6.82723e-05    -0.000239964      -0.00745377        0.984475
                         0.91306        0.378853     -7.13421e-05    -0.000284897       -0.0852928       0.0487846      0.000600855    -0.000358482
                     0.000314074    -4.11892e-05       -0.0079044        0.983909      0.000656549    -0.000329046        0.0972337       0.0510999
281732                 0.0274894       0.0942366        0.0005774    -0.000410335         0.912801        0.378739      0.000295176    -1.75163e-05
                     0.000598915    -0.000408572         0.100341      -0.0482217      6.82857e-05    -0.000240037      -0.00705371        0.984481
                        0.913191        0.378531     -7.14575e-05     -0.00028496       -0.0852847       0.0488471      0.000600637    -0.000358468
                     0.000314025    -4.11998e-05       -0.0075042        0.983916      0.000656318    -0.000329078        0.0972479       0.0510186
281734                  0.027506       0.0942569      0.000576929     -0.00041071         0.912933        0.378417      0.000295194    -1.75682e-05
                     0.000598528    -0.000408924         0.100314        -0.04822      6.82995e-05     -0.00024011      -0.00665365        0.984486
                        0.913323        0.378209     -7.15725e-05    -0.000285024       -0.0852766       0.0489095      0.000600419    -0.000358453
                     0.000313976    -4.12104e-05      -0.00710401        0.983922      0.000656086    -0.000329108        0.0972621       0.0509373
281736                 0.0275227       0.0942771      0.000576457    -0.000411085         0.913065        0.378095      0.000295213      -1.762e-05
                      0.00059814    -0.000409275         0.100287      -0.0482182      6.83137e-05    -0.000240182      -0.00625359        0.984491
                        0.913455        0.377887     -7.16872e-05    -0.000285087       -0.0852684        0.048972      0.000600201    -0.000358438
                     0.000313927     -4.1221e-05      -0.00670381        0.983928      0.000655853    -0.000329137        0.0972762        0.050856
281738                 0.0275393       0.0942974      0.000575986    -0.000411458         0.913197        0.377773      0.000295231    -1.76719e-05
                     0.000597752    -0.000409626          0.10026      -0.0482165      6.83284e-05    -0.000240255      -0.00585353        0.984496
                        0.913586        0.377565     -7.18015e-05     -0.00028515       -0.0852602       0.0490344      0.000599983    -0.000358423
                     0.000313879    -4.12316e-05      -0.00630361        0.983934      0.000655618    -0.000329166        0.0972903       0.0507747
281740                 0.0275559       0.0943177      0.000575514     -0.00041183         0.913328        0.377451       0.00029525    -1.77237e-05
                     0.000597364    -0.000409976         0.100233      -0.0482147      6.83435e-05    -0.000240328      -0.00545346        0.984501
                        0.913717        0.377243     -7.19155e-05    -0.000285213        -0.085252       0.0490969      0.000599765    -0.000358408
                      0.00031383     -4.1242e-05      -0.00590341         0.98394      0.000655383    -0.000329195        0.0973042       0.0506934
281742                 0.0275726       0.0943379      0.000575042    -0.000412202          0.91346        0.377129      0.000295268    -1.77755e-05
                     0.000596975    -0.000410325         0.100206      -0.0482129      6.83592e-05      -0.0002404      -0.00505339        0.984506
                        0.913849        0.376921     -7.20291e-05    -0.000285276       -0.0852437       0.0491593      0.000599546    -0.000358393
                     0.000313782    -4.12525e-05      -0.00550321        0.983946      0.000655146    -0.000329223        0.0973182       0.0506121
281744                 0.0275893       0.0943582      0.000574569    -0.000412572         0.913591        0.376807      0.000295287    -1.78274e-05
                     0.000596586    -0.000410674         0.100179      -0.0482111      6.83753e-05    -0.000240473      -0.00465333         0.98451
                         0.91398        0.376599     -7.21423e-05    -0.000285338       -0.0852353       0.0492218      0.000599328    -0.000358377
                     0.000313734    -4.12628e-05        -0.005103        0.983951      0.000654909    -0.000329251         0.097332       0.0505308
281746                 0.0276059       0.0943785      0.000574097    -0.000412941         0.913722        0.376484      0.000295306    -1.78792e-05
                     0.000596197    -0.000411022         0.100153      -0.0482093      6.83918e-05    -0.000240545      -0.00425326        0.984515
                        0.914111        0.376276     -7.22551e-05      -0.0002854       -0.0852269       0.0492843       0.00059911    -0.000358362
                     0.000313686    -4.12731e-05       -0.0047028        0.983956      0.000654672     -0.00032928        0.0973458       0.0504495
281748                 0.0276226       0.0943987      0.000573624    -0.000413309         0.913853        0.376162      0.000295324    -1.79311e-05
                     0.000595806    -0.000411369         0.100126      -0.0482075      6.84083e-05    -0.000240617      -0.00385318        0.984519
                        0.914241        0.375954     -7.23675e-05    -0.000285463       -0.0852185       0.0493467      0.000598891    -0.000358346
                     0.000313639    -4.12831e-05      -0.00430259        0.983962      0.000654435    -0.000329308        0.0973595       0.0503682
281750                 0.0276392        0.094419      0.000573152    -0.000413676         0.913984         0.37584      0.000295343    -1.79829e-05
                     0.000595415    -0.000411716         0.100099      -0.0482057      6.84245e-05    -0.000240689      -0.00345311        0.984523
                        0.914372        0.375632     -7.24792e-05    -0.000285526         -0.08521       0.0494092      0.000598672     -0.00035833
                     0.000313593    -4.12921e-05      -0.00390239        0.983966      0.000654197    -0.000329337        0.0973732       0.0502869
281752                 0.0276559       0.0944392      0.000572674    -0.000414045         0.914115        0.375518      0.000295362    -1.80347e-05
                     0.000595023    -0.000412064         0.100072      -0.0482039      6.84397e-05    -0.000240762      -0.00305304        0.984527
                        0.914503        0.375309     -7.25926e-05    -0.000285585       -0.0852015       0.0494717      0.000598454    -0.000358314
                     0.000313544    -4.13047e-05      -0.00350217        0.983971       0.00065396    -0.000329365        0.0973867       0.0502056
281754                 0.0276726       0.0944594      0.000572202    -0.000414409         0.914245        0.375195       0.00029538    -1.80865e-05
                     0.000594634    -0.000412411         0.100045       -0.048202      6.84532e-05    -0.000240835      -0.00265296         0.98453
                        0.914633        0.374987     -7.27034e-05    -0.000285647       -0.0851929       0.0495342      0.000598235    -0.000358298
                     0.000313496    -4.13144e-05      -0.00310196        0.983976      0.000653723    -0.000329394        0.0974002       0.0501244
281756                 0.0276893       0.0944797      0.000571729    -0.000414774         0.914376        0.374873      0.000295399    -1.81383e-05
                     0.000594243    -0.000412755         0.100018      -0.0482002      6.84644e-05    -0.000240909      -0.00225289        0.984534
                        0.914764        0.374665     -7.28143e-05    -0.000285709       -0.0851843       0.0495967      0.000598016    -0.000358281
                      0.00031345    -4.13243e-05      -0.00270176         0.98398      0.000653488    -0.000329423        0.0974137       0.0500431
281758                 0.0277059       0.0944999      0.000571255    -0.000415137         0.914506        0.374551      0.000295418    -1.81901e-05
                     0.000593852    -0.000413098        0.0999914      -0.0481983      6.84729e-05    -0.000240984      -0.00185282        0.984537
                        0.914894        0.374342     -7.29249e-05     -0.00028577       -0.0851757       0.0496592      0.000597797    -0.000358265
                     0.000313403    -4.13341e-05      -0.00230155        0.983985      0.000653254    -0.000329451        0.0974271       0.0499618
281760                 0.0277226       0.0945201      0.000570781    -0.000415499         0.914637        0.374228      0.000295436    -1.82418e-05
                     0.000593459    -0.000413442        0.0999646      -0.0481964      6.84791e-05     -0.00024106      -0.00145274        0.984541
                        0.915024         0.37402     -7.30351e-05    -0.000285831       -0.0851669       0.0497217      0.000597579    -0.000358247
                     0.000313356    -4.13439e-05      -0.00190133        0.983989      0.000653022     -0.00032948        0.0974404       0.0498805
281762                 0.0277393       0.0945403      0.000570307     -0.00041586         0.914767        0.373906      0.000295455    -1.82931e-05
                     0.000593066    -0.000413784        0.0999377      -0.0481945      6.84835e-05    -0.000241136      -0.00105268        0.984544
                        0.915154        0.373697     -7.31449e-05    -0.000285892       -0.0851582       0.0497842      0.000597361    -0.000358229
