! TOUCHSTONE file generated by CST MICROWAVE STUDIO
! Date and time: Wed Oct 15 17:28:05 2025
! Project name: Teste_Macro_Metasurface_Nanopilar.cst
! Parameters = {H=600; L_x=75; L_y=90; Lambda=1064; Max_L=200; Min_L=70; PathPara=1; Phi=0; Step_L=10; Theta=0; p=520; phaseX=180; phaseY=0}
! Header version: 2018
! Port assignment regex: !\s*Touchstone port\s*([0-9]+)\s*=\s*(CST MWS port|CST DS port)\s*([0-9]+|Zmin|Zmax)\s*\(\"(.*)\"\)(\s*mode\s*([0-9]+))?.*
! Touchstone port assignment:
! Touchstone port 1 = CST MWS port Zmax ("") mode 1
! Touchstone port 2 = CST MWS port Zmax ("") mode 2
! Touchstone port 3 = CST MWS port Zmin ("") mode 1
! Touchstone port 4 = CST MWS port Zmin ("") mode 2
! S-Parameters are not renormalized. Each port impedance will be approximated by the real part at minimum frequency. The values are described via the [Reference] keyword.
! Default impedance is overridden by [Reference]
[Version] 2.0
# GHz S RI R 376.73
[Number of Ports] 4
[Reference]
376.73 376.73 259.888 259.888 
[Number of Frequencies] 51
[Network Data]
281700                 0.0276517       -0.106456      5.39269e-05    -6.75241e-05      -0.00901484       -0.993068      0.000131892    -3.72718e-05
                     9.35631e-06    -0.000179283        0.0479768       -0.125228      0.000154013     7.53063e-05         0.132117        -0.98185
                     -0.00879567       -0.993297      0.000135456     7.88277e-05        0.0294233        0.106034     -2.68403e-05      0.00010617
                     8.44613e-05    -2.71511e-05         0.131817       -0.981866     -5.85491e-05     0.000158305        0.0131263        0.133519
281702                 0.0276397       -0.106455      5.40281e-05    -6.75334e-05      -0.00925606       -0.993067      0.000131882    -3.72881e-05
                     9.44366e-06    -0.000179302        0.0479646        -0.12523      0.000154047     7.52764e-05         0.131884       -0.981881
                     -0.00903695       -0.993295      0.000135445     7.87761e-05        0.0294628        0.106019     -2.67837e-05     0.000106226
                     8.44142e-05    -2.71366e-05         0.131584       -0.981898     -5.85094e-05     0.000158392        0.0131777        0.133511
281704                 0.0276278       -0.106454      5.41292e-05    -6.75427e-05      -0.00949729       -0.993065      0.000131873    -3.73044e-05
                     9.53119e-06    -0.000179322        0.0479525       -0.125232      0.000154081     7.52466e-05          0.13165       -0.981913
                     -0.00927822       -0.993294      0.000135433     7.87245e-05        0.0295024        0.106004     -2.67272e-05     0.000106282
                     8.43672e-05     -2.7122e-05          0.13135        -0.98193     -5.84696e-05     0.000158479         0.013229        0.133503
281706                 0.0276158       -0.106452      5.42304e-05    -6.75518e-05      -0.00973851       -0.993063      0.000131864    -3.73206e-05
                     9.61891e-06    -0.000179341        0.0479403       -0.125233      0.000154115     7.52167e-05         0.131417       -0.981945
                      -0.0095195       -0.993292      0.000135422     7.86727e-05        0.0295419        0.105988     -2.66706e-05     0.000106338
                     8.43202e-05    -2.71075e-05         0.131116       -0.981961     -5.84296e-05     0.000158566        0.0132803        0.133495
281708                 0.0276039       -0.106451      5.43317e-05    -6.75609e-05      -0.00997974       -0.993061      0.000131854    -3.73369e-05
                     9.70683e-06     -0.00017936        0.0479281       -0.125235      0.000154148     7.51869e-05         0.131183       -0.981976
                     -0.00976078        -0.99329       0.00013541     7.86208e-05        0.0295814        0.105973     -2.66139e-05     0.000106394
                     8.42733e-05     -2.7093e-05         0.130882       -0.981993     -5.83893e-05     0.000158652        0.0133317        0.133487
281710                 0.0275919        -0.10645       5.4433e-05    -6.75698e-05        -0.010221       -0.993059      0.000131845    -3.73532e-05
                     9.79494e-06     -0.00017938        0.0479159       -0.125236      0.000154182     7.51571e-05          0.13095       -0.982008
                      -0.0100021       -0.993288      0.000135399     7.85687e-05        0.0296209        0.105957     -2.65572e-05      0.00010645
                     8.42264e-05    -2.70786e-05         0.130649       -0.982024     -5.83489e-05     0.000158739         0.013383        0.133479
281712                   0.02758       -0.106448      5.45344e-05    -6.75787e-05       -0.0104622       -0.993057      0.000131835    -3.73694e-05
                     9.88323e-06    -0.000179399        0.0479038       -0.125238      0.000154215     7.51272e-05         0.130716        -0.98204
                      -0.0102433       -0.993286      0.000135388     7.85166e-05        0.0296604        0.105942     -2.65005e-05     0.000106506
                     8.41795e-05    -2.70641e-05         0.130415       -0.982055     -5.83083e-05     0.000158826        0.0134343        0.133471
281714                  0.027568       -0.106447      5.46358e-05    -6.75874e-05       -0.0107034       -0.993055      0.000131826    -3.73857e-05
                     9.97172e-06    -0.000179418        0.0478916        -0.12524      0.000154249     7.50974e-05         0.130482       -0.982071
                      -0.0104846       -0.993283      0.000135376     7.84643e-05        0.0296998        0.105926     -2.64437e-05     0.000106562
                     8.41326e-05    -2.70496e-05         0.130181       -0.982087     -5.82675e-05     0.000158912        0.0134856        0.133463
281716                 0.0275561       -0.106445      5.47373e-05    -6.75961e-05       -0.0109446       -0.993053      0.000131817     -3.7402e-05
                     1.00604e-05    -0.000179437        0.0478794       -0.125241      0.000154282     7.50676e-05         0.130249       -0.982102
                      -0.0107259       -0.993281      0.000135365     7.84118e-05        0.0297393        0.105911      -2.6387e-05     0.000106618
                     8.40858e-05    -2.70352e-05         0.129947       -0.982118     -5.82265e-05     0.000158999         0.013537        0.133455
281718                 0.0275441       -0.106444      5.48389e-05    -6.76047e-05       -0.0111859        -0.99305      0.000131807    -3.74183e-05
                     1.01493e-05    -0.000179456        0.0478673       -0.125243      0.000154316     7.50377e-05         0.130015       -0.982134
                      -0.0109672       -0.993279      0.000135354     7.83592e-05        0.0297788        0.105895     -2.63302e-05     0.000106674
                      8.4039e-05    -2.70207e-05         0.129714       -0.982149     -5.81854e-05     0.000159085        0.0135883        0.133447
281720                 0.0275322       -0.106443      5.49406e-05    -6.76132e-05       -0.0114271       -0.993048      0.000131798    -3.74346e-05
                     1.02383e-05    -0.000179475        0.0478551       -0.125244      0.000154349     7.50078e-05         0.129782       -0.982165
                      -0.0112084       -0.993277      0.000135342     7.83065e-05        0.0298182         0.10588     -2.62733e-05      0.00010673
                     8.39923e-05    -2.70063e-05          0.12948        -0.98218     -5.81441e-05     0.000159171        0.0136396        0.133439
281722                 0.0275202       -0.106441      5.50423e-05    -6.76216e-05       -0.0116683       -0.993046      0.000131789    -3.74509e-05
                     1.03276e-05    -0.000179494        0.0478429       -0.125246      0.000154382     7.49778e-05         0.129548       -0.982196
                      -0.0114497       -0.993274      0.000135331     7.82537e-05        0.0298577        0.105864     -2.62165e-05     0.000106786
                     8.39455e-05    -2.69918e-05         0.129246       -0.982211     -5.81027e-05     0.000159258        0.0136909        0.133431
281724                 0.0275083        -0.10644      5.51442e-05    -6.76299e-05       -0.0119095       -0.993043      0.000131779    -3.74672e-05
                      1.0417e-05    -0.000179513        0.0478307       -0.125247      0.000154416     7.49478e-05         0.129314       -0.982227
                       -0.011691       -0.993272      0.000135319     7.82007e-05        0.0298971        0.105849     -2.61597e-05     0.000106842
                     8.38988e-05    -2.69774e-05         0.129012       -0.982242     -5.80611e-05     0.000159344        0.0137422        0.133423
281726                 0.0274963       -0.106439      5.52461e-05     -6.7638e-05       -0.0121507       -0.993041       0.00013177    -3.74835e-05
                     1.05066e-05    -0.000179532        0.0478186       -0.125249      0.000154449     7.49178e-05         0.129081       -0.982259
                      -0.0119323       -0.993269      0.000135308     7.81476e-05        0.0299366        0.105833     -2.61028e-05     0.000106898
                     8.38521e-05     -2.6963e-05         0.128779       -0.982273     -5.80194e-05      0.00015943        0.0137935        0.133415
281728                 0.0274844       -0.106437      5.53481e-05    -6.76461e-05        -0.012392       -0.993038      0.000131761    -3.74998e-05
                     1.05964e-05    -0.000179551        0.0478064       -0.125251      0.000154482     7.48876e-05         0.128847        -0.98229
                      -0.0121736       -0.993267      0.000135297     7.80944e-05         0.029976        0.105817     -2.60459e-05     0.000106954
                     8.38054e-05    -2.69486e-05         0.128545       -0.982304     -5.79776e-05     0.000159516        0.0138447        0.133406
281730                 0.0274724       -0.106436      5.54502e-05    -6.76541e-05       -0.0126332       -0.993036      0.000131751    -3.75162e-05
                     1.06864e-05    -0.000179569        0.0477942       -0.125252      0.000154515     7.48574e-05         0.128613       -0.982321
                      -0.0124148       -0.993264      0.000135285      7.8041e-05        0.0300154        0.105802     -2.59891e-05      0.00010701
                     8.37587e-05    -2.69342e-05         0.128311       -0.982335     -5.79356e-05     0.000159602         0.013896        0.133398
281732                 0.0274605       -0.106435      5.55523e-05     -6.7662e-05       -0.0128744       -0.993033      0.000131742    -3.75325e-05
                     1.07766e-05    -0.000179588         0.047782       -0.125254      0.000154547      7.4827e-05          0.12838       -0.982352
                      -0.0126561       -0.993262      0.000135273     7.79875e-05        0.0300548        0.105786     -2.59322e-05     0.000107066
                     8.37121e-05    -2.69198e-05         0.128077       -0.982366     -5.78935e-05     0.000159688        0.0139473         0.13339
281734                 0.0274485       -0.106433      5.56546e-05    -6.76698e-05       -0.0131156        -0.99303      0.000131733    -3.75488e-05
                      1.0867e-05    -0.000179607        0.0477699       -0.125255       0.00015458     7.47965e-05         0.128146       -0.982383
                      -0.0128974       -0.993259      0.000135262     7.79339e-05        0.0300942         0.10577     -2.58754e-05     0.000107122
                     8.36654e-05    -2.69053e-05         0.127843       -0.982397     -5.78514e-05     0.000159773        0.0139986        0.133382
281736                 0.0274366       -0.106432       5.5757e-05    -6.76775e-05       -0.0133568       -0.993028      0.000131723    -3.75651e-05
                     1.09576e-05    -0.000179625        0.0477577       -0.125257      0.000154613     7.47659e-05         0.127912       -0.982413
                      -0.0131387       -0.993256       0.00013525     7.78801e-05        0.0301336        0.105755     -2.58185e-05     0.000107178
                     8.36188e-05    -2.68909e-05          0.12761       -0.982427     -5.78091e-05     0.000159859        0.0140498        0.133373
281738                 0.0274246       -0.106431      5.58595e-05    -6.76851e-05       -0.0135981       -0.993025      0.000131714    -3.75815e-05
                     1.10483e-05    -0.000179644        0.0477455       -0.125259      0.000154646     7.47352e-05         0.127679       -0.982444
                        -0.01338       -0.993253      0.000135239     7.78262e-05         0.030173        0.105739     -2.57617e-05     0.000107234
                     8.35721e-05    -2.68765e-05         0.127376       -0.982458     -5.77667e-05     0.000159945        0.0141011        0.133365
281740                 0.0274127       -0.106429      5.59621e-05    -6.76926e-05       -0.0138393       -0.993022      0.000131705    -3.75978e-05
                     1.11393e-05    -0.000179662        0.0477333        -0.12526      0.000154679     7.47044e-05         0.127445       -0.982475
                      -0.0136212        -0.99325      0.000135227     7.77722e-05        0.0302124        0.105723     -2.57049e-05      0.00010729
                     8.35254e-05     -2.6862e-05         0.127142       -0.982489     -5.77242e-05      0.00016003        0.0141524        0.133357
281742                 0.0274007       -0.106428      5.60648e-05       -6.77e-05       -0.0140805       -0.993019      0.000131696    -3.76142e-05
                     1.12304e-05     -0.00017968        0.0477212       -0.125262      0.000154712     7.46735e-05         0.127211       -0.982506
                      -0.0138625       -0.993247      0.000135215      7.7718e-05        0.0302518        0.105708     -2.56481e-05     0.000107347
                     8.34786e-05    -2.68474e-05         0.126908       -0.982519     -5.76817e-05     0.000160115        0.0142036        0.133349
281744                 0.0273888       -0.106427      5.61676e-05    -6.77073e-05       -0.0143217       -0.993016      0.000131687    -3.76305e-05
                     1.13218e-05    -0.000179699         0.047709       -0.125263      0.000154745     7.46426e-05         0.126978       -0.982536
                      -0.0141038       -0.993244      0.000135203     7.76637e-05        0.0302911        0.105692     -2.55913e-05     0.000107403
                     8.34316e-05    -2.68329e-05         0.126674        -0.98255     -5.76391e-05     0.000160201        0.0142549         0.13334
281746                 0.0273768       -0.106425      5.62705e-05    -6.77145e-05       -0.0145629       -0.993013      0.000131677    -3.76469e-05
                     1.14133e-05    -0.000179717        0.0476968       -0.125265      0.000154778     7.46115e-05         0.126744       -0.982567
                      -0.0143451       -0.993241      0.000135191     7.76092e-05        0.0303305        0.105676     -2.55346e-05     0.000107459
                     8.33844e-05    -2.68183e-05          0.12644        -0.98258     -5.75964e-05     0.000160286        0.0143061        0.133332
281748                 0.0273649       -0.106424      5.63736e-05    -6.77216e-05       -0.0148042        -0.99301      0.000131668    -3.76632e-05
                      1.1505e-05    -0.000179735        0.0476847       -0.125266      0.000154811     7.45805e-05          0.12651       -0.982597
                      -0.0145864       -0.993238      0.000135179     7.75546e-05        0.0303698        0.105661     -2.54779e-05     0.000107515
                     8.33368e-05    -2.68038e-05         0.126206        -0.98261     -5.75536e-05     0.000160371        0.0143574        0.133324
281750                 0.0273529       -0.106423      5.64768e-05    -6.77286e-05       -0.0150454       -0.993007      0.000131659    -3.76796e-05
                      1.1597e-05    -0.000179753        0.0476725       -0.125268      0.000154845     7.45494e-05         0.126276       -0.982628
                      -0.0148276       -0.993235      0.000135167     7.74999e-05        0.0304092        0.105645     -2.54211e-05     0.000107571
                     8.32886e-05    -2.67899e-05         0.125973       -0.982641     -5.75108e-05     0.000160457        0.0144086        0.133315
281752                  0.027341       -0.106421        5.658e-05    -6.77355e-05       -0.0152866       -0.993003       0.00013165    -3.76959e-05
                     1.16892e-05    -0.000179772        0.0476603        -0.12527      0.000154878     7.45183e-05         0.126043       -0.982658
                      -0.0150689       -0.993232      0.000135155     7.74451e-05        0.0304485        0.105629     -2.53644e-05     0.000107627
                     8.32403e-05    -2.67772e-05         0.125739       -0.982671     -5.74679e-05     0.000160542        0.0144598        0.133307
281754                  0.027329        -0.10642      5.66834e-05    -6.77422e-05       -0.0155278          -0.993      0.000131641    -3.77123e-05
                     1.17817e-05     -0.00017979        0.0476481       -0.125271      0.000154911     7.44872e-05         0.125809       -0.982689
                      -0.0153102       -0.993228      0.000135143     7.73901e-05        0.0304878        0.105613     -2.53078e-05     0.000107684
                     8.31929e-05    -2.67655e-05         0.125505       -0.982701      -5.7425e-05     0.000160627        0.0145111        0.133298
281756                 0.0273171       -0.106418       5.6787e-05    -6.77489e-05        -0.015769       -0.992997      0.000131632    -3.77287e-05
                     1.18746e-05    -0.000179809         0.047636       -0.125273      0.000154945     7.44561e-05         0.125575       -0.982719
                      -0.0155515       -0.993225      0.000135131     7.73351e-05        0.0305271        0.105597     -2.52511e-05      0.00010774
                      8.3147e-05    -2.67537e-05         0.125271       -0.982731      -5.7382e-05     0.000160712        0.0145623         0.13329
281758                 0.0273051       -0.106417      5.68906e-05    -6.77554e-05       -0.0160103       -0.992993      0.000131623     -3.7745e-05
                     1.19668e-05    -0.000179833        0.0476238       -0.125274      0.000154978      7.4425e-05         0.125341       -0.982749
                      -0.0157928       -0.993221      0.000135118     7.72798e-05        0.0305664        0.105582     -2.51945e-05     0.000107796
                     8.31017e-05    -2.67411e-05         0.125037       -0.982761     -5.73391e-05     0.000160797        0.0146135        0.133281
281760                 0.0272932       -0.106416      5.69944e-05    -6.77619e-05       -0.0162515        -0.99299      0.000131614    -3.77614e-05
                     1.20465e-05    -0.000179837        0.0476116       -0.125276      0.000155011     7.43939e-05         0.125108       -0.982779
                       -0.016034       -0.993218      0.000135106     7.72245e-05        0.0306057        0.105566     -2.51378e-05     0.000107852
                     8.30563e-05    -2.67278e-05         0.124803       -0.982791     -5.72961e-05     0.000160881        0.0146647        0.133273
281762                 0.0272812       -0.106414      5.70983e-05    -6.77682e-05       -0.0164927       -0.992986      0.000131605    -3.77777e-05
                     1.21479e-05    -0.000179856        0.0475994       -0.125277      0.000155045     7.43629e-05         0.124874       -0.982809
                      -0.0162753       -0.993214      0.000135093     7.71691e-05         0.030645         0.10555     -2.50812e-05     0.000107908
