! TOUCHSTONE file generated by CST MICROWAVE STUDIO
! Date and time: Wed Oct 15 17:30:39 2025
! Project name: Teste_Macro_Metasurface_Nanopilar.cst
! Parameters = {H=600; L_x=120; L_y=80; Lambda=1064; Max_L=200; Min_L=70; PathPara=1; Phi=0; Step_L=10; Theta=0; p=520; phaseX=180; phaseY=0}
! Header version: 2018
! Port assignment regex: !\s*Touchstone port\s*([0-9]+)\s*=\s*(CST MWS port|CST DS port)\s*([0-9]+|Zmin|Zmax)\s*\(\"(.*)\"\)(\s*mode\s*([0-9]+))?.*
! Touchstone port assignment:
! Touchstone port 1 = CST MWS port Zmax ("") mode 1
! Touchstone port 2 = CST MWS port Zmax ("") mode 2
! Touchstone port 3 = CST MWS port Zmin ("") mode 1
! Touchstone port 4 = CST MWS port Zmin ("") mode 2
! S-Parameters are not renormalized. Each port impedance will be approximated by the real part at minimum frequency. The values are described via the [Reference] keyword.
! Default impedance is overridden by [Reference]
[Version] 2.0
# GHz S RI R 376.73
[Number of Ports] 4
[Reference]
376.73 376.73 259.888 259.888 
[Number of Frequencies] 51
[Network Data]
281700                 0.0092731      -0.0952896     -0.000104598    -0.000269688         -0.10716       -0.988958      0.000202497     -0.00013758
                    -0.000106983      -0.0002495        0.0857295       0.0526499      0.000205895    -0.000143611        -0.893721       -0.428591
                       -0.107053       -0.989016      0.000196197    -0.000172546        0.0293039       0.0912624      0.000264608     0.000146253
                      0.00027265    -0.000201139        -0.893729       -0.428801      0.000226458     8.52599e-05       -0.0946389      -0.0327096
281702                0.00926129      -0.0952859     -0.000104731    -0.000269727        -0.107403       -0.988932      0.000202478     -0.00013769
                    -0.000107058    -0.000249566        0.0857417       0.0526535      0.000205866    -0.000143688        -0.893853       -0.428312
                       -0.107297        -0.98899      0.000196147    -0.000172605        0.0293365       0.0912468       0.00026468     0.000146381
                     0.000272538    -0.000201182        -0.893861       -0.428521      0.000226512     8.53031e-05       -0.0946699      -0.0326576
281704                0.00924948      -0.0952821     -0.000104865    -0.000269765        -0.107647       -0.988906      0.000202459      -0.0001378
                    -0.000107134    -0.000249632        0.0857539       0.0526572      0.000205838    -0.000143765        -0.893986       -0.428032
                       -0.107541       -0.988964      0.000196098    -0.000172664        0.0293691       0.0912312       0.00026475     0.000146517
                     0.000272426    -0.000201226        -0.893994       -0.428241      0.000226565     8.53463e-05       -0.0947008      -0.0326056
281706                0.00923767      -0.0952784     -0.000104999    -0.000269804        -0.107891        -0.98888      0.000202439    -0.000137911
                    -0.000107209    -0.000249697         0.085766       0.0526608      0.000205809    -0.000143842        -0.894118       -0.427752
                       -0.107784       -0.988938      0.000196048    -0.000172724        0.0294017       0.0912156      0.000264806      0.00014666
                     0.000272314    -0.000201269        -0.894126       -0.427961      0.000226619     8.53894e-05       -0.0947317      -0.0325536
281708                0.00922586      -0.0952746     -0.000105133    -0.000269842        -0.108134       -0.988854       0.00020242    -0.000138021
                    -0.000107285    -0.000249763        0.0857782       0.0526645      0.000205781    -0.000143919         -0.89425       -0.427472
                       -0.108028       -0.988912      0.000195999    -0.000172783        0.0294343          0.0912      0.000264851     0.000146787
                     0.000272202    -0.000201313        -0.894258       -0.427681      0.000226673     8.54325e-05       -0.0947626      -0.0325016
281710                0.00921405      -0.0952709     -0.000105267     -0.00026988        -0.108378       -0.988827        0.0002024    -0.000138132
                     -0.00010736    -0.000249828        0.0857904       0.0526681      0.000205752    -0.000143996        -0.894382       -0.427192
                       -0.108272       -0.988885      0.000195949    -0.000172843        0.0294668       0.0911844      0.000264904     0.000146904
                      0.00027209    -0.000201356         -0.89439       -0.427401      0.000226727     8.54756e-05       -0.0947935      -0.0324496
281712                0.00920224      -0.0952671     -0.000105401    -0.000269918        -0.108622       -0.988801       0.00020238    -0.000138242
                    -0.000107436    -0.000249894        0.0858026       0.0526717      0.000205724    -0.000144073        -0.894514       -0.426912
                       -0.108516       -0.988859      0.000195899    -0.000172902        0.0294994       0.0911688      0.000264965     0.000147021
                     0.000271978    -0.000201399        -0.894522       -0.427121      0.000226782     8.55187e-05       -0.0948243      -0.0323975
281714                0.00919043      -0.0952634     -0.000105534    -0.000269956        -0.108865       -0.988775      0.000202361    -0.000138353
                    -0.000107512    -0.000249959        0.0858148       0.0526754      0.000205695     -0.00014415        -0.894646       -0.426632
                       -0.108759       -0.988833       0.00019585    -0.000172961         0.029532       0.0911531      0.000265028     0.000147141
                     0.000271867    -0.000201442        -0.894654       -0.426841      0.000226836     8.55617e-05       -0.0948551      -0.0323454
281716                0.00917863      -0.0952596     -0.000105668    -0.000269994        -0.109109       -0.988748      0.000202341    -0.000138463
                    -0.000107588    -0.000250025        0.0858269        0.052679      0.000205666    -0.000144227        -0.894777       -0.426352
                       -0.109003       -0.988806        0.0001958    -0.000173021        0.0295645       0.0911375      0.000265092     0.000147263
                     0.000271755    -0.000201485        -0.894786       -0.426561       0.00022689     8.56047e-05       -0.0948859      -0.0322933
281718                0.00916682      -0.0952559     -0.000105802    -0.000270032        -0.109353       -0.988722      0.000202321    -0.000138574
                    -0.000107665     -0.00025009        0.0858391       0.0526826      0.000205637    -0.000144304        -0.894909       -0.426071
                       -0.109247        -0.98878       0.00019575     -0.00017308        0.0295971       0.0911218      0.000265155     0.000147385
                     0.000271644    -0.000201528        -0.894918       -0.426281      0.000226945     8.56477e-05       -0.0949166      -0.0322411
281720                0.00915501      -0.0952521     -0.000105935     -0.00027007        -0.109596       -0.988695        0.0002023    -0.000138684
                    -0.000107741    -0.000250156        0.0858513       0.0526862      0.000205609    -0.000144381         -0.89504       -0.425791
                        -0.10949       -0.988753        0.0001957     -0.00017314        0.0296296       0.0911061      0.000265219     0.000147509
                     0.000271532    -0.000201572        -0.895049       -0.426001      0.000226999     8.56906e-05       -0.0949473       -0.032189
281722                 0.0091432      -0.0952483     -0.000106069    -0.000270108         -0.10984       -0.988669       0.00020228    -0.000138795
                    -0.000107818    -0.000250221        0.0858635       0.0526899       0.00020558    -0.000144458        -0.895172       -0.425511
                       -0.109734       -0.988727      0.000195651    -0.000173199        0.0296621       0.0910905      0.000265283     0.000147632
                     0.000271421    -0.000201615        -0.895181        -0.42572      0.000227054     8.57335e-05        -0.094978      -0.0321368
281724                 0.0091314      -0.0952446     -0.000106203    -0.000270145        -0.110083       -0.988642       0.00020226    -0.000138905
                    -0.000107894    -0.000250286        0.0858757       0.0526935      0.000205551    -0.000144536        -0.895303        -0.42523
                       -0.109978         -0.9887      0.000195601    -0.000173259        0.0296946       0.0910748      0.000265347     0.000147756
                     0.000271309    -0.000201658        -0.895312        -0.42544      0.000227109     8.57764e-05       -0.0950087      -0.0320846
281726                0.00911959      -0.0952408     -0.000106337    -0.000270183        -0.110327       -0.988615      0.000202239    -0.000139016
                    -0.000107971    -0.000250351        0.0858879       0.0526971      0.000205521    -0.000144613        -0.895434        -0.42495
                       -0.110222       -0.988673       0.00019555    -0.000173318        0.0297271       0.0910591      0.000265411     0.000147881
                     0.000271198    -0.000201701        -0.895444        -0.42516      0.000227163     8.58193e-05       -0.0950393      -0.0320323
281728                0.00910779      -0.0952371      -0.00010647    -0.000270221        -0.110571       -0.988588      0.000202218    -0.000139126
                    -0.000108048    -0.000250416        0.0859001       0.0527007      0.000205492     -0.00014469        -0.895566        -0.42467
                       -0.110465       -0.988647        0.0001955    -0.000173377        0.0297596       0.0910433      0.000265475     0.000148005
                     0.000271087    -0.000201743        -0.895575       -0.424879      0.000227218     8.58621e-05       -0.0950699      -0.0319801
281730                0.00909598      -0.0952333     -0.000106604    -0.000270258        -0.110814       -0.988561      0.000202197    -0.000139237
                    -0.000108125    -0.000250481        0.0859123       0.0527043      0.000205463    -0.000144767        -0.895697       -0.424389
                       -0.110709        -0.98862       0.00019545    -0.000173437        0.0297921       0.0910276      0.000265538      0.00014813
                     0.000270976    -0.000201786        -0.895706       -0.424599      0.000227273     8.59049e-05       -0.0951004      -0.0319278
281732                0.00908418      -0.0952295     -0.000106738    -0.000270296        -0.111058       -0.988534      0.000202176    -0.000139347
                    -0.000108202    -0.000250546        0.0859245       0.0527079      0.000205434    -0.000144845        -0.895828       -0.424109
                       -0.110953       -0.988593        0.0001954    -0.000173496        0.0298246       0.0910119      0.000265602     0.000148255
                     0.000270865    -0.000201829        -0.895838       -0.424319      0.000227328     8.59477e-05        -0.095131      -0.0318755
281734                0.00907238      -0.0952258     -0.000106871    -0.000270333        -0.111301       -0.988508      0.000202154    -0.000139457
                    -0.000108279    -0.000250611        0.0859367       0.0527115      0.000205404    -0.000144922        -0.895959       -0.423828
                       -0.111196       -0.988566      0.000195349    -0.000173555        0.0298571       0.0909961      0.000265666      0.00014838
                     0.000270753    -0.000201872        -0.895969       -0.424038      0.000227383     8.59904e-05       -0.0951615      -0.0318232
281736                0.00906058       -0.095222     -0.000107005     -0.00027037        -0.111545        -0.98848      0.000202132    -0.000139568
                    -0.000108356    -0.000250676        0.0859489       0.0527151      0.000205375    -0.000144999         -0.89609       -0.423547
                        -0.11144       -0.988539      0.000195298    -0.000173615        0.0298896       0.0909803       0.00026573     0.000148506
                     0.000270642    -0.000201915          -0.8961       -0.423757      0.000227438     8.60332e-05        -0.095192      -0.0317708
281738                0.00904877      -0.0952182     -0.000107139    -0.000270408        -0.111788       -0.988453       0.00020211    -0.000139679
                    -0.000108434     -0.00025074        0.0859611       0.0527187      0.000205345    -0.000145077         -0.89622       -0.423267
                       -0.111684       -0.988512      0.000195247    -0.000173674         0.029922       0.0909646      0.000265793     0.000148631
                     0.000270531    -0.000201958        -0.896231       -0.423477      0.000227494     8.60759e-05       -0.0952224      -0.0317184
281740                0.00903697      -0.0952145     -0.000107273    -0.000270445        -0.112032       -0.988426      0.000202087     -0.00013979
                    -0.000108511    -0.000250805        0.0859734       0.0527223      0.000205316    -0.000145154        -0.896351       -0.422986
                       -0.111927       -0.988485      0.000195196    -0.000173733        0.0299545       0.0909488      0.000265857     0.000148757
                      0.00027042    -0.000202001        -0.896361       -0.423196      0.000227549     8.61185e-05       -0.0952528       -0.031666
281742                0.00902517      -0.0952107     -0.000107406    -0.000270482        -0.112276       -0.988399      0.000202064    -0.000139901
                    -0.000108589    -0.000250869        0.0859856       0.0527259      0.000205286    -0.000145232        -0.896482       -0.422705
                       -0.112171       -0.988458      0.000195145    -0.000173792        0.0299869        0.090933       0.00026592     0.000148883
                     0.000270309    -0.000202044        -0.896492       -0.422915      0.000227604     8.61612e-05       -0.0952832      -0.0316136
281744                0.00901337      -0.0952069      -0.00010754    -0.000270519        -0.112519       -0.988372      0.000202041    -0.000140013
                    -0.000108666    -0.000250934        0.0859978       0.0527295      0.000205256    -0.000145309        -0.896612       -0.422424
                       -0.112414        -0.98843      0.000195094    -0.000173851        0.0300194       0.0909172      0.000265984     0.000149009
                     0.000270198    -0.000202087        -0.896623       -0.422635       0.00022766     8.62038e-05       -0.0953136      -0.0315612
281746                0.00900157      -0.0952031     -0.000107674    -0.000270556        -0.112763       -0.988344      0.000202018    -0.000140125
                    -0.000108744    -0.000250998          0.08601        0.052733      0.000205226    -0.000145386        -0.896743       -0.422144
                       -0.112658       -0.988403      0.000195043     -0.00017391        0.0300518       0.0909013      0.000266048     0.000149135
                     0.000270087     -0.00020213        -0.896753       -0.422354      0.000227715     8.62464e-05       -0.0953439      -0.0315087
281748                0.00898977      -0.0951994     -0.000107808    -0.000270593        -0.113006       -0.988317      0.000201995    -0.000140239
                    -0.000108822    -0.000251062        0.0860222       0.0527366      0.000205197    -0.000145464        -0.896873       -0.421863
                       -0.112902       -0.988376      0.000194992    -0.000173969        0.0300842       0.0908855      0.000266111     0.000149261
                     0.000269975    -0.000202173        -0.896884       -0.422073      0.000227771      8.6289e-05       -0.0953742      -0.0314562
281750                0.00897797      -0.0951956     -0.000107941     -0.00027063         -0.11325       -0.988289      0.000201973    -0.000140352
                    -0.000108899    -0.000251126        0.0860344       0.0527402      0.000205167    -0.000145541        -0.897003       -0.421582
                       -0.113145       -0.988348       0.00019494    -0.000174028        0.0301167       0.0908696      0.000266175     0.000149387
                     0.000269864    -0.000202216        -0.897014       -0.421792      0.000227827     8.63315e-05       -0.0954045      -0.0314037
281752                0.00896618      -0.0951918     -0.000108075    -0.000270667        -0.113493       -0.988262      0.000201951    -0.000140466
                    -0.000108977     -0.00025119        0.0860467       0.0527438      0.000205137    -0.000145619        -0.897133       -0.421301
                       -0.113389       -0.988321      0.000194889    -0.000174087        0.0301491       0.0908538      0.000266238     0.000149514
                     0.000269753    -0.000202259        -0.897145       -0.421511      0.000227882      8.6374e-05       -0.0954348      -0.0313511
281754                0.00895438       -0.095188     -0.000108209    -0.000270704        -0.113737       -0.988234       0.00020193    -0.000140579
                    -0.000109054    -0.000251253        0.0860589       0.0527473      0.000205107    -0.000145697        -0.897263        -0.42102
                       -0.113633       -0.988293      0.000194837    -0.000174146        0.0301815       0.0908379      0.000266302     0.000149641
                     0.000269641    -0.000202303        -0.897275        -0.42123      0.000227938     8.64165e-05        -0.095465      -0.0312986
281756                0.00894258      -0.0951843     -0.000108343    -0.000270741         -0.11398       -0.988207       0.00020191    -0.000140692
                    -0.000109132    -0.000251316        0.0860711       0.0527509      0.000205077    -0.000145774        -0.897393       -0.420739
                       -0.113876       -0.988266      0.000194786    -0.000174204        0.0302139        0.090822      0.000266365     0.000149767
                      0.00026953    -0.000202347        -0.897405       -0.420949      0.000227994      8.6459e-05       -0.0954952       -0.031246
281758                0.00893079      -0.0951805     -0.000108477    -0.000270778        -0.114224       -0.988179      0.000201889    -0.000140804
                    -0.000109209    -0.000251378        0.0860834       0.0527545      0.000205046    -0.000145852        -0.897523       -0.420457
                        -0.11412       -0.988238      0.000194735    -0.000174263        0.0302462       0.0908062      0.000266429     0.000149894
                     0.000269419    -0.000202392        -0.897535       -0.420668       0.00022805     8.65014e-05       -0.0955253      -0.0311934
281760                  0.008919      -0.0951767     -0.000108611    -0.000270815        -0.114467       -0.988151      0.000201868    -0.000140916
                    -0.000109288    -0.000251437        0.0860956        0.052758      0.000205016    -0.000145929        -0.897653       -0.420176
                       -0.114363        -0.98821      0.000194684    -0.000174322        0.0302786       0.0907903      0.000266492     0.000150021
                     0.000269311    -0.000202437        -0.897665       -0.420387      0.000228106     8.65438e-05       -0.0955555      -0.0311408
281762                0.00890722      -0.0951729     -0.000108745    -0.000270852        -0.114711       -0.988123      0.000201847    -0.000141027
                    -0.000109372    -0.000251498        0.0861078       0.0527616      0.000204986    -0.000146007        -0.897783       -0.419895
                       -0.114607       -0.988183      0.000194632    -0.000174381         0.030311       0.0907743      0.000266556     0.000150149
