! TOUCHSTONE file generated by CST MICROWAVE STUDIO
! Date and time: Wed Oct 15 17:30:44 2025
! Project name: Teste_Macro_Metasurface_Nanopilar.cst
! Parameters = {H=600; L_x=120; L_y=125; Lambda=1064; Max_L=200; Min_L=70; PathPara=1; Phi=0; Step_L=10; Theta=0; p=520; phaseX=180; phaseY=0}
! Header version: 2018
! Port assignment regex: !\s*Touchstone port\s*([0-9]+)\s*=\s*(CST MWS port|CST DS port)\s*([0-9]+|Zmin|Zmax)\s*\(\"(.*)\"\)(\s*mode\s*([0-9]+))?.*
! Touchstone port assignment:
! Touchstone port 1 = CST MWS port Zmax ("") mode 1
! Touchstone port 2 = CST MWS port Zmax ("") mode 2
! Touchstone port 3 = CST MWS port Zmin ("") mode 1
! Touchstone port 4 = CST MWS port Zmin ("") mode 2
! S-Parameters are not renormalized. Each port impedance will be approximated by the real part at minimum frequency. The values are described via the [Reference] keyword.
! Default impedance is overridden by [Reference]
[Version] 2.0
# GHz S RI R 376.73
[Number of Ports] 4
[Reference]
376.73 376.73 259.888 259.888 
[Number of Frequencies] 51
[Network Data]
281700                 0.0191772     -0.00506832     -0.000167302    -0.000203473         0.517564         0.84526     -0.000730022     0.000307841
                    -0.000189389    -0.000223567        0.0570918       -0.043305     -0.000738094     0.000284494         0.209614        0.965745
                        0.517359        0.845295     -0.000725059     0.000274103        0.0120177      -0.0121283      2.94919e-05     0.000387668
                    -0.000727853     0.000294011         0.210086        0.965855     -6.42173e-05     0.000432317        0.0677382       0.0177265
281702                 0.0191708     -0.00504123      -0.00016745    -0.000203484         0.517894        0.845059     -0.000729865     0.000308112
                    -0.000189519    -0.000223396        0.0570706      -0.0432886     -0.000737924     0.000284819         0.210005        0.965661
                        0.517689        0.845094     -0.000724829     0.000274137        0.0119809      -0.0121446      2.96358e-05     0.000387615
                    -0.000727722     0.000294361         0.210478        0.965777     -6.39965e-05     0.000432197        0.0677259       0.0176656
281704                 0.0191645     -0.00501414     -0.000167599    -0.000203496         0.518223        0.844857     -0.000729708     0.000308384
                    -0.000189649    -0.000223224        0.0570494      -0.0432722     -0.000737755     0.000285144         0.210396        0.965578
                        0.518019        0.844892     -0.000724598      0.00027417        0.0119441      -0.0121609      2.97793e-05     0.000387562
                    -0.000727591     0.000294711          0.21087        0.965699     -6.37744e-05     0.000432077        0.0677136       0.0176047
281706                 0.0191582     -0.00498704     -0.000167748     -0.00020351         0.518553        0.844656     -0.000729551     0.000308655
                    -0.000189779    -0.000223053        0.0570282      -0.0432557     -0.000737586     0.000285468         0.210787        0.965495
                        0.518348        0.844691     -0.000724367     0.000274201        0.0119072      -0.0121771      2.99225e-05      0.00038751
                     -0.00072746      0.00029506         0.211262         0.96562      -6.3551e-05     0.000431957        0.0677013       0.0175439
281708                 0.0191519     -0.00495995     -0.000167898    -0.000203525         0.518882        0.844454     -0.000729394     0.000308927
                    -0.000189909    -0.000222882         0.057007      -0.0432393     -0.000737416     0.000285792         0.211178        0.965411
                        0.518678        0.844489     -0.000724136     0.000274232        0.0118704      -0.0121933      3.00653e-05     0.000387458
                    -0.000727329      0.00029541         0.211654        0.965541     -6.33263e-05     0.000431838        0.0676889        0.017483
281710                 0.0191456     -0.00493285     -0.000168047    -0.000203541         0.519211        0.844252     -0.000729236       0.0003092
                    -0.000190038     -0.00022271        0.0569858      -0.0432228     -0.000737247     0.000286116         0.211569        0.965327
                        0.519007        0.844288     -0.000723904     0.000274263        0.0118335      -0.0122095      3.02078e-05     0.000387406
                    -0.000727197     0.000295759         0.212046        0.965463     -6.31003e-05     0.000431719        0.0676764       0.0174222
281712                 0.0191393     -0.00490576     -0.000168198    -0.000203558          0.51954         0.84405     -0.000729078     0.000309472
                    -0.000190168    -0.000222539        0.0569646      -0.0432064     -0.000737078      0.00028644          0.21196        0.965243
                        0.519337        0.844086     -0.000723672     0.000274292        0.0117967      -0.0122256      3.03499e-05     0.000387355
                    -0.000727066     0.000296108         0.212438        0.965384      -6.2873e-05       0.0004316        0.0676639       0.0173614
281714                  0.019133     -0.00487866     -0.000168348    -0.000203577         0.519869        0.843848      -0.00072892     0.000309745
                    -0.000190297    -0.000222368        0.0569434      -0.0431899     -0.000736908     0.000286764          0.21235        0.965159
                        0.519666        0.843884      -0.00072344      0.00027432        0.0117598      -0.0122416      3.04917e-05     0.000387304
                    -0.000726934     0.000296456          0.21283        0.965304     -6.26443e-05     0.000431481        0.0676514       0.0173006
281716                 0.0191267     -0.00485156       -0.0001685    -0.000203596         0.520198        0.843646     -0.000728762     0.000310018
                    -0.000190426    -0.000222197        0.0569223      -0.0431734     -0.000736739     0.000287087         0.212741        0.965075
                        0.519995        0.843682     -0.000723207     0.000274348        0.0117229      -0.0122576      3.06331e-05     0.000387254
                    -0.000726802     0.000296805         0.213222        0.965225     -6.24143e-05     0.000431363        0.0676388       0.0172398
281718                 0.0191205     -0.00482447     -0.000168651    -0.000203617         0.520527        0.843443     -0.000728604     0.000310291
                    -0.000190555    -0.000222027        0.0569011       -0.043157     -0.000736569      0.00028741         0.213132         0.96499
                        0.520324        0.843479     -0.000722973     0.000274374         0.011686      -0.0122736      3.07743e-05     0.000387204
                     -0.00072667     0.000297153         0.213613        0.965146      -6.2183e-05     0.000431245        0.0676261       0.0171791
281720                 0.0191142     -0.00479737     -0.000168803     -0.00020364         0.520856        0.843241     -0.000728445     0.000310564
                    -0.000190684    -0.000221856        0.0568799      -0.0431405       -0.0007364     0.000287733         0.213523        0.964905
                        0.520653        0.843277      -0.00072274       0.0002744         0.011649      -0.0122895       3.0915e-05     0.000387155
                    -0.000726538     0.000297501         0.214005        0.965066     -6.19503e-05     0.000431127        0.0676134       0.0171184
281722                  0.019108     -0.00477027     -0.000168956    -0.000203663         0.521184        0.843038     -0.000728286     0.000310837
                    -0.000190812    -0.000221686        0.0568588       -0.043124     -0.000736231     0.000288055         0.213914        0.964821
                        0.520982        0.843074     -0.000722505     0.000274425        0.0116121      -0.0123054      3.10555e-05     0.000387106
                    -0.000726406     0.000297849         0.214397        0.964987     -6.17163e-05     0.000431009        0.0676007       0.0170577
281724                 0.0191017     -0.00474317     -0.000169109    -0.000203688         0.521513        0.842836     -0.000728127     0.000311111
                    -0.000190941    -0.000221515        0.0568376      -0.0431074     -0.000736062     0.000288377         0.214304        0.964736
                        0.521311        0.842872     -0.000722271     0.000274449        0.0115751      -0.0123213      3.11957e-05     0.000387058
                    -0.000726274     0.000298196         0.214789        0.964907     -6.14809e-05     0.000430892        0.0675879        0.016997
281726                 0.0190955     -0.00471607     -0.000169262    -0.000203714         0.521841        0.842633     -0.000727968     0.000311385
                    -0.000191068    -0.000221345        0.0568165      -0.0430909     -0.000735892     0.000288699         0.214695         0.96465
                        0.521639        0.842669     -0.000722036     0.000274472        0.0115382      -0.0123371      3.13355e-05      0.00038701
                    -0.000726142     0.000298543          0.21518        0.964827      -6.1244e-05     0.000430775         0.067575       0.0169364
281728                 0.0190893     -0.00468896     -0.000169416    -0.000203741          0.52217         0.84243     -0.000727808     0.000311659
                    -0.000191196    -0.000221174        0.0567954      -0.0430744     -0.000735723     0.000289021         0.215086        0.964565
                        0.521968        0.842466     -0.000721801     0.000274494        0.0115012      -0.0123528       3.1475e-05     0.000386963
                     -0.00072601      0.00029889         0.215572        0.964747     -6.10058e-05     0.000430658        0.0675621       0.0168758
281730                 0.0190831     -0.00466186     -0.000169571     -0.00020377         0.522498        0.842227     -0.000727649     0.000311934
                    -0.000191323    -0.000221004        0.0567742      -0.0430579     -0.000735554     0.000289342         0.215476         0.96448
                        0.522297        0.842263     -0.000721565     0.000274516        0.0114642      -0.0123686      3.16142e-05     0.000386916
                    -0.000725878     0.000299237         0.215963        0.964667     -6.07661e-05     0.000430541        0.0675492       0.0168152
281732                 0.0190769     -0.00463476     -0.000169725      -0.0002038         0.522826        0.842024     -0.000727489     0.000312208
                     -0.00019145    -0.000220834        0.0567531      -0.0430413     -0.000735385     0.000289663         0.215867        0.964394
                        0.522625         0.84206     -0.000721329     0.000274537        0.0114272      -0.0123842      3.17531e-05      0.00038687
                    -0.000725746     0.000299584         0.216355        0.964587      -6.0525e-05     0.000430425        0.0675361       0.0167546
281734                 0.0190707     -0.00460765     -0.000169881    -0.000203831         0.523154         0.84182     -0.000727328     0.000312483
                    -0.000191577    -0.000220664         0.056732      -0.0430248     -0.000735216     0.000289984         0.216257        0.964308
                        0.522953        0.841857     -0.000721093     0.000274556        0.0113901      -0.0123999      3.18918e-05     0.000386824
                    -0.000725614     0.000299931         0.216747        0.964507     -6.02823e-05     0.000430308        0.0675231        0.016694
281736                 0.0190645     -0.00458055     -0.000170037    -0.000203863         0.523482        0.841617     -0.000727168     0.000312758
                    -0.000191703    -0.000220494        0.0567109      -0.0430082     -0.000735047     0.000290304         0.216648        0.964222
                        0.523282        0.841654     -0.000720856     0.000274575        0.0113531      -0.0124155      3.20301e-05     0.000386779
                    -0.000725482     0.000300277         0.217138        0.964426      -6.0038e-05     0.000430193          0.06751       0.0166335
281738                 0.0190583     -0.00455344     -0.000170193    -0.000203897          0.52381        0.841413     -0.000727007     0.000313033
                    -0.000191829    -0.000220324        0.0566898      -0.0429916     -0.000734878     0.000290624         0.217038        0.964136
                         0.52361         0.84145     -0.000720619     0.000274593         0.011316       -0.012431      3.21681e-05     0.000386735
                     -0.00072535     0.000300624         0.217529        0.964345     -5.97919e-05     0.000430077        0.0674968        0.016573
281740                 0.0190522     -0.00452634      -0.00017035    -0.000203932         0.524138         0.84121     -0.000726846     0.000313309
                    -0.000191954    -0.000220154        0.0566687      -0.0429751      -0.00073471     0.000290943         0.217429         0.96405
                        0.523938        0.841246     -0.000720382      0.00027461         0.011279      -0.0124465      3.23059e-05     0.000386691
                    -0.000725218      0.00030097         0.217921        0.964265     -5.95436e-05     0.000429963        0.0674836       0.0165125
281742                  0.019046     -0.00449923     -0.000170507    -0.000203968         0.524466        0.841006     -0.000726685     0.000313584
                    -0.000192079    -0.000219984        0.0566476      -0.0429585     -0.000734543     0.000291261         0.217819        0.963963
                        0.524266        0.841043     -0.000720144     0.000274627        0.0112419       -0.012462      3.24434e-05     0.000386648
                    -0.000725086     0.000301317         0.218312        0.964184      -5.9292e-05     0.000429851        0.0674703        0.016452
281744                 0.0190399     -0.00447212     -0.000170664    -0.000204006         0.524794        0.840802     -0.000726524      0.00031386
                    -0.000192204    -0.000219815        0.0566265      -0.0429419     -0.000734385     0.000291578         0.218209        0.963877
                        0.524594        0.840839     -0.000719906     0.000274642        0.0112048      -0.0124775      3.25806e-05     0.000386606
                    -0.000724955     0.000301663         0.218703        0.964103     -5.90516e-05     0.000429749         0.067457       0.0163916
281746                 0.0190337     -0.00444502     -0.000170823    -0.000204045         0.525121        0.840598     -0.000726362     0.000314136
                    -0.000192328    -0.000219645        0.0566054      -0.0429253     -0.000734202     0.000291921           0.2186         0.96379
                        0.524921        0.840635     -0.000719668     0.000274657        0.0111677      -0.0124928      3.27175e-05     0.000386564
                    -0.000724823     0.000302009         0.219095        0.964022     -5.88075e-05     0.000429623        0.0674436       0.0163311
281748                 0.0190276     -0.00441791     -0.000170981    -0.000204085         0.525449        0.840394       -0.0007262     0.000314412
                    -0.000192452    -0.000219475        0.0565844      -0.0429087      -0.00073403      0.00029223          0.21899        0.963703
                        0.525249        0.840431     -0.000719429     0.000274671        0.0111306      -0.0125082      3.28542e-05     0.000386522
                    -0.000724692     0.000302355         0.219486         0.96394      -5.8553e-05     0.000429506        0.0674302       0.0162707
281750                 0.0190215      -0.0043908      -0.00017114    -0.000204126         0.525776         0.84019     -0.000726038     0.000314689
                    -0.000192575    -0.000219305        0.0565633      -0.0428921     -0.000733862     0.000292546          0.21938        0.963616
                        0.525577        0.840227      -0.00071919     0.000274684        0.0110934      -0.0125235      3.29906e-05     0.000386482
                    -0.000724561     0.000302701         0.219877        0.963859     -5.82979e-05     0.000429391        0.0674167       0.0162103
281752                 0.0190153     -0.00436369       -0.0001713    -0.000204169         0.526103        0.839985     -0.000725876     0.000314965
                    -0.000192699    -0.000219135        0.0565422      -0.0428755     -0.000733694     0.000292863          0.21977        0.963529
                        0.525904        0.840022     -0.000718951     0.000274696        0.0110563      -0.0125388      3.31267e-05     0.000386442
                    -0.000724431     0.000303048         0.220268        0.963777     -5.80417e-05     0.000429277        0.0674032         0.01615
281754                 0.0190092     -0.00433658      -0.00017146    -0.000204214         0.526431        0.839781     -0.000725713     0.000315242
                    -0.000192821    -0.000218965        0.0565212      -0.0428588     -0.000733526      0.00029318          0.22016        0.963441
                        0.526232        0.839818     -0.000718711     0.000274707        0.0110191       -0.012554      3.32625e-05     0.000386403
                      -0.0007243     0.000303394         0.220659        0.963696     -5.77843e-05     0.000429163        0.0673896       0.0160897
281756                 0.0190031     -0.00430947     -0.000171621    -0.000204259         0.526758        0.839576     -0.000725551     0.000315519
                    -0.000192943    -0.000218796        0.0565001      -0.0428422     -0.000733357     0.000293498          0.22055        0.963354
                        0.526559        0.839613     -0.000718471     0.000274718        0.0109819      -0.0125692      3.33979e-05     0.000386365
                     -0.00072417     0.000303741          0.22105        0.963614     -5.75256e-05      0.00042905         0.067376       0.0160293
281758                 0.0189971     -0.00428236     -0.000171782    -0.000204306         0.527085        0.839371     -0.000725388     0.000315797
                    -0.000193065    -0.000218626        0.0564791      -0.0428256     -0.000733189     0.000293815          0.22094        0.963266
                        0.526886        0.839409     -0.000718231     0.000274727        0.0109447      -0.0125843       3.3533e-05     0.000386328
                     -0.00072404     0.000304087         0.221441        0.963532     -5.72654e-05     0.000428937        0.0673623       0.0159691
281760                  0.018991     -0.00425525     -0.000171944    -0.000204355         0.527412        0.839166     -0.000725224     0.000316074
                    -0.000193187    -0.000218456        0.0564581      -0.0428089     -0.000733021     0.000294132          0.22133        0.963178
                        0.527214        0.839204      -0.00071799     0.000274736        0.0109075      -0.0125994      3.36674e-05     0.000386291
                     -0.00072391     0.000304434         0.221832         0.96345     -5.70037e-05     0.000428825        0.0673486       0.0159088
281762                 0.0189849     -0.00422814     -0.000172106    -0.000204404         0.527739        0.838961     -0.000725061     0.000316352
                    -0.000193308    -0.000218286         0.056437      -0.0427922     -0.000732853     0.000294449          0.22172         0.96309
                        0.527541        0.838999     -0.000717749     0.000274744        0.0108703      -0.0126145      3.38013e-05     0.000386257
