! TOUCHSTONE file generated by CST MICROWAVE STUDIO
! Date and time: Wed Oct 15 17:31:45 2025
! Project name: Teste_Macro_Metasurface_Nanopilar.cst
! Parameters = {H=600; L_x=135; L_y=195; Lambda=1064; Max_L=200; Min_L=70; PathPara=1; Phi=0; Step_L=10; Theta=0; p=520; phaseX=180; phaseY=0}
! Header version: 2018
! Port assignment regex: !\s*Touchstone port\s*([0-9]+)\s*=\s*(CST MWS port|CST DS port)\s*([0-9]+|Zmin|Zmax)\s*\(\"(.*)\"\)(\s*mode\s*([0-9]+))?.*
! Touchstone port assignment:
! Touchstone port 1 = CST MWS port Zmax ("") mode 1
! Touchstone port 2 = CST MWS port Zmax ("") mode 2
! Touchstone port 3 = CST MWS port Zmin ("") mode 1
! Touchstone port 4 = CST MWS port Zmin ("") mode 2
! S-Parameters are not renormalized. Each port impedance will be approximated by the real part at minimum frequency. The values are described via the [Reference] keyword.
! Default impedance is overridden by [Reference]
[Version] 2.0
# GHz S RI R 376.73
[Number of Ports] 4
[Reference]
376.73 376.73 259.888 259.888 
[Number of Frequencies] 51
[Network Data]
281700                  0.187287        0.043244      -0.00148623     0.000856493         0.400429       -0.891566       0.00058886    -0.000718548
                     -0.00148144     0.000883057         0.400068       -0.223566     -0.000565436    -0.000847217         0.856447      -0.0584006
                        0.400798       -0.891712     -0.000520592    -0.000854325         0.155092        0.107684       0.00179122    -0.000714522
                     0.000556991     -0.00070452         0.856702      -0.0585472       0.00173644    -0.000801057        -0.379147       -0.213454
281702                    0.1873       0.0432612      -0.00148543     0.000857154         0.400164       -0.891681       0.00058787    -0.000718592
                     -0.00148055     0.000883717         0.399573       -0.223421     -0.000565724    -0.000845787          0.85672      -0.0591643
                        0.400532       -0.891828     -0.000521051    -0.000852928         0.155178        0.107591       0.00179029    -0.000716343
                     0.000556011    -0.000704553         0.856974      -0.0593109        0.0017353    -0.000802519        -0.379088       -0.212578
281704                  0.187313       0.0432785      -0.00148464     0.000857814           0.3999       -0.891796      0.000586882    -0.000718634
                     -0.00147966     0.000884375         0.399079       -0.223276     -0.000566011    -0.000844358         0.856991      -0.0599273
                        0.400267       -0.891944     -0.000521506    -0.000851534         0.155263        0.107498       0.00178936    -0.000718159
                     0.000555032    -0.000704586         0.857245      -0.0600741       0.00173416    -0.000803977        -0.379028       -0.211703
281706                  0.187326       0.0432957      -0.00148385     0.000858472         0.399635       -0.891911      0.000585896    -0.000718675
                     -0.00147878     0.000885031         0.398586       -0.223131     -0.000566296    -0.000842933         0.857261      -0.0606898
                        0.400002       -0.892059      -0.00052196    -0.000850141         0.155349        0.107405       0.00178844     -0.00071997
                     0.000554055    -0.000704617         0.857515      -0.0608366       0.00173302    -0.000805432        -0.378966       -0.210831
281708                   0.18734       0.0433129      -0.00148305     0.000859129          0.39937       -0.892026      0.000584913    -0.000718715
                     -0.00147789     0.000885687         0.398095       -0.222985      -0.00056658    -0.000841509         0.857529      -0.0614517
                        0.399736       -0.892175      -0.00052241    -0.000848751         0.155434        0.107311       0.00178751    -0.000721778
                     0.000553079    -0.000704647         0.857782      -0.0615985       0.00173189    -0.000806883        -0.378903        -0.20996
281710                  0.187353       0.0433301      -0.00148226     0.000859784         0.399105       -0.892141      0.000583931    -0.000718754
                     -0.00147701      0.00088634         0.397605       -0.222839     -0.000566863    -0.000840088         0.857795       -0.062213
                        0.399471        -0.89229     -0.000522859    -0.000847362          0.15552        0.107218       0.00178658    -0.000723581
                     0.000552106    -0.000704676         0.858048      -0.0623598       0.00173075    -0.000808331        -0.378839       -0.209091
281712                  0.187366       0.0433473      -0.00148147     0.000860437          0.39884       -0.892256      0.000582951    -0.000718792
                     -0.00147613     0.000886993         0.397116       -0.222692     -0.000567144     -0.00083867         0.858059      -0.0629736
                        0.399206       -0.892406     -0.000523305    -0.000845975         0.155605        0.107124       0.00178565     -0.00072538
                     0.000551134    -0.000704704         0.858312      -0.0631206       0.00172962    -0.000809775        -0.378773       -0.208224
281714                  0.187379       0.0433645      -0.00148067     0.000861089         0.398575       -0.892371      0.000581973     -0.00071883
                     -0.00147525     0.000887644         0.396629       -0.222545     -0.000567424    -0.000837253         0.858322      -0.0637337
                         0.39894       -0.892521     -0.000523748    -0.000844591          0.15569        0.107031       0.00178472    -0.000727175
                     0.000550163    -0.000704731         0.858575      -0.0638807       0.00172849    -0.000811216        -0.378706       -0.207358
281716                  0.187392       0.0433817      -0.00147988     0.000861739          0.39831       -0.892486      0.000580999    -0.000718869
                     -0.00147437     0.000888293         0.396143       -0.222398     -0.000567702    -0.000835839         0.858583      -0.0644932
                        0.398675       -0.892636     -0.000524189    -0.000843208         0.155776        0.106937       0.00178379    -0.000728968
                     0.000549195    -0.000704758         0.858836      -0.0646402       0.00172735    -0.000812653        -0.378638       -0.206494
281718                  0.187405       0.0433989      -0.00147909     0.000862387         0.398045       -0.892601      0.000580033    -0.000718905
                     -0.00147349     0.000888941         0.395658        -0.22225     -0.000567979    -0.000834428         0.858843       -0.065252
                        0.398409       -0.892751     -0.000524628    -0.000841828         0.155861        0.106843       0.00178286     -0.00073076
                     0.000548228    -0.000704783         0.859095      -0.0653991       0.00172622    -0.000814086        -0.378569       -0.205633
281720                  0.187418       0.0434161       -0.0014783     0.000863034          0.39778       -0.892715      0.000579066    -0.000718931
                     -0.00147261     0.000889588         0.395174       -0.222103     -0.000568255    -0.000833019           0.8591      -0.0660102
                        0.398144       -0.892867     -0.000525064    -0.000840449         0.155946         0.10675       0.00178194    -0.000732534
                     0.000547263    -0.000704807         0.859353      -0.0661574       0.00172509    -0.000815517        -0.378498       -0.204773
281722                  0.187431       0.0434333      -0.00147751      0.00086368         0.397515        -0.89283      0.000578095    -0.000718957
                     -0.00147173     0.000890233         0.394692       -0.221954     -0.000568529    -0.000831612         0.859357      -0.0667679
                        0.397878       -0.892982     -0.000525497    -0.000839073         0.156031        0.106656         0.001781    -0.000734306
                       0.0005463     -0.00070483         0.859608      -0.0669151       0.00172396    -0.000816944        -0.378425       -0.203914
281724                  0.187444       0.0434505      -0.00147672     0.000864324          0.39725       -0.892944      0.000577125    -0.000718985
                     -0.00147085     0.000890877         0.394211       -0.221806     -0.000568802    -0.000830207         0.859611      -0.0675249
                        0.397612       -0.893096     -0.000525928    -0.000837698         0.156116        0.106562       0.00178006    -0.000736077
                     0.000545339    -0.000704852         0.859863      -0.0676722       0.00172283    -0.000818367        -0.378352       -0.203058
281726                  0.187457       0.0434677      -0.00147593     0.000864966         0.396985       -0.893059      0.000576157    -0.000719013
                     -0.00146998      0.00089152         0.393731       -0.221657     -0.000569073    -0.000828805         0.859864      -0.0682813
                        0.397347       -0.893211     -0.000526357    -0.000836326         0.156201        0.106468       0.00177913    -0.000737845
                     0.000544379    -0.000704872         0.860115      -0.0684287       0.00172171    -0.000819787        -0.378277       -0.202203
281728                   0.18747       0.0434849      -0.00147513     0.000865606          0.39672       -0.893173      0.000575192    -0.000719041
                     -0.00146911     0.000892161         0.393252       -0.221508     -0.000569343    -0.000827405         0.860115      -0.0690371
                        0.397081       -0.893326     -0.000526783    -0.000834955         0.156286        0.106374       0.00177819    -0.000739609
                      0.00054342    -0.000704892         0.860366      -0.0691845       0.00172058    -0.000821204        -0.378201       -0.201351
281730                  0.187483        0.043502      -0.00147434     0.000866245         0.396455       -0.893287      0.000574229    -0.000719067
                     -0.00146823       0.0008928         0.392775       -0.221359     -0.000569612    -0.000826008         0.860365      -0.0697923
                        0.396815       -0.893441     -0.000527207    -0.000833587         0.156371         0.10628       0.00177726    -0.000741368
                     0.000542464    -0.000704911         0.860616      -0.0699398       0.00171945    -0.000822617        -0.378124         -0.2005
281732                  0.187497       0.0435192      -0.00147355     0.000866883          0.39619       -0.893401      0.000573268    -0.000719092
                     -0.00146736     0.000893438         0.392299       -0.221209     -0.000569879    -0.000824613         0.860613      -0.0705469
                         0.39655       -0.893555     -0.000527628    -0.000832221         0.156456        0.106186       0.00177632    -0.000743123
                     0.000541509    -0.000704928         0.860864      -0.0706944       0.00171833    -0.000824027        -0.378046        -0.19965
281734                   0.18751       0.0435364      -0.00147277     0.000867518         0.395924       -0.893516      0.000572309    -0.000719116
                     -0.00146649     0.000894074         0.391824       -0.221059     -0.000570145     -0.00082322          0.86086      -0.0713009
                        0.396284        -0.89367     -0.000528047    -0.000830856         0.156541        0.106092       0.00177538    -0.000744874
                     0.000540555    -0.000704945          0.86111      -0.0714484        0.0017172    -0.000825433        -0.377966       -0.198803
281736                  0.187523       0.0435535      -0.00147198     0.000868152         0.395659       -0.893629      0.000571352    -0.000719139
                     -0.00146562     0.000894708          0.39135       -0.220908      -0.00057041    -0.000821829         0.861104      -0.0720542
                        0.396018       -0.893784     -0.000528464    -0.000829494         0.156625        0.105998       0.00177444    -0.000746621
                     0.000539603     -0.00070496         0.861355      -0.0722018       0.00171608    -0.000826837        -0.377885       -0.197957
281738                  0.187536       0.0435707      -0.00147119     0.000868785         0.395394       -0.893743      0.000570396    -0.000719161
                     -0.00146475     0.000895341         0.390878       -0.220758     -0.000570673    -0.000820441         0.861348      -0.0728069
                        0.395752       -0.893898     -0.000528878    -0.000828133          0.15671        0.105903       0.00177351    -0.000748363
                     0.000538652    -0.000704975         0.861598      -0.0729546       0.00171496    -0.000828236        -0.377803       -0.197113
281740                  0.187549       0.0435878       -0.0014704     0.000869416         0.395128       -0.893857      0.000569443    -0.000719181
                     -0.00146388     0.000895972         0.390406       -0.220607     -0.000570934    -0.000819055         0.861589       -0.073559
                        0.395486       -0.894013      -0.00052929    -0.000826775         0.156795        0.105809       0.00177257    -0.000750101
                     0.000537704    -0.000704988         0.861839      -0.0737068       0.00171384    -0.000829633        -0.377719       -0.196271
281742                  0.187562        0.043605      -0.00146961     0.000870045         0.394863       -0.893971      0.000568491    -0.000719201
                     -0.00146302     0.000896602         0.389936       -0.220456     -0.000571194    -0.000817671         0.861829      -0.0743104
                         0.39522       -0.894127     -0.000529699    -0.000825419         0.156879        0.105715       0.00177163    -0.000751835
                     0.000536756    -0.000705001         0.862079      -0.0744583       0.00171271    -0.000831026        -0.377635       -0.195431
281744                  0.187575       0.0436221      -0.00146882     0.000870672         0.394598       -0.894085      0.000567541    -0.000719219
                     -0.00146215     0.000897231         0.389468       -0.220304     -0.000571453     -0.00081629         0.862068      -0.0750613
                        0.394955       -0.894241     -0.000530106    -0.000824065         0.156964         0.10562       0.00177069    -0.000753564
                      0.00053581    -0.000705013         0.862317      -0.0752092       0.00171159    -0.000832416        -0.377549       -0.194592
281746                  0.187588       0.0436393      -0.00146804     0.000871298         0.394332       -0.894198      0.000566593    -0.000719236
                     -0.00146129     0.000897858            0.389       -0.220153      -0.00057171     -0.00081491         0.862305      -0.0758115
                        0.394689       -0.894355      -0.00053051    -0.000822712         0.157048        0.105526       0.00176975    -0.000755289
                     0.000534866    -0.000705023         0.862554      -0.0759595       0.00171048    -0.000833802        -0.377462       -0.193755
281748                  0.187602       0.0436564      -0.00146725     0.000871923         0.394067       -0.894312      0.000565646    -0.000719252
                     -0.00146042     0.000898485         0.388534           -0.22     -0.000571966    -0.000813534          0.86254      -0.0765611
                        0.394423       -0.894469     -0.000530912    -0.000821362         0.157132        0.105431        0.0017688     -0.00075701
                     0.000533923    -0.000705033         0.862789      -0.0767092       0.00170936    -0.000835185        -0.377374        -0.19292
281750                  0.187615       0.0436735      -0.00146646     0.000872546         0.393801       -0.894425      0.000564702    -0.000719266
                     -0.00145956     0.000899109         0.388069       -0.219848      -0.00057222    -0.000812159         0.862774      -0.0773101
                        0.394157       -0.894583     -0.000531312    -0.000820014         0.157217        0.105337       0.00176786    -0.000758727
                     0.000532982    -0.000705042         0.863022      -0.0774582       0.00170824    -0.000836564        -0.377284       -0.192087
281752                  0.187628       0.0436907      -0.00146568     0.000873167         0.393536       -0.894538      0.000563759     -0.00071928
                      -0.0014587     0.000899733         0.387605       -0.219696     -0.000572471    -0.000810788         0.863006      -0.0780584
                        0.393891       -0.894696     -0.000531709    -0.000818668         0.157301        0.105242       0.00176692     -0.00076044
                     0.000532043    -0.000705049         0.863254      -0.0782067       0.00170712    -0.000837939        -0.377194       -0.191255
281754                  0.187641       0.0437078      -0.00146489     0.000873786          0.39327       -0.894652      0.000562818    -0.000719292
                     -0.00145783     0.000900355         0.387142       -0.219543     -0.000572716     -0.00080942         0.863237      -0.0788061
                        0.393625        -0.89481     -0.000532104    -0.000817324         0.157385        0.105148       0.00176598    -0.000762148
                     0.000531105    -0.000705056         0.863485      -0.0789545       0.00170599    -0.000839305        -0.377102       -0.190426
281756                  0.187654       0.0437249       -0.0014641     0.000874404         0.393005       -0.894765      0.000561878    -0.000719303
                     -0.00145697     0.000900975         0.386681        -0.21939     -0.000573043    -0.000807973         0.863466      -0.0795532
                        0.393358       -0.894924     -0.000532497    -0.000815982         0.157469        0.105053       0.00176503    -0.000763852
                     0.000530168    -0.000705062         0.863714      -0.0797016       0.00170492    -0.000840784        -0.377009       -0.189598
281758                  0.187667        0.043742      -0.00146332      0.00087502         0.392739       -0.894878       0.00056094    -0.000719313
                     -0.00145611     0.000901595         0.386221       -0.219236     -0.000573241    -0.000806675         0.863694      -0.0802996
                        0.393092       -0.895037     -0.000532887    -0.000814642         0.157553        0.104958       0.00176409    -0.000765552
                     0.000529233    -0.000705067         0.863941      -0.0804482        0.0017038    -0.000842073        -0.376915       -0.188771
281760                  0.187681       0.0437591      -0.00146253     0.000875635         0.392474       -0.894991      0.000560004    -0.000719322
                     -0.00145526     0.000902213         0.385762       -0.219083     -0.000573484    -0.000805314          0.86392      -0.0810455
                        0.392826       -0.895151     -0.000533275    -0.000813304         0.157637        0.104863       0.00176314    -0.000767247
                       0.0005283    -0.000705071         0.864167      -0.0811941       0.00170268     -0.00084343         -0.37682       -0.187947
281762                  0.187694       0.0437763      -0.00146175     0.000876248         0.392208       -0.895104       0.00055907     -0.00071933
                      -0.0014544     0.000902829         0.385304       -0.218929     -0.000573729    -0.000803954         0.864145      -0.0817906
                         0.39256       -0.895264      -0.00053366    -0.000811968         0.157721        0.104768        0.0017622    -0.000768938
