! TOUCHSTONE file generated by CST MICROWAVE STUDIO
! Date and time: Wed Oct 15 17:31:54 2025
! Project name: Teste_Macro_Metasurface_Nanopilar.cst
! Parameters = {H=600; L_x=140; L_y=130; Lambda=1064; Max_L=200; Min_L=70; PathPara=1; Phi=0; Step_L=10; Theta=0; p=520; phaseX=180; phaseY=0}
! Header version: 2018
! Port assignment regex: !\s*Touchstone port\s*([0-9]+)\s*=\s*(CST MWS port|CST DS port)\s*([0-9]+|Zmin|Zmax)\s*\(\"(.*)\"\)(\s*mode\s*([0-9]+))?.*
! Touchstone port assignment:
! Touchstone port 1 = CST MWS port Zmax ("") mode 1
! Touchstone port 2 = CST MWS port Zmax ("") mode 2
! Touchstone port 3 = CST MWS port Zmin ("") mode 1
! Touchstone port 4 = CST MWS port Zmin ("") mode 2
! S-Parameters are not renormalized. Each port impedance will be approximated by the real part at minimum frequency. The values are described via the [Reference] keyword.
! Default impedance is overridden by [Reference]
[Version] 2.0
# GHz S RI R 376.73
[Number of Ports] 4
[Reference]
376.73 376.73 259.888 259.888 
[Number of Frequencies] 51
[Network Data]
281700                 0.0746815        0.108334      0.000717934     0.000257842         0.982026       0.0888326     -3.14746e-05     0.000256333
                     0.000694028     0.000189855        0.0996081        0.150386     -9.87903e-05     0.000189993         0.955382       -0.213204
                        0.981881       0.0887158     -0.000129797     0.000218405       -0.0916297       0.0937639     -0.000807567     0.000275717
                    -3.11858e-05     0.000268579         0.955446        -0.21351      -0.00073552     0.000332866       -0.0249915        0.177814
281702                 0.0746955        0.108345       0.00071802     0.000257672         0.982053       0.0885075     -3.13578e-05     0.000256482
                     0.000694116     0.000189666        0.0996238          0.1504     -9.85609e-05     0.000190089          0.95531        -0.21351
                        0.981908       0.0883909     -0.000129688     0.000218501       -0.0915834       0.0938323     -0.000807474     0.000276091
                    -3.11189e-05      0.00026871         0.955375       -0.213816     -0.000735515     0.000333235        -0.024885        0.177849
281704                 0.0747095        0.108356      0.000718106     0.000257502          0.98208       0.0881824     -3.12408e-05     0.000256631
                     0.000694205     0.000189477        0.0996395        0.150415     -9.83315e-05     0.000190185         0.955237       -0.213817
                        0.981936        0.088066     -0.000129578     0.000218596       -0.0915372       0.0939008     -0.000807382     0.000276466
                    -3.10518e-05     0.000268841         0.955302       -0.214123      -0.00073551     0.000333604       -0.0247786        0.177884
281706                 0.0747235        0.108366      0.000718191     0.000257331         0.982107       0.0878573     -3.11236e-05     0.000256779
                     0.000694293     0.000189288        0.0996552        0.150429     -9.81021e-05     0.000190283         0.955165       -0.214124
                        0.981963       0.0877411     -0.000129468     0.000218691       -0.0914908       0.0939692     -0.000807291      0.00027684
                    -3.09846e-05     0.000268972          0.95523        -0.21443     -0.000735506     0.000333972       -0.0246721         0.17792
281708                 0.0747376        0.108377      0.000718277     0.000257161         0.982134       0.0875323     -3.10061e-05     0.000256928
                     0.000694381     0.000189099         0.099671        0.150443     -9.78728e-05      0.00019038         0.955092       -0.214431
                        0.981991       0.0874162     -0.000129359     0.000218786       -0.0914445       0.0940376       -0.0008072     0.000277215
                    -3.09172e-05     0.000269103         0.955158       -0.214737     -0.000735503     0.000334341       -0.0245656        0.177955
281710                 0.0747516        0.108388      0.000718363      0.00025699         0.982161       0.0872072     -3.08885e-05     0.000257076
                     0.000694469     0.000188911        0.0996867        0.150457     -9.76435e-05     0.000190478          0.95502       -0.214737
                        0.982018       0.0870913     -0.000129249      0.00021888        -0.091398        0.094106     -0.000807111     0.000277589
                    -3.08497e-05     0.000269235         0.955086       -0.215043       -0.0007355     0.000334709        -0.024459         0.17799
281712                 0.0747656        0.108398      0.000718449     0.000256819         0.982188       0.0868821     -3.07707e-05     0.000257224
                     0.000694556     0.000188723        0.0997024        0.150471     -9.74143e-05     0.000190577         0.954947       -0.215044
                        0.982045       0.0867664     -0.000129138     0.000218975       -0.0913516       0.0941744     -0.000807021     0.000277962
                     -3.0782e-05     0.000269366         0.955013        -0.21535     -0.000735498     0.000335077       -0.0243524        0.178025
281714                 0.0747796        0.108409      0.000718535     0.000256649         0.982214        0.086557     -3.06527e-05     0.000257372
                     0.000694644     0.000188534        0.0997181        0.150485     -9.71852e-05     0.000190677         0.954874       -0.215351
                        0.982072       0.0864415     -0.000129028     0.000219069        -0.091305       0.0942427     -0.000806932     0.000278336
                    -3.07142e-05     0.000269497         0.954941       -0.215657     -0.000735497     0.000335444       -0.0242458         0.17806
281716                 0.0747936         0.10842      0.000718621     0.000256478         0.982241       0.0862319     -3.05346e-05      0.00025752
                     0.000694731     0.000188346        0.0997339        0.150499     -9.69563e-05     0.000190777         0.954801       -0.215657
                        0.982099       0.0861166     -0.000128918     0.000219164       -0.0912585        0.094311     -0.000806843     0.000278709
                    -3.06462e-05     0.000269629         0.954868       -0.215963     -0.000735496     0.000335811       -0.0241391        0.178095
281718                 0.0748077         0.10843      0.000718707     0.000256307         0.982267       0.0859068     -3.04163e-05     0.000257668
                     0.000694817     0.000188158        0.0997496        0.150513     -9.67275e-05     0.000190878         0.954728       -0.215964
                        0.982125       0.0857917     -0.000128807     0.000219258       -0.0912118       0.0943793     -0.000806755     0.000279082
                    -3.05781e-05      0.00026976         0.954795        -0.21627     -0.000735496     0.000336178       -0.0240324        0.178129
281720                 0.0748217        0.108441      0.000718793     0.000256136         0.982293       0.0855817     -3.02979e-05     0.000257816
                     0.000694904      0.00018797        0.0997653        0.150527      -9.6499e-05     0.000190979         0.954655        -0.21627
                        0.982152       0.0854668     -0.000128696     0.000219352       -0.0911652       0.0944476     -0.000806666     0.000279455
                    -3.05098e-05     0.000269892         0.954722       -0.216577     -0.000735496     0.000336545       -0.0239256        0.178164
281722                 0.0748357        0.108452       0.00071888     0.000255965          0.98232       0.0852566     -3.01794e-05     0.000257963
                      0.00069499     0.000187782         0.099781        0.150542      -9.6271e-05     0.000191081         0.954582       -0.216577
                        0.982178       0.0851419     -0.000128585     0.000219446       -0.0911184       0.0945159     -0.000806578     0.000279827
                    -3.04414e-05     0.000270024         0.954649       -0.216883     -0.000735498     0.000336911       -0.0238189        0.178199
281724                 0.0748497        0.108462      0.000718966     0.000255794         0.982346       0.0849315     -3.00607e-05      0.00025811
                     0.000695076     0.000187593        0.0997968        0.150556     -9.60438e-05     0.000191184         0.954509       -0.216883
                        0.982205       0.0848169     -0.000128474      0.00021954       -0.0910717       0.0945841      -0.00080649     0.000280199
                    -3.03728e-05     0.000270155         0.954576        -0.21719       -0.0007355     0.000337277        -0.023712        0.178234
281726                 0.0748637        0.108473      0.000719052     0.000255622         0.982372       0.0846064      -2.9942e-05     0.000258257
                     0.000695162     0.000187405        0.0998125         0.15057     -9.58179e-05     0.000191287         0.954435        -0.21719
                        0.982231        0.084492     -0.000128363     0.000219633       -0.0910248       0.0946523     -0.000806402     0.000280571
                    -3.03041e-05     0.000270287         0.954503       -0.217496     -0.000735504     0.000337644       -0.0236052        0.178268
281728                 0.0748777        0.108484      0.000719139     0.000255451         0.982397       0.0842813     -2.98232e-05     0.000258404
                     0.000695248     0.000187217        0.0998282        0.150584     -9.55947e-05      0.00019139         0.954362       -0.217496
                        0.982257       0.0841671     -0.000128252     0.000219727        -0.090978       0.0947205     -0.000806314     0.000280943
                    -3.02353e-05     0.000270419          0.95443       -0.217803     -0.000735511      0.00033801       -0.0234983        0.178303
281730                 0.0748918        0.108494      0.000719225     0.000255279         0.982423       0.0839562     -2.97043e-05     0.000258551
                     0.000695333     0.000187029         0.099844        0.150598     -9.53748e-05     0.000191487         0.954288       -0.217803
                        0.982284       0.0838422      -0.00012814      0.00021982       -0.0909311       0.0947886     -0.000806226     0.000281314
                    -3.01663e-05     0.000270551         0.954357       -0.218109     -0.000735522     0.000338382       -0.0233914        0.178337
281732                 0.0749058        0.108505      0.000719312     0.000255107         0.982449       0.0836311     -2.95853e-05     0.000258698
                     0.000695419     0.000186841        0.0998597        0.150612     -9.51469e-05     0.000191573         0.954214       -0.218109
                         0.98231       0.0835172     -0.000128028     0.000219913       -0.0908841       0.0948567     -0.000806137     0.000281685
                    -3.00972e-05     0.000270682         0.954283       -0.218416      -0.00073552     0.000338772       -0.0232844        0.178371
281734                 0.0749198        0.108516      0.000719398     0.000254934         0.982474        0.083306     -2.94663e-05     0.000258845
                     0.000695504     0.000186653        0.0998754        0.150626        -9.49e-05     0.000191669          0.95414       -0.218416
                        0.982335       0.0831923     -0.000127916     0.000220006       -0.0908371       0.0949248     -0.000806049     0.000282056
                    -3.00279e-05     0.000270814          0.95421       -0.218722     -0.000735498     0.000339129       -0.0231775        0.178406
281736                 0.0749338        0.108526      0.000719484     0.000254762           0.9825       0.0829812     -2.93472e-05     0.000258992
                     0.000695589     0.000186464        0.0998912         0.15064     -9.46608e-05     0.000191781         0.954067       -0.218722
                        0.982361       0.0828674     -0.000127803     0.000220098         -0.09079       0.0949929     -0.000805961     0.000282427
                    -2.99586e-05     0.000270946         0.954136       -0.219028     -0.000735501     0.000339482       -0.0230704         0.17844
281738                 0.0749478        0.108537      0.000719571     0.000254589         0.982525       0.0826559      -2.9228e-05     0.000259139
                     0.000695674     0.000186276        0.0999069        0.150655     -9.44288e-05     0.000191892         0.953992       -0.219028
                        0.982387       0.0825424      -0.00012769     0.000220191       -0.0907429        0.095061     -0.000805873     0.000282797
                     -2.9889e-05     0.000271078         0.954062       -0.219335     -0.000735508     0.000339841       -0.0229634        0.178474
281740                 0.0749618        0.108548      0.000719657     0.000254416          0.98255       0.0823308     -2.91088e-05     0.000259285
                     0.000695759     0.000186088        0.0999227        0.150669     -9.41992e-05     0.000192003         0.953918       -0.219335
                        0.982412       0.0822175     -0.000127577     0.000220283       -0.0906957        0.095129     -0.000805784     0.000283168
                    -2.98194e-05      0.00027121         0.953988       -0.219641     -0.000735515     0.000340203       -0.0228563        0.178508
281742                 0.0749759        0.108558      0.000719743     0.000254242         0.982575       0.0820056     -2.89895e-05     0.000259432
                     0.000695843     0.000185899        0.0999384        0.150683     -9.39704e-05     0.000192113         0.953844       -0.219641
                        0.982438       0.0818926     -0.000127464     0.000220375       -0.0906485        0.095197     -0.000805695     0.000283538
                    -2.97497e-05     0.000271342         0.953914       -0.219947     -0.000735522     0.000340565       -0.0227491        0.178542
281744                 0.0749899        0.108569      0.000719829     0.000254069           0.9826       0.0816805     -2.88702e-05     0.000259578
                     0.000695928     0.000185711        0.0999541        0.150697     -9.37419e-05     0.000192223          0.95377       -0.219947
                        0.982463       0.0815676      -0.00012735     0.000220467       -0.0906013        0.095265     -0.000805607     0.000283907
                    -2.96798e-05     0.000271474          0.95384       -0.220254      -0.00073553     0.000340927        -0.022642        0.178576
281746                 0.0750039        0.108579      0.000719915     0.000253895         0.982625       0.0813554     -2.87508e-05     0.000259725
                     0.000696012     0.000185523        0.0999699        0.150711     -9.35136e-05     0.000192333         0.953695       -0.220254
                        0.982488       0.0812427     -0.000127235     0.000220559       -0.0905539        0.095333     -0.000805518     0.000284277
                    -2.96099e-05     0.000271606         0.953766        -0.22056     -0.000735538     0.000341289       -0.0225348         0.17861
281748                 0.0750179         0.10859          0.00072     0.000253721          0.98265       0.0810303     -2.86314e-05     0.000259872
                     0.000696096     0.000185334        0.0999856        0.150725     -9.32854e-05     0.000192443         0.953621        -0.22056
                        0.982514       0.0809177      -0.00012712     0.000220651       -0.0905066       0.0954009     -0.000805428     0.000284647
                    -2.95398e-05     0.000271738         0.953692       -0.220866     -0.000735546     0.000341651       -0.0224275        0.178644
281750                 0.0750319        0.108601      0.000720086     0.000253546         0.982675       0.0807052     -2.85119e-05     0.000260019
                      0.00069618     0.000185146         0.100001        0.150739     -9.30573e-05     0.000192554         0.953546       -0.220866
                        0.982539       0.0805928     -0.000127004     0.000220743       -0.0904592       0.0954688     -0.000805339     0.000285016
                    -2.94697e-05      0.00027187         0.953618       -0.221172     -0.000735555     0.000342013       -0.0223203        0.178678
281752                 0.0750459        0.108611      0.000720171     0.000253372         0.982699         0.08038     -2.83923e-05     0.000260165
                     0.000696264     0.000184957         0.100017        0.150754     -9.28294e-05     0.000192665         0.953472       -0.221172
                        0.982564       0.0802678     -0.000126888     0.000220835       -0.0904117       0.0955367     -0.000805249     0.000285385
                    -2.93994e-05     0.000272002         0.953543       -0.221478     -0.000735564     0.000342374        -0.022213        0.178712
281754                   0.07506        0.108622      0.000720256     0.000253197         0.982724       0.0800549     -2.82726e-05     0.000260312
                     0.000696348     0.000184769         0.100033        0.150768     -9.26016e-05     0.000192777         0.953397       -0.221478
                        0.982588       0.0799428     -0.000126772     0.000220928       -0.0903642       0.0956046     -0.000805159     0.000285754
                    -2.93291e-05     0.000272134         0.953469       -0.221785     -0.000735574     0.000342735       -0.0221056        0.178746
281756                  0.075074        0.108633      0.000720341     0.000253023         0.982748       0.0797298     -2.81529e-05     0.000260459
                     0.000696431      0.00018458         0.100049        0.150782     -9.23739e-05      0.00019289         0.953322       -0.221784
                        0.982613       0.0796179     -0.000126655     0.000221021       -0.0903166       0.0956725     -0.000805069     0.000286123
                    -2.92587e-05     0.000272267         0.953394       -0.222091     -0.000735585     0.000343096       -0.0219983        0.178779
281758                  0.075088        0.108643      0.000720425     0.000252848         0.982772       0.0794047      -2.8033e-05     0.000260606
                     0.000696515     0.000184391         0.100064        0.150796     -9.21464e-05     0.000193003         0.953247        -0.22209
                        0.982638       0.0792929     -0.000126539     0.000221113        -0.090269       0.0957403     -0.000804979     0.000286492
                    -2.91882e-05     0.000272399         0.953319       -0.222397     -0.000735596     0.000343456       -0.0218908        0.178813
281760                  0.075102        0.108654      0.000720509     0.000252673         0.982796       0.0790795      -2.7913e-05     0.000260753
                     0.000696598     0.000184202          0.10008         0.15081      -9.1919e-05     0.000193117         0.953172       -0.222397
                        0.982662        0.078968     -0.000126423     0.000221206       -0.0902214       0.0958081     -0.000804889      0.00028686
                    -2.91177e-05     0.000272531         0.953245       -0.222703     -0.000735607     0.000343816       -0.0217834        0.178846
281762                  0.075116        0.108665      0.000720593     0.000252498          0.98282       0.0787544     -2.77929e-05       0.0002609
                     0.000696681     0.000184014         0.100096        0.150824     -9.16918e-05     0.000193232         0.953096       -0.222703
                        0.982686        0.078643     -0.000126308     0.000221299       -0.0901737       0.0958759     -0.000804798     0.000287228
