! TOUCHSTONE file generated by CST MICROWAVE STUDIO
! Date and time: Wed Oct 15 17:32:45 2025
! Project name: Teste_Macro_Metasurface_Nanopilar.cst
! Parameters = {H=600; L_x=155; L_y=130; Lambda=1064; Max_L=200; Min_L=70; PathPara=1; Phi=0; Step_L=10; Theta=0; p=520; phaseX=180; phaseY=0}
! Header version: 2018
! Port assignment regex: !\s*Touchstone port\s*([0-9]+)\s*=\s*(CST MWS port|CST DS port)\s*([0-9]+|Zmin|Zmax)\s*\(\"(.*)\"\)(\s*mode\s*([0-9]+))?.*
! Touchstone port assignment:
! Touchstone port 1 = CST MWS port Zmax ("") mode 1
! Touchstone port 2 = CST MWS port Zmax ("") mode 2
! Touchstone port 3 = CST MWS port Zmin ("") mode 1
! Touchstone port 4 = CST MWS port Zmin ("") mode 2
! S-Parameters are not renormalized. Each port impedance will be approximated by the real part at minimum frequency. The values are described via the [Reference] keyword.
! Default impedance is overridden by [Reference]
[Version] 2.0
# GHz S RI R 376.73
[Number of Ports] 4
[Reference]
376.73 376.73 259.888 259.888 
[Number of Frequencies] 51
[Network Data]
281700                  0.099121        0.124325      0.000576798    -0.000335826         0.974988       -0.123004      0.000219954      0.00149543
                     0.000398782    -0.000102161         0.446765        0.482045      0.000690196    -0.000420377          0.28044       -0.669456
                        0.974721       -0.123311      0.000990494     0.000157948        -0.063923        0.144775     -0.000525389      0.00112852
                     3.97338e-05      0.00116236         0.280029       -0.669908      0.000236461       0.0015386         0.640426      -0.0766443
281702                 0.0991334        0.124336      0.000577339    -0.000336623         0.974945       -0.123317      0.000222138      0.00149818
                     0.000396744    -0.000101249         0.447241        0.482122      0.000679116     -0.00040546         0.279749       -0.669319
                        0.974684       -0.123611      0.000990332     0.000156228       -0.0638315         0.14483     -0.000525928      0.00113285
                     4.11925e-05      0.00117583         0.279375       -0.669754      0.000261924      0.00157493         0.640712      -0.0775123
281704                 0.0991458        0.124347      0.000577998     -0.00033746           0.9749        -0.12363      0.000224343      0.00150097
                      0.00039301     -0.00010016         0.447717        0.482197      0.000667448    -0.000383481         0.279057       -0.669181
                        0.974645        -0.12391       0.00099015     0.000154485       -0.0637401        0.144884     -0.000526479      0.00113713
                     4.30799e-05      0.00119046         0.278716       -0.669596      0.000289136      0.00164546         0.640996      -0.0783813
281706                 0.0991583        0.124359      0.000578803    -0.000338366         0.974855       -0.123942      0.000226569      0.00150381
                     0.000386113    -9.96847e-05         0.448195        0.482268      0.000658865    -0.000349908         0.278364       -0.669041
                        0.974604       -0.124207      0.000989946     0.000152715       -0.0636491        0.144938     -0.000527044      0.00114136
                     4.56128e-05      0.00120657         0.278051       -0.669436      0.000273082      0.00179172          0.64128      -0.0792515
281708                 0.0991707         0.12437      0.000579778    -0.000339386         0.974809       -0.124254      0.000228819       0.0015067
                     0.000373935     -0.00010342         0.448676        0.482337      0.000664783    -0.000301072         0.277669         -0.6689
                        0.974559       -0.124505      0.000989719     0.000150913       -0.0635585         0.14499     -0.000527627      0.00114553
                     4.91489e-05      0.00122458         0.277381       -0.669274      3.28342e-05      0.00192335         0.641562      -0.0801229
281710                 0.0991832        0.124382      0.000580947    -0.000340588         0.974762       -0.124565      0.000231091      0.00150966
                     0.000360568    -0.000121726          0.44916        0.482403      0.000706284    -0.000249066         0.276974       -0.668758
                        0.974509       -0.124803      0.000989468     0.000149074       -0.0634685        0.145042     -0.000528234      0.00114965
                     5.43063e-05      0.00124515         0.276706        -0.66911     -0.000162415      0.00171312         0.641843      -0.0809955
281712                 0.0991957        0.124394      0.000582318    -0.000342076         0.974714       -0.124876      0.000233387      0.00151269
                     0.000369941    -0.000150198         0.449649        0.482467      0.000780673    -0.000235817         0.276277       -0.668615
                        0.974456       -0.125105      0.000989192     0.000147188       -0.0633792        0.145093     -0.000528869       0.0011537
                     6.22106e-05      0.00126917         0.276028       -0.668945     -0.000115148      0.00156064         0.642123      -0.0818693
281714                 0.0992081        0.124407       0.00058386    -0.000343995         0.974664       -0.125184      0.000235707      0.00151581
                     0.000392944    -0.000157315         0.450143        0.482532      0.000835939    -0.000271848          0.27558       -0.668471
                          0.9744       -0.125413       0.00098889     0.000145245       -0.0632906        0.145143     -0.000529538      0.00115768
                     7.50428e-05      0.00129789         0.275345        -0.66878      -5.5273e-05      0.00150815         0.642401      -0.0827443
281716                 0.0992203         0.12442      0.000585455    -0.000346526         0.974614        -0.12549      0.000238051      0.00151904
                     0.000406295     -0.00015263         0.450641        0.482597      0.000852491    -0.000315783         0.274882       -0.668326
                        0.974345       -0.125725      0.000988562     0.000143234       -0.0632029        0.145193     -0.000530249      0.00116159
                      9.7319e-05      0.00133274         0.274658       -0.668614     -1.41915e-05       0.0014896         0.642678      -0.0836206
281718                 0.0992319        0.124434      0.000586843     -0.00034984         0.974563       -0.125791      0.000240419      0.00152241
                     0.000412576    -0.000147647         0.451144        0.482665       0.00084905    -0.000346609         0.274183       -0.668181
                        0.974293       -0.126041      0.000988209     0.000141138        -0.063116        0.145243     -0.000531013      0.00116542
                     0.000138901      0.00137368         0.273969       -0.668448      1.36766e-05      0.00148289         0.642954      -0.0844982
281720                  0.099242         0.12445      0.000587587    -0.000353963         0.974517       -0.126088      0.000242809      0.00152594
                      0.00041584    -0.000144149         0.451648        0.482736      0.000839779    -0.000365092         0.273485       -0.668035
                        0.974244        -0.12636      0.000987836     0.000138936       -0.0630299        0.145292      -0.00053184      0.00116916
                     0.000220295      0.00141017         0.273276       -0.668282      3.34118e-05      0.00148092         0.643228      -0.0853772
281722                 0.0992488        0.124467      0.000587185    -0.000358606         0.974477       -0.126382      0.000245218      0.00152969
                     0.000417826    -0.000141879         0.452154         0.48281      0.000829994    -0.000375555         0.272786       -0.667889
                        0.974199        -0.12668       0.00098745       0.0001366       -0.0629447        0.145342     -0.000532746      0.00117279
                     0.000360605      0.00138661         0.272581       -0.668116       4.7986e-05      0.00148108         0.643501      -0.0862575
281724                 0.0992497        0.124481      0.000585369    -0.000363103         0.974446        -0.12668      0.000247642      0.00153371
                     0.000419229    -0.000140457          0.45266        0.482887       0.00082121    -0.000381099         0.272087       -0.667742
                        0.974156       -0.126998      0.000987067     0.000134096       -0.0628602        0.145391     -0.000533749      0.00117631
                     0.000456518      0.00121406         0.271884       -0.667951      5.91072e-05      0.00148231         0.643773      -0.0871392
281726                 0.0992477        0.124486      0.000582396    -0.000366715         0.974419       -0.126986      0.000250067      0.00153811
                     0.000420349    -0.000139616         0.453166        0.482966      0.000813699     -0.00038356          0.27139       -0.667595
                        0.974115       -0.127316      0.000986714     0.000131379       -0.0627765        0.145441     -0.000534874      0.00117969
                     0.000363037       0.0010523         0.271185       -0.667785      6.77891e-05      0.00148409         0.644043      -0.0880223
281728                 0.0992546        0.124482      0.000578928    -0.000369065         0.974389       -0.127299       0.00025247      0.00154303
                     0.000421322     -0.00013918         0.453672        0.483046      0.000807382     -0.00038399         0.270693       -0.667448
                        0.974076       -0.127633      0.000986442     0.000128392       -0.0626934        0.145491     -0.000536151       0.0011829
                     0.000239855      0.00102538         0.270484       -0.667621      7.46539e-05       0.0014862         0.644311      -0.0889069
281730                 0.0992706        0.124482      0.000575607     -0.00037027         0.974355       -0.127616      0.000254806       0.0015487
                     0.000422217    -0.000139037         0.454177        0.483127       0.00080211    -0.000382995         0.269999       -0.667301
                        0.974037       -0.127949      0.000986337     0.000125072       -0.0626109        0.145541     -0.000537622       0.0011859
                     0.000164889      0.00104986         0.269782       -0.667457      8.00916e-05      0.00148849         0.644578       -0.089793
281732                 0.0992883        0.124488      0.000572787    -0.000370699         0.974316       -0.127934      0.000256971      0.00155548
                     0.000423071    -0.000139112         0.454681        0.483209      0.000797749    -0.000380929         0.269307       -0.667152
                        0.973999       -0.128263      0.000986543     0.000121357       -0.0625289        0.145592     -0.000539339      0.00118863
                     0.000122838      0.00108146         0.269079       -0.667294      8.43453e-05      0.00149092         0.644844      -0.0906806
281734                 0.0993051        0.124497      0.000570545    -0.000370715         0.974275       -0.128251       0.00025873      0.00156405
                     0.000423904    -0.000139351         0.455185        0.483291      0.000794205    -0.000377995         0.268618       -0.667001
                        0.973961       -0.128577      0.000987298     0.000117224       -0.0624473        0.145644     -0.000541373      0.00119099
                     9.79266e-05      0.00111032         0.268375       -0.667132      8.75588e-05      0.00149344         0.645107      -0.0915699
281736                 0.0993206        0.124507      0.000568815    -0.000370571         0.974231       -0.128568      0.000259453      0.00157571
                     0.000424728     -0.00013972         0.455688        0.483372      0.000791425      -0.0003743         0.267933       -0.666848
                        0.973923       -0.128889       0.00098895     0.000112769       -0.0623661        0.145696     -0.000543814      0.00119281
                      8.2038e-05      0.00113533         0.267671        -0.66697      8.98017e-05      0.00149604         0.645369      -0.0924608
281738                 0.0993353        0.124518      0.000567487    -0.000370408         0.974186       -0.128884      0.000257163      0.00159325
                     0.000425548    -0.000140193         0.456191        0.483454      0.000789406    -0.000369886         0.267251        -0.66669
                        0.973885       -0.129201       0.00099191     0.000108353        -0.062285        0.145749     -0.000546765      0.00119381
                     7.11733e-05      0.00115704         0.266967        -0.66681      9.10811e-05      0.00149872         0.645629      -0.0933534
281740                 0.0993494        0.124529      0.000566458    -0.000370298          0.97414       -0.129199       0.00024372      0.00162301
                     0.000426371     -0.00014075         0.456694        0.483536      0.000788195    -0.000364747         0.266571       -0.666526
                        0.973847       -0.129513      0.000996419     0.000104757       -0.0622041        0.145802     -0.000550308      0.00119349
                     6.32657e-05      0.00117619         0.266263        -0.66665      9.13436e-05      0.00150149         0.645887      -0.0942479
281742                  0.099363         0.12454      0.000565647    -0.000370266         0.974094       -0.129513      0.000174013      0.00166543
                     0.000427199    -0.000141377         0.457198        0.483617      0.000787903    -0.000358839         0.265892       -0.666354
                        0.973809       -0.129824       0.00100207     0.000103041       -0.0621233        0.145857      -0.00055435       0.0011909
                      5.7179e-05      0.00119335         0.265559       -0.666492      9.04677e-05      0.00150437         0.646142      -0.0951444
281744                 0.0993763        0.124551      0.000564991     -0.00037032         0.974046       -0.129826      6.39908e-05      0.00151597
                     0.000428033    -0.000142063         0.457701        0.483698      0.000788733    -0.000352088         0.265211       -0.666175
                        0.973772       -0.130134       0.00100759     0.000103832       -0.0620422        0.145912     -0.000558053      0.00118439
                     5.22513e-05      0.00120895         0.264856       -0.666334      8.82444e-05       0.0015074         0.646396       -0.096043
281746                 0.0993894        0.124562      0.000564447    -0.000370454         0.973998       -0.130139      0.000192154      0.00145572
                     0.000428876    -0.000142801         0.458205        0.483778      0.000791013    -0.000344401         0.264527        -0.66599
                        0.973735       -0.130444       0.00101151      0.00010659       -0.0619607        0.145969     -0.000558069      0.00117184
                     4.80764e-05       0.0012233         0.264155       -0.666177      8.43394e-05      0.00151062         0.646646      -0.0969441
281748                 0.0994024        0.124573      0.000563981    -0.000370659         0.973949       -0.130451      0.000239163      0.00148016
                     0.000429729    -0.000143583         0.458708        0.483859      0.000795274    -0.000335692         0.263837         -0.6658
                          0.9737       -0.130753       0.00101329     0.000109988       -0.0618781        0.146027     -0.000546018      0.00115524
                     4.43936e-05      0.00123662         0.263455       -0.666021      7.82243e-05      0.00151412         0.646894      -0.0978478
281750                 0.0994152        0.124584      0.000563572    -0.000370923           0.9739       -0.130762      0.000257354      0.00149808
                     0.000430594    -0.000144405         0.459213        0.483939      0.000802357    -0.000325959         0.263141       -0.665607
                        0.973665       -0.131059       0.00101331     0.000112939       -0.0617936        0.146086     -0.000518405      0.00115057
                     4.10294e-05      0.00124903         0.262757       -0.665865      6.90444e-05      0.00151802         0.647138      -0.0987548
281752                 0.0994279        0.124595      0.000563202    -0.000371236          0.97385       -0.131073      0.000267242      0.00151016
                     0.000431471    -0.000145262         0.459718        0.484018        0.0008136    -0.000315463         0.262439       -0.665413
                        0.973632        -0.13136        0.0010123     0.000115013       -0.0617058        0.146146     -0.000495738      0.00116703
                      3.7865e-05      0.00126066         0.262062       -0.665709      5.53529e-05      0.00152253         0.647379      -0.0996658
281754                 0.0994405        0.124606      0.000562861    -0.000371588         0.973799       -0.131382       0.00027399      0.00151893
                     0.000432362    -0.000146152         0.460223        0.484098      0.000831054     -0.00030521         0.261733       -0.665221
                        0.973596        -0.13165       0.00101083     0.000116222       -0.0616139        0.146205     -0.000489049      0.00118756
                     3.48174e-05      0.00127154          0.26137       -0.665552      3.45224e-05      0.00152806         0.647615       -0.100582
281756                  0.099453        0.124617       0.00056254    -0.000371969         0.973748       -0.131691      0.000279305      0.00152573
                      0.00043327    -0.000147071         0.460729        0.484178      0.000857497    -0.000298066         0.261024        -0.66503
                         0.97354       -0.131934       0.00100923     0.000116742       -0.0615189        0.146258     -0.000490362      0.00120259
                     3.18287e-05      0.00128172         0.260681       -0.665394      1.27039e-06      0.00153541         0.647847       -0.101505
281758                 0.0994655        0.124628      0.000562233    -0.000372369         0.973697       -0.131997      0.000283886      0.00153128
                     0.000434195    -0.000148019         0.461235        0.484257      0.000895085    -0.000300929         0.260312        -0.66484
                        0.973467       -0.132241       0.00100766     0.000116762        -0.061425        0.146306     -0.000493698      0.00121266
                     2.88596e-05      0.00129119         0.259996       -0.665234     -5.67791e-05      0.00154658         0.648076       -0.102437
281760                  0.099478        0.124639      0.000561935    -0.000372778         0.973646       -0.132302      0.000288061      0.00153599
                      0.00043514    -0.000148994         0.461743        0.484337      0.000939557    -0.000326226           0.2596       -0.664653
                        0.973409       -0.132566       0.00100619     0.000116436       -0.0613359        0.146349     -0.000497057      0.00121966
                     2.58863e-05      0.00129993         0.259313       -0.665071     -0.000176925      0.00156799         0.648301       -0.103382
281762                 0.0994904         0.12465      0.000561642    -0.000373188         0.973596       -0.132605      0.000292006      0.00154007
                     0.000436109    -0.000149994         0.462251        0.484418      0.000970392    -0.000382774         0.258886       -0.664467
                        0.973363       -0.132888       0.00100482     0.000115879       -0.0612518        0.146393     -0.000499963      0.00122485
