! TOUCHSTONE file generated by CST MICROWAVE STUDIO
! Date and time: Wed Oct 15 17:32:50 2025
! Project name: Teste_Macro_Metasurface_Nanopilar.cst
! Parameters = {H=600; L_x=155; L_y=170; Lambda=1064; Max_L=200; Min_L=70; PathPara=1; Phi=0; Step_L=10; Theta=0; p=520; phaseX=180; phaseY=0}
! Header version: 2018
! Port assignment regex: !\s*Touchstone port\s*([0-9]+)\s*=\s*(CST MWS port|CST DS port)\s*([0-9]+|Zmin|Zmax)\s*\(\"(.*)\"\)(\s*mode\s*([0-9]+))?.*
! Touchstone port assignment:
! Touchstone port 1 = CST MWS port Zmax ("") mode 1
! Touchstone port 2 = CST MWS port Zmax ("") mode 2
! Touchstone port 3 = CST MWS port Zmin ("") mode 1
! Touchstone port 4 = CST MWS port Zmin ("") mode 2
! S-Parameters are not renormalized. Each port impedance will be approximated by the real part at minimum frequency. The values are described via the [Reference] keyword.
! Default impedance is overridden by [Reference]
[Version] 2.0
# GHz S RI R 376.73
[Number of Ports] 4
[Reference]
376.73 376.73 259.888 259.888 
[Number of Frequencies] 51
[Network Data]
281700                  0.174488       0.0242289     -4.56423e-05     5.35563e-05         0.571122       -0.797281      2.04321e-05     9.44553e-05
                     8.48889e-06     6.08338e-05         0.172013     -0.00179658       0.00010602    -8.29269e-06         0.705099       -0.682106
                        0.571002       -0.797103      5.88569e-05     -2.0527e-05        0.0783019        0.154017      3.21315e-05    -0.000101441
                     6.75648e-06     9.77507e-05         0.705056       -0.682294      0.000105383    -8.30529e-05      -0.00736988        0.167705
281702                  0.174493       0.0242429     -4.57038e-05     5.36564e-05         0.570888       -0.797448      2.04913e-05     9.43276e-05
                     8.57593e-06     6.09108e-05          0.17201     -0.00177819      0.000105937    -8.13177e-06         0.704894       -0.682319
                        0.570768       -0.797269      5.89314e-05    -2.07661e-05        0.0784072        0.153972      3.21467e-05    -0.000101461
                     6.69736e-06     9.76618e-05         0.704851       -0.682507      0.000105518    -8.32546e-05      -0.00725012        0.167709
281704                  0.174498       0.0242569     -4.57681e-05     5.37569e-05         0.570654       -0.797614      2.05503e-05     9.41997e-05
                     8.66307e-06     6.09877e-05         0.172008     -0.00175981      0.000105854    -7.97137e-06         0.704689       -0.682532
                        0.570534       -0.797436      5.90063e-05    -2.10119e-05        0.0785124        0.153927      3.21614e-05    -0.000101482
                     6.63815e-06     9.75731e-05         0.704647        -0.68272      0.000105654    -8.34554e-05      -0.00713037        0.167713
281706                  0.174502       0.0242709     -4.58346e-05      5.3857e-05          0.57042        -0.79778      2.06092e-05     9.40715e-05
                     8.75031e-06     6.10644e-05         0.172006     -0.00174144      0.000105771     -7.8115e-06         0.704484       -0.682745
                          0.5703       -0.797601      5.90825e-05     -2.1263e-05        0.0786176        0.153881      3.21758e-05    -0.000101502
                     6.57884e-06     9.74846e-05         0.704442       -0.682932       0.00010579    -8.36553e-05      -0.00701063        0.167717
281708                  0.174507       0.0242848     -4.59027e-05     5.39561e-05         0.570185       -0.797947       2.0668e-05      9.3943e-05
                     8.83766e-06      6.1141e-05         0.172004     -0.00172308      0.000105688    -7.65216e-06         0.704279       -0.682958
                        0.570066       -0.797767      5.91606e-05    -2.15181e-05        0.0787228        0.153835      3.21896e-05    -0.000101522
                     6.51944e-06     9.73964e-05         0.704237       -0.683145      0.000105927    -8.38544e-05      -0.00689091         0.16772
281710                  0.174512       0.0242988     -4.59718e-05     5.40541e-05         0.569951       -0.798113      2.07267e-05     9.38144e-05
                     8.92511e-06     6.12175e-05         0.172001     -0.00170472      0.000105605    -7.49334e-06         0.704074       -0.683171
                        0.569832       -0.797933      5.92406e-05    -2.17762e-05        0.0788279         0.15379      3.22031e-05    -0.000101541
                     6.45995e-06     9.73084e-05         0.704032       -0.683357      0.000106063    -8.40527e-05      -0.00677119        0.167724
281712                  0.174517       0.0243128     -4.60413e-05     5.41511e-05         0.569716       -0.798279      2.07853e-05     9.36855e-05
                     9.01266e-06     6.12939e-05         0.171999     -0.00168637      0.000105522    -7.33505e-06         0.703869       -0.683383
                        0.569598       -0.798099      5.93224e-05    -2.20361e-05         0.078933        0.153744      3.22163e-05     -0.00010156
                     6.40038e-06     9.72206e-05         0.703827        -0.68357        0.0001062    -8.42501e-05      -0.00665148        0.167727
281714                  0.174521       0.0243267     -4.61108e-05     5.42473e-05         0.569482       -0.798445      2.08438e-05     9.35563e-05
                      9.1003e-06     6.13701e-05         0.171997     -0.00166803      0.000105439    -7.17729e-06         0.703664       -0.683596
                        0.569364       -0.798264      5.94058e-05    -2.22973e-05        0.0790381        0.153698      3.22291e-05    -0.000101579
                     6.34071e-06     9.71331e-05         0.703622       -0.683782      0.000106336    -8.44467e-05      -0.00653178        0.167731
281716                  0.174526       0.0243407     -4.61803e-05     5.43428e-05         0.569247       -0.798611      2.09023e-05      9.3427e-05
                     9.18805e-06     6.14462e-05         0.171995      -0.0016497      0.000105357    -7.02007e-06         0.703458       -0.683808
                         0.56913        -0.79843      5.94903e-05    -2.25591e-05        0.0791432        0.153653      3.22416e-05    -0.000101598
                     6.28095e-06     9.70459e-05         0.703417       -0.683995      0.000106473    -8.46425e-05       -0.0064121        0.167734
281718                  0.174531       0.0243546     -4.62495e-05     5.44378e-05         0.569013       -0.798777      2.09607e-05     9.32974e-05
                     9.27589e-06     6.15221e-05         0.171993     -0.00163138      0.000105274    -6.86337e-06         0.703253       -0.684021
                        0.568896       -0.798596      5.95757e-05    -2.28212e-05        0.0792482        0.153607      3.22538e-05    -0.000101616
                     6.22111e-06     9.69588e-05         0.703212       -0.684207      0.000106611    -8.48374e-05      -0.00629242        0.167737
281720                  0.174536       0.0243686     -4.63185e-05     5.45325e-05         0.568778       -0.798942       2.1019e-05     9.31676e-05
                     9.36383e-06      6.1598e-05          0.17199     -0.00161306      0.000105192     -6.7072e-06         0.703048       -0.684233
                        0.568662       -0.798761      5.96616e-05    -2.30834e-05        0.0793532        0.153561      3.22657e-05    -0.000101634
                     6.16118e-06      9.6872e-05         0.703006       -0.684419      0.000106748    -8.50315e-05      -0.00617275        0.167741
281722                   0.17454       0.0243825      -4.6387e-05      5.4627e-05         0.568544       -0.799108      2.10773e-05     9.30376e-05
                     9.45187e-06     6.16737e-05         0.171988     -0.00159475      0.000105109    -6.55157e-06         0.702842       -0.684446
                        0.568427       -0.798926      5.97477e-05    -2.33454e-05        0.0794581        0.153515      3.22774e-05    -0.000101652
                     6.10117e-06     9.67855e-05         0.702801       -0.684631      0.000106886    -8.52248e-05       -0.0060531        0.167744
281724                  0.174545       0.0243965     -4.64553e-05     5.47214e-05         0.568309       -0.799274      2.11356e-05     9.29074e-05
                     9.54001e-06     6.17492e-05         0.171986     -0.00157645      0.000105027    -6.39647e-06         0.702637       -0.684658
                        0.568193       -0.799092      5.98338e-05    -2.36073e-05        0.0795631        0.153469       3.2289e-05    -0.000101669
                     6.04106e-06     9.66991e-05         0.702596       -0.684843      0.000107023    -8.54173e-05      -0.00593345        0.167747
281726                   0.17455       0.0244104     -4.65232e-05     5.48158e-05         0.568074       -0.799439      2.11938e-05     9.27771e-05
                     9.62825e-06     6.18247e-05         0.171984     -0.00155816      0.000104945     -6.2419e-06         0.702431        -0.68487
                        0.567959       -0.799257      5.99198e-05    -2.38688e-05        0.0796679        0.153422      3.23003e-05    -0.000101686
                     5.98087e-06      9.6613e-05          0.70239       -0.685055      0.000107161    -8.56089e-05      -0.00581382         0.16775
281728                  0.174555       0.0244243     -4.65908e-05     5.49101e-05         0.567839       -0.799605      2.12521e-05     9.26465e-05
                     9.71661e-06        6.19e-05         0.171982     -0.00153987      0.000104863    -6.08787e-06         0.702226       -0.685082
                        0.567724       -0.799422      6.00053e-05      -2.413e-05        0.0797728        0.153376      3.23115e-05    -0.000101702
                     5.92058e-06     9.65271e-05         0.702185       -0.685267      0.000107299    -8.57998e-05      -0.00569419        0.167753
281730                  0.174559       0.0244383     -4.66581e-05     5.50045e-05         0.567604        -0.79977      2.13103e-05     9.25158e-05
                     9.80509e-06     6.19752e-05         0.171979     -0.00152159      0.000104781    -5.93438e-06          0.70202       -0.685294
                         0.56749       -0.799587      6.00905e-05    -2.43909e-05        0.0798776         0.15333      3.23225e-05    -0.000101719
                     5.86019e-06     9.64415e-05         0.701979       -0.685479      0.000107438    -8.59898e-05      -0.00557458        0.167755
281732                  0.174564       0.0244522     -4.67251e-05      5.5099e-05          0.56737       -0.799935      2.13685e-05     9.23849e-05
                      9.8937e-06     6.20504e-05         0.171977     -0.00150333      0.000104699    -5.78143e-06         0.701814       -0.685506
                        0.567255       -0.799752      6.01751e-05    -2.46515e-05        0.0799824        0.153283      3.23334e-05    -0.000101734
                      5.7997e-06      9.6356e-05         0.701774       -0.685691      0.000107576     -8.6179e-05      -0.00545498        0.167758
281734                  0.174569       0.0244661     -4.67919e-05     5.51936e-05         0.567135       -0.800101      2.14267e-05     9.22538e-05
                     9.98249e-06     6.21254e-05         0.171975     -0.00148507      0.000104617    -5.62902e-06         0.701608       -0.685718
                        0.567021       -0.799917       6.0259e-05    -2.49117e-05        0.0800872        0.153237      3.23442e-05     -0.00010175
                     5.73909e-06     9.62707e-05         0.701568       -0.685902      0.000107715    -8.63674e-05      -0.00533539        0.167761
281736                  0.174574         0.02448     -4.68583e-05     5.52883e-05           0.5669       -0.800266      2.14849e-05     9.21227e-05
                     1.00715e-05     6.22005e-05         0.171973     -0.00146681      0.000104536    -5.47715e-06         0.701403        -0.68593
                        0.566786       -0.800082      6.03424e-05    -2.51717e-05        0.0801919        0.153191      3.23548e-05    -0.000101765
                     5.67831e-06     9.61856e-05         0.701362       -0.686114      0.000107854     -8.6555e-05       -0.0052158        0.167763
281738                  0.174578       0.0244939     -4.69245e-05      5.5383e-05         0.566665       -0.800431      2.15431e-05     9.19915e-05
                     1.01609e-05     6.22756e-05         0.171971     -0.00144857      0.000104454    -5.32583e-06         0.701197       -0.686141
                        0.566552       -0.800247       6.0425e-05    -2.54313e-05        0.0802966        0.153144      3.23654e-05     -0.00010178
                     5.61731e-06     9.61004e-05         0.701157       -0.686326      0.000107993    -8.67418e-05      -0.00509623        0.167766
281740                  0.174583       0.0245079     -4.69905e-05     5.54779e-05          0.56643       -0.800596      2.16013e-05     9.18602e-05
                      1.0251e-05     6.23512e-05         0.171969     -0.00143033      0.000104373    -5.17507e-06         0.700991       -0.686353
                        0.566317       -0.800411       6.0507e-05    -2.56907e-05        0.0804013        0.153097      3.23758e-05    -0.000101795
                     5.55591e-06     9.60149e-05         0.700951       -0.686537      0.000108132    -8.69278e-05      -0.00497667        0.167768
281742                  0.174588       0.0245218     -4.70562e-05     5.55729e-05         0.566194       -0.800761      2.16595e-05     9.17292e-05
                      1.0343e-05     6.24282e-05         0.171967      -0.0014121      0.000104291    -5.02488e-06         0.700785       -0.686565
                        0.566082       -0.800576      6.05882e-05    -2.59498e-05        0.0805059        0.153051       3.2386e-05     -0.00010181
                     5.49354e-06     9.59279e-05         0.700745       -0.686748      0.000108272     -8.7113e-05      -0.00485713        0.167771
281744                  0.174593       0.0245356     -4.71217e-05     5.56679e-05         0.565959       -0.800926      2.17176e-05     9.15987e-05
                     1.04457e-05     6.25156e-05         0.171964     -0.00139388       0.00010421     -4.8753e-06         0.700579       -0.686776
                        0.565848       -0.800741      6.06688e-05    -2.62086e-05        0.0806105        0.153004      3.23959e-05    -0.000101824
                     5.42708e-06     9.58293e-05         0.700539        -0.68696      0.000108411    -8.72972e-05      -0.00473759        0.167773
281746                  0.174598       0.0245496      -4.7187e-05     5.57631e-05         0.565724       -0.801091      2.17742e-05     9.14705e-05
                     1.04762e-05     6.25459e-05         0.171962     -0.00137567      0.000104129     -4.7264e-06         0.700373       -0.686988
                        0.565613       -0.800905      6.07487e-05    -2.64673e-05        0.0807151        0.152957      3.24053e-05    -0.000101837
                      5.3986e-06     9.57882e-05         0.700333       -0.687171      0.000108551    -8.74805e-05      -0.00461806        0.167775
281748                  0.174602       0.0245634      -4.7252e-05     5.58583e-05         0.565489       -0.801256      2.18087e-05     9.13354e-05
                     1.05906e-05     6.26351e-05          0.17196     -0.00135746      0.000104047    -4.57851e-06         0.700166       -0.687199
                        0.565378        -0.80107       6.0828e-05    -2.67257e-05        0.0808197         0.15291       3.2414e-05    -0.000101848
                     5.32177e-06     9.56925e-05         0.700127       -0.687382      0.000108689    -8.76623e-05      -0.00449855        0.167777
281750                  0.174607       0.0245773     -4.73169e-05     5.59536e-05         0.565254        -0.80142      2.18889e-05     9.11886e-05
                     1.06837e-05     6.27117e-05         0.171958     -0.00133927      0.000103965    -4.43463e-06          0.69996        -0.68741
                        0.565143       -0.801234      6.09067e-05    -2.69839e-05        0.0809242        0.152863      3.24269e-05    -0.000101855
                      5.2583e-06     9.56067e-05         0.699921       -0.687593      0.000108821    -8.78384e-05      -0.00437904        0.167779
281752                  0.174612       0.0245912     -4.73815e-05     5.60489e-05         0.565018       -0.801585      2.19504e-05     9.10599e-05
                     1.07744e-05     6.27863e-05         0.171956     -0.00132108      0.000103888    -4.27569e-06         0.699754       -0.687622
                        0.564908       -0.801398      6.09847e-05    -2.72419e-05        0.0810286        0.152816      3.24439e-05     -0.00010187
                     5.19631e-06     9.55228e-05         0.699715       -0.687805      0.000108985    -8.80369e-05      -0.00425955        0.167781
281754                  0.174617       0.0246051     -4.74459e-05     5.61443e-05         0.564783       -0.801749      2.20097e-05     9.09289e-05
                     1.08644e-05     6.28603e-05         0.171954      -0.0013029      0.000103806    -4.13191e-06         0.699548       -0.687833
                        0.564673       -0.801562      6.10623e-05    -2.74998e-05        0.0811331        0.152769      3.24553e-05    -0.000101886
                     5.13474e-06     9.54398e-05         0.699509       -0.688015      0.000109119    -8.82124e-05      -0.00414007        0.167783
281756                  0.174622        0.024619     -4.75102e-05     5.62397e-05         0.564547       -0.801914      2.20686e-05      9.0797e-05
                     1.09541e-05     6.29339e-05         0.171952     -0.00128472      0.000103726    -3.98609e-06         0.699341       -0.688044
                        0.564438       -0.801727      6.11393e-05    -2.77575e-05        0.0812375        0.152722      3.24657e-05      -0.0001019
                     5.07332e-06     9.53572e-05         0.699302       -0.688226      0.000109259    -8.83912e-05      -0.00402059        0.167785
281758                  0.174626       0.0246328     -4.75742e-05     5.63351e-05         0.564312       -0.802078      2.21276e-05     9.06647e-05
                     1.10436e-05     6.30071e-05          0.17195     -0.00126656      0.000103645    -3.84041e-06         0.699135       -0.688255
                        0.564203       -0.801891      6.12159e-05    -2.80151e-05        0.0813419        0.152675      3.24762e-05    -0.000101913
                     5.01197e-06     9.52751e-05         0.699096       -0.688437        0.0001094    -8.85699e-05      -0.00390114        0.167786
281760                  0.174631       0.0246467     -4.76381e-05     5.64306e-05         0.564077       -0.802243      2.21866e-05     9.05321e-05
                      1.1133e-05     6.30801e-05         0.171947      -0.0012484      0.000103565    -3.69513e-06         0.698928       -0.688466
                        0.563968       -0.802055      6.12921e-05    -2.82726e-05        0.0814462        0.152628      3.24868e-05    -0.000101926
                     4.95063e-06     9.51933e-05          0.69889       -0.688648      0.000109541     -8.8748e-05      -0.00378169        0.167788
281762                  0.174636       0.0246605     -4.77017e-05     5.65259e-05         0.563841       -0.802407      2.22456e-05     9.03994e-05
                     1.12224e-05     6.31529e-05         0.171945     -0.00123025      0.000103484    -3.55033e-06         0.698722       -0.688677
                        0.563733       -0.802219      6.13679e-05      -2.853e-05        0.0815506         0.15258      3.24975e-05    -0.000101938
