! TOUCHSTONE file generated by CST MICROWAVE STUDIO
! Date and time: Wed Oct 15 17:28:52 2025
! Project name: Teste_Macro_Metasurface_Nanopilar.cst
! Parameters = {H=600; L_x=85; L_y=195; Lambda=1064; Max_L=200; Min_L=70; PathPara=1; Phi=0; Step_L=10; Theta=0; p=520; phaseX=180; phaseY=0}
! Header version: 2018
! Port assignment regex: !\s*Touchstone port\s*([0-9]+)\s*=\s*(CST MWS port|CST DS port)\s*([0-9]+|Zmin|Zmax)\s*\(\"(.*)\"\)(\s*mode\s*([0-9]+))?.*
! Touchstone port assignment:
! Touchstone port 1 = CST MWS port Zmax ("") mode 1
! Touchstone port 2 = CST MWS port Zmax ("") mode 2
! Touchstone port 3 = CST MWS port Zmin ("") mode 1
! Touchstone port 4 = CST MWS port Zmin ("") mode 2
! S-Parameters are not renormalized. Each port impedance will be approximated by the real part at minimum frequency. The values are described via the [Reference] keyword.
! Default impedance is overridden by [Reference]
[Version] 2.0
# GHz S RI R 376.73
[Number of Ports] 4
[Reference]
376.73 376.73 259.888 259.888 
[Number of Frequencies] 51
[Network Data]
281700                  0.481803        0.505108      0.000625742      8.4794e-05          0.26146       -0.651277     -0.000361569      0.00050125
                     0.000694988     0.000147263       -0.0417149       0.0525424     -0.000509832     0.000171317        -0.765397       -0.635855
                        0.261008        -0.65123     -0.000534701     7.90332e-05         0.691061      -0.0545625       0.00023906    -0.000646842
                    -0.000357652     0.000444268        -0.765346        -0.63659      0.000185123    -0.000562194       -0.0435303        0.051552
281702                  0.482047        0.505106      0.000625905     8.46374e-05         0.261057       -0.651255     -0.000361431     0.000501578
                     0.000695248     0.000146891        -0.041715       0.0525621     -0.000509952     0.000171652        -0.765579       -0.635636
                        0.260605       -0.651207     -0.000534693     7.92624e-05         0.691182      -0.0551315      0.000238651    -0.000647213
                    -0.000357457     0.000444692        -0.765527       -0.636371      0.000184917     -0.00056245       -0.0435203       0.0515809
281704                  0.482291        0.505104      0.000626068     8.44807e-05         0.260654       -0.651233     -0.000361292     0.000501906
                     0.000695507     0.000146518       -0.0417152       0.0525819     -0.000510072     0.000171986         -0.76576       -0.635416
                        0.260202       -0.651185     -0.000534684     7.94916e-05         0.691302      -0.0557008       0.00023824    -0.000647584
                    -0.000357261     0.000445115        -0.765708       -0.636151      0.000184709    -0.000562706       -0.0435102       0.0516097
281706                  0.482535        0.505102      0.000626231     8.43238e-05         0.260252        -0.65121     -0.000361153     0.000502234
                     0.000695765     0.000146146       -0.0417154       0.0526017     -0.000510191     0.000172322        -0.765941       -0.635196
                        0.259799       -0.651161     -0.000534676     7.97209e-05         0.691422      -0.0562705       0.00023783    -0.000647956
                    -0.000357064     0.000445539        -0.765888       -0.635931      0.000184502    -0.000562962          -0.0435       0.0516385
281708                  0.482779        0.505099      0.000626393     8.41669e-05         0.259849       -0.651186     -0.000361014     0.000502563
                     0.000696023     0.000145773       -0.0417156       0.0526214     -0.000510311     0.000172657        -0.766122       -0.634976
                        0.259396       -0.651138     -0.000534667     7.99501e-05         0.691542      -0.0568404      0.000237418    -0.000648327
                    -0.000356867     0.000445962        -0.766069       -0.635712      0.000184293    -0.000563218       -0.0434899       0.0516673
281710                  0.483023        0.505097      0.000626556     8.40098e-05         0.259446       -0.651163     -0.000360875     0.000502891
                     0.000696281       0.0001454       -0.0417157       0.0526412     -0.000510429     0.000172993        -0.766303       -0.634756
                        0.258993       -0.651114     -0.000534659     8.01795e-05         0.691661      -0.0574107      0.000237007    -0.000648698
                    -0.000356669     0.000446385        -0.766249       -0.635492      0.000184085    -0.000563474       -0.0434797       0.0516961
281712                  0.483267        0.505094      0.000626719     8.38527e-05         0.259044       -0.651139     -0.000360736      0.00050322
                     0.000696538     0.000145028       -0.0417159        0.052661     -0.000510548     0.000173329        -0.766484       -0.634536
                         0.25859        -0.65109      -0.00053465     8.04088e-05         0.691779      -0.0579812      0.000236594     -0.00064907
                    -0.000356471     0.000446807         -0.76643       -0.635272      0.000183875    -0.000563731       -0.0434696       0.0517249
281714                  0.483512        0.505092      0.000626881     8.36954e-05         0.258641       -0.651115     -0.000360596      0.00050355
                     0.000696794     0.000144655       -0.0417161       0.0526807     -0.000510666     0.000173665        -0.766665       -0.634316
                        0.258187       -0.651066     -0.000534642     8.06382e-05         0.691898      -0.0585521      0.000236182    -0.000649442
                    -0.000356272      0.00044723         -0.76661       -0.635052      0.000183666    -0.000563987       -0.0434594       0.0517537
281716                  0.483756        0.505089      0.000627044     8.35381e-05         0.258238        -0.65109     -0.000360457     0.000503879
                      0.00069705     0.000144282       -0.0417162       0.0527005     -0.000510784     0.000174002        -0.766846       -0.634096
                        0.257784       -0.651041     -0.000534633     8.08676e-05         0.692015      -0.0591232      0.000235769    -0.000649813
                    -0.000356073     0.000447653         -0.76679       -0.634832      0.000183455    -0.000564243       -0.0434492       0.0517826
281718                  0.484001        0.505086      0.000627206     8.33806e-05         0.257836       -0.651065     -0.000360318     0.000504209
                     0.000697306     0.000143909       -0.0417164       0.0527203     -0.000510902     0.000174339        -0.767027       -0.633876
                        0.257381       -0.651016     -0.000534624     8.10971e-05         0.692133      -0.0596947      0.000235355    -0.000650185
                    -0.000355873     0.000448075         -0.76697       -0.634612      0.000183245    -0.000564499       -0.0434389       0.0518114
281720                  0.484245        0.505083      0.000627369      8.3223e-05         0.257433        -0.65104     -0.000360178     0.000504539
                     0.000697561     0.000143535       -0.0417165       0.0527401     -0.000511019     0.000174676        -0.767207       -0.633656
                        0.256978       -0.650991     -0.000534616     8.13266e-05          0.69225      -0.0602664      0.000234941    -0.000650557
                    -0.000355672     0.000448497        -0.767151       -0.634391      0.000183034    -0.000564755       -0.0434287       0.0518402
281722                   0.48449         0.50508      0.000627531     8.30654e-05          0.25703       -0.651015     -0.000360039      0.00050487
                     0.000697816     0.000143162       -0.0417167       0.0527598     -0.000511136     0.000175013        -0.767388       -0.633436
                        0.256575       -0.650965     -0.000534607     8.15561e-05         0.692366      -0.0608385      0.000234526    -0.000650929
                    -0.000355471     0.000448919        -0.767331       -0.634171      0.000182822    -0.000565011       -0.0434184        0.051869
281724                  0.484735        0.505077      0.000627694     8.29076e-05         0.256627       -0.650989     -0.000359899       0.0005052
                      0.00069807     0.000142789       -0.0417168       0.0527796     -0.000511253     0.000175351        -0.767569       -0.633216
                        0.256172       -0.650939     -0.000534598     8.17856e-05         0.692482      -0.0614109      0.000234111    -0.000651301
                     -0.00035527     0.000449341        -0.767511       -0.633951       0.00018261    -0.000565267       -0.0434082       0.0518979
281726                   0.48498        0.505073      0.000627856     8.27497e-05         0.256225       -0.650962     -0.000359759     0.000505531
                     0.000698323     0.000142415        -0.041717       0.0527994     -0.000511369     0.000175689        -0.767749       -0.632995
                        0.255769       -0.650913      -0.00053459     8.20152e-05         0.692597      -0.0619835      0.000233696    -0.000651673
                    -0.000355067     0.000449762        -0.767691       -0.633731      0.000182399    -0.000565523       -0.0433979       0.0519267
281728                  0.485225         0.50507      0.000628018     8.25917e-05         0.255822       -0.650936     -0.000359619     0.000505862
                     0.000698576     0.000142042       -0.0417171       0.0528192     -0.000511485     0.000176027         -0.76793       -0.632775
                        0.255366       -0.650886     -0.000534581     8.22449e-05         0.692712      -0.0625565       0.00023328    -0.000652046
                    -0.000354865     0.000450184        -0.767871        -0.63351      0.000182187    -0.000565779       -0.0433875       0.0519555
281730                  0.485471        0.505066      0.000628181     8.24336e-05         0.255419       -0.650909      -0.00035948     0.000506194
                     0.000698829     0.000141668       -0.0417172       0.0528389     -0.000511601     0.000176365         -0.76811       -0.632554
                        0.254963       -0.650859     -0.000534572     8.24745e-05         0.692827      -0.0631297      0.000232863    -0.000652418
                    -0.000354661     0.000450605         -0.76805        -0.63329      0.000181976    -0.000566034       -0.0433772       0.0519844
281732                  0.485716        0.505062      0.000628343     8.22755e-05         0.255016       -0.650882      -0.00035934     0.000506525
                     0.000699081     0.000141295       -0.0417174       0.0528587     -0.000511715     0.000176702         -0.76829       -0.632334
                         0.25456       -0.650832     -0.000534563     8.27042e-05         0.692941      -0.0637033      0.000232447    -0.000652791
                    -0.000354457     0.000451027         -0.76823       -0.633069      0.000181766    -0.000566288       -0.0433669       0.0520132
281734                  0.485961        0.505059      0.000628505     8.21172e-05         0.254614       -0.650854       -0.0003592     0.000506857
                     0.000699333     0.000140921       -0.0417175       0.0528785     -0.000511829     0.000177037        -0.768471       -0.632113
                        0.254157       -0.650804     -0.000534554     8.29339e-05         0.693055      -0.0642772      0.000232029    -0.000653164
                    -0.000354253     0.000451448         -0.76841       -0.632849      0.000181562    -0.000566541       -0.0433565       0.0520421
281736                  0.486207        0.505055      0.000628667     8.19588e-05         0.254211       -0.650826      -0.00035906     0.000507189
                     0.000699584     0.000140547       -0.0417176       0.0528983      -0.00051194     0.000177365        -0.768651       -0.631893
                        0.253754       -0.650776     -0.000534545     8.31637e-05         0.693168      -0.0648513      0.000231611    -0.000653536
                    -0.000354048     0.000451868         -0.76859       -0.632628      0.000181374    -0.000566786       -0.0433461       0.0520709
281738                  0.486453        0.505051      0.000628829     8.18004e-05         0.253808       -0.650798      -0.00035892     0.000507522
                     0.000699835     0.000140174       -0.0417177        0.052918     -0.000512064     0.000177641        -0.768831       -0.631672
                        0.253351       -0.650748     -0.000534536     8.33935e-05         0.693281      -0.0654257      0.000231193    -0.000653909
                    -0.000353842     0.000452289        -0.768769       -0.632408       0.00018135     -0.00056697       -0.0433357       0.0520998
281740                  0.486698        0.505046      0.000628992     8.16418e-05         0.253405        -0.65077     -0.000358779     0.000507855
                     0.000700085       0.0001398       -0.0417179       0.0529378     -0.000512241     0.000178117        -0.769011       -0.631451
                        0.252948       -0.650719     -0.000534527     8.36233e-05         0.693393      -0.0660006      0.000230774    -0.000654283
                    -0.000353636      0.00045271        -0.768949       -0.632187      0.000180732    -0.000567382       -0.0433253       0.0521286
281742                  0.486944        0.505042      0.000629154     8.14832e-05         0.253002       -0.650741     -0.000358639     0.000508188
                     0.000700335     0.000139426        -0.041718       0.0529576     -0.000512315     0.000178439        -0.769191       -0.631231
                        0.252545        -0.65069     -0.000534518     8.38532e-05         0.693505      -0.0665757      0.000230355    -0.000654656
                    -0.000353429      0.00045313        -0.769128       -0.631966      0.000180598    -0.000567605       -0.0433149       0.0521575
281744                   0.48719        0.505038      0.000629316     8.13244e-05           0.2526       -0.650712     -0.000358499     0.000508521
                     0.000700584     0.000139052       -0.0417181       0.0529774     -0.000512421     0.000178774        -0.769371        -0.63101
                        0.252141       -0.650661     -0.000534509     8.40831e-05         0.693617       -0.067151      0.000229935    -0.000655029
                    -0.000353222      0.00045355        -0.769308       -0.631746      0.000180399    -0.000567854       -0.0433044       0.0521863
281746                  0.487436        0.505033      0.000629478     8.11656e-05         0.252197       -0.650682     -0.000358358     0.000508854
                     0.000700833     0.000138678       -0.0417182       0.0529972     -0.000512531     0.000179112        -0.769551       -0.630789
                        0.251738       -0.650632       -0.0005345      8.4313e-05         0.693728      -0.0677267      0.000229515    -0.000655402
                    -0.000353014      0.00045397        -0.769487       -0.631525      0.000180189    -0.000568107       -0.0432939       0.0522152
281748                  0.487682        0.505028       0.00062964     8.10066e-05         0.251794       -0.650653     -0.000358218     0.000509188
                     0.000701081     0.000138304       -0.0417183        0.053017     -0.000512643     0.000179453        -0.769731       -0.630568
                        0.251335       -0.650602      -0.00053449      8.4543e-05         0.693838      -0.0683026      0.000229094    -0.000655775
                    -0.000352806      0.00045439        -0.769666       -0.631304      0.000179974    -0.000568362       -0.0432834        0.052244
281750                  0.487929        0.505023      0.000629802     8.08476e-05         0.251391       -0.650622     -0.000358076     0.000509522
                     0.000701329     0.000137929       -0.0417184       0.0530367     -0.000512755     0.000179795        -0.769911       -0.630347
                        0.250932       -0.650571     -0.000534481      8.4773e-05         0.693948      -0.0688789      0.000228672    -0.000656147
                    -0.000352597      0.00045481        -0.769845       -0.631083      0.000179756    -0.000568618       -0.0432729       0.0522729
281752                  0.488175        0.505019      0.000629964     8.06885e-05         0.250988       -0.650592     -0.000357928     0.000509858
                     0.000701576     0.000137555       -0.0417185       0.0530565     -0.000512867     0.000180137        -0.770091       -0.630126
                        0.250529       -0.650541     -0.000534472      8.5003e-05         0.694058      -0.0694554      0.000228244    -0.000656511
                    -0.000352387     0.000455229        -0.770025       -0.630862      0.000179537    -0.000568874       -0.0432624       0.0523018
281754                  0.488422        0.505013      0.000630125     8.05293e-05         0.250585       -0.650561     -0.000357804     0.000510195
                     0.000701823     0.000137181       -0.0417186       0.0530763     -0.000512979      0.00018048         -0.77027       -0.629905
                        0.250126        -0.65051     -0.000534463      8.5233e-05         0.694167      -0.0700323      0.000227831    -0.000656915
                    -0.000352177     0.000455649        -0.770204       -0.630641      0.000179316     -0.00056913       -0.0432519       0.0523306
281756                  0.488668        0.505008      0.000630287       8.037e-05         0.250183        -0.65053     -0.000357661     0.000510528
                      0.00070207     0.000136806       -0.0417187       0.0530961     -0.000513091     0.000180824         -0.77045       -0.629684
                        0.249723       -0.650479     -0.000534453      8.5463e-05         0.694276      -0.0706094      0.000227409    -0.000657281
                    -0.000351966     0.000456068        -0.770383        -0.63042      0.000179095    -0.000569387       -0.0432413       0.0523595
281758                  0.488915        0.505003      0.000630449     8.02109e-05          0.24978       -0.650498     -0.000357519     0.000510863
                     0.000702316     0.000136432       -0.0417188       0.0531159     -0.000513202     0.000181168         -0.77063       -0.629463
                         0.24932       -0.650447     -0.000534444     8.56933e-05         0.694384      -0.0711869      0.000226986    -0.000657654
                    -0.000351755     0.000456487        -0.770562       -0.630198      0.000178872    -0.000569644       -0.0432307       0.0523884
281760                  0.489162        0.504998      0.000630611     8.00512e-05         0.249377       -0.650467     -0.000357378     0.000511198
                     0.000702562     0.000136058       -0.0417189       0.0531357     -0.000513314     0.000181513        -0.770809       -0.629242
                        0.248916       -0.650415     -0.000534434     8.59235e-05         0.694492      -0.0717646      0.000226562    -0.000658029
                    -0.000351544     0.000456905        -0.770741       -0.629977      0.000178649    -0.000569901       -0.0432201       0.0524172
281762                  0.489409        0.504992      0.000630773     7.98916e-05         0.248974       -0.650435     -0.000357238     0.000511534
                     0.000702808     0.000135686        -0.041719       0.0531555     -0.000513425     0.000181858        -0.770989        -0.62902
                        0.248513       -0.650383     -0.000534425     8.61537e-05         0.694599      -0.0723426      0.000226138    -0.000658404
