! TOUCHSTONE file generated by CST MICROWAVE STUDIO
! Date and time: Wed Oct 15 17:33:38 2025
! Project name: Teste_Macro_Metasurface_Nanopilar.cst
! Parameters = {H=600; L_x=170; L_y=140; Lambda=1064; Max_L=200; Min_L=70; PathPara=1; Phi=0; Step_L=10; Theta=0; p=520; phaseX=180; phaseY=0}
! Header version: 2018
! Port assignment regex: !\s*Touchstone port\s*([0-9]+)\s*=\s*(CST MWS port|CST DS port)\s*([0-9]+|Zmin|Zmax)\s*\(\"(.*)\"\)(\s*mode\s*([0-9]+))?.*
! Touchstone port assignment:
! Touchstone port 1 = CST MWS port Zmax ("") mode 1
! Touchstone port 2 = CST MWS port Zmax ("") mode 2
! Touchstone port 3 = CST MWS port Zmin ("") mode 1
! Touchstone port 4 = CST MWS port Zmin ("") mode 2
! S-Parameters are not renormalized. Each port impedance will be approximated by the real part at minimum frequency. The values are described via the [Reference] keyword.
! Default impedance is overridden by [Reference]
[Version] 2.0
# GHz S RI R 376.73
[Number of Ports] 4
[Reference]
376.73 376.73 259.888 259.888 
[Number of Frequencies] 51
[Network Data]
281700                  0.885178        0.251259      0.000801557    -0.000612258        0.0508399       -0.107687     -0.000397605     0.000139313
                     0.000369925    -0.000333658         0.166364      -0.0380639      0.000513798      0.00153418          0.71345       -0.673144
                       0.0507505       -0.108107      0.000495121      0.00196506         0.422868       -0.780844       0.00106756    -0.000110336
                     -0.00033775    -0.000117073         0.713358        -0.67369       0.00167935     0.000337356       -0.0472394        0.158502
281702                   0.88576        0.249711      0.000798099      -0.0006135         0.051426       -0.105944     -0.000396953     0.000139213
                     0.000364837    -0.000330847         0.166359       -0.038034      0.000517875       0.0015334         0.713243       -0.673368
                       0.0513123       -0.106314      0.000499624      0.00196225         0.420616        -0.78218       0.00106708    -0.000110955
                    -0.000345578    -0.000120536         0.713151       -0.673913       0.00167938     0.000334387       -0.0471103         0.15853
281704                  0.886334         0.24816       0.00079466    -0.000614689        0.0520209       -0.104202     -0.000396303     0.000139111
                     0.000361171    -0.000327201         0.166355      -0.0380041      0.000521929      0.00153261         0.713036       -0.673592
                       0.0518854       -0.104527      0.000504083      0.00195943         0.418357       -0.783507       0.00106661    -0.000111574
                    -0.000352067    -0.000123074         0.712944       -0.674136       0.00167941     0.000331405       -0.0469813        0.158557
281706                    0.8869        0.246607      0.000791238    -0.000615824        0.0526246       -0.102462     -0.000395655     0.000139007
                     0.000359168    -0.000323535          0.16635      -0.0379742      0.000525961      0.00153183         0.712829       -0.673816
                       0.0524696       -0.102745      0.000508494      0.00195661         0.416091       -0.784826       0.00106613    -0.000112194
                    -0.000357522    -0.000124942         0.712737       -0.674359       0.00167944     0.000328409       -0.0468522        0.158585
281708                  0.887458        0.245051      0.000787833      -0.0006169         0.053237       -0.100725     -0.000395009     0.000138901
                      0.00035851    -0.000320607         0.166345      -0.0379443      0.000529975      0.00153105         0.712622       -0.674039
                       0.0530649       -0.100969      0.000512851      0.00195378         0.413819       -0.786134       0.00106565    -0.000112814
                    -0.000362164    -0.000126309          0.71253       -0.674581       0.00167947     0.000325402       -0.0467232        0.158613
281710                  0.888008        0.243492      0.000784441    -0.000617916        0.0538582      -0.0989891     -0.000394365     0.000138792
                     0.000358578    -0.000318769         0.166341      -0.0379145      0.000533971      0.00153025         0.712414       -0.674263
                       0.0536711      -0.0991992      0.000517148      0.00195094         0.411539       -0.787434       0.00106517    -0.000113436
                    -0.000366153    -0.000127294         0.712323       -0.674804        0.0016795     0.000322383       -0.0465941         0.15864
281712                   0.88855         0.24193      0.000781061    -0.000618867         0.054488      -0.0972556     -0.000393724     0.000138681
                     0.000358807    -0.000317974         0.166336      -0.0378846      0.000537953      0.00152946         0.712207       -0.674487
                        0.054288      -0.0974349      0.000521377      0.00194809         0.409252       -0.788724       0.00106468    -0.000114059
                     -0.00036961     -0.00012798         0.712115       -0.675027       0.00167954     0.000319355        -0.046465        0.158668
281714                  0.889085        0.240366      0.000777687    -0.000619751        0.0551266      -0.0955243     -0.000393084     0.000138567
                     0.000358854     -0.00031798         0.166332      -0.0378548       0.00054192      0.00152865            0.712        -0.67471
                       0.0549154      -0.0956761      0.000525529      0.00194522         0.406958       -0.790004        0.0010642    -0.000114683
                     -0.00037263     -0.00012843         0.711908       -0.675249       0.00167957     0.000316317        -0.046336        0.158695
281716                  0.889612        0.238798      0.000774315    -0.000620565        0.0557739      -0.0937953     -0.000392446      0.00013845
                     0.000358572    -0.000318521         0.166327       -0.037825      0.000545876      0.00152784         0.711792       -0.674933
                       0.0555532      -0.0939229      0.000529594      0.00194233         0.404658       -0.791275       0.00106372    -0.000115308
                    -0.000375284    -0.000128688           0.7117       -0.675471        0.0016796     0.000313271       -0.0462069        0.158722
281718                  0.890132        0.237228      0.000770938    -0.000621308        0.0564298      -0.0920685     -0.000391811      0.00013833
                     0.000357936    -0.000319385         0.166322      -0.0377952      0.000549819      0.00152702         0.711585       -0.675157
                       0.0562014      -0.0921751      0.000533562      0.00193939         0.402351       -0.792537       0.00106324    -0.000115935
                     -0.00037763     -0.00012879         0.711493       -0.675693       0.00167962     0.000310216       -0.0460778        0.158749
281720                  0.890645        0.235656       0.00076755    -0.000621978        0.0570944      -0.0903442     -0.000391178     0.000138206
                     0.000356977    -0.000320425         0.166318      -0.0377654      0.000553752      0.00152619         0.711377        -0.67538
                       0.0568596      -0.0904327      0.000537424       0.0019364         0.400037       -0.793788       0.00106275    -0.000116564
                    -0.000379712    -0.000128763         0.711285       -0.675915       0.00167965     0.000307155       -0.0459487        0.158777
281722                   0.89115         0.23408      0.000764142    -0.000622577        0.0577677      -0.0886222     -0.000390547     0.000138078
                     0.000355744    -0.000321544         0.166313      -0.0377356      0.000557675      0.00152535          0.71117       -0.675603
                       0.0575279      -0.0886956      0.000541178      0.00193332         0.397717       -0.795031       0.00106227    -0.000117195
                    -0.000381567    -0.000128627         0.711078       -0.676137       0.00167968     0.000304086       -0.0458196        0.158803
281724                  0.891648        0.232502      0.000760705    -0.000623107        0.0584495      -0.0869028     -0.000389919     0.000137946
                     0.000354287    -0.000322686         0.166309      -0.0377058      0.000561589      0.00152449         0.710962       -0.675826
                        0.058206      -0.0869637      0.000544828      0.00193012          0.39539       -0.796263       0.00106178    -0.000117829
                    -0.000383227      -0.0001284          0.71087       -0.676359        0.0016797     0.000301011       -0.0456906         0.15883
281726                  0.892139        0.230922      0.000757232    -0.000623573          0.05914      -0.0851859     -0.000389293     0.000137808
                     0.000352649    -0.000323814         0.166304      -0.0376761      0.000565495      0.00152363         0.710754       -0.676049
                       0.0588939      -0.0852369      0.000548396      0.00192676         0.393056       -0.797486        0.0010613    -0.000118465
                    -0.000384714    -0.000128094         0.710662       -0.676581       0.00167972      0.00029793       -0.0455615        0.158857
281728                  0.892623        0.229339      0.000753714    -0.000623981        0.0598391      -0.0834716      -0.00038867     0.000137665
                     0.000350868    -0.000324908           0.1663      -0.0376463      0.000569392      0.00152275         0.710546       -0.676272
                       0.0595914      -0.0835152      0.000551921       0.0019232         0.390717       -0.798699       0.00106082    -0.000119104
                     -0.00038605     -0.00012772         0.710454       -0.676803       0.00167973     0.000294844       -0.0454324        0.158884
281730                    0.8931        0.227753      0.000750143    -0.000624342        0.0605467        -0.08176      -0.00038805     0.000137516
                     0.000348973    -0.000325957         0.166295      -0.0376166      0.000573282      0.00152186         0.710338       -0.676495
                       0.0602984      -0.0817985      0.000555466      0.00191943         0.388371       -0.799902       0.00106033    -0.000119747
                    -0.000387251    -0.000127288         0.710247       -0.677024       0.00167974     0.000291752       -0.0453033         0.15891
281732                   0.89357        0.226165      0.000746516    -0.000624665        0.0612629      -0.0800511     -0.000387433      0.00013736
                     0.000346987    -0.000326956         0.166291      -0.0375869      0.000577165      0.00152096          0.71013       -0.676718
                       0.0610148      -0.0800866      0.000559105      0.00191546         0.386019       -0.801095       0.00105985    -0.000120393
                    -0.000388332    -0.000126804         0.710039       -0.677246       0.00167975     0.000288656       -0.0451742        0.158937
281734                  0.894032        0.224574       0.00074283    -0.000624965        0.0619876       -0.078345      -0.00038682     0.000137195
                     0.000344928    -0.000327902         0.166286      -0.0375572      0.000581041      0.00152004         0.709922        -0.67694
                       0.0617404      -0.0783795      0.000562907      0.00191132          0.38366       -0.802278       0.00105937    -0.000121043
                    -0.000389305    -0.000126273         0.709831       -0.677467       0.00167976     0.000285556       -0.0450451        0.158963
281736                  0.894488        0.222981      0.000739086    -0.000625253        0.0627209      -0.0766418      -0.00038621     0.000137022
                     0.000342812    -0.000328795         0.166282      -0.0375275       0.00058491      0.00151911         0.709714       -0.677163
                       0.0624751      -0.0766771      0.000566913       0.0019071         0.381296       -0.803452        0.0010589    -0.000121697
                    -0.000390178    -0.000125701         0.709623       -0.677689       0.00167976     0.000282452        -0.044916         0.15899
281738                  0.894937        0.221385      0.000735287    -0.000625543        0.0634626      -0.0749415     -0.000385604     0.000136839
                      0.00034065    -0.000329634         0.166277      -0.0374978      0.000588773      0.00151817         0.709506       -0.677385
                       0.0632188      -0.0749793      0.000571126      0.00190288         0.378925       -0.804615       0.00105843    -0.000122355
                    -0.000390962    -0.000125092         0.709414        -0.67791       0.00167975     0.000279343       -0.0447869        0.159016
281740                   0.89538        0.219787      0.000731441    -0.000625846        0.0642128      -0.0732441     -0.000385002     0.000136644
                      0.00033845    -0.000330421         0.166273      -0.0374681       0.00059263      0.00151721         0.709298       -0.677608
                       0.0639714      -0.0732859      0.000575513      0.00189874         0.376549       -0.805768       0.00105796    -0.000123018
                    -0.000391661    -0.000124447         0.709206       -0.678131       0.00167974     0.000276232       -0.0446578        0.159042
281742                  0.895815        0.218187      0.000727556    -0.000626172        0.0649714      -0.0715498     -0.000384406     0.000136436
                      0.00033622    -0.000331157         0.166268      -0.0374385      0.000596481      0.00151624         0.709089        -0.67783
                       0.0647329       -0.071597      0.000580017      0.00189471         0.374167       -0.806911        0.0010575    -0.000123685
                    -0.000392283    -0.000123769         0.708998       -0.678352       0.00167973     0.000273117       -0.0445287        0.159068
281744                  0.896244        0.216585      0.000723643    -0.000626528        0.0657385      -0.0698586     -0.000383815     0.000136212
                     0.000333966    -0.000331842         0.166264      -0.0374088      0.000600326      0.00151525         0.708881       -0.678052
                       0.0655029      -0.0699124      0.000584581      0.00189081         0.371779       -0.808044       0.00105705    -0.000124356
                     -0.00039283     -0.00012306          0.70879       -0.678573       0.00167971         0.00027       -0.0443996        0.159094
281746                  0.896666         0.21498      0.000719714    -0.000626917        0.0665139      -0.0681705     -0.000383231      0.00013597
                     0.000331692    -0.000332478         0.166259      -0.0373792      0.000604165      0.00151425         0.708672       -0.678275
                       0.0662816       -0.068232      0.000589157      0.00188704         0.369385       -0.809167       0.00105662     -0.00012503
                    -0.000393306    -0.000122319         0.708581       -0.678794       0.00167968     0.000266879       -0.0442705         0.15912
281748                  0.897082        0.213373      0.000715779    -0.000627341        0.0672977      -0.0664856     -0.000382654     0.000135707
                     0.000329401    -0.000333064         0.166255      -0.0373495      0.000607999      0.00151323         0.708464       -0.678497
                       0.0670687      -0.0665557      0.000593708      0.00188337         0.366985        -0.81028        0.0010562    -0.000125705
                    -0.000393711    -0.000121547         0.708373       -0.679015       0.00167965     0.000263756       -0.0441413        0.159145
281750                  0.897491        0.211764       0.00071185    -0.000627801        0.0680899       -0.064804     -0.000382085     0.000135419
                     0.000327095    -0.000333601         0.166251      -0.0373199      0.000611827      0.00151219         0.708255       -0.678719
                       0.0678641      -0.0648834      0.000598213       0.0018798          0.36458       -0.811382        0.0010558    -0.000126378
                    -0.000394047    -0.000120741         0.708164       -0.679236       0.00167961     0.000260631       -0.0440122        0.159171
281752                  0.897893        0.210154      0.000707936    -0.000628293        0.0688904      -0.0631257     -0.000381526     0.000135101
                     0.000324776    -0.000334087         0.166246      -0.0372903      0.000615649      0.00151114         0.708046       -0.678941
                       0.0686677      -0.0632149      0.000602661      0.00187628          0.36217       -0.812474       0.00105543    -0.000127043
                    -0.000394311    -0.000119899         0.707956       -0.679456       0.00167957     0.000257502       -0.0438831        0.159197
281754                  0.898289        0.208541      0.000704046    -0.000628813        0.0696992      -0.0614507     -0.000380979     0.000134746
                     0.000322444    -0.000334519         0.166242      -0.0372607      0.000619466      0.00151008         0.707838       -0.679163
                       0.0694794      -0.0615501      0.000607045      0.00187281         0.359754       -0.813556        0.0010551    -0.000127693
                    -0.000394498    -0.000119016         0.707747       -0.679677       0.00167952     0.000254372        -0.043754        0.159222
281756                  0.898678        0.206926      0.000700185    -0.000629358        0.0705163      -0.0597792     -0.000380444     0.000134348
                     0.000320098    -0.000334894         0.166237      -0.0372311      0.000623278        0.001509         0.707629       -0.679385
                       0.0702991       -0.059889      0.000611366      0.00186937         0.357332       -0.814627       0.00105481    -0.000128314
                    -0.000394601    -0.000118085         0.707538       -0.679897       0.00167947     0.000251238       -0.0436249        0.159247
281758                  0.899061        0.205309       0.00069636    -0.000629923        0.0713417      -0.0581112     -0.000379925     0.000133897
                     0.000317733    -0.000335205         0.166233      -0.0372016      0.000627083       0.0015079          0.70742       -0.679606
                       0.0711266      -0.0582313      0.000615626      0.00186595         0.354906       -0.815689       0.00105457    -0.000128887
                    -0.000394606    -0.000117092         0.707329       -0.680118       0.00167941     0.000248102       -0.0434958        0.159273
281760                  0.899437        0.203691      0.000692575    -0.000630503        0.0721752      -0.0564467     -0.000379422     0.000133379
                     0.000315345    -0.000335442         0.166229       -0.037172      0.000630882      0.00150678         0.707211       -0.679828
                       0.0719617      -0.0565769      0.000619829      0.00186254         0.352474       -0.816739        0.0010544    -0.000129383
                    -0.000394492    -0.000116021          0.70712       -0.680338       0.00167935     0.000244963       -0.0433667        0.159298
281762                  0.899807        0.202071      0.000688834    -0.000631097         0.073017      -0.0547858     -0.000378938     0.000132779
                     0.000312923    -0.000335587         0.166224      -0.0371424      0.000634674      0.00150565         0.707002        -0.68005
                       0.0728042      -0.0549255      0.000623979      0.00185914         0.350037       -0.817779        0.0010543    -0.000129763
