! TOUCHSTONE file generated by CST MICROWAVE STUDIO
! Date and time: Wed Oct 15 17:29:11 2025
! Project name: Teste_Macro_Metasurface_Nanopilar.cst
! Parameters = {H=600; L_x=95; L_y=80; Lambda=1064; Max_L=200; Min_L=70; PathPara=1; Phi=0; Step_L=10; Theta=0; p=520; phaseX=180; phaseY=0}
! Header version: 2018
! Port assignment regex: !\s*Touchstone port\s*([0-9]+)\s*=\s*(CST MWS port|CST DS port)\s*([0-9]+|Zmin|Zmax)\s*\(\"(.*)\"\)(\s*mode\s*([0-9]+))?.*
! Touchstone port assignment:
! Touchstone port 1 = CST MWS port Zmax ("") mode 1
! Touchstone port 2 = CST MWS port Zmax ("") mode 2
! Touchstone port 3 = CST MWS port Zmin ("") mode 1
! Touchstone port 4 = CST MWS port Zmin ("") mode 2
! S-Parameters are not renormalized. Each port impedance will be approximated by the real part at minimum frequency. The values are described via the [Reference] keyword.
! Default impedance is overridden by [Reference]
[Version] 2.0
# GHz S RI R 376.73
[Number of Ports] 4
[Reference]
376.73 376.73 259.888 259.888 
[Number of Frequencies] 51
[Network Data]
281700                 0.0315163       -0.113615      0.000229373     0.000288618        0.0335107       -0.991768     -0.000204254     0.000141192
                      0.00035687     0.000118392         0.011884      -0.0830447     -0.000204598    -8.66972e-05        -0.151928       -0.984175
                       0.0332869       -0.991698     -0.000214964    -0.000151925        0.0236793          0.1156      0.000369992     -0.00016753
                    -0.000232055     0.000209689        -0.151864       -0.984121      0.000270936     -0.00033641         0.036167        0.075783
281702                 0.0315042       -0.113615      0.000230191     0.000288948        0.0332714       -0.991777     -0.000204181      0.00014125
                     0.000356676     0.000118219         0.011873      -0.0830406     -0.000204629    -8.65981e-05        -0.152173       -0.984138
                       0.0330472       -0.991706     -0.000215182    -0.000151923         0.023723        0.115587      0.000369987    -0.000167377
                    -0.000231895      0.00020972        -0.152108       -0.984083      0.000270789    -0.000336429         0.036193       0.0757643
281704                 0.0314922       -0.113615      0.000231008     0.000289272        0.0330321       -0.991785     -0.000204107     0.000141307
                     0.000356482     0.000118047         0.011862      -0.0830364      -0.00020466    -8.64991e-05        -0.152418         -0.9841
                       0.0328075       -0.991714     -0.000215401     -0.00015192        0.0237667        0.115574      0.000369983    -0.000167223
                    -0.000231735     0.000209751        -0.152353       -0.984045      0.000270642    -0.000336447         0.036219       0.0757457
281706                 0.0314801       -0.113614      0.000231823      0.00028959        0.0327928       -0.991793     -0.000204034     0.000141364
                     0.000356288     0.000117875         0.011851      -0.0830323     -0.000204692    -8.64003e-05        -0.152663       -0.984063
                       0.0325679       -0.991723     -0.000215621    -0.000151915        0.0238104        0.115562      0.000369979     -0.00016707
                    -0.000231575     0.000209782        -0.152598       -0.984007      0.000270495    -0.000336465         0.036245       0.0757271
281708                  0.031468       -0.113614      0.000232636     0.000289903        0.0325535       -0.991802     -0.000203961     0.000141421
                     0.000356094     0.000117703          0.01184      -0.0830281     -0.000204724    -8.63017e-05        -0.152908       -0.984025
                       0.0323282       -0.991731     -0.000215843     -0.00015191        0.0238541        0.115549      0.000369975    -0.000166917
                    -0.000231415     0.000209812        -0.152843       -0.983969      0.000270348    -0.000336483        0.0362709       0.0757084
281710                  0.031456       -0.113613      0.000233448     0.000290211        0.0323142        -0.99181     -0.000203887     0.000141477
                     0.000355899     0.000117531         0.011829      -0.0830239     -0.000204756    -8.62031e-05        -0.153154       -0.983987
                       0.0320886       -0.991739     -0.000216067    -0.000151903        0.0238978        0.115536      0.000369972    -0.000166763
                    -0.000231255     0.000209842        -0.153087       -0.983931      0.000270201    -0.000336501        0.0362969       0.0756897
281712                 0.0314439       -0.113613      0.000234257     0.000290514        0.0320748       -0.991818     -0.000203814     0.000141533
                     0.000355705      0.00011736         0.011818      -0.0830198     -0.000204788    -8.61047e-05        -0.153399        -0.98395
                       0.0318489       -0.991747     -0.000216292    -0.000151895        0.0239415        0.115524      0.000369968     -0.00016661
                    -0.000231096     0.000209871        -0.153332       -0.983892      0.000270054    -0.000336519        0.0363228       0.0756711
281714                 0.0314318       -0.113612      0.000235065      0.00029081        0.0318355       -0.991826      -0.00020374     0.000141589
                     0.000355511     0.000117189         0.011807      -0.0830156      -0.00020482    -8.60064e-05        -0.153644       -0.983912
                       0.0316092       -0.991755     -0.000216518    -0.000151886        0.0239851        0.115511      0.000369965    -0.000166457
                    -0.000230936     0.000209899        -0.153577       -0.983854      0.000269907    -0.000336537        0.0363488       0.0756524
281716                 0.0314198       -0.113612       0.00023587     0.000291102        0.0315962       -0.991834     -0.000203666     0.000141645
                     0.000355316     0.000117019         0.011796      -0.0830115     -0.000204852    -8.59083e-05        -0.153889       -0.983874
                       0.0313695       -0.991763     -0.000216745    -0.000151875        0.0240288        0.115498      0.000369962    -0.000166304
                    -0.000230776     0.000209928        -0.153821       -0.983816       0.00026976    -0.000336555        0.0363747       0.0756337
281718                 0.0314077       -0.113611      0.000236674     0.000291388        0.0313569       -0.991842     -0.000203593     0.000141701
                     0.000355121     0.000116849         0.011785      -0.0830073     -0.000204884    -8.58103e-05        -0.154134       -0.983836
                       0.0311299       -0.991771     -0.000216974    -0.000151864        0.0240725        0.115485       0.00036996    -0.000166152
                    -0.000230616     0.000209955        -0.154066       -0.983777      0.000269612    -0.000336572        0.0364006        0.075615
281720                 0.0313956       -0.113611      0.000237475     0.000291668        0.0311176        -0.99185     -0.000203519     0.000141757
                     0.000354927     0.000116679         0.011774      -0.0830031     -0.000204917    -8.57124e-05        -0.154379       -0.983798
                       0.0308902       -0.991778     -0.000217204    -0.000151851        0.0241161        0.115473      0.000369958    -0.000165999
                    -0.000230456     0.000209983        -0.154311       -0.983739      0.000269465     -0.00033659        0.0364265       0.0755963
281722                 0.0313836       -0.113611      0.000238274     0.000291943        0.0308783       -0.991858     -0.000203446     0.000141812
                     0.000354732     0.000116509         0.011763       -0.082999     -0.000204949    -8.56146e-05        -0.154624        -0.98376
                       0.0306505       -0.991786     -0.000217436    -0.000151837        0.0241597         0.11546      0.000369956    -0.000165846
                    -0.000230296     0.000210009        -0.154556         -0.9837      0.000269318    -0.000336607        0.0364524       0.0755776
281724                 0.0313715        -0.11361      0.000239071     0.000292212        0.0306389       -0.991866     -0.000203372     0.000141867
                     0.000354537      0.00011634         0.011752      -0.0829948     -0.000204982     -8.5517e-05         -0.15487       -0.983722
                       0.0304108       -0.991794     -0.000217668    -0.000151821        0.0242034        0.115447      0.000369954    -0.000165694
                    -0.000230136     0.000210036          -0.1548       -0.983662       0.00026917    -0.000336625        0.0364783       0.0755589
281726                 0.0313594        -0.11361      0.000239866     0.000292476        0.0303996       -0.991874     -0.000203298     0.000141922
                     0.000354342     0.000116171         0.011741      -0.0829907     -0.000205015    -8.54194e-05        -0.155115       -0.983683
                       0.0301711       -0.991801     -0.000217902    -0.000151804         0.024247        0.115434      0.000369952    -0.000165542
                    -0.000229976     0.000210062        -0.155045       -0.983623      0.000269023    -0.000336642        0.0365042       0.0755401
281728                 0.0313474       -0.113609      0.000240659     0.000292735        0.0301603       -0.991882     -0.000203225     0.000141976
                     0.000354147     0.000116002          0.01173      -0.0829865     -0.000205048     -8.5322e-05         -0.15536       -0.983645
                       0.0299314       -0.991809     -0.000218137    -0.000151786        0.0242906        0.115421      0.000369951    -0.000165389
                    -0.000229816     0.000210087         -0.15529       -0.983584      0.000268875    -0.000336659        0.0365301       0.0755214
281730                 0.0313353       -0.113609       0.00024145     0.000292987        0.0299209       -0.991889     -0.000203151     0.000142031
                     0.000353952     0.000115833         0.011719      -0.0829823     -0.000205081    -8.52247e-05        -0.155605       -0.983607
                       0.0296917       -0.991816     -0.000218373    -0.000151767        0.0243343        0.115408       0.00036995    -0.000165237
                    -0.000229655     0.000210112        -0.155534       -0.983546      0.000268728    -0.000336676         0.036556       0.0755026
281732                 0.0313232       -0.113608      0.000242238     0.000293235        0.0296816       -0.991897     -0.000203077     0.000142085
                     0.000353756     0.000115665         0.011708      -0.0829782     -0.000205114    -8.51274e-05         -0.15585       -0.983568
                        0.029452       -0.991824     -0.000218611    -0.000151746        0.0243779        0.115395       0.00036995    -0.000165085
                    -0.000229495     0.000210137        -0.155779       -0.983507       0.00026858    -0.000336693        0.0365818       0.0754839
281734                 0.0313112       -0.113608      0.000243023     0.000293476        0.0294423       -0.991905     -0.000203003     0.000142139
                     0.000353561     0.000115497         0.011697       -0.082974     -0.000205147    -8.50303e-05        -0.156095        -0.98353
                       0.0292123       -0.991831     -0.000218849    -0.000151724        0.0244215        0.115382      0.000369949    -0.000164934
                    -0.000229334     0.000210161        -0.156024       -0.983468      0.000268433     -0.00033671        0.0366077       0.0754651
281736                 0.0312991       -0.113607      0.000243807     0.000293712        0.0292029       -0.991912      -0.00020293     0.000142193
                     0.000353365      0.00011533         0.011686      -0.0829698      -0.00020518    -8.49333e-05         -0.15634       -0.983491
                       0.0289726       -0.991839     -0.000219089    -0.000151701        0.0244651        0.115369      0.000369949    -0.000164782
                    -0.000229174     0.000210185        -0.156268       -0.983429      0.000268285    -0.000336727        0.0366335       0.0754464
281738                 0.0312871       -0.113607      0.000244587     0.000293943        0.0289636        -0.99192     -0.000202856     0.000142246
                      0.00035317     0.000115162         0.011675      -0.0829657     -0.000205213    -8.48364e-05        -0.156585       -0.983453
                       0.0287329       -0.991846      -0.00021933    -0.000151677        0.0245087        0.115357      0.000369949     -0.00016463
                    -0.000229013     0.000210208        -0.156513        -0.98339      0.000268138    -0.000336743        0.0366593       0.0754276
281740                  0.031275       -0.113606      0.000245366     0.000294168        0.0287242       -0.991927     -0.000202782       0.0001423
                     0.000352974     0.000114995         0.011664      -0.0829615     -0.000205247    -8.47396e-05         -0.15683       -0.983414
                       0.0284932       -0.991853     -0.000219572    -0.000151651        0.0245522        0.115344       0.00036995    -0.000164479
                    -0.000228852     0.000210231        -0.156757       -0.983351       0.00026799     -0.00033676        0.0366851       0.0754088
281742                 0.0312629       -0.113606      0.000246141     0.000294387        0.0284849       -0.991934     -0.000202709     0.000142353
                     0.000352778     0.000114829         0.011653      -0.0829573      -0.00020528    -8.46429e-05        -0.157075       -0.983375
                       0.0282534        -0.99186     -0.000219815    -0.000151624        0.0245958        0.115331      0.000369951    -0.000164328
                    -0.000228691     0.000210253        -0.157002       -0.983312      0.000267842    -0.000336776         0.036711         0.07539
281744                 0.0312509       -0.113605      0.000246915     0.000294601        0.0282455       -0.991942     -0.000202635     0.000142406
                     0.000352582     0.000114662         0.011642      -0.0829531     -0.000205314    -8.45463e-05         -0.15732       -0.983337
                       0.0280137       -0.991867     -0.000220059    -0.000151596        0.0246394        0.115318      0.000369952    -0.000164177
                     -0.00022853     0.000210276        -0.157247       -0.983273      0.000267694    -0.000336793        0.0367368       0.0753712
281746                 0.0312388       -0.113605      0.000247685     0.000294809        0.0280062       -0.991949     -0.000202561     0.000142458
                     0.000352386     0.000114496         0.011631       -0.082949     -0.000205348    -8.44499e-05        -0.157565       -0.983298
                        0.027774       -0.991874     -0.000220304    -0.000151566         0.024683        0.115305      0.000369953    -0.000164026
                    -0.000228369     0.000210297        -0.157491       -0.983233      0.000267546    -0.000336809        0.0367625       0.0753524
281748                 0.0312267       -0.113605      0.000248453     0.000295012        0.0277668       -0.991956     -0.000202487     0.000142511
                     0.000352189      0.00011433          0.01162      -0.0829448     -0.000205382    -8.43536e-05         -0.15781       -0.983259
                       0.0275343       -0.991881      -0.00022055    -0.000151536        0.0247265        0.115292      0.000369955    -0.000163875
                    -0.000228207     0.000210319        -0.157736       -0.983194      0.000267398    -0.000336825        0.0367883       0.0753335
281750                 0.0312147       -0.113604      0.000249218     0.000295209        0.0275275       -0.991963     -0.000202413     0.000142563
                     0.000351993     0.000114164         0.011609      -0.0829406     -0.000205416    -8.42575e-05        -0.158055        -0.98322
                       0.0272945       -0.991888     -0.000220797    -0.000151504        0.0247701        0.115278      0.000369957    -0.000163725
                    -0.000228046     0.000210339        -0.157981       -0.983155      0.000267249    -0.000336841        0.0368141       0.0753147
281752                 0.0312026       -0.113604       0.00024998       0.0002954        0.0272881        -0.99197      -0.00020234     0.000142615
                     0.000351796     0.000113999         0.011598      -0.0829364     -0.000205451    -8.41618e-05          -0.1583       -0.983181
                       0.0270548       -0.991895     -0.000221045     -0.00015147        0.0248136        0.115265      0.000369959    -0.000163575
                    -0.000227884      0.00021036        -0.158225       -0.983115        0.0002671    -0.000336857        0.0368399       0.0752959
281754                 0.0311905       -0.113603       0.00025074     0.000295586        0.0270488       -0.991977     -0.000202266     0.000142667
                       0.0003516     0.000113834         0.011587      -0.0829323     -0.000205487    -8.40667e-05        -0.158545       -0.983142
                        0.026815       -0.991902     -0.000221294    -0.000151436        0.0248571        0.115252      0.000369962    -0.000163425
                    -0.000227722      0.00021038         -0.15847       -0.983076      0.000266952    -0.000336874        0.0368656        0.075277
281756                 0.0311785       -0.113603      0.000251497     0.000295766        0.0268094       -0.991984     -0.000202192     0.000142718
                     0.000351403     0.000113669         0.011576      -0.0829281     -0.000205531    -8.39712e-05         -0.15879       -0.983103
                       0.0265753       -0.991909     -0.000221545      -0.0001514        0.0249007        0.115239      0.000369965    -0.000163275
                     -0.00022756       0.0002104        -0.158714       -0.983036      0.000266803     -0.00033689        0.0368913       0.0752582
281758                 0.0311664       -0.113602       0.00025225      0.00029594          0.02657       -0.991991     -0.000202118      0.00014277
                     0.000351206     0.000113505         0.011565      -0.0829239      -0.00020555    -8.38566e-05        -0.159035       -0.983064
                       0.0263356       -0.991916     -0.000221796    -0.000151363        0.0249442        0.115226      0.000369968    -0.000163125
                    -0.000227397     0.000210419        -0.158959       -0.982997      0.000266655    -0.000336906        0.0369171       0.0752393
281760                 0.0311544       -0.113602      0.000253001     0.000296109        0.0263307       -0.991998     -0.000202045     0.000142821
                     0.000351009      0.00011334         0.011554      -0.0829197     -0.000205582    -8.37692e-05         -0.15928       -0.983024
                       0.0260958       -0.991922     -0.000222048    -0.000151324        0.0249877        0.115213      0.000369971    -0.000162976
                    -0.000227235     0.000210438        -0.159204       -0.982957      0.000266506    -0.000336923        0.0369428       0.0752204
281762                 0.0311423       -0.113601      0.000253749     0.000296272        0.0260913       -0.992004     -0.000201971     0.000142872
                     0.000350811     0.000113176         0.011543      -0.0829155     -0.000205617    -8.36753e-05        -0.159525       -0.982985
                        0.025856       -0.991929       -0.0002223    -0.000151284        0.0250312          0.1152      0.000369975    -0.000162826
