! TOUCHSTONE file generated by CST MICROWAVE STUDIO
! Date and time: Wed Oct 15 17:30:17 2025
! Project name: Teste_Macro_Metasurface_Nanopilar.cst
! Parameters = {H=600; L_x=110; L_y=180; Lambda=1064; Max_L=200; Min_L=70; PathPara=1; Phi=0; Step_L=10; Theta=0; p=520; phaseX=180; phaseY=0}
! Header version: 2018
! Port assignment regex: !\s*Touchstone port\s*([0-9]+)\s*=\s*(CST MWS port|CST DS port)\s*([0-9]+|Zmin|Zmax)\s*\(\"(.*)\"\)(\s*mode\s*([0-9]+))?.*
! Touchstone port assignment:
! Touchstone port 1 = CST MWS port Zmax ("") mode 1
! Touchstone port 2 = CST MWS port Zmax ("") mode 2
! Touchstone port 3 = CST MWS port Zmin ("") mode 1
! Touchstone port 4 = CST MWS port Zmin ("") mode 2
! S-Parameters are not renormalized. Each port impedance will be approximated by the real part at minimum frequency. The values are described via the [Reference] keyword.
! Default impedance is overridden by [Reference]
[Version] 2.0
# GHz S RI R 376.73
[Number of Ports] 4
[Reference]
376.73 376.73 259.888 259.888 
[Number of Frequencies] 51
[Network Data]
281700                  0.405284       -0.351775      3.63621e-05     1.71334e-05          0.82025       -0.101654     -0.000208605     0.000112511
                     7.28914e-05     0.000136056        0.0895837     -0.00513796     -0.000449959     0.000141427         0.547443        0.822531
                        0.819476       -0.101621     -0.000469104     0.000159284         -0.45463       -0.266567      0.000611579     6.15316e-05
                     0.000131182     0.000321598         0.547277        0.822443      4.35349e-05    -0.000217702        0.0390959      -0.0777382
281702                  0.405027       -0.351702      3.60536e-05     1.70527e-05         0.820357       -0.102139     -0.000209081     0.000112117
                     7.25193e-05     0.000135995        0.0895701     -0.00512568     -0.000449539     0.000141651         0.547757        0.822325
                        0.819584       -0.102107     -0.000468794     0.000159398        -0.454676       -0.266015      0.000612753     6.15424e-05
                     0.000131343     0.000321795         0.547591        0.822236      4.35692e-05    -0.000217428        0.0390198        -0.07776
281704                   0.40477        -0.35163      3.57449e-05     1.69724e-05         0.820464       -0.102624     -0.000209557     0.000111721
                     7.21473e-05     0.000135934        0.0895564      -0.0051134     -0.000449119     0.000141874          0.54807        0.822119
                        0.819692       -0.102592     -0.000468484     0.000159513        -0.454722       -0.265463      0.000613928     6.15562e-05
                     0.000131503      0.00032199         0.547904         0.82203      4.36045e-05    -0.000217153        0.0389437      -0.0777818
281706                  0.404513       -0.351558      3.54362e-05     1.68924e-05          0.82057        -0.10311     -0.000210034     0.000111323
                     7.17756e-05     0.000135873        0.0895428     -0.00510111       -0.0004487     0.000142098         0.548384        0.821912
                        0.819799       -0.103078     -0.000468174     0.000159628        -0.454767       -0.264911      0.000615104     6.15732e-05
                     0.000131664     0.000322185         0.548217        0.821823      4.36409e-05    -0.000216878        0.0388676      -0.0778036
281708                  0.404256       -0.351485      3.51273e-05     1.68127e-05         0.820676       -0.103595     -0.000210511     0.000110921
                     7.14041e-05     0.000135812        0.0895292     -0.00508881     -0.000448281     0.000142321         0.548697        0.821706
                        0.819906       -0.103563     -0.000467865     0.000159742        -0.454811        -0.26436      0.000616282     6.15931e-05
                     0.000131824     0.000322379          0.54853        0.821616      4.36782e-05    -0.000216604        0.0387915      -0.0778253
281710                     0.404       -0.351413      3.48183e-05     1.67334e-05         0.820782        -0.10408     -0.000210988     0.000110517
                     7.10328e-05      0.00013575        0.0895156     -0.00507651     -0.000447861     0.000142544          0.54901        0.821499
                        0.820012       -0.104049     -0.000467555     0.000159856        -0.454855       -0.263809      0.000617461     6.16162e-05
                     0.000131984     0.000322572         0.548843        0.821409      4.37165e-05    -0.000216329        0.0387153      -0.0778469
281712                  0.403744        -0.35134      3.45093e-05     1.66544e-05         0.820887       -0.104565     -0.000211465     0.000110111
                     7.06618e-05     0.000135689        0.0895019     -0.00506421     -0.000447442     0.000142767         0.549323        0.821293
                        0.820118       -0.104534     -0.000467246      0.00015997        -0.454899       -0.263258       0.00061864     6.16425e-05
                     0.000132144     0.000322764         0.549155        0.821202      4.37557e-05    -0.000216055        0.0386392      -0.0778684
281714                  0.403488       -0.351267      3.42001e-05     1.65757e-05         0.820991        -0.10505     -0.000211942     0.000109701
                     7.02911e-05     0.000135627        0.0894883      -0.0050519     -0.000447023     0.000142989         0.549636        0.821086
                        0.820223       -0.105019     -0.000466937     0.000160083        -0.454941       -0.262708      0.000619821     6.16718e-05
                     0.000132304     0.000322956         0.549468        0.820995      4.37956e-05    -0.000215781         0.038563      -0.0778899
281716                  0.403233       -0.351194      3.38907e-05     1.64974e-05         0.821095       -0.105535      -0.00021242      0.00010929
                     6.99207e-05     0.000135565        0.0894747     -0.00503959     -0.000446605     0.000143211         0.549949        0.820879
                        0.820328       -0.105505     -0.000466629     0.000160197        -0.454984       -0.262158      0.000621003     6.17043e-05
                     0.000132463     0.000323147         0.549781        0.820787      4.38364e-05    -0.000215506        0.0384869      -0.0779113
281718                  0.402978       -0.351121      3.35813e-05     1.64194e-05         0.821199        -0.10602     -0.000212898     0.000108875
                     6.95506e-05     0.000135503        0.0894611     -0.00502727     -0.000446186     0.000143433         0.550262        0.820672
                        0.820433        -0.10599      -0.00046632      0.00016031        -0.455025       -0.261608      0.000622186       6.174e-05
                     0.000132623     0.000323337         0.550093         0.82058      4.38779e-05    -0.000215232        0.0384107      -0.0779327
281720                  0.402723       -0.351048      3.32718e-05     1.63417e-05         0.821302       -0.106505     -0.000213376     0.000108458
                     6.91807e-05     0.000135441        0.0894476     -0.00501495     -0.000445767     0.000143655         0.550574        0.820465
                        0.820537       -0.106475     -0.000466012     0.000160423        -0.455066       -0.261058       0.00062337     6.17789e-05
                     0.000132782     0.000323526         0.550406        0.820372        4.392e-05    -0.000214958        0.0383345      -0.0779539
281722                  0.402468       -0.350975      3.29621e-05     1.62644e-05         0.821404        -0.10699     -0.000213854     0.000108038
                     6.88112e-05     0.000135379         0.089434     -0.00500263     -0.000445349     0.000143876         0.550887        0.820258
                         0.82064        -0.10696     -0.000465704     0.000160536        -0.455107       -0.260509      0.000624555      6.1821e-05
                     0.000132941     0.000323715         0.550718        0.820164      4.39628e-05    -0.000214685        0.0382583      -0.0779752
281724                  0.402213       -0.350901      3.26523e-05     1.61875e-05         0.821507       -0.107475     -0.000214332     0.000107616
                     6.84421e-05     0.000135317        0.0894204      -0.0049903     -0.000444931     0.000144097           0.5512         0.82005
                        0.820743       -0.107445     -0.000465396     0.000160649        -0.455147        -0.25996      0.000625741     6.18664e-05
                       0.0001331     0.000323903          0.55103        0.819956      4.40062e-05    -0.000214411        0.0381821      -0.0779963
281726                  0.401959       -0.350828      3.23424e-05     1.61108e-05         0.821608       -0.107959     -0.000214811      0.00010719
                     6.80733e-05     0.000135255        0.0894068     -0.00497797     -0.000444512     0.000144317         0.551512        0.819843
                        0.820846        -0.10793     -0.000465088     0.000160762        -0.455186       -0.259412      0.000626928      6.1915e-05
                      0.00013326     0.000324091         0.551343        0.819749      4.40502e-05    -0.000214137        0.0381059      -0.0780174
281728                  0.401705       -0.350754      3.20324e-05     1.60346e-05         0.821709       -0.108444     -0.000215289     0.000106763
                     6.77049e-05     0.000135193        0.0893933     -0.00496563     -0.000444094     0.000144537         0.551824        0.819635
                        0.820948       -0.108415     -0.000464781     0.000160874        -0.455225       -0.258864      0.000628116     6.19669e-05
                     0.000133419     0.000324277         0.551655         0.81954      4.40947e-05    -0.000213864        0.0380297      -0.0780384
281730                  0.401451        -0.35068      3.17222e-05     1.59586e-05          0.82181       -0.108929     -0.000215768     0.000106332
                     6.73369e-05     0.000135131        0.0893797     -0.00495329     -0.000443676     0.000144757         0.552137        0.819428
                         0.82105         -0.1089     -0.000464474     0.000160987        -0.455263       -0.258316      0.000629305     6.20221e-05
                     0.000133577     0.000324463         0.551967        0.819332      4.41397e-05    -0.000213591        0.0379534      -0.0780594
281732                  0.401198       -0.350607      3.14119e-05      1.5883e-05         0.821911       -0.109413     -0.000216247     0.000105899
                     6.69692e-05     0.000135069        0.0893661     -0.00494094     -0.000443258     0.000144975         0.552449         0.81922
                        0.821151       -0.109385     -0.000464167     0.000161099        -0.455301       -0.257768      0.000630495     6.20807e-05
                     0.000133736     0.000324649         0.552279        0.819124      4.41852e-05    -0.000213317        0.0378772      -0.0780803
281734                  0.400944       -0.350533      3.11015e-05     1.58078e-05          0.82201       -0.109898     -0.000216726     0.000105463
                      6.6602e-05     0.000135007        0.0893526     -0.00492859     -0.000442841     0.000145194         0.552761        0.819012
                        0.821252       -0.109869      -0.00046386     0.000161211        -0.455338       -0.257221      0.000631686     6.21425e-05
                     0.000133895     0.000324833         0.552591        0.818915       4.4231e-05    -0.000213045        0.0378009      -0.0781011
281736                  0.400691       -0.350459       3.0791e-05     1.57329e-05          0.82211       -0.110383     -0.000217205     0.000105024
                     6.62352e-05     0.000134945         0.089339     -0.00491624     -0.000442423     0.000145412         0.553073        0.818804
                        0.821352       -0.110354     -0.000463553     0.000161322        -0.455375       -0.256674      0.000632878     6.22078e-05
                     0.000134054     0.000325017         0.552902        0.818707      4.42773e-05    -0.000212772        0.0377246      -0.0781219
281738                  0.400438       -0.350385      3.04804e-05     1.56583e-05         0.822209       -0.110867     -0.000217684     0.000104583
                     6.58689e-05     0.000134883        0.0893255     -0.00490388     -0.000442006     0.000145629         0.553385        0.818596
                        0.821452       -0.110839     -0.000463247     0.000161434        -0.455411       -0.256127       0.00063407     6.22764e-05
                     0.000134213     0.000325201         0.553214        0.818498       4.4324e-05    -0.000212499        0.0376483      -0.0781426
281740                  0.400186        -0.35031      3.01696e-05     1.55841e-05         0.822307       -0.111351     -0.000218164     0.000104139
                      6.5503e-05     0.000134821         0.089312     -0.00489152     -0.000441589     0.000145846         0.553697        0.818388
                        0.821551       -0.111323     -0.000462941     0.000161546        -0.455446       -0.255581      0.000635263     6.23484e-05
                     0.000134372     0.000325383         0.553526         0.81829       4.4371e-05    -0.000212227         0.037572      -0.0781632
281742                  0.399933       -0.350236      2.98587e-05     1.55103e-05         0.822405       -0.111836     -0.000218643     0.000103692
                     6.51376e-05     0.000134759        0.0892984     -0.00487915     -0.000441171     0.000146063         0.554009        0.818179
                         0.82165       -0.111808     -0.000462635     0.000161657        -0.455481       -0.255035      0.000636457     6.24239e-05
                     0.000134531     0.000325565         0.553837        0.818081      4.44184e-05    -0.000211955        0.0374957      -0.0781838
281744                  0.399681       -0.350162      2.95477e-05     1.54368e-05         0.822503        -0.11232     -0.000219123     0.000103243
                     6.47727e-05     0.000134698        0.0892849     -0.00486678     -0.000440754     0.000146279         0.554321        0.817971
                        0.821749       -0.112292     -0.000462329     0.000161768        -0.455515        -0.25449      0.000637652     6.25028e-05
                     0.000134689     0.000325747         0.554149        0.817872      4.44661e-05    -0.000211683        0.0374194      -0.0782043
281746                  0.399429       -0.350087      2.92365e-05     1.53636e-05           0.8226       -0.112804     -0.000219603      0.00010279
                     6.44082e-05     0.000134636        0.0892714      -0.0048544     -0.000440337     0.000146494         0.554632        0.817762
                        0.821847       -0.112777     -0.000462023     0.000161879        -0.455549       -0.253944      0.000638848     6.25852e-05
                     0.000134848     0.000325928          0.55446        0.817662       4.4514e-05    -0.000211411        0.0373431      -0.0782248
281748                  0.399178       -0.350013      2.89252e-05     1.52908e-05         0.822697       -0.113289     -0.000220082     0.000102335
                     6.40443e-05     0.000134575        0.0892579     -0.00484202     -0.000439921     0.000146709         0.554944        0.817554
                        0.821944       -0.113261     -0.000461718      0.00016199        -0.455583       -0.253399      0.000640044      6.2671e-05
                     0.000135007     0.000326108         0.554771        0.817453      4.45622e-05     -0.00021114        0.0372667      -0.0782452
281750                  0.398926       -0.349938      2.86138e-05     1.52184e-05         0.822793       -0.113773     -0.000220562     0.000101878
                     6.36809e-05     0.000134514        0.0892444     -0.00482964     -0.000439504     0.000146923         0.555255        0.817345
                        0.822042       -0.113745     -0.000461413     0.000162101        -0.455615       -0.252855      0.000641241     6.27604e-05
                     0.000135166     0.000326287         0.555083        0.817244      4.46107e-05    -0.000210868        0.0371904      -0.0782655
281752                  0.398675       -0.349863      2.83023e-05     1.51463e-05         0.822889       -0.114257     -0.000221042     0.000101417
                      6.3318e-05     0.000134453        0.0892309     -0.00481725     -0.000439088     0.000147136         0.555567        0.817136
                        0.822138        -0.11423     -0.000461107     0.000162212        -0.455647        -0.25231      0.000642438     6.28533e-05
                     0.000135325     0.000326466         0.555394        0.817034      4.46594e-05    -0.000210597         0.037114      -0.0782857
281754                  0.398424       -0.349788      2.79906e-05     1.50746e-05         0.822984       -0.114741     -0.000221522     0.000100954
                     6.29557e-05     0.000134392        0.0892174     -0.00480486     -0.000438671     0.000147349         0.555878        0.816927
                        0.822234       -0.114714     -0.000460803     0.000162322        -0.455679       -0.251766      0.000643636     6.29497e-05
                     0.000135484     0.000326645         0.555705        0.816825      4.47084e-05    -0.000210326        0.0370376      -0.0783059
281756                  0.398174       -0.349713      2.76788e-05     1.50032e-05         0.823079       -0.115225     -0.000222003     0.000100487
                     6.25939e-05     0.000134331        0.0892039     -0.00479246     -0.000438255     0.000147562         0.556189        0.816718
                         0.82233       -0.115198     -0.000460498     0.000162432         -0.45571       -0.251222      0.000644835     6.30497e-05
                     0.000135643     0.000326822         0.556016        0.816615      4.47575e-05    -0.000210056        0.0369613       -0.078326
281758                  0.397923       -0.349638      2.73669e-05     1.49322e-05         0.823173       -0.115709     -0.000222483     0.000100019
                     6.22326e-05      0.00013427        0.0891904     -0.00478006     -0.000437839     0.000147774           0.5565        0.816509
                        0.822426       -0.115682     -0.000460193     0.000162543        -0.455741       -0.250679      0.000646034     6.31533e-05
                     0.000135803        0.000327         0.556326        0.816405      4.48069e-05    -0.000209786        0.0368849      -0.0783461
281760                  0.397673       -0.349563      2.70548e-05     1.48615e-05         0.823267       -0.116193     -0.000222963     9.95468e-05
                     6.18719e-05      0.00013421        0.0891769     -0.00476766     -0.000437424     0.000147985         0.556811        0.816299
                         0.82252       -0.116166     -0.000459889     0.000162653         -0.45577       -0.250136      0.000647234     6.32606e-05
                     0.000135962     0.000327176         0.556637        0.816195      4.48566e-05    -0.000209515        0.0368084      -0.0783661
281762                  0.397423       -0.349488      2.67427e-05     1.47912e-05         0.823361       -0.116676     -0.000223443     9.90722e-05
                     6.15118e-05     0.000134149        0.0891634     -0.00475525     -0.000437008     0.000148195         0.557122         0.81609
                        0.822615        -0.11665     -0.000459585     0.000162762          -0.4558       -0.249593      0.000648434     6.33715e-05
