! TOUCHSTONE file generated by CST MICROWAVE STUDIO
! Date and time: Wed Oct 15 17:29:08 2025
! Project name: Teste_Macro_Metasurface_Nanopilar.cst
! Parameters = {H=600; L_x=90; L_y=185; Lambda=1064; Max_L=200; Min_L=70; PathPara=1; Phi=0; Step_L=10; Theta=0; p=520; phaseX=180; phaseY=0}
! Header version: 2018
! Port assignment regex: !\s*Touchstone port\s*([0-9]+)\s*=\s*(CST MWS port|CST DS port)\s*([0-9]+|Zmin|Zmax)\s*\(\"(.*)\"\)(\s*mode\s*([0-9]+))?.*
! Touchstone port assignment:
! Touchstone port 1 = CST MWS port Zmax ("") mode 1
! Touchstone port 2 = CST MWS port Zmax ("") mode 2
! Touchstone port 3 = CST MWS port Zmin ("") mode 1
! Touchstone port 4 = CST MWS port Zmin ("") mode 2
! S-Parameters are not renormalized. Each port impedance will be approximated by the real part at minimum frequency. The values are described via the [Reference] keyword.
! Default impedance is overridden by [Reference]
[Version] 2.0
# GHz S RI R 376.73
[Number of Ports] 4
[Reference]
376.73 376.73 259.888 259.888 
[Number of Frequencies] 51
[Network Data]
281700                  0.307783          0.4451      0.000519221    -1.26226e-05         0.480324       -0.678498      5.08262e-05    -0.000243674
                     0.000523248    -2.51369e-05      -0.00442987        0.107508      0.000277154     0.000485658        -0.917212       -0.374013
                        0.480437       -0.678739      0.000261637     0.000459896          0.52142         0.12868      0.000669761    -0.000320293
                     3.34675e-05    -0.000222478        -0.916834       -0.373982      0.000767478    -0.000331161        -0.071001       0.0808856
281702                   0.30794        0.445162      0.000519084    -1.29614e-05          0.47996       -0.678639      5.07406e-05    -0.000243865
                     0.000523036    -2.55686e-05      -0.00441859        0.107527      0.000277672     0.000485702        -0.917325       -0.373728
                        0.480073        -0.67888      0.000262104     0.000459885         0.521651        0.128322      0.000669796    -0.000320468
                     3.34523e-05    -0.000222605        -0.916948       -0.373697      0.000767556    -0.000331421       -0.0709726       0.0809355
281704                  0.308096        0.445224      0.000518946    -1.33003e-05         0.479597        -0.67878      5.06549e-05    -0.000244055
                     0.000522825    -2.60006e-05       -0.0044073        0.107547       0.00027819     0.000485745        -0.917438       -0.373444
                         0.47971       -0.679021      0.000262571     0.000459873         0.521882        0.127964      0.000669832    -0.000320644
                     3.34373e-05    -0.000222732        -0.917061       -0.373412      0.000767633     -0.00033168       -0.0709441       0.0809855
281706                  0.308253        0.445287      0.000518808    -1.36391e-05         0.479233       -0.678921      5.05689e-05    -0.000244246
                     0.000522613    -2.64328e-05      -0.00439601        0.107566      0.000278708     0.000485789        -0.917552       -0.373159
                        0.479347       -0.679162      0.000263038     0.000459861         0.522112        0.127606      0.000669867     -0.00032082
                     3.34227e-05    -0.000222858        -0.917175       -0.373127       0.00076771    -0.000331939       -0.0709156       0.0810354
281708                  0.308409        0.445349       0.00051867     -1.3978e-05          0.47887       -0.679062      5.04826e-05    -0.000244437
                       0.0005224    -2.68655e-05      -0.00438472        0.107586      0.000279228     0.000485832        -0.917665       -0.372875
                        0.478983       -0.679302      0.000263506     0.000459849         0.522343        0.127248      0.000669903    -0.000320997
                     3.34085e-05    -0.000222984        -0.917288       -0.372842      0.000767787    -0.000332199       -0.0708871       0.0810854
281710                  0.308566        0.445411      0.000518531    -1.43168e-05         0.478506       -0.679203      5.03961e-05    -0.000244627
                     0.000522186    -2.72984e-05      -0.00437342        0.107605      0.000279748     0.000485874        -0.917778        -0.37259
                         0.47862       -0.679443      0.000263973     0.000459836         0.522573        0.126889       0.00066994    -0.000321173
                     3.33946e-05    -0.000223111        -0.917401       -0.372557      0.000767863    -0.000332459       -0.0708585       0.0811353
281712                  0.308723        0.445474      0.000518392    -1.46556e-05         0.478142       -0.679343      5.03093e-05    -0.000244818
                     0.000521972    -2.77317e-05      -0.00436211        0.107624      0.000280268     0.000485916        -0.917891       -0.372305
                        0.478256       -0.679583      0.000264441     0.000459822         0.522803         0.12653      0.000669976     -0.00032135
                     3.33811e-05    -0.000223237        -0.917514       -0.372272      0.000767938    -0.000332719       -0.0708299       0.0811852
281714                   0.30888        0.445536      0.000518253    -1.49945e-05         0.477778       -0.679484      5.02222e-05    -0.000245009
                     0.000521757    -2.81653e-05       -0.0043508        0.107644      0.000280789     0.000485958        -0.918004       -0.372021
                        0.477892       -0.679723       0.00026491     0.000459808         0.523033        0.126171      0.000670013    -0.000321527
                     3.33679e-05    -0.000223363        -0.917627       -0.371987      0.000768014    -0.000332979       -0.0708013       0.0812351
281716                  0.309037        0.445598      0.000518113    -1.53333e-05         0.477414       -0.679623      5.01349e-05    -0.000245201
                     0.000521542    -2.85992e-05      -0.00433949        0.107663       0.00028131     0.000485999        -0.918117       -0.371736
                        0.477528       -0.679863      0.000265378     0.000459794         0.523263        0.125811       0.00067005    -0.000321703
                      3.3355e-05    -0.000223489         -0.91774       -0.371702      0.000768088    -0.000333239       -0.0707726        0.081285
281718                  0.309194         0.44566      0.000517973     -1.5672e-05          0.47705       -0.679763      5.00472e-05    -0.000245392
                     0.000521326    -2.90334e-05      -0.00432817        0.107682      0.000281833      0.00048604        -0.918229       -0.371451
                        0.477164       -0.680002      0.000265846      0.00045978         0.523493        0.125452      0.000670088    -0.000321881
                     3.33425e-05    -0.000223615        -0.917853       -0.371416      0.000768162    -0.000333499       -0.0707439       0.0813349
281720                  0.309351        0.445723      0.000517832    -1.60108e-05         0.476685       -0.679903      4.99592e-05    -0.000245583
                      0.00052111    -2.94678e-05      -0.00431685        0.107702      0.000282355     0.000486081        -0.918342       -0.371166
                          0.4768       -0.680141      0.000266315     0.000459765         0.523722        0.125091      0.000670126    -0.000322058
                     3.33302e-05    -0.000223741        -0.917966       -0.371131      0.000768236     -0.00033376       -0.0707152       0.0813848
281722                  0.309509        0.445785      0.000517692    -1.63495e-05         0.476321       -0.680042      4.98708e-05    -0.000245774
                     0.000520893    -2.99025e-05      -0.00430552        0.107721      0.000282879     0.000486121        -0.918454       -0.370881
                        0.476436       -0.680281      0.000266784     0.000459749         0.523952        0.124731      0.000670165    -0.000322236
                     3.33183e-05    -0.000223867        -0.918079       -0.370846      0.000768309     -0.00033402       -0.0706864       0.0814347
281724                  0.309666        0.445847       0.00051755    -1.66881e-05         0.475956       -0.680181       4.9782e-05    -0.000245966
                     0.000520676    -3.03374e-05      -0.00429419         0.10774      0.000283402      0.00048616        -0.918567       -0.370596
                        0.476071       -0.680419      0.000267253     0.000459733         0.524181         0.12437      0.000670204    -0.000322414
                     3.33065e-05    -0.000223993        -0.918191       -0.370561      0.000768382    -0.000334281       -0.0706576       0.0814845
281726                  0.309824        0.445909      0.000517409    -1.70267e-05         0.475591        -0.68032      4.96927e-05    -0.000246157
                     0.000520458    -3.07723e-05      -0.00428285         0.10776      0.000283927       0.0004862        -0.918679       -0.370311
                        0.475707       -0.680558      0.000267722     0.000459717          0.52441        0.124009      0.000670243    -0.000322592
                     3.32949e-05    -0.000224118        -0.918304       -0.370275      0.000768454    -0.000334542       -0.0706288       0.0815344
281728                  0.309981        0.445971      0.000517267    -1.73653e-05         0.475227       -0.680459      4.96028e-05    -0.000246349
                      0.00052024    -3.12069e-05      -0.00427151        0.107779      0.000284452     0.000486239        -0.918792       -0.370026
                        0.475342       -0.680697      0.000268192       0.0004597         0.524638        0.123648      0.000670284    -0.000322771
                     3.32833e-05    -0.000224244        -0.918416        -0.36999      0.000768526    -0.000334803       -0.0705999       0.0815842
281730                  0.310139        0.446033      0.000517125    -1.77038e-05         0.474862       -0.680597      4.95119e-05     -0.00024654
                     0.000520021    -3.16397e-05      -0.00426016        0.107798      0.000284978     0.000486277        -0.918904       -0.369741
                        0.474977       -0.680835      0.000268661     0.000459683         0.524867        0.123286      0.000670326     -0.00032295
                     3.32711e-05    -0.000224371        -0.918529       -0.369704      0.000768597    -0.000335064        -0.070571       0.0816341
281732                  0.310297        0.446095      0.000516982    -1.80422e-05         0.474496       -0.680736      4.94196e-05    -0.000246732
                     0.000519797    -3.20632e-05      -0.00424881        0.107818      0.000285504     0.000486315        -0.919016       -0.369456
                        0.474612       -0.680973      0.000269131     0.000459665         0.525095        0.122924      0.000670371    -0.000323131
                     3.32583e-05    -0.000224503        -0.918641       -0.369419      0.000768668    -0.000335325       -0.0705421       0.0816839
281734                  0.310455        0.446157      0.000516839    -1.83806e-05         0.474131       -0.680874      4.93247e-05    -0.000246923
                     0.000519553    -3.25259e-05      -0.00423746        0.107837      0.000286031     0.000486353        -0.919128       -0.369171
                        0.474247       -0.681111      0.000269601     0.000459647         0.525323        0.122561       0.00067042    -0.000323315
                     3.32653e-05    -0.000224636        -0.918753       -0.369133      0.000768739    -0.000335587       -0.0705131       0.0817338
281736                  0.310613        0.446219      0.000516696    -1.87188e-05         0.473766       -0.681012      4.92239e-05    -0.000247113
                     0.000519347    -3.29655e-05       -0.0042261        0.107856      0.000286558      0.00048639         -0.91924       -0.368886
                        0.473882       -0.681248      0.000270071     0.000459628         0.525551        0.122199      0.000670481    -0.000323504
                     3.32574e-05    -0.000224748        -0.918865       -0.368848      0.000768809    -0.000335848       -0.0704841       0.0817836
281738                  0.310771        0.446281      0.000516553    -1.90571e-05           0.4734       -0.681149      4.91019e-05    -0.000247301
                     0.000519129    -3.34016e-05      -0.00421474        0.107876      0.000287086     0.000486427        -0.919352       -0.368601
                        0.473517       -0.681386      0.000270542     0.000459609         0.525779        0.121836      0.000670586    -0.000323719
                     3.32456e-05     -0.00022487        -0.918977       -0.368562      0.000768879     -0.00033611       -0.0704551       0.0818334
281740                  0.310929        0.446343      0.000516409    -1.93952e-05         0.473035       -0.681287      4.84863e-05    -0.000247509
                     0.000518908    -3.38388e-05      -0.00420337        0.107895      0.000287614     0.000486464        -0.919462       -0.368316
                        0.473151       -0.681523      0.000271012      0.00045959         0.526007        0.121473      0.000664464    -0.000323983
                     3.32356e-05    -0.000224994        -0.919089       -0.368276      0.000768949    -0.000336372       -0.0704264       0.0818828
281742                  0.311088        0.446405      0.000516264    -1.97333e-05         0.472669       -0.681424      4.90829e-05    -0.000247716
                     0.000518685    -3.42767e-05      -0.00419199        0.107914      0.000288143       0.0004865        -0.919575        -0.36803
                        0.472786        -0.68166      0.000271483      0.00045957         0.526234        0.121109      0.000670403    -0.000323936
                     3.32266e-05    -0.000225119        -0.919201       -0.367991      0.000769018    -0.000336634       -0.0703969       0.0819331
281744                  0.311246        0.446467       0.00051612    -2.00714e-05         0.472303       -0.681561       4.8945e-05    -0.000247898
                     0.000518462    -3.47151e-05      -0.00418062        0.107934      0.000288673     0.000486536        -0.919687       -0.367745
                         0.47242       -0.681797      0.000271954      0.00045955         0.526461        0.120745      0.000670506    -0.000324146
                     3.32183e-05    -0.000225243        -0.919313       -0.367705      0.000769086    -0.000336896       -0.0703677       0.0819828
281746                  0.311405        0.446529      0.000515975    -2.04096e-05         0.471937       -0.681698      4.88403e-05    -0.000248088
                     0.000518238     -3.5154e-05      -0.00416923        0.107953      0.000289203     0.000486571        -0.919798        -0.36746
                        0.472054       -0.681933      0.000272425     0.000459529         0.526688        0.120381      0.000670566    -0.000324335
                     3.32105e-05    -0.000225368        -0.919424       -0.367419      0.000769155    -0.000337158       -0.0703386       0.0820326
281748                  0.311563        0.446591      0.000515829    -2.07484e-05         0.471571       -0.681834       4.8743e-05    -0.000248279
                     0.000518014    -3.55933e-05      -0.00415785        0.107972      0.000289734     0.000486606         -0.91991       -0.367174
                        0.471688       -0.682069      0.000272896     0.000459508         0.526915        0.120017      0.000670617    -0.000324519
                     3.32032e-05    -0.000225492        -0.919536       -0.367133      0.000769223     -0.00033742       -0.0703094       0.0820824
281750                  0.311722        0.446653       0.00051568    -2.10987e-05         0.471205       -0.681971      4.86485e-05    -0.000248471
                     0.000517788    -3.60329e-05      -0.00414646        0.107992      0.000290266     0.000486641        -0.920021       -0.366889
                        0.471322       -0.682205      0.000273376     0.000459492         0.527142        0.119652      0.000670663      -0.0003247
                     3.31962e-05    -0.000225617        -0.919647       -0.366848       0.00076929    -0.000337682       -0.0702802       0.0821322
281752                  0.311881        0.446715       0.00051554     -2.1417e-05         0.470838       -0.682107      4.85551e-05    -0.000248664
                     0.000517563     -3.6473e-05      -0.00413506        0.108011      0.000290798     0.000486675        -0.920132       -0.366603
                        0.470956       -0.682341      0.000273836     0.000459463         0.527368        0.119287      0.000670707    -0.000324881
                     3.31897e-05    -0.000225741        -0.919759       -0.366562      0.000769357    -0.000337945       -0.0702509       0.0821819
281754                   0.31204        0.446777      0.000515393    -2.17564e-05         0.470472       -0.682243      4.84624e-05    -0.000248857
                     0.000517336    -3.69134e-05      -0.00412366         0.10803       0.00029133     0.000486709        -0.920243       -0.366318
                         0.47059       -0.682477      0.000274308      0.00045944         0.527595        0.118921       0.00067075    -0.000325061
                     3.31836e-05    -0.000225865         -0.91987       -0.366276      0.000769421    -0.000338207       -0.0702216       0.0822317
281756                  0.312199        0.446838      0.000515246    -2.20942e-05         0.470105       -0.682378      4.83699e-05    -0.000249049
                     0.000517109    -3.73542e-05      -0.00411225         0.10805      0.000291867      0.00048674        -0.920355       -0.366032
                        0.470223       -0.682612       0.00027478     0.000459417         0.527821        0.118556      0.000670792    -0.000325241
                     3.31778e-05    -0.000225989        -0.919981        -0.36599      0.000769507    -0.000338468       -0.0701923       0.0822814
281758                  0.312358          0.4469      0.000515099    -2.24315e-05         0.469739       -0.682514      4.82776e-05    -0.000249243
                     0.000516881    -3.77954e-05      -0.00410084        0.108069      0.000292398     0.000486773        -0.920466       -0.365747
                        0.469857       -0.682748      0.000275252     0.000459394         0.528047         0.11819      0.000670834     -0.00032542
                     3.31724e-05    -0.000226113        -0.920092       -0.365704      0.000769561    -0.000338732       -0.0701629       0.0823312
281760                  0.312517        0.446962      0.000514952    -2.27685e-05         0.469372       -0.682649      4.81853e-05    -0.000249436
                     0.000516653    -3.82369e-05      -0.00408943        0.108088      0.000292932     0.000486806        -0.920576       -0.365461
                         0.46949       -0.682883      0.000275724     0.000459369         0.528272        0.117823      0.000670876    -0.000325599
                     3.31673e-05    -0.000226237        -0.920203       -0.365418      0.000769626    -0.000338995       -0.0701335       0.0823809
281762                  0.312677        0.447024      0.000514804    -2.31054e-05         0.469005       -0.682784       4.8093e-05    -0.000249629
                     0.000516424    -3.86788e-05      -0.00407801        0.108107      0.000293467     0.000486838        -0.920687       -0.365175
                        0.469123       -0.683017      0.000276196     0.000459345         0.528498        0.117457      0.000670918    -0.000325779
