! TOUCHSTONE file generated by CST MICROWAVE STUDIO
! Date and time: Wed Oct 15 17:31:21 2025
! Project name: Teste_Macro_Metasurface_Nanopilar.cst
! Parameters = {H=600; L_x=130; L_y=150; Lambda=1064; Max_L=200; Min_L=70; PathPara=1; Phi=0; Step_L=10; Theta=0; p=520; phaseX=180; phaseY=0}
! Header version: 2018
! Port assignment regex: !\s*Touchstone port\s*([0-9]+)\s*=\s*(CST MWS port|CST DS port)\s*([0-9]+|Zmin|Zmax)\s*\(\"(.*)\"\)(\s*mode\s*([0-9]+))?.*
! Touchstone port assignment:
! Touchstone port 1 = CST MWS port Zmax ("") mode 1
! Touchstone port 2 = CST MWS port Zmax ("") mode 2
! Touchstone port 3 = CST MWS port Zmin ("") mode 1
! Touchstone port 4 = CST MWS port Zmin ("") mode 2
! S-Parameters are not renormalized. Each port impedance will be approximated by the real part at minimum frequency. The values are described via the [Reference] keyword.
! Default impedance is overridden by [Reference]
[Version] 2.0
# GHz S RI R 376.73
[Number of Ports] 4
[Reference]
376.73 376.73 259.888 259.888 
[Number of Frequencies] 51
[Network Data]
281700                  0.169494        0.289647      0.000350413     -0.00062065         0.726942       -0.588896      3.00813e-05     -0.00012512
                     0.000431636    -0.000656282        0.0870837        0.125017      5.82467e-05    -7.10052e-06         0.981047      -0.0675699
                        0.726874       -0.588656      8.07369e-05    -0.000130409         0.249714        0.218333     -0.000763852    -0.000215284
                     2.76946e-05    -0.000134676         0.981012      -0.0676666     -0.000724381    -8.64374e-05       -0.0678114        0.135744
281702                  0.169556        0.289722      0.000350204    -0.000620738         0.726682       -0.589157      3.00917e-05    -0.000125178
                     0.000431479    -0.000656392        0.0870985        0.125029      5.83454e-05     -7.0909e-06         0.981022      -0.0678853
                        0.726614       -0.588918      8.07328e-05    -0.000130463         0.249948        0.218206      -0.00076386    -0.000214918
                     2.77523e-05    -0.000134667         0.980988      -0.0679824      -0.00072431    -8.61389e-05        -0.067737        0.135801
281704                  0.169617        0.289796      0.000349995    -0.000620825         0.726423       -0.589419      3.01024e-05    -0.000125236
                     0.000431323      -0.0006565        0.0871132        0.125041      5.84442e-05    -7.08126e-06         0.980998      -0.0682006
                        0.726355       -0.589179      8.07287e-05    -0.000130516         0.250182        0.218079     -0.000763868    -0.000214552
                     2.78101e-05    -0.000134657         0.980963      -0.0682982     -0.000724239    -8.58404e-05       -0.0676625        0.135858
281706                  0.169678         0.28987      0.000349786    -0.000620911         0.726163       -0.589681      3.01134e-05    -0.000125295
                     0.000431166    -0.000656609         0.087128        0.125053       5.8543e-05    -7.07159e-06         0.980974      -0.0685159
                        0.726096       -0.589441      8.07246e-05     -0.00013057         0.250416        0.217952     -0.000763875    -0.000214186
                      2.7868e-05    -0.000134647         0.980939      -0.0686139     -0.000724168     -8.5542e-05        -0.067588        0.135916
281708                   0.16974        0.289945      0.000349577    -0.000620998         0.725904       -0.589942      3.01246e-05    -0.000125353
                      0.00043101    -0.000656718        0.0871428        0.125065      5.86418e-05     -7.0619e-06         0.980949      -0.0688311
                        0.725836       -0.589702      8.07204e-05    -0.000130624          0.25065        0.217825     -0.000763881    -0.000213821
                      2.7926e-05    -0.000134638         0.980914      -0.0689295     -0.000724097    -8.52435e-05       -0.0675135        0.135973
281710                  0.169802        0.290019      0.000349368    -0.000621085         0.725644       -0.590203      3.01361e-05    -0.000125411
                     0.000430854    -0.000656826        0.0871576        0.125077      5.87407e-05    -7.05218e-06         0.980924      -0.0691464
                        0.725577       -0.589963      8.07162e-05    -0.000130678         0.250884        0.217698     -0.000763887    -0.000213455
                     2.79842e-05    -0.000134628          0.98089      -0.0692453     -0.000724026    -8.49451e-05       -0.0674389         0.13603
281712                  0.169863        0.290094      0.000349159    -0.000621171         0.725384       -0.590465      3.01479e-05    -0.000125468
                     0.000430698    -0.000656934        0.0871724        0.125089      5.88397e-05    -7.04244e-06           0.9809      -0.0694616
                        0.725317       -0.590224      8.07119e-05    -0.000130732         0.251117         0.21757     -0.000763892     -0.00021309
                     2.80424e-05    -0.000134618         0.980864      -0.0695621     -0.000723954    -8.46467e-05       -0.0673643        0.136088
281714                  0.169925        0.290168       0.00034895    -0.000621257         0.725124       -0.590726      3.01601e-05    -0.000125526
                     0.000430542    -0.000657042        0.0871872        0.125101      5.89387e-05    -7.03268e-06         0.980875      -0.0697769
                        0.725057       -0.590485      8.07076e-05    -0.000130786         0.251351        0.217442     -0.000763897    -0.000212724
                     2.81008e-05    -0.000134608         0.980839      -0.0698776     -0.000723882    -8.43482e-05       -0.0672896        0.136145
281716                  0.169987        0.290243      0.000348741    -0.000621342         0.724863       -0.590987      3.01725e-05    -0.000125583
                     0.000430386    -0.000657149         0.087202        0.125113      5.90378e-05    -7.02289e-06          0.98085      -0.0700921
                        0.724796       -0.590746      8.07032e-05     -0.00013084         0.251585        0.217314       -0.0007639    -0.000212359
                     2.81593e-05    -0.000134599         0.980814      -0.0701932      -0.00072381    -8.40498e-05       -0.0672149        0.136202
281718                  0.170048        0.290318      0.000348532    -0.000621428         0.724603       -0.591248      3.01852e-05    -0.000125641
                      0.00043023    -0.000657257        0.0872169        0.125125       5.9137e-05    -7.01309e-06         0.980825      -0.0704073
                        0.724536       -0.591007      8.06987e-05    -0.000130894         0.251819        0.217185     -0.000763903    -0.000211994
                      2.8218e-05    -0.000134589         0.980788      -0.0705088     -0.000723737    -8.37514e-05       -0.0671401        0.136259
281720                   0.17011        0.290392      0.000348323    -0.000621513         0.724342       -0.591509      3.01983e-05    -0.000125697
                     0.000430074    -0.000657364        0.0872317        0.125137      5.92362e-05    -7.00326e-06           0.9808      -0.0707225
                        0.724276       -0.591268       8.0694e-05    -0.000130949         0.252054        0.217057     -0.000763906     -0.00021163
                     2.82768e-05    -0.000134579         0.980763      -0.0708245     -0.000723664     -8.3453e-05       -0.0670653        0.136316
281722                  0.170172        0.290467      0.000348114    -0.000621598         0.724081        -0.59177      3.02117e-05    -0.000125754
                     0.000429918    -0.000657471        0.0872465        0.125149      5.93355e-05    -6.99341e-06         0.980775      -0.0710377
                        0.724015       -0.591529      8.06891e-05    -0.000131004         0.252288        0.216928     -0.000763907    -0.000211265
                     2.83357e-05    -0.000134569         0.980737      -0.0711402     -0.000723592    -8.31547e-05       -0.0669904        0.136373
281724                  0.170234        0.290542      0.000347906    -0.000621682          0.72382       -0.592031      3.02255e-05    -0.000125811
                     0.000429762    -0.000657578        0.0872613        0.125161      5.94348e-05    -6.98354e-06         0.980749      -0.0713528
                        0.723754        -0.59179      8.06838e-05     -0.00013106         0.252522        0.216799     -0.000763908    -0.000210901
                     2.83947e-05    -0.000134559         0.980712      -0.0714559     -0.000723518    -8.28563e-05       -0.0669155         0.13643
281726                  0.170296        0.290617      0.000347698    -0.000621766         0.723559       -0.592292      3.02396e-05    -0.000125867
                     0.000429607    -0.000657684        0.0872761        0.125173      5.95342e-05    -6.97364e-06         0.980724       -0.071668
                        0.723493        -0.59205      8.06777e-05    -0.000131116         0.252756         0.21667     -0.000763908    -0.000210537
                     2.84539e-05    -0.000134548         0.980686      -0.0717716     -0.000723445    -8.25579e-05       -0.0668406        0.136487
281728                  0.170358        0.290692      0.000347491    -0.000621849         0.723297       -0.592552      3.02541e-05    -0.000125923
                     0.000429451    -0.000657791        0.0872909        0.125185      5.96337e-05    -6.96373e-06         0.980698      -0.0719831
                        0.723232       -0.592311      8.06697e-05    -0.000131173          0.25299        0.216541     -0.000763908    -0.000210173
                     2.85132e-05    -0.000134538          0.98066      -0.0720872     -0.000723371    -8.22596e-05       -0.0667656        0.136544
281730                  0.170421        0.290767      0.000347286    -0.000621934         0.723036       -0.592813      3.02691e-05    -0.000125979
                     0.000429296    -0.000657897        0.0873057        0.125197      5.97332e-05     -6.9538e-06         0.980673      -0.0722983
                         0.72297       -0.592571       8.0657e-05    -0.000131231         0.253224        0.216411     -0.000763906     -0.00020981
                     2.85726e-05    -0.000134528         0.980634      -0.0724029     -0.000723297    -8.19612e-05       -0.0666906        0.136601
281732                  0.170483        0.290842      0.000347083    -0.000622021         0.722774       -0.593073      3.02844e-05    -0.000126035
                      0.00042914    -0.000658003        0.0873205        0.125209      5.98328e-05    -6.94385e-06         0.980647      -0.0726134
                        0.722709       -0.592831      8.06337e-05    -0.000131283         0.253458        0.216281     -0.000763904    -0.000209447
                      2.8632e-05    -0.000134517         0.980608      -0.0727185     -0.000723223    -8.16629e-05       -0.0666155        0.136658
281734                  0.170545        0.290917      0.000346877    -0.000622111         0.722512       -0.593334      3.03002e-05     -0.00012609
                     0.000428985    -0.000658109        0.0873353        0.125221      5.99325e-05    -6.93387e-06         0.980621      -0.0729285
                        0.722447       -0.593092      8.06189e-05    -0.000131307         0.253693        0.216151     -0.000763901    -0.000209085
                     2.86915e-05    -0.000134507         0.980582      -0.0730342     -0.000723149    -8.13646e-05       -0.0665404        0.136714
281736                  0.170607        0.290992      0.000346667    -0.000622203          0.72225       -0.593594      3.03164e-05    -0.000126145
                      0.00042883    -0.000658214        0.0873501        0.125233      6.00322e-05    -6.92387e-06         0.980595      -0.0732436
                        0.722185       -0.593352      8.06357e-05    -0.000131346         0.253927        0.216021     -0.000763897    -0.000208724
                      2.8751e-05    -0.000134496         0.980556      -0.0733498     -0.000723074    -8.10662e-05       -0.0664652        0.136771
281738                   0.17067        0.291067      0.000346455    -0.000622292         0.721988       -0.593854      3.03331e-05      -0.0001262
                     0.000428675     -0.00065832         0.087365        0.125245       6.0132e-05    -6.91385e-06         0.980569      -0.0735586
                        0.721923       -0.593612      8.06443e-05    -0.000131403         0.254161         0.21589     -0.000763893    -0.000208363
                     2.88102e-05    -0.000134485          0.98053      -0.0736654        -0.000723    -8.07679e-05         -0.06639        0.136828
281740                  0.170732        0.291142      0.000346242    -0.000622378         0.721726       -0.594114      3.03503e-05    -0.000126254
                      0.00042852    -0.000658425        0.0873798        0.125257      6.02318e-05     -6.9038e-06         0.980543      -0.0738737
                        0.721661       -0.593872      8.06454e-05    -0.000131461         0.254395         0.21576     -0.000763887    -0.000208002
                     2.88686e-05    -0.000134474         0.980503       -0.073981     -0.000722924    -8.04696e-05       -0.0663148        0.136884
281742                  0.170795        0.291217       0.00034603    -0.000622463         0.721463       -0.594374       3.0368e-05    -0.000126309
                     0.000428365     -0.00065853        0.0873946        0.125269      6.03317e-05    -6.89371e-06         0.980517      -0.0741888
                        0.721398       -0.594132      8.06435e-05    -0.000131518          0.25463        0.215629      -0.00076388    -0.000207643
                     2.89248e-05    -0.000134463         0.980477      -0.0742966     -0.000722849    -8.01713e-05       -0.0662395        0.136941
281744                  0.170857        0.291292      0.000345818    -0.000622548           0.7212       -0.594634      3.03863e-05    -0.000126362
                      0.00042821    -0.000658634        0.0874094        0.125281      6.04315e-05    -6.88356e-06         0.980491      -0.0745038
                        0.721136       -0.594392      8.06404e-05    -0.000131574         0.254864        0.215498     -0.000763872    -0.000207284
                      2.8976e-05    -0.000134459          0.98045      -0.0746122     -0.000722774    -7.98729e-05       -0.0661641        0.136998
281746                   0.17092        0.291368      0.000345606    -0.000622632         0.720937       -0.594894      3.04054e-05    -0.000126416
                     0.000428056    -0.000658739        0.0874242        0.125293      6.05313e-05    -6.87329e-06         0.980464      -0.0748188
                        0.720873       -0.594651      8.06367e-05     -0.00013163         0.255098        0.215366     -0.000763862    -0.000206926
                     2.90475e-05    -0.000134467         0.980424      -0.0749278     -0.000722698    -7.95743e-05       -0.0660887        0.137054
281748                  0.170983        0.291443      0.000345395    -0.000622716         0.720674       -0.595154      3.04256e-05    -0.000126469
                     0.000427901    -0.000658843         0.087439        0.125304      6.06305e-05    -6.86267e-06         0.980439      -0.0751341
                         0.72061       -0.594911      8.06327e-05    -0.000131686         0.255333        0.215235     -0.000763851    -0.000206568
                     2.91209e-05    -0.000134449         0.980397      -0.0752434     -0.000722624    -7.92754e-05       -0.0660133        0.137111
281750                  0.171045        0.291519      0.000345184    -0.000622799         0.720411       -0.595414      3.04504e-05    -0.000126517
                     0.000427745    -0.000658947        0.0874539        0.125316      6.07241e-05    -6.84905e-06         0.980411       -0.075449
                        0.720347       -0.595171      8.06285e-05    -0.000131741         0.255567        0.215103     -0.000763839    -0.000206209
                     2.91838e-05    -0.000134433          0.98037      -0.0755589     -0.000722556    -7.89717e-05       -0.0659378        0.137167
281752                  0.171108        0.291594      0.000344973    -0.000622882         0.720147       -0.595673      3.04564e-05    -0.000126575
                      0.00042759    -0.000659051        0.0874687        0.125328      6.08385e-05    -6.84675e-06         0.980384       -0.075764
                        0.720084        -0.59543      8.06242e-05    -0.000131796         0.255802        0.214971     -0.000763826    -0.000205849
                     2.92455e-05     -0.00013442         0.980343      -0.0758744     -0.000722461    -7.86847e-05       -0.0658623        0.137223
281754                  0.171171        0.291669      0.000344762    -0.000622966         0.719884       -0.595933      3.04814e-05    -0.000126628
                     0.000427435    -0.000659156        0.0874835         0.12534       6.0936e-05    -6.83488e-06         0.980357       -0.076079
                         0.71982        -0.59569      8.06199e-05    -0.000131851         0.256036        0.214839     -0.000763813    -0.000205489
                     2.93072e-05    -0.000134408         0.980316        -0.07619     -0.000722388    -7.83843e-05       -0.0657868         0.13728
281756                  0.171234        0.291745      0.000344552    -0.000623049          0.71962       -0.596192       3.0504e-05    -0.000126679
                     0.000427281    -0.000659261        0.0874983        0.125352      6.10358e-05    -6.82435e-06          0.98033      -0.0763939
                        0.719557       -0.595949      8.06155e-05    -0.000131906         0.256271        0.214706     -0.000763802     -0.00020513
                     2.93692e-05    -0.000134396         0.980289      -0.0765055     -0.000722311    -7.80856e-05       -0.0657112        0.137336
281758                  0.171297        0.291821      0.000344341    -0.000623132         0.719356       -0.596452      3.05266e-05    -0.000126731
                     0.000427127    -0.000659365        0.0875131        0.125364      6.11361e-05    -6.81405e-06         0.980303      -0.0767089
                        0.719293       -0.596208      8.06111e-05     -0.00013196         0.256505        0.214574     -0.000763791    -0.000204772
                     2.94315e-05    -0.000134384         0.980261       -0.076821     -0.000722234    -7.77873e-05       -0.0656355        0.137392
281760                   0.17136        0.291896       0.00034413    -0.000623215         0.719092       -0.596711      3.05498e-05    -0.000126782
                     0.000426973    -0.000659468         0.087528        0.125376      6.12366e-05    -6.80382e-06         0.980276      -0.0770239
                        0.719029       -0.596467      8.06067e-05    -0.000132015          0.25674        0.214441     -0.000763781    -0.000204416
                      2.9494e-05    -0.000134373         0.980234      -0.0771365     -0.000722157    -7.74891e-05       -0.0655598        0.137449
281762                  0.171423        0.291972      0.000343918    -0.000623297         0.718828        -0.59697      3.05736e-05    -0.000126832
                     0.000426819    -0.000659572        0.0875428        0.125388      6.13372e-05    -6.79362e-06         0.980249      -0.0773388
                        0.718765       -0.596726      8.06023e-05     -0.00013207         0.256974        0.214308      -0.00076377    -0.000204061
