! TOUCHSTONE file generated by CST MICROWAVE STUDIO
! Date and time: Wed Oct 15 17:34:22 2025
! Project name: Teste_Macro_Metasurface_Nanopilar.cst
! Parameters = {H=600; L_x=185; L_y=85; Lambda=1064; Max_L=200; Min_L=70; PathPara=1; Phi=0; Step_L=10; Theta=0; p=520; phaseX=180; phaseY=0}
! Header version: 2018
! Port assignment regex: !\s*Touchstone port\s*([0-9]+)\s*=\s*(CST MWS port|CST DS port)\s*([0-9]+|Zmin|Zmax)\s*\(\"(.*)\"\)(\s*mode\s*([0-9]+))?.*
! Touchstone port assignment:
! Touchstone port 1 = CST MWS port Zmax ("") mode 1
! Touchstone port 2 = CST MWS port Zmax ("") mode 2
! Touchstone port 3 = CST MWS port Zmin ("") mode 1
! Touchstone port 4 = CST MWS port Zmin ("") mode 2
! S-Parameters are not renormalized. Each port impedance will be approximated by the real part at minimum frequency. The values are described via the [Reference] keyword.
! Default impedance is overridden by [Reference]
[Version] 2.0
# GHz S RI R 376.73
[Number of Ports] 4
[Reference]
376.73 376.73 259.888 259.888 
[Number of Frequencies] 51
[Network Data]
281700                -0.0416409       0.0321957      0.000428107    -5.09813e-05         -0.70784       -0.700889     -0.000817922     0.000120295
                      0.00046567     1.61436e-06          0.16949        0.349056     -0.000747762     -8.0578e-06         0.732745        -0.54825
                       -0.708123       -0.700924      -0.00075518       1.772e-05       -0.0314523       0.0427912      0.000464431    -0.000292909
                    -0.000757908     9.79159e-05         0.733482       -0.547744      0.000414443     -0.00021523         0.288755        0.255459
281702                -0.0416438       0.0322142      0.000428163     -5.1027e-05        -0.708037        -0.70069     -0.000817917     0.000120732
                     0.000465698     1.49333e-06         0.169559         0.34911     -0.000747815    -7.83113e-06         0.732509       -0.548509
                        -0.70832       -0.700725     -0.000755333     1.79912e-05       -0.0314467       0.0428121      0.000464202    -0.000293246
                    -0.000757908     9.82115e-05         0.733247       -0.548003      0.000414326     -0.00021546         0.288984        0.255318
281704                -0.0416466       0.0322326      0.000428218    -5.10723e-05        -0.708233        -0.70049     -0.000817911     0.000121169
                     0.000465726     1.37227e-06         0.169628        0.349164     -0.000747868    -7.60441e-06         0.732272       -0.548768
                       -0.708516       -0.700525     -0.000755486     1.82625e-05        -0.031441       0.0428329      0.000463974    -0.000293582
                    -0.000757907     9.85071e-05         0.733013       -0.548262       0.00041421     -0.00021569         0.289212        0.255177
281706                -0.0416494       0.0322511      0.000428274    -5.11173e-05        -0.708429        -0.70029     -0.000817904     0.000121607
                     0.000465754     1.25117e-06         0.169697        0.349217     -0.000747921    -7.37765e-06         0.732036       -0.549026
                       -0.708713       -0.700325     -0.000755639     1.85341e-05       -0.0314354       0.0428537      0.000463745    -0.000293919
                    -0.000757906     9.88027e-05         0.732778        -0.54852      0.000414093     -0.00021592          0.28944        0.255036
281708                -0.0416522       0.0322695       0.00042833    -5.11619e-05        -0.708626        -0.70009     -0.000817897     0.000122044
                     0.000465782     1.13005e-06         0.169766        0.349271     -0.000747974    -7.15086e-06         0.731799       -0.549285
                       -0.708909       -0.700125     -0.000755793     1.88058e-05       -0.0314297       0.0428745      0.000463515    -0.000294256
                    -0.000757905     9.90984e-05         0.732543       -0.548779      0.000413976    -0.000216149         0.289669        0.254894
281710                 -0.041655        0.032288      0.000428385    -5.12063e-05        -0.708822        -0.69989      -0.00081789     0.000122482
                      0.00046581     1.00889e-06         0.169835        0.349325     -0.000748027    -6.92402e-06         0.731563       -0.549544
                       -0.709105       -0.699925     -0.000755946     1.90777e-05        -0.031424       0.0428953      0.000463285    -0.000294593
                    -0.000757903      9.9394e-05         0.732308       -0.549037      0.000413859    -0.000216379         0.289897        0.254752
281712                -0.0416578       0.0323065      0.000428441    -5.12504e-05        -0.709018        -0.69969     -0.000817883      0.00012292
                     0.000465837     8.87705e-07         0.169904        0.349379      -0.00074808    -6.69714e-06         0.731326       -0.549802
                       -0.709301       -0.699725     -0.000756101     1.93498e-05       -0.0314183       0.0429162      0.000463055    -0.000294929
                    -0.000757901     9.96897e-05         0.732072       -0.549295      0.000413741    -0.000216608         0.290125         0.25461
281714                -0.0416606       0.0323249      0.000428497    -5.12941e-05        -0.709214        -0.69949     -0.000817875     0.000123358
                     0.000465865     7.66484e-07         0.169973        0.349432     -0.000748132    -6.47023e-06         0.731089        -0.55006
                       -0.709498       -0.699525     -0.000756255     1.96221e-05       -0.0314126        0.042937      0.000462824    -0.000295266
                      -0.0007579     9.99854e-05         0.731837       -0.549553      0.000413624    -0.000216837         0.290354        0.254468
281716                -0.0416634       0.0323434      0.000428553    -5.13375e-05         -0.70941        -0.69929     -0.000817866     0.000123796
                     0.000465893     6.45229e-07         0.170042        0.349486     -0.000748185    -6.24328e-06         0.730852       -0.550319
                       -0.709694       -0.699324      -0.00075641     1.98946e-05       -0.0314069       0.0429578      0.000462593    -0.000295603
                    -0.000757897     0.000100281         0.731601       -0.549811      0.000413506    -0.000217066         0.290582        0.254326
281718                -0.0416663       0.0323618      0.000428609    -5.13806e-05        -0.709606        -0.69909     -0.000817858     0.000124234
                      0.00046592      5.2394e-07         0.170112         0.34954     -0.000748237    -6.01629e-06         0.730615       -0.550577
                        -0.70989       -0.699124     -0.000756565     2.01672e-05       -0.0314012       0.0429787      0.000462361    -0.000295939
                    -0.000757895     0.000100577         0.731366       -0.550069      0.000413388    -0.000217295          0.29081        0.254183
281720                -0.0416691       0.0323803      0.000428665    -5.14234e-05        -0.709802        -0.69889     -0.000817849     0.000124672
                     0.000465948     4.02616e-07         0.170181        0.349594      -0.00074829    -5.78927e-06         0.730378       -0.550835
                       -0.710086       -0.698924      -0.00075672     2.04401e-05       -0.0313954       0.0429995      0.000462129    -0.000296276
                    -0.000757892     0.000100872          0.73113       -0.550327       0.00041327    -0.000217524         0.291038        0.254041
281722                -0.0416718       0.0323988      0.000428721    -5.14658e-05        -0.709998        -0.69869     -0.000817839     0.000125111
                     0.000465975     2.81258e-07          0.17025        0.349647     -0.000748342    -5.56221e-06          0.73014       -0.551093
                       -0.710282       -0.698723     -0.000756875     2.07131e-05       -0.0313897       0.0430204      0.000461897    -0.000296612
                     -0.00075789     0.000101168         0.730894       -0.550585      0.000413151    -0.000217753         0.291266        0.253898
281724                -0.0416746       0.0324172      0.000428777     -5.1508e-05        -0.710194       -0.698489     -0.000817829     0.000125549
                     0.000466003     1.59862e-07         0.170319        0.349701     -0.000748394    -5.33512e-06         0.729903       -0.551351
                       -0.710477       -0.698523     -0.000757031     2.09863e-05       -0.0313839       0.0430412      0.000461664    -0.000296949
                    -0.000757887     0.000101464         0.730658       -0.550843      0.000413033    -0.000217982         0.291494        0.253755
281726                -0.0416774       0.0324357      0.000428833    -5.15498e-05        -0.710389       -0.698289     -0.000817819     0.000125988
                      0.00046603     3.84297e-08         0.170388        0.349755     -0.000748446      -5.108e-06         0.729665       -0.551609
                       -0.710673       -0.698323     -0.000757187     2.12597e-05       -0.0313781       0.0430621      0.000461431    -0.000297285
                    -0.000757883      0.00010176         0.730422         -0.5511      0.000412914    -0.000218211         0.291722        0.253612
281728                -0.0416802       0.0324542      0.000428889    -5.15913e-05        -0.710585       -0.698088     -0.000817809     0.000126426
                     0.000466057    -8.30421e-08         0.170458        0.349809     -0.000748498    -4.88085e-06         0.729428       -0.551867
                       -0.710869       -0.698122     -0.000757343     2.15333e-05       -0.0313723        0.043083      0.000461197    -0.000297621
                     -0.00075788     0.000102056         0.730186       -0.551358      0.000412796     -0.00021844          0.29195        0.253468
281730                 -0.041683       0.0324726      0.000428945    -5.16324e-05        -0.710781       -0.697888     -0.000817798     0.000126865
                     0.000466084    -2.04555e-07         0.170527        0.349862      -0.00074855    -4.65367e-06          0.72919       -0.552124
                       -0.711065       -0.697921       -0.0007575     2.18071e-05       -0.0313665       0.0431038      0.000460962    -0.000297957
                    -0.000757876     0.000102351          0.72995       -0.551615      0.000412677    -0.000218669         0.292178        0.253325
281732                -0.0416858       0.0324911      0.000429002    -5.16733e-05        -0.710977       -0.697687     -0.000817786     0.000127304
                     0.000466112     -3.2611e-07         0.170597        0.349916     -0.000748602    -4.42645e-06         0.728952       -0.552382
                        -0.71126       -0.697721     -0.000757657     2.20811e-05       -0.0313607       0.0431247      0.000460728    -0.000298292
                    -0.000757872     0.000102647         0.729713       -0.551873      0.000412558    -0.000218897         0.292406        0.253181
281734                -0.0416886       0.0325096      0.000429058    -5.17138e-05        -0.711172       -0.697487     -0.000817774     0.000127743
                     0.000466139    -4.47711e-07         0.170666         0.34997     -0.000748654    -4.19921e-06         0.728714       -0.552639
                       -0.711456        -0.69752     -0.000757814     2.23553e-05       -0.0313549       0.0431456      0.000460493    -0.000298628
                    -0.000757868     0.000102943         0.729477        -0.55213      0.000412439    -0.000219126         0.292634        0.253037
281736                -0.0416913       0.0325281      0.000429115     -5.1754e-05        -0.711368       -0.697286     -0.000817762     0.000128182
                     0.000466166    -5.69358e-07         0.170735        0.350024     -0.000748706    -3.97193e-06         0.728475       -0.552897
                       -0.711652       -0.697319     -0.000757971     2.26297e-05        -0.031349       0.0431665      0.000460257    -0.000298964
                    -0.000757864     0.000103239          0.72924       -0.552387      0.000412319    -0.000219354         0.292861        0.252893
281738                -0.0416941       0.0325465      0.000429171    -5.17938e-05        -0.711563       -0.697085      -0.00081775     0.000128621
                     0.000466193    -6.91054e-07         0.170805        0.350078     -0.000748758    -3.74463e-06         0.728237       -0.553154
                       -0.711847       -0.697118     -0.000758128     2.29042e-05       -0.0313432       0.0431874      0.000460021    -0.000299299
                    -0.000757859     0.000103536         0.729003       -0.552644        0.0004122    -0.000219583         0.293089        0.252748
281740                -0.0416969       0.0325651      0.000429228    -5.18334e-05        -0.711758       -0.696885     -0.000817737      0.00012906
                      0.00046622    -8.12795e-07         0.170874        0.350132      -0.00074881    -3.51729e-06         0.727999       -0.553411
                       -0.712043       -0.696917     -0.000758286      2.3179e-05       -0.0313373       0.0432082      0.000459784    -0.000299634
                    -0.000757855     0.000103832         0.728766       -0.552901       0.00041208    -0.000219811         0.293317        0.252604
281742                -0.0416995       0.0325833      0.000429284    -5.18726e-05        -0.711954       -0.696684     -0.000817723       0.0001295
                     0.000466248    -9.34568e-07         0.170944        0.350185     -0.000748861    -3.28993e-06          0.72776       -0.553668
                       -0.712238       -0.696717     -0.000758444     2.34539e-05       -0.0313314       0.0432291      0.000459547    -0.000299969
                     -0.00075785     0.000104129         0.728529       -0.553158      0.000411961     -0.00022004         0.293545        0.252459
281744                -0.0417024       0.0326019      0.000429341    -5.19114e-05        -0.712149       -0.696483      -0.00081771     0.000129939
                     0.000466275    -1.05633e-06         0.171014        0.350239     -0.000748913    -3.06254e-06         0.727521       -0.553925
                       -0.712433       -0.696516     -0.000758602     2.37291e-05       -0.0313255         0.04325       0.00045931    -0.000300304
                    -0.000757846     0.000104427         0.728292       -0.553415      0.000411841    -0.000220268         0.293772        0.252314
281746                -0.0417051       0.0326204      0.000429397      -5.195e-05        -0.712344       -0.696282     -0.000817696     0.000130379
                     0.000466303    -1.17798e-06         0.171083        0.350293     -0.000748965    -2.83512e-06         0.727283       -0.554182
                       -0.712628       -0.696314     -0.000758761     2.40044e-05       -0.0313196       0.0432709      0.000459072    -0.000300638
                    -0.000757844     0.000104724         0.728055       -0.553671      0.000411722    -0.000220497            0.294        0.252169
281748                -0.0417079       0.0326389      0.000429454    -5.19882e-05        -0.712539       -0.696081     -0.000817681     0.000130818
                     0.000466331    -1.29925e-06         0.171153        0.350347     -0.000749016    -2.60767e-06         0.727044       -0.554439
                       -0.712824       -0.696113     -0.000758919     2.42799e-05       -0.0313137       0.0432919      0.000458834    -0.000300973
                    -0.000757844     0.000105019         0.727817       -0.553928      0.000411602    -0.000220725         0.294228        0.252024
281750                -0.0417107       0.0326574      0.000429511     -5.2026e-05        -0.712735        -0.69588     -0.000817666     0.000131258
                      0.00046636    -1.41956e-06         0.171222        0.350401     -0.000749068    -2.38019e-06         0.726805       -0.554695
                       -0.713019       -0.695912     -0.000759078     2.45556e-05       -0.0313077       0.0433128      0.000458595    -0.000301307
                    -0.000757842      0.00010531          0.72758       -0.554184      0.000411482    -0.000220954         0.294455        0.251878
281752                -0.0417134       0.0326758      0.000429568    -5.20636e-05         -0.71293       -0.695679     -0.000817651     0.000131697
                     0.000466388    -1.53811e-06         0.171292        0.350455      -0.00074912    -2.15268e-06         0.726566       -0.554952
                       -0.713214       -0.695711     -0.000759237     2.48315e-05       -0.0313018       0.0433337      0.000458356    -0.000301641
                    -0.000757836     0.000105601         0.727342       -0.554441      0.000411362    -0.000221183         0.294683        0.251733
281754                -0.0417162       0.0326943      0.000429625    -5.21008e-05        -0.713125       -0.695477     -0.000817635     0.000132137
                     0.000466414    -1.65526e-06         0.171362        0.350509     -0.000749171    -1.92514e-06         0.726326       -0.555209
                       -0.713409        -0.69551     -0.000759397     2.51076e-05       -0.0312958       0.0433546      0.000458116    -0.000301974
                    -0.000757828     0.000105893         0.727104       -0.554697      0.000411242    -0.000221411          0.29491        0.251587
281756                -0.0417189       0.0327128      0.000429682    -5.21377e-05         -0.71332       -0.695276     -0.000817619     0.000132577
                     0.000466437    -1.77342e-06         0.171432        0.350563     -0.000749223    -1.69758e-06         0.726087       -0.555465
                       -0.713604       -0.695308     -0.000759556     2.53838e-05       -0.0312899       0.0433755      0.000457876    -0.000302308
                     -0.00075782     0.000106187         0.726867       -0.554953      0.000411122     -0.00022164         0.295138        0.251441
281758                -0.0417216       0.0327313      0.000429739    -5.21743e-05        -0.713515       -0.695075     -0.000817603     0.000133016
                      0.00046646     -1.8938e-06         0.171502        0.350616     -0.000749274    -1.46998e-06         0.725847       -0.555721
                       -0.713799       -0.695107     -0.000759716     2.56602e-05       -0.0312839       0.0433965      0.000457635    -0.000302641
                    -0.000757813     0.000106482         0.726629        -0.55521      0.000411002    -0.000221868         0.295365        0.251295
281760                -0.0417244       0.0327498      0.000429796    -5.22105e-05        -0.713709       -0.694874     -0.000817586     0.000133456
                     0.000466484    -2.01544e-06         0.171571         0.35067     -0.000749326    -1.24236e-06         0.725608       -0.555978
                       -0.713994       -0.694905     -0.000759876     2.59368e-05       -0.0312779       0.0434174      0.000457394    -0.000302974
                    -0.000757805     0.000106777          0.72639       -0.555466      0.000410882    -0.000222097         0.295592        0.251149
281762                -0.0417271       0.0327683      0.000429853    -5.22464e-05        -0.713904       -0.694672     -0.000817568     0.000133896
                     0.000466508    -2.13739e-06         0.171641        0.350724     -0.000749378    -1.01471e-06         0.725368       -0.556234
                       -0.714189       -0.694704     -0.000760037     2.62134e-05       -0.0312719       0.0434383      0.000457152    -0.000303306
