! TOUCHSTONE file generated by CST MICROWAVE STUDIO
! Date and time: Wed Oct 15 17:28:30 2025
! Project name: Teste_Macro_Metasurface_Nanopilar.cst
! Parameters = {H=600; L_x=80; L_y=155; Lambda=1064; Max_L=200; Min_L=70; PathPara=1; Phi=0; Step_L=10; Theta=0; p=520; phaseX=180; phaseY=0}
! Header version: 2018
! Port assignment regex: !\s*Touchstone port\s*([0-9]+)\s*=\s*(CST MWS port|CST DS port)\s*([0-9]+|Zmin|Zmax)\s*\(\"(.*)\"\)(\s*mode\s*([0-9]+))?.*
! Touchstone port assignment:
! Touchstone port 1 = CST MWS port Zmax ("") mode 1
! Touchstone port 2 = CST MWS port Zmax ("") mode 2
! Touchstone port 3 = CST MWS port Zmin ("") mode 1
! Touchstone port 4 = CST MWS port Zmin ("") mode 2
! S-Parameters are not renormalized. Each port impedance will be approximated by the real part at minimum frequency. The values are described via the [Reference] keyword.
! Default impedance is overridden by [Reference]
[Version] 2.0
# GHz S RI R 376.73
[Number of Ports] 4
[Reference]
376.73 376.73 259.888 259.888 
[Number of Frequencies] 51
[Network Data]
281700                -0.0625453        0.032945     -0.000156248    -0.000162001         0.657497        0.739184     -6.21592e-05    -8.48272e-05
                    -0.000117248    -3.14394e-05       -0.0145666      -0.0656215     -0.000124118    -6.06942e-05        -0.309949       -0.947132
                        0.657392        0.739724      -0.00023049    -0.000160956       -0.0411709       0.0607872     -4.97754e-05    -1.33742e-05
                     7.71249e-05    -0.000287854        -0.309458       -0.947324     -9.62515e-05    -9.22521e-05        0.0269186       0.0619203
281702                -0.0625378       0.0329876      -0.00015629    -0.000162075         0.657778        0.738933     -6.22005e-05     -8.4807e-05
                    -0.000117435    -3.14873e-05       -0.0145785      -0.0656141     -0.000124156    -6.07085e-05        -0.310191       -0.947054
                        0.657673        0.739473      -0.00023056    -0.000161065       -0.0411662       0.0608058     -4.98527e-05    -1.34254e-05
                     7.71088e-05    -0.000287953        -0.309699       -0.947246     -9.62922e-05    -9.23353e-05        0.0269361       0.0619078
281704                -0.0625302       0.0330302     -0.000156332    -0.000162149         0.658058        0.738681     -6.22417e-05    -8.47868e-05
                    -0.000117621    -3.15353e-05       -0.0145904      -0.0656068     -0.000124195    -6.07229e-05        -0.310432       -0.946975
                        0.657954        0.739222      -0.00023063    -0.000161174       -0.0411615       0.0608244       -4.993e-05    -1.34768e-05
                     7.70924e-05    -0.000288053        -0.309941       -0.947167      -9.6333e-05    -9.24185e-05        0.0269537       0.0618952
281706                -0.0625227       0.0330728     -0.000156375    -0.000162223         0.658339         0.73843     -6.22829e-05    -8.47666e-05
                    -0.000117808    -3.15835e-05       -0.0146023      -0.0655994     -0.000124233    -6.07373e-05        -0.310673       -0.946896
                        0.658235        0.738971     -0.000230699    -0.000161283       -0.0411568        0.060843     -5.00073e-05    -1.35284e-05
                     7.70755e-05    -0.000288151        -0.310182       -0.947089     -9.63739e-05    -9.25017e-05        0.0269713       0.0618826
281708                -0.0625151       0.0331154     -0.000156417    -0.000162297          0.65862        0.738179     -6.23241e-05    -8.47464e-05
                    -0.000117994    -3.16317e-05       -0.0146142      -0.0655921     -0.000124271    -6.07517e-05        -0.310914       -0.946817
                        0.658515        0.738719     -0.000230769    -0.000161392       -0.0411521       0.0608617     -5.00845e-05    -1.35801e-05
                     7.70582e-05     -0.00028825        -0.310424        -0.94701     -9.64148e-05    -9.25848e-05        0.0269888         0.06187
281710                -0.0625076        0.033158     -0.000156459    -0.000162371           0.6589        0.737927     -6.23653e-05    -8.47263e-05
                     -0.00011818    -3.16802e-05       -0.0146261      -0.0655847     -0.000124309    -6.07662e-05        -0.311156       -0.946738
                        0.658796        0.738468     -0.000230839    -0.000161501       -0.0411473       0.0608804     -5.01616e-05     -1.3632e-05
                     7.70404e-05    -0.000288348        -0.310665       -0.946932     -9.64557e-05    -9.26679e-05        0.0270064       0.0618574
281712                   -0.0625       0.0332006     -0.000156501    -0.000162445          0.65918        0.737676     -6.24065e-05    -8.47063e-05
                    -0.000118365    -3.17287e-05        -0.014638      -0.0655774     -0.000124347    -6.07807e-05        -0.311397       -0.946659
                        0.659076        0.738216     -0.000230909     -0.00016161       -0.0411426       0.0608991     -5.02388e-05    -1.36841e-05
                     7.70223e-05    -0.000288446        -0.310906       -0.946853     -9.64968e-05     -9.2751e-05        0.0270239       0.0618448
281714                -0.0624924       0.0332432     -0.000156543    -0.000162518          0.65946        0.737424     -6.24477e-05    -8.46862e-05
                     -0.00011855    -3.17774e-05       -0.0146499        -0.06557     -0.000124385    -6.07952e-05        -0.311638        -0.94658
                        0.659357        0.737964     -0.000230979    -0.000161719       -0.0411378       0.0609178     -5.03159e-05    -1.37363e-05
                     7.70037e-05    -0.000288544        -0.311148       -0.946774     -9.65379e-05     -9.2834e-05        0.0270414       0.0618322
281716                -0.0624848       0.0332857     -0.000156585    -0.000162592         0.659741        0.737172     -6.24888e-05    -8.46663e-05
                    -0.000118735    -3.18262e-05       -0.0146618      -0.0655627     -0.000124424    -6.08099e-05        -0.311879       -0.946501
                        0.659637        0.737712     -0.000231048    -0.000161827       -0.0411331       0.0609365      -5.0393e-05    -1.37887e-05
                     7.69846e-05    -0.000288642        -0.311389       -0.946695      -9.6579e-05     -9.2917e-05         0.027059       0.0618196
281718                -0.0624772       0.0333283     -0.000156627    -0.000162665         0.660021        0.736921       -6.253e-05    -8.46463e-05
                     -0.00011892    -3.18752e-05       -0.0146737      -0.0655553     -0.000124462    -6.08246e-05         -0.31212       -0.946422
                        0.659917         0.73746     -0.000231119    -0.000161935       -0.0411283       0.0609553       -5.047e-05    -1.38413e-05
                     7.69652e-05    -0.000288739         -0.31163       -0.946617     -9.66203e-05    -9.29999e-05        0.0270765        0.061807
281720                -0.0624696       0.0333709     -0.000156668    -0.000162738           0.6603        0.736669     -6.25711e-05    -8.46264e-05
                    -0.000119104    -3.19243e-05       -0.0146856       -0.065548       -0.0001245    -6.08395e-05        -0.312361       -0.946343
                        0.660197        0.737208     -0.000231189    -0.000162043       -0.0411235        0.060974      -5.0547e-05    -1.38941e-05
                     7.69453e-05    -0.000288836        -0.311872       -0.946538     -9.66617e-05    -9.30826e-05         0.027094       0.0617944
281722                -0.0624619       0.0334134     -0.000156709     -0.00016281          0.66058        0.736417     -6.26122e-05    -8.46066e-05
                    -0.000119288    -3.19735e-05       -0.0146975      -0.0655406     -0.000124538    -6.08545e-05        -0.312602       -0.946264
                        0.660477        0.736956     -0.000231259    -0.000162149       -0.0411188       0.0609928     -5.06239e-05     -1.3947e-05
                      7.6925e-05    -0.000288933        -0.312113       -0.946459     -9.67034e-05    -9.31651e-05        0.0271115       0.0617818
281724                -0.0624543        0.033456      -0.00015675    -0.000162882          0.66086        0.736164     -6.26534e-05    -8.45868e-05
                    -0.000119471    -3.20229e-05       -0.0147094      -0.0655332     -0.000124577      -6.087e-05        -0.312844       -0.946185
                        0.660757        0.736704     -0.000231329    -0.000162254        -0.041114       0.0610116     -5.07008e-05    -1.40001e-05
                     7.69042e-05    -0.000289029        -0.312354        -0.94638      -9.6746e-05    -9.32465e-05         0.027129       0.0617692
281726                -0.0624466       0.0334986     -0.000156791    -0.000162953          0.66114        0.735912     -6.26945e-05     -8.4567e-05
                    -0.000119655    -3.20724e-05       -0.0147213      -0.0655259     -0.000124616    -6.08859e-05        -0.313085       -0.946105
                        0.661037        0.736451     -0.000231399    -0.000162358       -0.0411092       0.0610304     -5.07777e-05    -1.40533e-05
                      7.6883e-05    -0.000289125        -0.312595       -0.946301     -9.68004e-05    -9.33284e-05        0.0271465       0.0617566
281728                 -0.062439       0.0335411     -0.000156831    -0.000163024          0.66142         0.73566     -6.27356e-05    -8.45473e-05
                    -0.000119837     -3.2122e-05       -0.0147332      -0.0655185     -0.000124657    -6.09018e-05        -0.313326       -0.946026
                        0.661317        0.736199      -0.00023147     -0.00016246       -0.0411044       0.0610493     -5.08545e-05    -1.41067e-05
                     7.68614e-05    -0.000289221        -0.312837       -0.946221     -9.68264e-05    -9.34239e-05         0.027164        0.061744
281730                -0.0624313       0.0335837      -0.00015687    -0.000163093         0.661698        0.735407     -6.27767e-05    -8.45276e-05
                     -0.00012002    -3.21718e-05        -0.014745      -0.0655112     -0.000124699    -6.09145e-05        -0.313567       -0.945946
                        0.661596        0.735946     -0.000231542     -0.00016256       -0.0410995       0.0610682     -5.09314e-05    -1.41603e-05
                     7.68394e-05    -0.000289317        -0.313078       -0.946142     -9.68671e-05    -9.35031e-05        0.0271815       0.0617313
281732                -0.0624236       0.0336262     -0.000156909    -0.000163159         0.661978        0.735155     -6.28177e-05    -8.45079e-05
                    -0.000120202    -3.22217e-05       -0.0147569      -0.0655038     -0.000124738    -6.09252e-05        -0.313808       -0.945867
                        0.661876        0.735694     -0.000231615    -0.000162659       -0.0410947        0.061087     -5.10081e-05     -1.4214e-05
                     7.68169e-05    -0.000289412        -0.313319       -0.946063     -9.69087e-05    -9.35851e-05        0.0271989       0.0617187
281734                -0.0624159       0.0336688     -0.000156948    -0.000163219         0.662257        0.734902     -6.28588e-05    -8.44883e-05
                    -0.000120384    -3.22717e-05       -0.0147688      -0.0654964     -0.000124775    -6.09378e-05        -0.314049       -0.945787
                        0.662155        0.735441     -0.000231691    -0.000162756       -0.0410899       0.0611059     -5.10849e-05    -1.42679e-05
                      7.6794e-05    -0.000289507         -0.31356       -0.945983     -9.69503e-05    -9.36676e-05        0.0272164       0.0617061
281736                -0.0624082       0.0337113      -0.00015699    -0.000163269         0.662536        0.734649     -6.28999e-05    -8.44688e-05
                    -0.000120566    -3.23219e-05       -0.0147808       -0.065489     -0.000124812    -6.09518e-05         -0.31429       -0.945708
                        0.662435        0.735188      -0.00023177    -0.000162857        -0.041085       0.0611248     -5.11616e-05    -1.43219e-05
                     7.67706e-05    -0.000289602        -0.313801       -0.945904     -9.69919e-05    -9.37504e-05        0.0272339       0.0616934
281738                -0.0624005       0.0337538     -0.000157053    -0.000163296         0.662815        0.734396     -6.29409e-05    -8.44492e-05
                    -0.000120747    -3.23722e-05       -0.0147927      -0.0654817     -0.000124849    -6.09662e-05         -0.31453       -0.945628
                        0.662714        0.734935     -0.000231851    -0.000162963       -0.0410802       0.0611437     -5.12382e-05    -1.43762e-05
                     7.67468e-05    -0.000289696        -0.314042       -0.945824     -9.70336e-05    -9.38333e-05        0.0272513       0.0616808
281740                -0.0623928       0.0337964     -0.000157213    -0.000163349         0.663094        0.734144      -6.2982e-05    -8.44297e-05
                    -0.000120928    -3.24226e-05       -0.0148037      -0.0654742     -0.000124887    -6.09808e-05        -0.314771       -0.945548
                        0.662993        0.734682     -0.000231929    -0.000163077       -0.0410753       0.0611627     -5.13148e-05    -1.44305e-05
                     7.67226e-05     -0.00028979        -0.314285       -0.945751     -9.70752e-05    -9.39162e-05        0.0272688       0.0616682
281742                -0.0623851       0.0338389     -0.000157285    -0.000163563         0.663373         0.73389      -6.3023e-05    -8.44103e-05
                    -0.000121109    -3.24732e-05       -0.0148162      -0.0654669     -0.000124925    -6.09954e-05        -0.315012       -0.945468
                        0.663272        0.734429     -0.000232002    -0.000163195       -0.0410705       0.0611816     -5.13914e-05    -1.44851e-05
                      7.6698e-05    -0.000289884        -0.314525       -0.945666      -9.7117e-05    -9.39992e-05        0.0272862       0.0616555
281744                -0.0623773       0.0338814     -0.000157265    -0.000163675         0.663651        0.733637      -6.3064e-05    -8.43909e-05
                    -0.000121289    -3.25239e-05       -0.0148282      -0.0654595     -0.000124963      -6.101e-05        -0.315253       -0.945388
                        0.663551        0.734175     -0.000232071    -0.000163314       -0.0410656       0.0612006      -5.1468e-05    -1.45398e-05
                     7.66729e-05    -0.000289978        -0.314766       -0.945586     -9.71587e-05    -9.40822e-05        0.0273037       0.0616429
281746                -0.0623696        0.033924     -0.000157275    -0.000163751          0.66393        0.733384      -6.3105e-05    -8.43715e-05
                    -0.000121469    -3.25747e-05       -0.0148401      -0.0654522     -0.000125001    -6.10246e-05        -0.315494       -0.945308
                         0.66383        0.733922     -0.000232137    -0.000163433       -0.0410607       0.0612196     -5.15445e-05    -1.45948e-05
                     7.66474e-05    -0.000290071        -0.315007       -0.945507     -9.72005e-05    -9.41653e-05        0.0273211       0.0616302
281748                -0.0623618       0.0339665     -0.000157299    -0.000163822         0.664209        0.733131     -6.31459e-05     -8.4352e-05
                    -0.000121649    -3.26257e-05        -0.014852      -0.0654448     -0.000125039    -6.10392e-05        -0.315735       -0.945228
                        0.664108        0.733668     -0.000232202    -0.000163551       -0.0410558       0.0612386      -5.1621e-05    -1.46499e-05
                     7.66214e-05    -0.000290164        -0.315248       -0.945427     -9.72424e-05    -9.42483e-05        0.0273385       0.0616175
281750                 -0.062354        0.034009      -0.00015733    -0.000163894         0.664487        0.732877     -6.31868e-05    -8.43325e-05
                    -0.000121829    -3.26771e-05       -0.0148638      -0.0654374     -0.000125077    -6.10538e-05        -0.315976       -0.945148
                        0.664387        0.733415     -0.000232266    -0.000163668       -0.0410509       0.0612577     -5.16974e-05    -1.47054e-05
                     7.65952e-05    -0.000290259        -0.315489       -0.945347     -9.72842e-05    -9.43314e-05         0.027356       0.0616049
281752                -0.0623463       0.0340515     -0.000157364    -0.000163966         0.664765        0.732624     -6.32274e-05    -8.43127e-05
                    -0.000122006     -3.2728e-05       -0.0148757        -0.06543     -0.000125116    -6.10684e-05        -0.316216       -0.945068
                        0.664665        0.733161     -0.000232332    -0.000163785        -0.041046       0.0612767     -5.17738e-05    -1.47614e-05
                     7.65682e-05    -0.000290347         -0.31573       -0.945267     -9.73262e-05    -9.44145e-05        0.0273734       0.0615922
281754                -0.0623385        0.034094       -0.0001574     -0.00016404         0.665043         0.73237     -6.32667e-05    -8.42907e-05
                    -0.000122185    -3.27794e-05       -0.0148876      -0.0654226     -0.000125154     -6.1083e-05        -0.316457       -0.944988
                        0.664944        0.732907     -0.000232397    -0.000163901        -0.041041       0.0612958       -5.185e-05    -1.48201e-05
                     7.65409e-05     -0.00029044        -0.315971       -0.945187     -9.73681e-05    -9.44976e-05        0.0273908       0.0615796
281756                -0.0623307       0.0341365     -0.000157436    -0.000164114         0.665321        0.732116     -6.33167e-05    -8.42857e-05
                    -0.000122363    -3.28309e-05       -0.0148995      -0.0654152     -0.000125192    -6.10976e-05        -0.316698       -0.944907
                        0.665222        0.732653     -0.000232464    -0.000164016       -0.0410361       0.0613149     -5.19292e-05    -1.48608e-05
                     7.65133e-05    -0.000290531        -0.316212       -0.945107     -9.74101e-05    -9.45807e-05        0.0274082       0.0615669
281758                -0.0623228        0.034179     -0.000157473    -0.000164188         0.665599        0.731862     -6.33532e-05    -8.42598e-05
                    -0.000122541    -3.28825e-05       -0.0149114      -0.0654079     -0.000125231    -6.11122e-05        -0.316939       -0.944827
                          0.6655        0.732399      -0.00023253    -0.000164132       -0.0410312        0.061334     -5.20037e-05    -1.49234e-05
                     7.64851e-05    -0.000290623        -0.316453       -0.945027     -9.74521e-05    -9.46638e-05        0.0274256       0.0615542
281760                 -0.062315       0.0342215     -0.000157511    -0.000164263         0.665877        0.731608     -6.33936e-05    -8.42398e-05
                    -0.000122719    -3.29343e-05       -0.0149233      -0.0654005     -0.000125269    -6.11267e-05         -0.31718       -0.944747
                        0.665778        0.732145     -0.000232598    -0.000164247       -0.0410262       0.0613531     -5.20798e-05    -1.49804e-05
                     7.64566e-05    -0.000290714        -0.316693       -0.944947     -9.74942e-05     -9.4747e-05         0.027443       0.0615415
281762                -0.0623072        0.034264     -0.000157549    -0.000164339         0.666155        0.731354     -6.34343e-05    -8.42205e-05
                    -0.000122896    -3.29862e-05       -0.0149351      -0.0653931     -0.000125307    -6.11413e-05         -0.31742       -0.944666
                        0.666056        0.731891     -0.000232665    -0.000164362       -0.0410213       0.0613722     -5.21561e-05    -1.50368e-05
