! TOUCHSTONE file generated by CST MICROWAVE STUDIO
! Date and time: Wed Oct 15 17:34:02 2025
! Project name: Teste_Macro_Metasurface_Nanopilar.cst
! Parameters = {H=600; L_x=175; L_y=200; Lambda=1064; Max_L=200; Min_L=70; PathPara=1; Phi=0; Step_L=10; Theta=0; p=520; phaseX=180; phaseY=0}
! Header version: 2018
! Port assignment regex: !\s*Touchstone port\s*([0-9]+)\s*=\s*(CST MWS port|CST DS port)\s*([0-9]+|Zmin|Zmax)\s*\(\"(.*)\"\)(\s*mode\s*([0-9]+))?.*
! Touchstone port assignment:
! Touchstone port 1 = CST MWS port Zmax ("") mode 1
! Touchstone port 2 = CST MWS port Zmax ("") mode 2
! Touchstone port 3 = CST MWS port Zmin ("") mode 1
! Touchstone port 4 = CST MWS port Zmin ("") mode 2
! S-Parameters are not renormalized. Each port impedance will be approximated by the real part at minimum frequency. The values are described via the [Reference] keyword.
! Default impedance is overridden by [Reference]
[Version] 2.0
# GHz S RI R 376.73
[Number of Ports] 4
[Reference]
376.73 376.73 259.888 259.888 
[Number of Frequencies] 51
[Network Data]
281700                 0.0193354       0.0872468      0.000102929    -3.50636e-05        -0.392935       -0.892827     -0.000705473    -6.00281e-05
                    -3.50874e-05    -1.74865e-05          0.28323        0.133941     -0.000800759     0.000182972         0.243476       -0.914871
                       -0.392732       -0.892766      -0.00055376     0.000271439        -0.032897       -0.042684     -0.000259899    -7.28887e-05
                    -0.000732224     8.74672e-05          0.24397       -0.915087     -2.85293e-05    -0.000312695         0.310989       0.0234781
281702                 0.0190236       0.0873763      0.000102646    -3.50575e-05        -0.393524       -0.892529      -0.00070602    -5.96856e-05
                    -3.52267e-05    -1.74674e-05         0.283245        0.133932     -0.000800808     0.000183668         0.243221       -0.914935
                       -0.393319       -0.892467     -0.000553733     0.000271538       -0.0332364      -0.0424315     -0.000260168    -7.22697e-05
                    -0.000732299     8.82133e-05         0.243715       -0.915151     -2.91185e-05    -0.000312569         0.311011       0.0233198
281704                 0.0187113       0.0875063      0.000102361    -3.50509e-05        -0.394112       -0.892229     -0.000706568     -5.9344e-05
                    -3.53599e-05    -1.74353e-05          0.28326        0.133924     -0.000800857     0.000184363         0.242965          -0.915
                       -0.393908       -0.892168     -0.000553706     0.000271636       -0.0335758       -0.042178     -0.000260438    -7.16505e-05
                    -0.000732401     8.89495e-05         0.243459       -0.915216     -2.97103e-05     -0.00031244         0.311032       0.0231615
281706                 0.0183985       0.0876368      0.000102075    -3.50438e-05        -0.394701       -0.891929     -0.000707116    -5.90032e-05
                    -3.54862e-05     -1.7389e-05         0.283275        0.133915     -0.000800905      0.00018506         0.242709       -0.915064
                       -0.394497       -0.891868      -0.00055368     0.000271736       -0.0339154      -0.0419235      -0.00026071    -7.10313e-05
                    -0.000732531     8.96764e-05         0.243204        -0.91528     -3.03049e-05    -0.000312311         0.311054       0.0230031
281708                 0.0180854       0.0877678      0.000101789    -3.50362e-05        -0.395291       -0.891628     -0.000707664    -5.86633e-05
                    -3.56045e-05    -1.73272e-05          0.28329        0.133906     -0.000800954     0.000185756         0.242453       -0.915129
                       -0.395086       -0.891567     -0.000553654     0.000271835       -0.0342551      -0.0416679     -0.000260982    -7.04119e-05
                    -0.000732691     9.03944e-05         0.242949       -0.915344     -3.09024e-05    -0.000312179         0.311075       0.0228448
281710                 0.0177719       0.0878994      0.000101501    -3.50281e-05         -0.39588       -0.891326     -0.000708212    -5.83241e-05
                    -3.57138e-05    -1.72483e-05         0.283304        0.133897     -0.000801003     0.000186454         0.242198       -0.915193
                       -0.395676       -0.891266     -0.000553628     0.000271935        -0.034595      -0.0414112     -0.000261256    -6.97925e-05
                    -0.000732881     9.11043e-05         0.242694       -0.915409     -3.15027e-05    -0.000312046         0.311097       0.0226864
281712                 0.0174579       0.0880316      0.000101213    -3.50196e-05         -0.39647       -0.891023     -0.000708761    -5.79858e-05
                    -3.58127e-05     -1.7151e-05         0.283319        0.133888     -0.000801052     0.000187152         0.241942       -0.915257
                       -0.396267       -0.890965     -0.000553603     0.000272035        -0.034935      -0.0411534      -0.00026153    -6.91731e-05
                    -0.000733101     9.18068e-05         0.242438       -0.915473     -3.21059e-05    -0.000311912         0.311118        0.022528
281714                 0.0171435       0.0881643      0.000100923    -3.50106e-05         -0.39706       -0.890719      -0.00070931    -5.76482e-05
                       -3.59e-05    -1.70334e-05         0.283334        0.133879     -0.000801101     0.000187851         0.241686       -0.915321
                       -0.396858       -0.890662     -0.000553578     0.000272135       -0.0352751      -0.0408946     -0.000261806    -6.85536e-05
                    -0.000733353     9.25028e-05         0.242183       -0.915537     -3.27121e-05    -0.000311776         0.311139       0.0223696
281716                 0.0168287       0.0882975      0.000100632    -3.50012e-05        -0.397651       -0.890414      -0.00070986    -5.73115e-05
                     -3.5974e-05    -1.68938e-05         0.283349        0.133871      -0.00080115     0.000188551          0.24143       -0.915385
                       -0.397449       -0.890359     -0.000553554     0.000272235       -0.0356154      -0.0406347     -0.000262083    -6.79342e-05
                    -0.000733637     9.31933e-05         0.241927       -0.915601     -3.33214e-05    -0.000311639          0.31116       0.0222111
281718                 0.0165135       0.0884313      0.000100341    -3.49915e-05        -0.398242       -0.890109      -0.00071041    -5.69754e-05
                     -3.6033e-05    -1.67303e-05         0.283364        0.133862     -0.000801199     0.000189251         0.241174        -0.91545
                       -0.398041       -0.890055     -0.000553529     0.000272336       -0.0359558      -0.0403737     -0.000262361    -6.73148e-05
                    -0.000733952     9.38792e-05         0.241672       -0.915664     -3.39338e-05      -0.0003115         0.311181       0.0220527
281720                 0.0161978       0.0885656      0.000100048    -3.49813e-05        -0.398833       -0.889802      -0.00071096    -5.66401e-05
                    -3.60751e-05    -1.65407e-05         0.283379        0.133853     -0.000801248     0.000189953         0.240919       -0.915513
                       -0.398633        -0.88975     -0.000553505     0.000272437       -0.0362963      -0.0401116      -0.00026264    -6.66954e-05
                    -0.000734298     9.45619e-05         0.241417       -0.915728     -3.45493e-05     -0.00031136         0.311202       0.0218942
281722                 0.0158817       0.0887005      9.97547e-05    -3.49708e-05        -0.399424       -0.889495     -0.000711511    -5.63055e-05
                     -3.6098e-05    -1.63229e-05         0.283394        0.133844     -0.000801297     0.000190655         0.240663       -0.915577
                       -0.399226       -0.889445     -0.000553482     0.000272538        -0.036637      -0.0398484     -0.000262921    -6.60762e-05
                    -0.000734673     9.52427e-05         0.241161       -0.915792      -3.5168e-05    -0.000311218         0.311223       0.0217358
281724                 0.0155652        0.088836      9.94601e-05    -3.49599e-05        -0.400016       -0.889186     -0.000712062    -5.59716e-05
                    -3.60994e-05    -1.60746e-05         0.283409        0.133835     -0.000801346     0.000191359         0.240407       -0.915641
                        -0.39982       -0.889138     -0.000553459      0.00027264       -0.0369777      -0.0395842     -0.000263203     -6.5457e-05
                    -0.000735076      9.5923e-05         0.240906       -0.915856     -3.57901e-05    -0.000311075         0.311244       0.0215773
281726                 0.0152483        0.088972      9.91645e-05    -3.49488e-05        -0.400608       -0.888877     -0.000712613    -5.56383e-05
                    -3.60767e-05    -1.57933e-05         0.283423        0.133826     -0.000801395     0.000192063         0.240151       -0.915705
                       -0.400413       -0.888831     -0.000553437     0.000272741       -0.0373186      -0.0393188     -0.000263485     -6.4838e-05
                    -0.000735503     9.66044e-05          0.24065       -0.915919     -3.64154e-05    -0.000310931         0.311265       0.0214188
281728                  0.014931       0.0891086      9.88679e-05    -3.49373e-05          -0.4012       -0.888567     -0.000713165    -5.53058e-05
                    -3.60272e-05    -1.54767e-05         0.283438        0.133817     -0.000801443     0.000192768         0.239895       -0.915769
                       -0.401008       -0.888523     -0.000553414     0.000272843       -0.0376597      -0.0390524      -0.00026377    -6.42191e-05
                    -0.000735949     9.72885e-05         0.240395       -0.915983     -3.70441e-05    -0.000310785         0.311285       0.0212603
281730                 0.0146132       0.0892458      9.85703e-05    -3.49255e-05        -0.401793       -0.888256     -0.000713717    -5.49738e-05
                    -3.59479e-05    -1.51223e-05         0.283453        0.133809     -0.000801491     0.000193474         0.239639       -0.915832
                       -0.401602       -0.888214     -0.000553393     0.000272946       -0.0380008      -0.0387848     -0.000264055    -6.36003e-05
                    -0.000736408      9.7977e-05         0.240139       -0.916046     -3.76763e-05    -0.000310638         0.311306       0.0211017
281732                  0.014295       0.0893835      9.82717e-05    -3.49135e-05        -0.402386       -0.887944      -0.00071427    -5.46425e-05
                    -3.58359e-05    -1.47275e-05         0.283468          0.1338      -0.00080154     0.000194182         0.239383       -0.915896
                       -0.402197       -0.887904     -0.000553372     0.000273048       -0.0383421      -0.0385162     -0.000264342    -6.29817e-05
                    -0.000736871     9.86717e-05         0.239884        -0.91611      -3.8312e-05     -0.00031049         0.311326       0.0209432
281734                 0.0139764       0.0895218      9.79721e-05    -3.49011e-05        -0.402979       -0.887631     -0.000714823    -5.43118e-05
                    -3.56886e-05    -1.42902e-05         0.283483        0.133791     -0.000801588      0.00019489         0.239127       -0.915959
                       -0.402792       -0.887593     -0.000553351     0.000273151       -0.0386835      -0.0382464      -0.00026463    -6.23633e-05
                    -0.000737324     9.93744e-05         0.239628       -0.916173     -3.89513e-05     -0.00031034         0.311347       0.0207846
281736                 0.0136574       0.0896607      9.76714e-05    -3.48885e-05        -0.403573       -0.887317     -0.000715377    -5.39818e-05
                    -3.55036e-05    -1.38082e-05         0.283498        0.133782     -0.000801635       0.0001956         0.238871       -0.916023
                       -0.403388       -0.887281     -0.000553331     0.000273254        -0.039025      -0.0379756     -0.000264919     -6.1745e-05
                    -0.000737751     0.000100087         0.239373       -0.916236     -3.95941e-05     -0.00031019         0.311367       0.0206261
281738                  0.013338       0.0898002      9.73697e-05    -3.48756e-05        -0.404166       -0.887002     -0.000715931    -5.36523e-05
                    -3.52799e-05    -1.32799e-05         0.283513        0.133773     -0.000801683      0.00019631         0.238615       -0.916086
                       -0.403984       -0.886968     -0.000553312     0.000273358       -0.0393666      -0.0377036     -0.000265209    -6.11267e-05
                    -0.000738127      0.00010081         0.239117       -0.916299     -4.02407e-05    -0.000310038         0.311387       0.0204675
281740                 0.0130181       0.0899403      9.70669e-05    -3.48624e-05        -0.404761       -0.886686     -0.000716485    -5.33234e-05
                     -3.5018e-05    -1.27042e-05         0.283528        0.133764      -0.00080173     0.000197022          0.23836       -0.916149
                        -0.40458       -0.886653     -0.000553293     0.000273462       -0.0397083      -0.0374305     -0.000265501    -6.05086e-05
                     -0.00073842     0.000101546         0.238862       -0.916362     -4.08909e-05    -0.000309885         0.311408       0.0203089
281742                 0.0126978       0.0900809       9.6763e-05    -3.48487e-05        -0.405355        -0.88637      -0.00071704     -5.2995e-05
                    -3.47219e-05    -1.20811e-05         0.283543        0.133755     -0.000801777     0.000197735         0.238104       -0.916213
                       -0.405176       -0.886338     -0.000553276     0.000273566       -0.0400501      -0.0371564     -0.000265794    -5.98903e-05
                    -0.000738584     0.000102296         0.238606       -0.916425     -4.15449e-05    -0.000309731         0.311428       0.0201503
281744                 0.0123772       0.0902221      9.64579e-05    -3.48345e-05         -0.40595       -0.886052     -0.000717595    -5.26672e-05
                     -3.4401e-05    -1.14114e-05         0.283557        0.133747     -0.000801823     0.000198449         0.237847       -0.916276
                       -0.405772       -0.886022     -0.000553259     0.000273671       -0.0403921       -0.036881     -0.000266088     -5.9272e-05
                    -0.000738556     0.000103063         0.238351       -0.916488     -4.22028e-05    -0.000309576         0.311448       0.0199916
281746                 0.0120561        0.090364      9.61516e-05    -3.48193e-05        -0.406545       -0.885734     -0.000718151      -5.234e-05
                    -3.40739e-05     -1.0698e-05         0.283572        0.133738      -0.00080187     0.000199164         0.237591       -0.916339
                       -0.406368       -0.885705     -0.000553244     0.000273775       -0.0407342      -0.0366046     -0.000266383    -5.86535e-05
                    -0.000738246     0.000103852         0.238095       -0.916551     -4.28644e-05     -0.00030942         0.311468        0.019833
281748                 0.0117346       0.0905064      9.58438e-05    -3.48026e-05         -0.40714       -0.885414     -0.000718707    -5.20134e-05
                    -3.37744e-05    -9.94577e-06         0.283587        0.133729     -0.000801916      0.00019988         0.237335       -0.916402
                       -0.406964       -0.885387      -0.00055323      0.00027388       -0.0410764      -0.0363271     -0.000266678    -5.80353e-05
                    -0.000737525     0.000104671         0.237839       -0.916614     -4.35299e-05    -0.000309264         0.311488       0.0196743
281750                 0.0114128       0.0906494      9.55339e-05    -3.47825e-05        -0.407736       -0.885094     -0.000719264    -5.16873e-05
                     -3.3562e-05    -9.16346e-06         0.283602         0.13372     -0.000801961     0.000200598         0.237079       -0.916465
                       -0.407559       -0.885067     -0.000553218     0.000273983       -0.0414186      -0.0360484     -0.000266973    -5.74178e-05
                      -0.0007362     0.000105546         0.237584       -0.916677     -4.41994e-05    -0.000309106         0.311507       0.0195157
281752                 0.0110906       0.0907931      9.52196e-05     -3.4753e-05        -0.408332       -0.884772     -0.000719821    -5.13618e-05
                    -3.35403e-05    -8.36657e-06         0.283617        0.133711     -0.000802007     0.000201316         0.236823       -0.916527
                       -0.408154       -0.884746     -0.000553207     0.000274085        -0.041761      -0.0357686     -0.000267269    -5.68018e-05
                     -0.00073398     0.000106534         0.237328       -0.916739     -4.48726e-05    -0.000308948         0.311527        0.019357
281754                  0.010768       0.0909373      9.48843e-05    -3.46692e-05        -0.408928        -0.88445     -0.000720378    -5.10371e-05
                    -3.38911e-05    -7.58588e-06         0.283632        0.133702     -0.000802052     0.000202035         0.236567        -0.91659
                       -0.408748       -0.884424     -0.000553195     0.000274185       -0.0421035      -0.0354876     -0.000267566    -5.61873e-05
                    -0.000730415     0.000107774         0.237072       -0.916802     -4.55498e-05    -0.000308789         0.311547       0.0191983
281756                 0.0104452       0.0910822      9.46747e-05    -3.49837e-05        -0.409525       -0.884127     -0.000720936    -5.07134e-05
                    -3.49403e-05    -6.89324e-06         0.283647        0.133693     -0.000802096     0.000202756         0.236311       -0.916653
                       -0.409339         -0.8841     -0.000553183     0.000274285       -0.0424461      -0.0352055     -0.000267865    -5.55743e-05
                    -0.000724786     0.000109608         0.236817       -0.916864     -4.62308e-05    -0.000308629         0.311566       0.0190396
281758                 0.0101221       0.0912278      9.43221e-05    -3.48184e-05        -0.410122       -0.883803     -0.000721493    -5.03913e-05
                    -3.72925e-05    -6.48619e-06         0.283662        0.133684     -0.000802141     0.000203477         0.236055       -0.916716
                       -0.409928       -0.883773      -0.00055317     0.000274385       -0.0427888      -0.0349223     -0.000268165    -5.49621e-05
                    -0.000715964     0.000112902         0.236561       -0.916927     -4.69157e-05    -0.000308469         0.311586       0.0188808
281760                0.00979876        0.091374      9.40028e-05    -3.47832e-05        -0.410719       -0.883478     -0.000722051    -5.00741e-05
                    -4.21024e-05    -6.99201e-06         0.283676        0.133676     -0.000802186       0.0002042         0.235799       -0.916778
                       -0.410513       -0.883441     -0.000553158     0.000274485       -0.0431316      -0.0346379     -0.000268468    -5.43506e-05
                    -0.000702352     0.000119921         0.236305       -0.916989     -4.76042e-05    -0.000308308         0.311605       0.0187221
281762                0.00947537       0.0915211      9.36869e-05    -3.47622e-05        -0.411316       -0.883152     -0.000722625    -4.97781e-05
                    -5.14566e-05    -1.06559e-05         0.283691        0.133667      -0.00080223     0.000204923         0.235543       -0.916841
                       -0.411093         -0.8831     -0.000553145     0.000274586       -0.0434745      -0.0343524     -0.000268772    -5.37397e-05
