! TOUCHSTONE file generated by CST MICROWAVE STUDIO
! Date and time: Wed Oct 15 17:34:37 2025
! Project name: Teste_Macro_Metasurface_Nanopilar.cst
! Parameters = {H=600; L_x=190; L_y=70; Lambda=1064; Max_L=200; Min_L=70; PathPara=1; Phi=0; Step_L=10; Theta=0; p=520; phaseX=180; phaseY=0}
! Header version: 2018
! Port assignment regex: !\s*Touchstone port\s*([0-9]+)\s*=\s*(CST MWS port|CST DS port)\s*([0-9]+|Zmin|Zmax)\s*\(\"(.*)\"\)(\s*mode\s*([0-9]+))?.*
! Touchstone port assignment:
! Touchstone port 1 = CST MWS port Zmax ("") mode 1
! Touchstone port 2 = CST MWS port Zmax ("") mode 2
! Touchstone port 3 = CST MWS port Zmin ("") mode 1
! Touchstone port 4 = CST MWS port Zmin ("") mode 2
! S-Parameters are not renormalized. Each port impedance will be approximated by the real part at minimum frequency. The values are described via the [Reference] keyword.
! Default impedance is overridden by [Reference]
[Version] 2.0
# GHz S RI R 376.73
[Number of Ports] 4
[Reference]
376.73 376.73 259.888 259.888 
[Number of Frequencies] 51
[Network Data]
281700               0.000130963      -0.0911261      0.000171151    -6.07832e-05        -0.161055       -0.981975      0.000429082     5.06281e-05
                     0.000138783    -7.38526e-05        0.0032704        0.204512      0.000113249     0.000399905         0.968118        0.086261
                       -0.161005        -0.98216      0.000144417     0.000426574        0.0291581       0.0865324     -0.000167087      0.00034914
                     0.000382414      9.4696e-05         0.968885       0.0864834     -0.000188629     0.000176495       -0.0372659        0.201055
281702               0.000118871      -0.0911216      0.000171232     -6.0701e-05        -0.161297       -0.981936      0.000429119     5.05035e-05
                      0.00013873    -7.38935e-05       0.00329784        0.204547      0.000113373     0.000399908         0.968142       0.0859114
                       -0.161246        -0.98212      0.000144492     0.000426523        0.0291878       0.0865176     -0.000166954     0.000349208
                      0.00038252     9.45752e-05         0.968908       0.0861341     -0.000188537     0.000176589       -0.0371539        0.201111
281704               0.000106779       -0.091117      0.000171311    -6.06188e-05        -0.161539       -0.981896      0.000429157     5.03789e-05
                     0.000138678    -7.39346e-05       0.00332528        0.204582      0.000113496      0.00039991         0.968166       0.0855617
                       -0.161488       -0.982081      0.000144567     0.000426472        0.0292174       0.0865028      -0.00016682     0.000349276
                     0.000382627     9.44545e-05         0.968931       0.0857848     -0.000188444     0.000176683       -0.0370418        0.201167
281706               9.46877e-05      -0.0911125      0.000171391    -6.05367e-05        -0.161781       -0.981857      0.000429194     5.02543e-05
                     0.000138626    -7.39757e-05       0.00335273        0.204617       0.00011362     0.000399912         0.968189        0.085212
                        -0.16173       -0.982041      0.000144642      0.00042642         0.029247        0.086488     -0.000166687     0.000349345
                     0.000382733      9.4334e-05         0.968954       0.0854355     -0.000188351     0.000176777       -0.0369297        0.201223
281708                8.2597e-05       -0.091108      0.000171471    -6.04547e-05        -0.162022       -0.981818      0.000429231     5.01297e-05
                     0.000138573     -7.4017e-05       0.00338018        0.204652      0.000113744     0.000399914         0.968213       0.0848623
                       -0.161972       -0.982002      0.000144717     0.000426369        0.0292766       0.0864732     -0.000166553     0.000349413
                      0.00038284     9.42135e-05         0.968977       0.0850862     -0.000188259     0.000176871       -0.0368175         0.20128
281710                7.0507e-05      -0.0911035      0.000171551    -6.03727e-05        -0.162264       -0.981778      0.000429268     5.00051e-05
                     0.000138521    -7.40583e-05       0.00340764        0.204688      0.000113868     0.000399915         0.968236       0.0845127
                       -0.162213       -0.981962      0.000144792     0.000426317        0.0293062       0.0864583      -0.00016642     0.000349481
                     0.000382946     9.40931e-05            0.969       0.0847368     -0.000188166     0.000176964       -0.0367052        0.201336
281712               5.84176e-05      -0.0910989       0.00017163    -6.02908e-05        -0.162506       -0.981739      0.000429306     4.98805e-05
                     0.000138469    -7.40997e-05        0.0034351        0.204723      0.000113991     0.000399917          0.96826        0.084163
                       -0.162455       -0.981923      0.000144867     0.000426266        0.0293358       0.0864435     -0.000166286     0.000349549
                     0.000383053     9.39728e-05         0.969023       0.0843875     -0.000188074     0.000177057        -0.036593        0.201392
281714               4.63287e-05      -0.0910944       0.00017171    -6.02089e-05        -0.162747       -0.981699      0.000429343     4.97558e-05
                     0.000138417    -7.41413e-05       0.00346257        0.204758      0.000114115     0.000399919         0.968283       0.0838133
                       -0.162697       -0.981883      0.000144942     0.000426214        0.0293654       0.0864287     -0.000166152     0.000349616
                      0.00038316     9.38526e-05         0.969045       0.0840381     -0.000187981      0.00017715       -0.0364806        0.201448
281716               3.42405e-05      -0.0910899      0.000171789     -6.0127e-05        -0.162989        -0.98166       0.00042938     4.96312e-05
                     0.000138365    -7.41828e-05       0.00349004        0.204793      0.000114239     0.000399921         0.968306       0.0834636
                       -0.162938       -0.981843      0.000145017     0.000426162         0.029395       0.0864138     -0.000166019     0.000349684
                     0.000383267     9.37324e-05         0.969068       0.0836888     -0.000187889     0.000177243       -0.0363682        0.201504
281718               2.21529e-05      -0.0910853      0.000171868    -6.00452e-05        -0.163231        -0.98162      0.000429417     4.95065e-05
                     0.000138313    -7.42245e-05       0.00351752        0.204828      0.000114363     0.000399923         0.968328       0.0831139
                        -0.16318       -0.981804      0.000145092      0.00042611        0.0294246        0.086399     -0.000165885     0.000349752
                     0.000383374     9.36123e-05          0.96909       0.0833394     -0.000187796     0.000177335       -0.0362557         0.20156
281720                1.0066e-05      -0.0910808      0.000171947    -5.99635e-05        -0.163472        -0.98158      0.000429454     4.93819e-05
                     0.000138261    -7.42662e-05         0.003545        0.204863      0.000114487     0.000399924         0.968351       0.0827642
                       -0.163422       -0.981764      0.000145167     0.000426058        0.0294542       0.0863841     -0.000165752     0.000349819
                     0.000383481     9.34923e-05         0.969112       0.0829901     -0.000187704     0.000177427       -0.0361432        0.201616
281722              -2.02043e-06      -0.0910763      0.000172027    -5.98818e-05        -0.163714       -0.981541      0.000429491     4.92572e-05
                     0.000138209    -7.43079e-05       0.00357249        0.204898      0.000114611     0.000399926         0.968374       0.0824145
                       -0.163663       -0.981724      0.000145242     0.000426006        0.0294837       0.0863692     -0.000165618     0.000349887
                     0.000383588     9.33723e-05         0.969134       0.0826407     -0.000187611     0.000177519       -0.0360306        0.201671
281724              -1.41062e-05      -0.0910717      0.000172106    -5.98002e-05        -0.163955       -0.981501      0.000429528     4.91326e-05
                     0.000138157    -7.43497e-05       0.00359998        0.204933      0.000114735     0.000399927         0.968396       0.0820648
                       -0.163905       -0.981684      0.000145316     0.000425954        0.0295133       0.0863544     -0.000165485     0.000349954
                     0.000383695     9.32524e-05         0.969156       0.0822913     -0.000187519     0.000177611        -0.035918        0.201727
281726              -2.61914e-05      -0.0910672      0.000172184    -5.97186e-05        -0.164197       -0.981461      0.000429565     4.90079e-05
                     0.000138105    -7.43916e-05       0.00362748        0.204969      0.000114859     0.000399929         0.968418        0.081715
                       -0.164147       -0.981644      0.000145391     0.000425902        0.0295429       0.0863393     -0.000165351     0.000350022
                     0.000383803     9.31325e-05         0.969178       0.0819419     -0.000187426     0.000177703       -0.0358053        0.201783
281728              -3.82759e-05      -0.0910627      0.000172263    -5.96371e-05        -0.164439       -0.981421      0.000429601     4.88833e-05
                     0.000138053    -7.44334e-05       0.00365498        0.205004      0.000114983      0.00039993         0.968441       0.0813653
                       -0.164388       -0.981604      0.000145466      0.00042585        0.0295724       0.0863245     -0.000165218     0.000350089
                      0.00038391     9.30126e-05           0.9692       0.0815925     -0.000187333     0.000177795       -0.0356926        0.201838
281730              -5.03599e-05      -0.0910581      0.000172342    -5.95556e-05        -0.164681       -0.981381      0.000429638     4.87586e-05
                     0.000138001    -7.44753e-05       0.00368249        0.205039      0.000115107     0.000399931         0.968463       0.0810156
                        -0.16463       -0.981564       0.00014554     0.000425797         0.029602       0.0863095     -0.000165085     0.000350156
                     0.000384018     9.28928e-05         0.969221       0.0812431     -0.000187239     0.000177887       -0.0355798        0.201894
281732              -6.24432e-05      -0.0910536      0.000172421    -5.94742e-05        -0.164922       -0.981341      0.000429675      4.8634e-05
                     0.000137949    -7.45173e-05          0.00371        0.205074      0.000115231     0.000399933         0.968485       0.0806659
                       -0.164872       -0.981524      0.000145615     0.000425745        0.0296315       0.0862946     -0.000164951     0.000350223
                     0.000384125      9.2773e-05         0.969242       0.0808937     -0.000187146     0.000177979       -0.0354669         0.20195
281734               -7.4526e-05       -0.091049      0.000172499    -5.93928e-05        -0.165164       -0.981301      0.000429711     4.85093e-05
                     0.000137897    -7.45593e-05       0.00373752        0.205109      0.000115356     0.000399934         0.968506       0.0803161
                       -0.165113       -0.981483      0.000145689     0.000425693         0.029661       0.0862797     -0.000164818      0.00035029
                     0.000384233     9.26532e-05         0.969264       0.0805443     -0.000187052     0.000178071        -0.035354        0.202005
281736              -8.66081e-05      -0.0910445      0.000172578    -5.93115e-05        -0.165405        -0.98126      0.000429748     4.83847e-05
                     0.000137845    -7.46013e-05       0.00376504        0.205144       0.00011548     0.000399934         0.968528       0.0799664
                       -0.165355       -0.981443      0.000145764      0.00042564        0.0296906       0.0862647     -0.000164684     0.000350357
                     0.000384341     9.25335e-05         0.969285       0.0801949     -0.000186957     0.000178164        -0.035241         0.20206
281738              -9.86897e-05        -0.09104      0.000172656    -5.92303e-05        -0.165647        -0.98122      0.000429784     4.82601e-05
                     0.000137794    -7.46433e-05       0.00379257        0.205179      0.000115604     0.000399935          0.96855       0.0796166
                       -0.165596       -0.981403      0.000145838     0.000425587        0.0297201       0.0862498     -0.000164551     0.000350424
                     0.000384449     9.24138e-05         0.969306       0.0798455     -0.000186863     0.000178258        -0.035128        0.202116
281740              -0.000110771      -0.0910354      0.000172734    -5.91491e-05        -0.165889        -0.98118      0.000429821     4.81356e-05
                     0.000137742    -7.46854e-05        0.0038201        0.205214      0.000115727     0.000399936         0.968571       0.0792669
                       -0.165838       -0.981362      0.000145913     0.000425535        0.0297496       0.0862348     -0.000164417      0.00035049
                     0.000384557     9.22941e-05         0.969327        0.079496     -0.000186769     0.000178352       -0.0350149        0.202171
281742              -0.000122851      -0.0910309      0.000172813    -5.90679e-05         -0.16613        -0.98114      0.000429857     4.80112e-05
                      0.00013769    -7.47275e-05       0.00384764         0.20525      0.000115851     0.000399936         0.968592       0.0789171
                       -0.166079       -0.981322      0.000145987     0.000425482        0.0297791       0.0862198     -0.000164284     0.000350556
                     0.000384665     9.21744e-05         0.969348       0.0791466     -0.000186675     0.000178447       -0.0349018        0.202226
281744              -0.000134931      -0.0910263      0.000172891    -5.89868e-05        -0.166372       -0.981099      0.000429892     4.78871e-05
                     0.000137638    -7.47696e-05       0.00387518        0.205285      0.000115975     0.000399936         0.968614       0.0785673
                       -0.166321       -0.981281      0.000146061     0.000425429        0.0298086       0.0862048      -0.00016415     0.000350621
                     0.000384773     9.20547e-05         0.969368       0.0787971     -0.000186581     0.000178543       -0.0347886        0.202281
281746               -0.00014701      -0.0910218      0.000172969    -5.89058e-05        -0.166613       -0.981059      0.000429926     4.77639e-05
                     0.000137586    -7.48117e-05       0.00390273         0.20532      0.000116099     0.000399936         0.968635       0.0782176
                       -0.166563        -0.98124      0.000146136     0.000425376         0.029838       0.0861898     -0.000164015     0.000350683
                     0.000384881     9.19351e-05         0.969389       0.0784477     -0.000186488     0.000178639       -0.0346753        0.202336
281748              -0.000159088      -0.0910172      0.000173047    -5.88248e-05        -0.166855       -0.981018      0.000429914     4.76289e-05
                     0.000137534     -7.4854e-05       0.00393028        0.205355      0.000116222     0.000399936         0.968658       0.0778692
                       -0.166804         -0.9812       0.00014621     0.000425323        0.0298675       0.0861748     -0.000163817     0.000350678
                      0.00038499     9.18156e-05         0.969409       0.0780982     -0.000186394     0.000178736       -0.0345621        0.202391
281750              -0.000171166      -0.0910127      0.000173124    -5.87438e-05        -0.167096       -0.980977      0.000430012     4.75044e-05
                     0.000137483    -7.48963e-05       0.00395784         0.20539      0.000116345     0.000399936         0.968676        0.077518
                       -0.167046       -0.981159      0.000146284      0.00042527         0.029897       0.0861598     -0.000163754      0.00035084
                     0.000385098     9.16963e-05         0.969429       0.0777488     -0.000186302     0.000178833       -0.0344486        0.202446
281752              -0.000183243      -0.0910081        0.0001732    -5.86625e-05        -0.167338       -0.980937      0.000430045     4.73831e-05
                     0.000137431     -7.4939e-05        0.0039854        0.205425      0.000116468     0.000399935         0.968697       0.0771683
                       -0.167287       -0.981118      0.000146359     0.000425216        0.0299264       0.0861448      -0.00016362       0.0003509
                     0.000385207     9.15773e-05         0.969449       0.0773993     -0.000186209      0.00017893       -0.0343352        0.202501
281754               -0.00019532      -0.0910036      0.000173284    -5.85837e-05        -0.167579       -0.980896      0.000430081     4.72593e-05
                      0.00013738    -7.49825e-05       0.00401297         0.20546      0.000116592     0.000399935         0.968717       0.0768185
                       -0.167529       -0.981077      0.000146433     0.000425168        0.0299559       0.0861297     -0.000163486     0.000350965
                     0.000385316     9.14594e-05         0.969469       0.0770498     -0.000186116     0.000179028       -0.0342217        0.202556
281756              -0.000207395       -0.090999      0.000173359    -5.85021e-05        -0.167821       -0.980855      0.000430116     4.71349e-05
                     0.000137334    -7.50333e-05       0.00404054        0.205495      0.000116715     0.000399934         0.968738       0.0764687
                        -0.16777       -0.981037      0.000146507     0.000425113        0.0299853       0.0861147     -0.000163353      0.00035103
                     0.000385424     9.13481e-05         0.969489       0.0767004     -0.000186024     0.000179126       -0.0341082        0.202611
281758              -0.000219477      -0.0909944      0.000173437    -5.84213e-05        -0.168062       -0.980814      0.000430153     4.70104e-05
                     0.000137273    -7.50551e-05       0.00406812         0.20553      0.000116838     0.000399933         0.968758       0.0761189
                       -0.168012       -0.980996      0.000146581     0.000425059        0.0300148       0.0860996      -0.00016322     0.000351096
                     0.000385516     9.12013e-05         0.969509       0.0763509     -0.000185931     0.000179224       -0.0339946        0.202666
281760              -0.000231549      -0.0909899      0.000173514    -5.83407e-05        -0.168304       -0.980774      0.000430189     4.68857e-05
                     0.000137222    -7.51019e-05        0.0040957        0.205566       0.00011696     0.000399933         0.968778       0.0757691
                       -0.168253       -0.980954      0.000146655     0.000425006        0.0300442       0.0860846     -0.000163086     0.000351163
                     0.000385637     9.10887e-05         0.969528       0.0760014     -0.000185838     0.000179322       -0.0338809         0.20272
281762              -0.000243623      -0.0909853      0.000173591    -5.82601e-05        -0.168545       -0.980733      0.000430225     4.67609e-05
                      0.00013717    -7.51451e-05       0.00412329        0.205601      0.000117084     0.000399932         0.968798       0.0754193
                       -0.168495       -0.980913      0.000146729     0.000424952        0.0300736       0.0860695     -0.000162953     0.000351229
