! TOUCHSTONE file generated by CST MICROWAVE STUDIO
! Date and time: Wed Oct 15 17:33:34 2025
! Project name: Teste_Macro_Metasurface_Nanopilar.cst
! Parameters = {H=600; L_x=170; L_y=110; Lambda=1064; Max_L=200; Min_L=70; PathPara=1; Phi=0; Step_L=10; Theta=0; p=520; phaseX=180; phaseY=0}
! Header version: 2018
! Port assignment regex: !\s*Touchstone port\s*([0-9]+)\s*=\s*(CST MWS port|CST DS port)\s*([0-9]+|Zmin|Zmax)\s*\(\"(.*)\"\)(\s*mode\s*([0-9]+))?.*
! Touchstone port assignment:
! Touchstone port 1 = CST MWS port Zmax ("") mode 1
! Touchstone port 2 = CST MWS port Zmax ("") mode 2
! Touchstone port 3 = CST MWS port Zmin ("") mode 1
! Touchstone port 4 = CST MWS port Zmin ("") mode 2
! S-Parameters are not renormalized. Each port impedance will be approximated by the real part at minimum frequency. The values are described via the [Reference] keyword.
! Default impedance is overridden by [Reference]
[Version] 2.0
# GHz S RI R 376.73
[Number of Ports] 4
[Reference]
376.73 376.73 259.888 259.888 
[Number of Frequencies] 51
[Network Data]
281700                  0.099271      -0.0179763      0.000221326     6.91057e-05         0.361445        0.917638      0.000393376    -4.87539e-05
                     5.29307e-05     2.14741e-05         0.631532        0.474284     -0.000301556    -0.000217206         0.089736       -0.569919
                        0.361468        0.917232     -0.000279585    -0.000196724         0.083648      -0.0518801     -0.000322757    -0.000192986
                     0.000669296    -0.000285133          0.09002       -0.569533     -0.000265943    -0.000196983         0.707642       -0.325504
281702                 0.0992533      -0.0179675      0.000221018     6.90588e-05         0.361804        0.917499       0.00039361    -4.92852e-05
                     5.19595e-05     2.16015e-05         0.632053        0.474143     -0.000302088    -0.000217069        0.0891962       -0.569509
                        0.361827        0.917092     -0.000279842    -0.000196538        0.0835881      -0.0519398     -0.000322668    -0.000193286
                     0.000669893    -0.000286654        0.0894801       -0.569123     -0.000265727    -0.000197445         0.707533       -0.326518
281704                 0.0992355      -0.0179587      0.000220711     6.90128e-05         0.362163        0.917359      0.000393842    -4.98176e-05
                     5.09882e-05       2.173e-05         0.632574        0.474002      -0.00030262    -0.000216931        0.0886569       -0.569098
                        0.362186        0.916953       -0.0002801    -0.000196351        0.0835282      -0.0519994     -0.000322579    -0.000193587
                     0.000670489    -0.000288176        0.0889405       -0.568712     -0.000265511    -0.000197909         0.707423       -0.327532
281706                 0.0992178      -0.0179499      0.000220403     6.89676e-05         0.362522         0.91722      0.000394074    -5.03511e-05
                     5.00168e-05     2.18597e-05         0.633095         0.47386     -0.000303152    -0.000216792         0.088118       -0.568686
                        0.362545        0.916813     -0.000280358    -0.000196163        0.0834682      -0.0520589      -0.00032249    -0.000193888
                     0.000671084      -0.0002897        0.0884013         -0.5683     -0.000265295    -0.000198374         0.707311       -0.328547
281708                    0.0992      -0.0179411      0.000220095     6.89233e-05         0.362881        0.917081      0.000394304    -5.08856e-05
                     4.90453e-05     2.19906e-05         0.633616        0.473717     -0.000303685    -0.000216653        0.0875795       -0.568272
                        0.362904        0.916673     -0.000280615    -0.000195976        0.0834081      -0.0521184     -0.000322402    -0.000194189
                     0.000671678    -0.000291225        0.0878626       -0.567887      -0.00026508     -0.00019884         0.707198       -0.329562
281710                 0.0991823      -0.0179323      0.000219786     6.88798e-05          0.36324        0.916941      0.000394534    -5.14212e-05
                     4.80737e-05     2.21226e-05         0.634138        0.473574     -0.000304218    -0.000216512        0.0870414       -0.567858
                        0.363262        0.916533     -0.000280873    -0.000195787         0.083348      -0.0521778     -0.000322315    -0.000194492
                      0.00067227    -0.000292751        0.0873243       -0.567473     -0.000264865    -0.000199308         0.707082       -0.330578
281712                 0.0991645      -0.0179235      0.000219477     6.88373e-05         0.363599        0.916802      0.000394763    -5.19579e-05
                     4.71021e-05     2.22559e-05          0.63466         0.47343     -0.000304752    -0.000216372        0.0865037       -0.567443
                        0.363621        0.916393      -0.00028113    -0.000195599        0.0832879      -0.0522372     -0.000322229    -0.000194794
                     0.000672861    -0.000294278        0.0867864       -0.567058      -0.00026465    -0.000199777         0.706966       -0.331595
281714                 0.0991468      -0.0179147      0.000219168     6.87956e-05         0.363957        0.916662      0.000394992    -5.24956e-05
                     4.61305e-05     2.23903e-05         0.635182        0.473285     -0.000305286     -0.00021623        0.0859665       -0.567026
                         0.36398        0.916253     -0.000281388     -0.00019541        0.0832278      -0.0522965     -0.000322143    -0.000195098
                     0.000673451    -0.000295806        0.0862489       -0.566641     -0.000264436    -0.000200248         0.706847       -0.332612
281716                 0.0991291      -0.0179059      0.000218859     6.87547e-05         0.364316        0.916522      0.000395219    -5.30344e-05
                     4.51589e-05     2.25259e-05         0.635705        0.473139     -0.000305821    -0.000216088        0.0854297       -0.566608
                        0.364338        0.916112     -0.000281645    -0.000195221        0.0831676      -0.0523558     -0.000322057    -0.000195401
                     0.000674039    -0.000297335        0.0857119       -0.566224     -0.000264221     -0.00020072         0.706727        -0.33363
281718                 0.0991114       -0.017897      0.000218549     6.87148e-05         0.364675        0.916382      0.000395446    -5.35742e-05
                     4.41874e-05     2.26628e-05         0.636228        0.472993     -0.000306356    -0.000215946        0.0848933       -0.566189
                        0.364697        0.915972     -0.000281903    -0.000195031        0.0831073       -0.052415     -0.000321973    -0.000195706
                     0.000674626    -0.000298865        0.0851752       -0.565805     -0.000264007    -0.000201193         0.706606       -0.334649
281720                 0.0990937      -0.0178882      0.000218239     6.86757e-05         0.365033        0.916241      0.000395671    -5.41151e-05
                     4.32159e-05     2.28009e-05         0.636751        0.472845     -0.000306891    -0.000215802        0.0843573       -0.565769
                        0.365055        0.915831      -0.00028216    -0.000194842         0.083047      -0.0524741     -0.000321889    -0.000196011
                     0.000675211    -0.000300396        0.0846391       -0.565385     -0.000263794    -0.000201668         0.706482       -0.335668
281722                  0.099076      -0.0178794      0.000217929     6.86375e-05         0.365392        0.916101      0.000395896     -5.4657e-05
                     4.22445e-05     2.29403e-05         0.637275        0.472697     -0.000307426    -0.000215658        0.0838218       -0.565348
                        0.365414         0.91569     -0.000282418    -0.000194651        0.0829867      -0.0525332     -0.000321805    -0.000196316
                     0.000675795    -0.000301928        0.0841033       -0.564964      -0.00026358    -0.000202145         0.706357       -0.336688
281724                 0.0990582      -0.0178705      0.000217618     6.86002e-05          0.36575         0.91596       0.00039612       -5.52e-05
                     4.12733e-05     2.30809e-05         0.637799        0.472548     -0.000307962    -0.000215513        0.0832867       -0.564926
                        0.365772        0.915549     -0.000282675    -0.000194461        0.0829263      -0.0525923     -0.000321722    -0.000196622
                     0.000676377    -0.000303461         0.083568       -0.564542     -0.000263367    -0.000202623         0.706231       -0.337708
281726                 0.0990406      -0.0178616      0.000217307     6.85637e-05         0.366108         0.91582      0.000396344     -5.5744e-05
                     4.03022e-05     2.32228e-05         0.638323        0.472399     -0.000308499    -0.000215368        0.0827521       -0.564503
                         0.36613        0.915408     -0.000282932     -0.00019427        0.0828659      -0.0526512      -0.00032164    -0.000196928
                     0.000676958    -0.000304995        0.0830331       -0.564118     -0.000263154    -0.000203102         0.706103        -0.33873
281728                 0.0990229      -0.0178528      0.000216996     6.85281e-05         0.366467        0.915679      0.000396566     -5.6289e-05
                     3.93312e-05      2.3366e-05         0.638848        0.472248     -0.000309036    -0.000215222        0.0822179       -0.564078
                        0.366489        0.915267      -0.00028319    -0.000194078        0.0828054      -0.0527102     -0.000321558    -0.000197235
                     0.000677537     -0.00030653        0.0824987       -0.563694     -0.000262941    -0.000203583         0.705973       -0.339751
281730                 0.0990052      -0.0178439      0.000216685     6.84934e-05         0.366825        0.915538      0.000396788    -5.68351e-05
                     3.83605e-05     2.35105e-05         0.639373        0.472097     -0.000309573    -0.000215075        0.0816841       -0.563652
                        0.366847        0.915126     -0.000283447    -0.000193887         0.082745      -0.0527691     -0.000321477    -0.000197543
                     0.000678114    -0.000308066        0.0819647       -0.563268     -0.000262728    -0.000204066         0.705842       -0.340774
281732                 0.0989875       -0.017835      0.000216373     6.84596e-05         0.367183        0.915397      0.000397008    -5.73823e-05
                       3.739e-05     2.36563e-05         0.639898        0.471945      -0.00031011    -0.000214928        0.0811508       -0.563225
                        0.367205        0.914984     -0.000283704    -0.000193695        0.0826844      -0.0528279     -0.000321397    -0.000197851
                      0.00067869    -0.000309602        0.0814312       -0.562842     -0.000262516    -0.000204549         0.705709       -0.341797
281734                 0.0989698      -0.0178262      0.000216061     6.84267e-05         0.367541        0.915256      0.000397228    -5.79305e-05
                     3.64197e-05     2.38034e-05         0.640423        0.471793     -0.000310648    -0.000214779        0.0806179       -0.562797
                        0.367563        0.914842     -0.000283961    -0.000193502        0.0826238      -0.0528866     -0.000321317     -0.00019816
                     0.000679264    -0.000311139        0.0808981       -0.562414     -0.000262304    -0.000205035         0.705574       -0.342821
281736                 0.0989521      -0.0178173      0.000215749     6.83946e-05         0.367899        0.915114      0.000397447    -5.84797e-05
                     3.54497e-05     2.39518e-05         0.640949        0.471639     -0.000311186    -0.000214631        0.0800855       -0.562368
                        0.367921        0.914701     -0.000284218     -0.00019331        0.0825632      -0.0529454     -0.000321238    -0.000198469
                     0.000679836    -0.000312677        0.0803655       -0.561985     -0.000262092    -0.000205522         0.705438       -0.343845
281738                 0.0989345      -0.0178084      0.000215437     6.83635e-05         0.368257        0.914973      0.000397666      -5.903e-05
                     3.44801e-05     2.41016e-05         0.641475        0.471485     -0.000311725    -0.000214481        0.0795536       -0.561938
                        0.368279        0.914559     -0.000284475    -0.000193117        0.0825026       -0.053004     -0.000321159    -0.000198779
                     0.000680406    -0.000314216        0.0798333       -0.561555     -0.000261881     -0.00020601           0.7053        -0.34487
281740                 0.0989168      -0.0177995      0.000215124     6.83332e-05         0.368615        0.914831      0.000397883    -5.95812e-05
                     3.35107e-05     2.42528e-05         0.642001         0.47133     -0.000312264    -0.000214331        0.0790221       -0.561507
                        0.368637        0.914417     -0.000284732    -0.000192923        0.0824419      -0.0530626     -0.000321081    -0.000199089
                     0.000680975    -0.000315756        0.0793016       -0.561123      -0.00026167      -0.0002065          0.70516       -0.345895
281742                 0.0988991      -0.0177906      0.000214811     6.83038e-05         0.368973         0.91469        0.0003981    -6.01336e-05
                     3.25417e-05     2.44052e-05         0.642528        0.471174     -0.000312803     -0.00021418        0.0784911       -0.561074
                        0.368994        0.914275     -0.000284989     -0.00019273        0.0823811      -0.0531212     -0.000321003      -0.0001994
                     0.000681542    -0.000317296        0.0787704       -0.560691     -0.000261459    -0.000206991         0.705019       -0.346922
281744                 0.0988815      -0.0177817      0.000214498     6.82753e-05         0.369331        0.914548      0.000398315    -6.06869e-05
                     3.15731e-05     2.45591e-05         0.643055        0.471017     -0.000313343    -0.000214028        0.0779605        -0.56064
                        0.369352        0.914132     -0.000285246    -0.000192536        0.0823203      -0.0531797     -0.000320926    -0.000199712
                     0.000682106    -0.000318837        0.0782396       -0.560257     -0.000261249    -0.000207484         0.704876       -0.347948
281746                 0.0988638      -0.0177727      0.000214185     6.82477e-05         0.369689        0.914406       0.00039853    -6.12413e-05
                      3.0605e-05     2.47143e-05         0.643582         0.47086     -0.000313883    -0.000213876        0.0774304       -0.560205
                         0.36971         0.91399     -0.000285502    -0.000192341        0.0822595      -0.0532381      -0.00032085    -0.000200024
                     0.000682669    -0.000320379        0.0777093       -0.559823     -0.000261039    -0.000207978         0.704731       -0.348976
281748                 0.0988462      -0.0177638      0.000213871     6.82209e-05         0.370046        0.914263      0.000398745    -6.17968e-05
                     2.96372e-05      2.4871e-05          0.64411        0.470701     -0.000314423    -0.000213723        0.0769008       -0.559769
                        0.370067        0.913847     -0.000285759    -0.000192147        0.0821986      -0.0532965     -0.000320774    -0.000200337
                      0.00068323    -0.000321922        0.0771795       -0.559387     -0.000260829    -0.000208474         0.704585       -0.350004
281750                 0.0988286      -0.0177549      0.000213557     6.81951e-05         0.370404        0.914121      0.000398958    -6.23532e-05
                       2.867e-05      2.5029e-05         0.644638        0.470542     -0.000314964    -0.000213569        0.0763717       -0.559332
                        0.370425        0.913705     -0.000286015    -0.000191951        0.0821377      -0.0533548     -0.000320699     -0.00020065
                     0.000683789    -0.000323465        0.0766501        -0.55895     -0.000260619    -0.000208971         0.704437       -0.351032
281752                 0.0988109       -0.017746      0.000213244     6.81701e-05         0.370762        0.913979      0.000399171    -6.29107e-05
                     2.77032e-05     2.51884e-05         0.645166        0.470382     -0.000315505    -0.000213415         0.075843       -0.558894
                        0.370782        0.913562     -0.000286271    -0.000191756        0.0820768      -0.0534131     -0.000320624    -0.000200964
                     0.000684346    -0.000325008        0.0761212       -0.558512      -0.00026041     -0.00020947         0.704287       -0.352062
281754                 0.0987933       -0.017737      0.000212929      6.8146e-05         0.371119        0.913836      0.000399383    -6.34693e-05
                      2.6737e-05     2.53493e-05         0.645694        0.470222     -0.000316047     -0.00021326        0.0753148       -0.558455
                         0.37114        0.913419     -0.000286528     -0.00019156        0.0820158      -0.0534713      -0.00032055    -0.000201278
                       0.0006849    -0.000326552        0.0755928       -0.558072     -0.000260201     -0.00020997         0.704136       -0.353091
281756                 0.0987757      -0.0177281      0.000212615     6.81228e-05         0.371477        0.913693      0.000399594    -6.40288e-05
                     2.57714e-05     2.55116e-05         0.646223         0.47006     -0.000316589    -0.000213104        0.0747871       -0.558014
                        0.371497        0.913276     -0.000286784    -0.000191364        0.0819548      -0.0535294     -0.000320476    -0.000201593
                     0.000685453    -0.000328097        0.0750649       -0.557632     -0.000259993    -0.000210472         0.703983       -0.354122
281758                  0.098758      -0.0177191      0.000212301     6.81005e-05         0.371834         0.91355      0.000399804    -6.45894e-05
                     2.48063e-05     2.56753e-05         0.646752        0.469898     -0.000317131    -0.000212947        0.0742599       -0.557572
                        0.371854        0.913133      -0.00028704    -0.000191168        0.0818937      -0.0535875     -0.000320403    -0.000201909
                     0.000686003    -0.000329642        0.0745375        -0.55719     -0.000259784    -0.000210976         0.703828       -0.355153
281760                 0.0987404      -0.0177101      0.000211986     6.80791e-05         0.372191        0.913407      0.000400013     -6.5151e-05
                      2.3842e-05     2.58405e-05         0.647281        0.469735     -0.000317673     -0.00021279        0.0737332       -0.557129
                        0.372212        0.912989     -0.000287296    -0.000190971        0.0818326      -0.0536456      -0.00032033    -0.000202225
                     0.000686551    -0.000331188        0.0740105       -0.556748     -0.000259576    -0.000211481         0.703672       -0.356184
281762                 0.0987228      -0.0177012      0.000211671     6.80586e-05         0.372549        0.913264      0.000400222    -6.57137e-05
                     2.28782e-05     2.60072e-05         0.647811        0.469571     -0.000318216    -0.000212631        0.0732069       -0.556685
                        0.372569        0.912846     -0.000287551    -0.000190774        0.0817714      -0.0537036     -0.000320258    -0.000202542
