! TOUCHSTONE file generated by CST MICROWAVE STUDIO
! Date and time: Wed Oct 15 17:31:55 2025
! Project name: Teste_Macro_Metasurface_Nanopilar.cst
! Parameters = {H=600; L_x=140; L_y=145; Lambda=1064; Max_L=200; Min_L=70; PathPara=1; Phi=0; Step_L=10; Theta=0; p=520; phaseX=180; phaseY=0}
! Header version: 2018
! Port assignment regex: !\s*Touchstone port\s*([0-9]+)\s*=\s*(CST MWS port|CST DS port)\s*([0-9]+|Zmin|Zmax)\s*\(\"(.*)\"\)(\s*mode\s*([0-9]+))?.*
! Touchstone port assignment:
! Touchstone port 1 = CST MWS port Zmax ("") mode 1
! Touchstone port 2 = CST MWS port Zmax ("") mode 2
! Touchstone port 3 = CST MWS port Zmin ("") mode 1
! Touchstone port 4 = CST MWS port Zmin ("") mode 2
! S-Parameters are not renormalized. Each port impedance will be approximated by the real part at minimum frequency. The values are described via the [Reference] keyword.
! Default impedance is overridden by [Reference]
[Version] 2.0
# GHz S RI R 376.73
[Number of Ports] 4
[Reference]
376.73 376.73 259.888 259.888 
[Number of Frequencies] 51
[Network Data]
281700                  0.157095        0.258221     -6.46332e-05    -0.000357463         0.765271       -0.558067      0.000779305     0.000965329
                    -7.30809e-05    -0.000340123         0.129463        0.195692      0.000821506     0.000942386         0.865031       -0.432946
                        0.765618       -0.558221      0.000775334      0.00103121         0.199487         0.22208     -0.000764663     0.000116119
                     0.000727095     0.000956418         0.864174       -0.433303     -0.000773327      7.8707e-05        0.0804679        0.218214
281702                  0.157142        0.258289     -6.45449e-05    -0.000357615         0.765036       -0.558341      0.000779864     0.000965251
                    -7.30598e-05    -0.000340219         0.129485        0.195726      0.000822062     0.000942279         0.864877       -0.433232
                        0.765384       -0.558494      0.000776014      0.00103121         0.199708        0.221989     -0.000764959     0.000116804
                     0.000727594     0.000956296         0.864018       -0.433589     -0.000773645     7.94379e-05        0.0806291        0.218197
281704                  0.157189        0.258357     -6.44568e-05    -0.000357767         0.764801       -0.558614      0.000780424     0.000965173
                    -7.30385e-05    -0.000340314         0.129507        0.195759      0.000822618     0.000942171         0.864722       -0.433518
                         0.76515       -0.558767      0.000776694      0.00103121         0.199929        0.221898     -0.000765255      0.00011749
                     0.000728092     0.000956173         0.863861       -0.433874     -0.000773962     8.01693e-05        0.0807904        0.218179
281706                  0.157236        0.258425     -6.43688e-05    -0.000357919         0.764566       -0.558888      0.000780983     0.000965094
                     -7.3017e-05    -0.000340409         0.129529        0.195793      0.000823175     0.000942063         0.864567       -0.433804
                        0.764916        -0.55904      0.000777375      0.00103121         0.200151        0.221806     -0.000765551     0.000118177
                      0.00072859      0.00095605         0.863705        -0.43416     -0.000774279     8.09013e-05        0.0809517        0.218161
281708                  0.157283        0.258493     -6.42811e-05    -0.000358072          0.76433       -0.559161      0.000781543     0.000965015
                    -7.29952e-05    -0.000340505         0.129552        0.195826      0.000823732     0.000941956         0.864411        -0.43409
                        0.764681       -0.559312      0.000778056      0.00103121         0.200372        0.221715     -0.000765847     0.000118864
                     0.000729088     0.000955926         0.863548       -0.434445     -0.000774596     8.16338e-05        0.0811131        0.218143
281710                   0.15733        0.258561     -6.41935e-05    -0.000358226         0.764095       -0.559434      0.000782103     0.000964936
                    -7.29732e-05      -0.0003406         0.129574         0.19586      0.000824289     0.000941848         0.864256       -0.434376
                        0.764447       -0.559585      0.000778738       0.0010312         0.200594        0.221623     -0.000766142     0.000119551
                     0.000729585     0.000955803         0.863391       -0.434731     -0.000774912     8.23669e-05        0.0812744        0.218124
281712                  0.157378        0.258629      -6.4106e-05    -0.000358381         0.763859       -0.559707      0.000782662     0.000964856
                     -7.2951e-05    -0.000340695         0.129596        0.195894      0.000824847     0.000941739         0.864101       -0.434662
                        0.764212       -0.559858       0.00077942       0.0010312         0.200815        0.221531     -0.000766437     0.000120239
                     0.000730082      0.00095568         0.863234       -0.435016     -0.000775228     8.31005e-05        0.0814358        0.218106
281714                  0.157425        0.258697     -6.40188e-05    -0.000358536         0.763623        -0.55998      0.000783222     0.000964775
                    -7.29285e-05    -0.000340791         0.129618        0.195927      0.000825405     0.000941631         0.863945       -0.434948
                        0.763977        -0.56013      0.000780103      0.00103119         0.201037        0.221439     -0.000766732     0.000120928
                     0.000730579     0.000955557         0.863077       -0.435302     -0.000775544     8.38346e-05        0.0815973        0.218088
281716                  0.157472        0.258766     -6.39317e-05    -0.000358691         0.763387       -0.560253      0.000783782     0.000964694
                    -7.29056e-05    -0.000340886          0.12964        0.195961      0.000825962     0.000941523          0.86379       -0.435234
                        0.763741       -0.560403      0.000780787      0.00103119         0.201259        0.221346     -0.000767027     0.000121617
                     0.000731075     0.000955435          0.86292       -0.435587      -0.00077586     8.45693e-05        0.0817587        0.218069
281718                   0.15752        0.258834     -6.38448e-05    -0.000358847         0.763151       -0.560526      0.000784342     0.000964613
                    -7.28824e-05    -0.000340982         0.129663        0.195995       0.00082652     0.000941414         0.863634        -0.43552
                        0.763506       -0.560675      0.000781471      0.00103118          0.20148        0.221253     -0.000767321     0.000122307
                     0.000731571     0.000955312         0.862763       -0.435872     -0.000776175     8.53045e-05        0.0819202        0.218051
281720                  0.157567        0.258902     -6.37581e-05    -0.000359004         0.762915       -0.560799      0.000784901     0.000964531
                    -7.28588e-05    -0.000341077         0.129685        0.196028      0.000827079     0.000941305         0.863478       -0.435805
                        0.763271       -0.560947      0.000782155      0.00103118         0.201702        0.221161     -0.000767615     0.000122997
                     0.000732067      0.00095519         0.862606       -0.436158      -0.00077649     8.60403e-05        0.0820817        0.218032
281722                  0.157615        0.258971     -6.36715e-05    -0.000359161         0.762678       -0.561072      0.000785461     0.000964449
                    -7.28348e-05    -0.000341173         0.129707        0.196062      0.000827637     0.000941197         0.863322       -0.436091
                        0.763035        -0.56122      0.000782841      0.00103117         0.201924        0.221068     -0.000767908     0.000123688
                     0.000732562     0.000955068         0.862448       -0.436443     -0.000776805     8.67766e-05        0.0822433        0.218013
281724                  0.157662        0.259039     -6.35851e-05    -0.000359319         0.762442       -0.561345      0.000786021     0.000964367
                    -7.28103e-05    -0.000341268         0.129729        0.196096      0.000828196     0.000941088         0.863166       -0.436377
                        0.762799       -0.561492      0.000783526      0.00103116         0.202146        0.220975     -0.000768201     0.000124379
                     0.000733058     0.000954946         0.862291       -0.436728      -0.00077712     8.75135e-05        0.0824049        0.217994
281726                   0.15771        0.259108     -6.34989e-05    -0.000359478         0.762205       -0.561618      0.000786581     0.000964285
                    -7.27853e-05    -0.000341364         0.129752         0.19613      0.000828754     0.000940978          0.86301       -0.436662
                        0.762563       -0.561764      0.000784213      0.00103116         0.202367        0.220881     -0.000768494     0.000125071
                     0.000733553     0.000954825         0.862133       -0.437013     -0.000777435     8.82509e-05        0.0825665        0.217975
281728                  0.157757        0.259176     -6.34129e-05    -0.000359636         0.761968        -0.56189      0.000787141     0.000964202
                    -7.27597e-05    -0.000341461         0.129774        0.196163      0.000829313     0.000940869         0.862854       -0.436948
                        0.762327       -0.562036      0.000784899      0.00103115         0.202589        0.220788     -0.000768786     0.000125763
                     0.000734048     0.000954705         0.861975       -0.437298     -0.000777749     8.89888e-05        0.0827281        0.217956
281730                  0.157805        0.259245      -6.3327e-05    -0.000359796         0.761731       -0.562163      0.000787702     0.000964118
                    -7.27336e-05    -0.000341557         0.129796        0.196197      0.000829873     0.000940759         0.862697       -0.437234
                         0.76209       -0.562308      0.000785587      0.00103114         0.202811        0.220694     -0.000769078     0.000126456
                     0.000734544     0.000954585         0.861817       -0.437583     -0.000778063     8.97273e-05        0.0828898        0.217937
281732                  0.157853        0.259313     -6.32413e-05    -0.000359956         0.761494       -0.562435      0.000788262     0.000964035
                    -7.27069e-05    -0.000341654         0.129818        0.196231      0.000830432      0.00094065         0.862541       -0.437519
                        0.761854        -0.56258      0.000786275      0.00103113         0.203033          0.2206      -0.00076937      0.00012715
                     0.000735039     0.000954466         0.861659       -0.437868     -0.000778377     9.04663e-05        0.0830515        0.217918
281734                    0.1579        0.259382     -6.31558e-05    -0.000360116         0.761256       -0.562708      0.000788823     0.000963951
                    -7.26796e-05    -0.000341752         0.129841        0.196265      0.000830991      0.00094054         0.862384       -0.437804
                        0.761617       -0.562852      0.000786964      0.00103112         0.203255        0.220506     -0.000769661     0.000127844
                     0.000735535     0.000954348         0.861501       -0.438153     -0.000778691     9.12059e-05        0.0832133        0.217898
281736                  0.157948        0.259451     -6.30704e-05    -0.000360277         0.761019        -0.56298      0.000789383     0.000963867
                    -7.26517e-05     -0.00034185         0.129863        0.196299      0.000831551      0.00094043         0.862228        -0.43809
                         0.76138       -0.563124      0.000787653      0.00103111         0.203477        0.220412     -0.000769952     0.000128539
                     0.000736031     0.000954231         0.861343       -0.438438     -0.000779004      9.1946e-05         0.083375        0.217879
281738                  0.157996        0.259519     -6.29852e-05    -0.000360438         0.760781       -0.563252      0.000789944     0.000963783
                    -7.26233e-05    -0.000341949         0.129885        0.196332      0.000832111      0.00094032         0.862071       -0.438375
                        0.761143       -0.563396      0.000788343       0.0010311         0.203699        0.220317     -0.000770243     0.000129235
                     0.000736528     0.000954114         0.861185       -0.438723     -0.000779318     9.26866e-05        0.0835368        0.217859
281740                  0.158044        0.259588     -6.29001e-05      -0.0003606         0.760543       -0.563525      0.000790506     0.000963698
                    -7.25943e-05     -0.00034205         0.129908        0.196366      0.000832671     0.000940209         0.861914       -0.438661
                        0.760906       -0.563667      0.000789033      0.00103109         0.203922        0.220222     -0.000770532     0.000129931
                     0.000737026     0.000953998         0.861026       -0.439008     -0.000779631     9.34278e-05        0.0836987        0.217839
281742                  0.158092        0.259657     -6.28152e-05    -0.000360763         0.760305       -0.563797      0.000791067     0.000963613
                    -7.25651e-05    -0.000342151          0.12993          0.1964      0.000833231     0.000940099         0.861757       -0.438946
                        0.760669       -0.563939      0.000789724      0.00103108         0.204144        0.220128     -0.000770822     0.000130627
                     0.000737525     0.000953884         0.860868       -0.439293     -0.000779944     9.41695e-05        0.0838605        0.217819
281744                   0.15814        0.259726     -6.27304e-05    -0.000360925         0.760067       -0.564069      0.000791629     0.000963528
                    -7.25357e-05    -0.000342254         0.129952        0.196434      0.000833791     0.000939988           0.8616       -0.439231
                        0.760431        -0.56421      0.000790416      0.00103107         0.204366        0.220032     -0.000771111     0.000131325
                     0.000738025      0.00095377         0.860709       -0.439578     -0.000780257     9.49118e-05        0.0840224        0.217799
281746                  0.158188        0.259795     -6.26458e-05    -0.000361089         0.759828       -0.564341      0.000792191     0.000963442
                    -7.25064e-05    -0.000342359         0.129975        0.196468      0.000834352     0.000939877         0.861442       -0.439516
                        0.760194       -0.564482      0.000791108      0.00103105         0.204588        0.219937       -0.0007714     0.000132023
                     0.000738526     0.000953656          0.86055       -0.439862      -0.00078057     9.56546e-05        0.0841843        0.217779
281748                  0.158236        0.259864     -6.25614e-05    -0.000361252          0.75959       -0.564613      0.000792754     0.000963356
                    -7.24776e-05    -0.000342465         0.129997        0.196502      0.000834912     0.000939766         0.861285       -0.439802
                        0.759956       -0.564753      0.000791801      0.00103104         0.204811        0.219842     -0.000771688     0.000132722
                     0.000739029     0.000953544         0.860391       -0.440147     -0.000780882      9.6398e-05        0.0843463        0.217759
281750                  0.158284        0.259933     -6.24771e-05    -0.000361416         0.759351       -0.564885      0.000793317      0.00096327
                    -7.24497e-05    -0.000342574         0.130019        0.196536      0.000835473     0.000939655         0.861127       -0.440087
                        0.759718       -0.565025      0.000792494      0.00103103         0.205033        0.219746     -0.000771975     0.000133421
                     0.000739535     0.000953431         0.860232       -0.440432     -0.000781194     9.71419e-05        0.0845083        0.217739
281752                  0.158332        0.260002      -6.2393e-05    -0.000361581         0.759112       -0.565157      0.000793881     0.000963184
                    -7.24231e-05    -0.000342684         0.130042         0.19657      0.000836034     0.000939543          0.86097       -0.440372
                         0.75948       -0.565296      0.000793188      0.00103101         0.205255         0.21965     -0.000772262     0.000134122
                     0.000740043     0.000953319         0.860073       -0.440716     -0.000781507     9.78864e-05        0.0846703        0.217718
281754                  0.158381        0.260071      -6.2309e-05    -0.000361746         0.758873       -0.565429      0.000794445     0.000963096
                    -7.23984e-05    -0.000342796         0.130064        0.196604      0.000836595     0.000939431         0.860812       -0.440657
                        0.759241       -0.565567      0.000793883        0.001031         0.205478        0.219554     -0.000772549     0.000134823
                     0.000740553     0.000953207         0.859914       -0.441001     -0.000781819     9.86315e-05        0.0848323        0.217698
281756                  0.158429         0.26014     -6.22251e-05    -0.000361911         0.758634         -0.5657      0.000795009     0.000963009
                    -7.23762e-05    -0.000342909         0.130086        0.196638      0.000837156     0.000939319         0.860654       -0.440942
                        0.759003       -0.565838      0.000794578      0.00103098           0.2057        0.219458     -0.000772834     0.000135527
                     0.000741067     0.000953094         0.859755       -0.441285      -0.00078213     9.93772e-05        0.0849944        0.217677
281758                  0.158477        0.260209     -6.21413e-05    -0.000362076         0.758394       -0.565972      0.000795575     0.000962921
                     -7.2357e-05    -0.000343023         0.130109        0.196672      0.000837716     0.000939206         0.860496       -0.441227
                        0.758764       -0.566109      0.000795275      0.00103097         0.205923        0.219362     -0.000773116     0.000136232
                     0.000741584     0.000952979         0.859595        -0.44157     -0.000782442     0.000100124        0.0851565        0.217657
281760                  0.158526        0.260279     -6.20575e-05    -0.000362242         0.758155       -0.566243      0.000796143     0.000962832
                    -7.23415e-05    -0.000343138         0.130131        0.196706       0.00083828     0.000939088         0.860338       -0.441512
                        0.758525        -0.56638      0.000795972      0.00103095         0.206145        0.219265     -0.000773389     0.000136936
                     0.000742105     0.000952861         0.859436       -0.441854     -0.000782754     0.000100871        0.0853186        0.217636
281762                  0.158574        0.260348     -6.19709e-05    -0.000362404         0.757915       -0.566515      0.000796715     0.000962741
                    -7.23304e-05    -0.000343252         0.130154         0.19674      0.000838845     0.000938984          0.86018       -0.441797
                        0.758287       -0.566651      0.000796673      0.00103094         0.206368        0.219169     -0.000773669      0.00013762
