! TOUCHSTONE file generated by CST MICROWAVE STUDIO
! Date and time: Wed Oct 15 17:31:33 2025
! Project name: Teste_Macro_Metasurface_Nanopilar.cst
! Parameters = {H=600; L_x=135; L_y=105; Lambda=1064; Max_L=200; Min_L=70; PathPara=1; Phi=0; Step_L=10; Theta=0; p=520; phaseX=180; phaseY=0}
! Header version: 2018
! Port assignment regex: !\s*Touchstone port\s*([0-9]+)\s*=\s*(CST MWS port|CST DS port)\s*([0-9]+|Zmin|Zmax)\s*\(\"(.*)\"\)(\s*mode\s*([0-9]+))?.*
! Touchstone port assignment:
! Touchstone port 1 = CST MWS port Zmax ("") mode 1
! Touchstone port 2 = CST MWS port Zmax ("") mode 2
! Touchstone port 3 = CST MWS port Zmin ("") mode 1
! Touchstone port 4 = CST MWS port Zmin ("") mode 2
! S-Parameters are not renormalized. Each port impedance will be approximated by the real part at minimum frequency. The values are described via the [Reference] keyword.
! Default impedance is overridden by [Reference]
[Version] 2.0
# GHz S RI R 376.73
[Number of Ports] 4
[Reference]
376.73 376.73 259.888 259.888 
[Number of Frequencies] 51
[Network Data]
281700                  0.140509       0.0925879      0.000322712     0.000332351        -0.953468         0.22363     -5.35263e-05     0.000287432
                     0.000483488     0.000435809       -0.0113874       0.0411581      0.000354147    -0.000598847         0.704896        0.696643
                       -0.953337        0.223505      0.000462728    -0.000425784       -0.0835163        0.145419      0.000708795     0.000102237
                     1.13755e-05     0.000330023         0.704766        0.696481      0.000584155     9.64086e-05       -0.0416316       0.0145247
281702                  0.140529       0.0925755      0.000322749      0.00033229        -0.953384        0.223976     -5.34791e-05     0.000287502
                     0.000483575     0.000435634       -0.0113775       0.0411907      0.000353881    -0.000599009         0.705158        0.696377
                       -0.953254        0.223851      0.000462477    -0.000425965       -0.0834348        0.145478      0.000708704     0.000101778
                     1.15443e-05     0.000330082         0.705029        0.696214      0.000583998     9.59124e-05       -0.0416536       0.0145463
281704                   0.14055        0.092563      0.000322785     0.000332229        -0.953301        0.224321     -5.34318e-05     0.000287573
                     0.000483661     0.000435459       -0.0113676       0.0412233      0.000353615     -0.00059917         0.705421         0.69611
                        -0.95317        0.224197      0.000462225    -0.000426145       -0.0833533        0.145536      0.000708613     0.000101318
                      1.1713e-05      0.00033014         0.705291        0.695947      0.000583841     9.54161e-05       -0.0416756        0.014568
281706                  0.140571       0.0925505      0.000322822     0.000332168        -0.953217        0.224667     -5.33844e-05     0.000287643
                     0.000483747     0.000435283       -0.0113578       0.0412559      0.000353349    -0.000599331         0.705683        0.695843
                       -0.953086        0.224542      0.000461973    -0.000426325       -0.0832717        0.145595      0.000708522      0.00010086
                     1.18816e-05     0.000330199         0.705553         0.69568      0.000583683       9.492e-05       -0.0416976       0.0145897
281708                  0.140591       0.0925381      0.000322859     0.000332106        -0.953133        0.225013     -5.33369e-05     0.000287713
                     0.000483832     0.000435106       -0.0113479       0.0412884      0.000353083    -0.000599492         0.705945        0.695576
                       -0.953002        0.224888      0.000461721    -0.000426506       -0.0831901        0.145653       0.00070843     0.000100401
                       1.205e-05     0.000330258         0.705815        0.695413      0.000583525      9.4424e-05       -0.0417195       0.0146114
281710                  0.140612       0.0925256      0.000322895     0.000332045        -0.953049        0.225359     -5.32893e-05     0.000287783
                     0.000483917     0.000434929        -0.011338        0.041321      0.000352816    -0.000599653         0.706207         0.69531
                       -0.952918        0.225233      0.000461469    -0.000426686       -0.0831085        0.145712      0.000708338     9.99429e-05
                     1.22183e-05     0.000330317         0.706077        0.695146      0.000583367     9.39281e-05       -0.0417415       0.0146331
281712                  0.140633       0.0925131      0.000322932     0.000331984        -0.952964        0.225705     -5.32416e-05     0.000287853
                     0.000484002     0.000434752       -0.0113281       0.0413535       0.00035255    -0.000599814         0.706469        0.695043
                       -0.952833        0.225579      0.000461217    -0.000426865       -0.0830268         0.14577      0.000708246      9.9485e-05
                     1.23865e-05     0.000330377         0.706338        0.694879      0.000583209     9.34323e-05       -0.0417634       0.0146549
281714                  0.140653       0.0925006      0.000322969     0.000331922         -0.95288        0.226051     -5.31939e-05     0.000287922
                     0.000484086     0.000434574       -0.0113182       0.0413861      0.000352284    -0.000599974          0.70673        0.694775
                       -0.952749        0.225925      0.000460964    -0.000427045        -0.082945        0.145829      0.000708153     9.90275e-05
                     1.25546e-05     0.000330437           0.7066        0.694612       0.00058305     9.29366e-05       -0.0417853       0.0146767
281716                  0.140674       0.0924881      0.000323006     0.000331861        -0.952796        0.226396      -5.3146e-05     0.000287992
                      0.00048417     0.000434395       -0.0113083       0.0414186      0.000352018    -0.000600134         0.706992        0.694508
                       -0.952665         0.22627      0.000460712    -0.000427224       -0.0828632        0.145887       0.00070806     9.85704e-05
                     1.27226e-05     0.000330496         0.706862        0.694345       0.00058289      9.2441e-05       -0.0418072       0.0146986
281718                  0.140694       0.0924756      0.000323042       0.0003318        -0.952711        0.226742      -5.3098e-05     0.000288061
                     0.000484254     0.000434216       -0.0112983       0.0414512      0.000351751    -0.000600294         0.707254        0.694241
                        -0.95258        0.226615      0.000460459    -0.000427404       -0.0827814        0.145945      0.000707967     9.81136e-05
                     1.28904e-05     0.000330556         0.707123        0.694077      0.000582731     9.19455e-05       -0.0418291       0.0147205
281720                  0.140715       0.0924631      0.000323079     0.000331738        -0.952626        0.227088       -5.305e-05      0.00028813
                     0.000484337     0.000434036       -0.0112884       0.0414837      0.000351485    -0.000600453         0.707515        0.693974
                       -0.952495        0.226961      0.000460206    -0.000427583       -0.0826995        0.146003      0.000707874     9.76571e-05
                     1.30582e-05     0.000330617         0.707384         0.69381      0.000582571       9.145e-05       -0.0418509       0.0147424
281722                  0.140736       0.0924506      0.000323116     0.000331676        -0.952541        0.227433     -5.30018e-05     0.000288199
                      0.00048442     0.000433856       -0.0112785       0.0415162      0.000351218    -0.000600613         0.707776        0.693706
                        -0.95241        0.227306      0.000459953    -0.000427762       -0.0826176        0.146062       0.00070778     9.72009e-05
                     1.32259e-05     0.000330677         0.707646        0.693542      0.000582411     9.09547e-05       -0.0418728       0.0147643
281724                  0.140756       0.0924381      0.000323153     0.000331615        -0.952456        0.227779     -5.29535e-05     0.000288268
                     0.000484503     0.000433675       -0.0112685       0.0415488      0.000350952    -0.000600772         0.708038        0.693439
                       -0.952325        0.227652        0.0004597     -0.00042794       -0.0825357         0.14612      0.000707686     9.67451e-05
                     1.33935e-05     0.000330737         0.707907        0.693275       0.00058225     9.04595e-05       -0.0418946       0.0147863
281726                  0.140777       0.0924256       0.00032319     0.000331553        -0.952371        0.228125     -5.29051e-05     0.000288337
                     0.000484585     0.000433494       -0.0112586       0.0415813      0.000350685    -0.000600931         0.708299        0.693171
                        -0.95224        0.227997      0.000459447    -0.000428119       -0.0824537        0.146178      0.000707592     9.62895e-05
                      1.3561e-05     0.000330798         0.708168        0.693007      0.000582089     8.99644e-05       -0.0419164       0.0148083
281728                  0.140798        0.092413      0.000323227     0.000331491        -0.952286         0.22847     -5.28566e-05     0.000288405
                     0.000484667     0.000433312       -0.0112486       0.0416138      0.000350419     -0.00060109          0.70856        0.692903
                       -0.952155        0.228342      0.000459193    -0.000428297       -0.0823716        0.146236      0.000707498     9.58343e-05
                     1.37284e-05     0.000330859         0.708429        0.692739      0.000581928     8.94694e-05       -0.0419382       0.0148304
281730                  0.140818       0.0924005      0.000323264     0.000331429        -0.952201        0.228816      -5.2808e-05     0.000288474
                     0.000484749     0.000433129       -0.0112386       0.0416463      0.000350152    -0.000601248         0.708821        0.692636
                       -0.952069        0.228688      0.000458939    -0.000428475       -0.0822895        0.146294      0.000707403     9.53795e-05
                     1.38958e-05      0.00033092         0.708689        0.692471      0.000581766     8.89745e-05         -0.04196       0.0148524
281732                  0.140839        0.092388      0.000323301     0.000331368        -0.952115        0.229162     -5.27593e-05     0.000288542
                      0.00048483     0.000432947       -0.0112286       0.0416788      0.000349886    -0.000601407         0.709081        0.692368
                       -0.951984        0.229033      0.000458685    -0.000428653       -0.0822074        0.146352      0.000707308     9.49249e-05
                     1.40631e-05     0.000330981          0.70895        0.692203      0.000581604     8.84797e-05       -0.0419818       0.0148745
281734                  0.140859       0.0923754      0.000323338     0.000331306        -0.952029        0.229507     -5.27105e-05      0.00028861
                     0.000484911     0.000432763       -0.0112186       0.0417113      0.000349619    -0.000601565         0.709342          0.6921
                       -0.951898        0.229378      0.000458431    -0.000428831       -0.0821252         0.14641      0.000707213     9.44706e-05
                     1.42303e-05     0.000331042         0.709211        0.691935      0.000581441      8.7985e-05       -0.0420036       0.0148967
281736                   0.14088       0.0923628      0.000323375     0.000331244        -0.951944        0.229853     -5.26616e-05     0.000288678
                     0.000484992     0.000432579       -0.0112086       0.0417438      0.000349352    -0.000601722         0.709603        0.691832
                       -0.951812        0.229724      0.000458177    -0.000429009        -0.082043        0.146468      0.000707117     9.40166e-05
                     1.43975e-05     0.000331103         0.709471        0.691667      0.000581279     8.74905e-05       -0.0420253       0.0149189
281738                  0.140901       0.0923503      0.000323412     0.000331183        -0.951858        0.230198     -5.26125e-05     0.000288746
                     0.000485073     0.000432395       -0.0111986       0.0417763      0.000349086     -0.00060188         0.709863        0.691563
                       -0.951726        0.230069      0.000457922    -0.000429187       -0.0819608        0.146525      0.000707021     9.35629e-05
                     1.45646e-05     0.000331165         0.709732        0.691398      0.000581115     8.69961e-05        -0.042047       0.0149411
281740                  0.140921       0.0923377       0.00032345     0.000331121        -0.951772        0.230544     -5.25633e-05     0.000288814
                     0.000485153      0.00043221       -0.0111886       0.0418088      0.000348819    -0.000602037         0.710124        0.691295
                        -0.95164        0.230414      0.000457667    -0.000429364       -0.0818784        0.146583      0.000706925     9.31095e-05
                     1.47317e-05     0.000331226         0.709992         0.69113      0.000580951     8.65019e-05       -0.0420688       0.0149633
281742                  0.140942       0.0923251      0.000323487      0.00033106        -0.951686        0.230889     -5.25141e-05     0.000288882
                     0.000485233     0.000432024       -0.0111786       0.0418412      0.000348553    -0.000602194         0.710384        0.691027
                       -0.951554        0.230759      0.000457412    -0.000429542       -0.0817961        0.146641      0.000706828     9.26564e-05
                     1.48987e-05     0.000331288         0.710252        0.690861      0.000580786      8.6008e-05       -0.0420905       0.0149856
281744                  0.140962       0.0923125      0.000323525     0.000330999        -0.951599        0.231235     -5.24647e-05      0.00028895
                     0.000485312     0.000431838       -0.0111685       0.0418737      0.000348286    -0.000602351         0.710644        0.690758
                       -0.951468        0.231104      0.000457157    -0.000429719       -0.0817137        0.146699      0.000706731     9.22034e-05
                     1.50657e-05     0.000331349         0.710512        0.690593      0.000580621     8.55145e-05       -0.0421122       0.0150078
281746                  0.140983       0.0922999      0.000323564      0.00033094        -0.951513         0.23158     -5.24153e-05     0.000289018
                     0.000485392     0.000431651       -0.0111585       0.0419062      0.000348021    -0.000602508         0.710904         0.69049
                       -0.951381         0.23145        0.0004569    -0.000429897       -0.0816313        0.146756      0.000706634     9.17506e-05
                     1.52326e-05     0.000331411         0.710772        0.690324      0.000580453     8.50216e-05       -0.0421338       0.0150302
281748                  0.141003       0.0922873      0.000323605     0.000330882        -0.951426        0.231925     -5.23658e-05     0.000289087
                     0.000485471     0.000431464       -0.0111484       0.0419386      0.000347757    -0.000602664         0.711164        0.690221
                       -0.951295        0.231795      0.000456643    -0.000430075       -0.0815488        0.146814      0.000706535     9.12972e-05
                     1.53995e-05     0.000331473         0.711032        0.690055      0.000580279     8.45306e-05       -0.0421555       0.0150525
281750                  0.141024       0.0922747      0.000323651     0.000330824         -0.95134        0.232271      -5.2308e-05     0.000289161
                     0.000485549     0.000431277       -0.0111384       0.0419711      0.000347502    -0.000602819         0.711424        0.689952
                       -0.951208         0.23214       0.00045638    -0.000430254       -0.0814663        0.146871      0.000706429     9.08332e-05
                     1.55664e-05     0.000331535         0.711291        0.689786      0.000580076     8.40502e-05       -0.0421771       0.0150749
281752                  0.141045       0.0922621      0.000323706     0.000330754        -0.951253        0.232616      -5.2261e-05     0.000289214
                     0.000485628     0.000431089       -0.0111283       0.0420035      0.000347186    -0.000602982         0.711683        0.689683
                       -0.951121        0.232485      0.000456055    -0.000430456       -0.0813837        0.146929      0.000706352        9.04e-05
                     1.57333e-05     0.000331597         0.711551        0.689517      0.000580063     8.35011e-05       -0.0421988       0.0150973
281754                  0.141065       0.0922495      0.000323744     0.000330672        -0.951166        0.232961     -5.22134e-05     0.000289282
                     0.000485706       0.0004309       -0.0111182        0.042036      0.000346939    -0.000603134         0.711943        0.689415
                       -0.951034         0.23283      0.000455908    -0.000430588       -0.0813011        0.146986      0.000706249     8.99471e-05
                     1.59002e-05     0.000331658          0.71181        0.689248      0.000579834     8.30309e-05       -0.0422204       0.0151198
281756                  0.141086       0.0922368      0.000323772     0.000330602        -0.951079        0.233307     -5.21638e-05      0.00028935
                     0.000485785     0.000430711       -0.0111081       0.0420684      0.000346675    -0.000603289         0.712203        0.689146
                       -0.950947        0.233175      0.000455639    -0.000430771       -0.0812185        0.147044      0.000706149     8.94956e-05
                     1.60672e-05      0.00033172          0.71207        0.688979      0.000579658     8.25411e-05        -0.042242       0.0151423
281758                  0.141106       0.0922242      0.000323804     0.000330539        -0.950992        0.233652     -5.21137e-05     0.000289417
                     0.000485863     0.000430521        -0.011098       0.0421009      0.000346409    -0.000603444         0.712462        0.688876
                        -0.95086         0.23352      0.000455379    -0.000430949       -0.0811358        0.147101       0.00070605     8.90446e-05
                     1.62342e-05     0.000331781         0.712329         0.68871      0.000579488      8.2049e-05       -0.0422636       0.0151648
281760                  0.141127       0.0922116      0.000323839     0.000330477        -0.950905        0.233997     -5.20633e-05     0.000289484
                     0.000485941     0.000430331       -0.0110879       0.0421333      0.000346143    -0.000603599         0.712721        0.688607
                       -0.950773        0.233865      0.000455121    -0.000431125       -0.0810531        0.147158      0.000705951     8.85941e-05
                     1.64013e-05     0.000331842         0.712588        0.688441      0.000579319     8.15562e-05       -0.0422851       0.0151874
281762                  0.141147       0.0921989      0.000323875     0.000330415        -0.950817        0.234342     -5.20128e-05      0.00028955
                      0.00048602      0.00043014       -0.0110778       0.0421657      0.000345876    -0.000603754          0.71298        0.688338
                       -0.950685         0.23421      0.000454864    -0.000431301       -0.0809703        0.147215      0.000705852     8.81439e-05
