! TOUCHSTONE file generated by CST MICROWAVE STUDIO
! Date and time: Wed Oct 15 17:34:14 2025
! Project name: Teste_Macro_Metasurface_Nanopilar.cst
! Parameters = {H=600; L_x=180; L_y=155; Lambda=1064; Max_L=200; Min_L=70; PathPara=1; Phi=0; Step_L=10; Theta=0; p=520; phaseX=180; phaseY=0}
! Header version: 2018
! Port assignment regex: !\s*Touchstone port\s*([0-9]+)\s*=\s*(CST MWS port|CST DS port)\s*([0-9]+|Zmin|Zmax)\s*\(\"(.*)\"\)(\s*mode\s*([0-9]+))?.*
! Touchstone port assignment:
! Touchstone port 1 = CST MWS port Zmax ("") mode 1
! Touchstone port 2 = CST MWS port Zmax ("") mode 2
! Touchstone port 3 = CST MWS port Zmin ("") mode 1
! Touchstone port 4 = CST MWS port Zmin ("") mode 2
! S-Parameters are not renormalized. Each port impedance will be approximated by the real part at minimum frequency. The values are described via the [Reference] keyword.
! Default impedance is overridden by [Reference]
[Version] 2.0
# GHz S RI R 376.73
[Number of Ports] 4
[Reference]
376.73 376.73 259.888 259.888 
[Number of Frequencies] 51
[Network Data]
281700                  0.172064       0.0256261      -2.3028e-05    -9.66932e-05         0.640004       -0.743561     -0.000167085     7.74303e-05
                      0.00010116    -0.000126547         0.193862       0.0614752      9.42052e-06    -0.000144686         0.414199       -0.883547
                        0.639826       -0.743282     -4.47726e-05    -0.000174516        0.0504748         0.16344     -4.71614e-05      -4.019e-05
                    -0.000295304     4.30792e-05         0.413913       -0.883546      -5.8924e-05    -9.84646e-05         0.169904        0.106994
281702                  0.172066       0.0256346     -2.42594e-05     -9.7603e-05         0.639785       -0.743754     -0.000166864     7.48343e-05
                     9.87157e-05    -0.000127026         0.193874        0.061483      1.61801e-05    -0.000141928         0.413942       -0.883667
                        0.639609       -0.743472     -4.48691e-05    -0.000178061        0.0505807        0.163411     -4.79753e-05    -4.01917e-05
                    -0.000296048     4.03754e-05         0.413663       -0.883669     -9.21319e-05     -8.9744e-05         0.169979        0.106901
281704                  0.172068        0.025643     -2.54279e-05    -9.84551e-05         0.639566       -0.743947     -0.000166332     7.24113e-05
                      9.5999e-05    -0.000127137         0.193885       0.0614908      2.51496e-05    -0.000143436         0.413685       -0.883787
                        0.639392       -0.743661     -4.48831e-05    -0.000181447        0.0506866        0.163382     -4.87785e-05    -4.01343e-05
                    -0.000296297     3.66606e-05         0.413415       -0.883792     -0.000117682     -6.2513e-05         0.170055        0.106808
281706                   0.17207       0.0256515     -2.65031e-05    -9.92227e-05         0.639347       -0.744139     -0.000165531     7.02108e-05
                     9.31395e-05    -0.000126712         0.193897       0.0614988      3.23263e-05    -0.000150386         0.413429       -0.883906
                        0.639175       -0.743851     -4.47963e-05    -0.000184559        0.0507924        0.163353     -4.95615e-05    -4.00147e-05
                    -0.000295364     3.20725e-05         0.413168       -0.883913     -0.000124163    -2.84698e-05          0.17013        0.106715
281708                  0.172072       0.0256601      -2.7445e-05    -9.98718e-05         0.639127       -0.744331     -0.000164511     6.82701e-05
                     9.03841e-05    -0.000125654         0.193909       0.0615068      3.44531e-05    -0.000159605         0.413172       -0.884026
                        0.638958        -0.74404     -4.45961e-05     -0.00018724        0.0508981        0.163324     -5.03137e-05     -3.9831e-05
                    -0.000292649     2.73379e-05         0.412922       -0.884032     -0.000115654    -1.57941e-06         0.170205        0.106622
281710                  0.172074       0.0256688     -2.82002e-05    -0.000100361         0.638907       -0.744523     -0.000163325     6.66132e-05
                     8.80325e-05    -0.000124029         0.193921       0.0615148       3.2449e-05     -0.00016736         0.412916       -0.884145
                         0.63874       -0.744228     -4.42839e-05    -0.000189294        0.0510038        0.163295      -5.1023e-05    -3.95829e-05
                    -0.000288234     2.35872e-05         0.412677       -0.884146     -0.000101911     1.48185e-05          0.17028        0.106529
281712                  0.172076       0.0256776     -2.86971e-05    -0.000100639         0.638686       -0.744714     -0.000162031     6.52505e-05
                      8.6302e-05    -0.000122081         0.193933        0.061523      2.87254e-05     -0.00017261         0.412659       -0.884263
                        0.638522       -0.744416     -4.38896e-05    -0.000190479        0.0511094        0.163265     -5.16766e-05    -3.92722e-05
                    -0.000283025     2.15753e-05          0.41243       -0.884253     -8.85705e-05     2.35095e-05         0.170354        0.106435
281714                  0.172078       0.0256865     -2.88393e-05    -0.000100651         0.638465       -0.744904     -0.000160681     6.41799e-05
                     8.52258e-05     -0.00012012         0.193944       0.0615312       2.4767e-05    -0.000175882         0.412403       -0.884381
                        0.638305       -0.744604     -4.34902e-05     -0.00019051        0.0512149        0.163236     -5.22611e-05    -3.89033e-05
                    -0.000278071     2.12019e-05         0.412176       -0.884355     -7.73686e-05     2.76565e-05         0.170429        0.106342
281716                   0.17208       0.0256956     -2.84976e-05    -0.000100336         0.638244       -0.745094     -0.000159322     6.33893e-05
                      8.4672e-05    -0.000118392         0.193956       0.0615395      2.11231e-05    -0.000177893         0.412147       -0.884499
                        0.638087       -0.744791     -4.32333e-05    -0.000189085        0.0513203        0.163207     -5.27631e-05    -3.84833e-05
                    -0.000273932     2.18616e-05         0.411909       -0.884458     -6.83885e-05     2.93264e-05         0.170504        0.106248
281718                  0.172082       0.0257046     -2.74988e-05     -9.9641e-05         0.638023       -0.745283     -0.000157996     6.28587e-05
                     8.44442e-05    -0.000117009         0.193968        0.061548      1.79071e-05    -0.000179151          0.41189       -0.884616
                        0.637869       -0.744978     -4.33551e-05    -0.000185926        0.0514257        0.163178     -5.31702e-05    -3.80222e-05
                    -0.000270677     2.29701e-05         0.411636       -0.884572     -6.12583e-05     2.96841e-05         0.170578        0.106153
281720                  0.172085       0.0257138     -2.56172e-05    -9.85391e-05         0.637801       -0.745471     -0.000156735     6.25627e-05
                      8.4368e-05    -0.000115975         0.193979       0.0615565      1.50845e-05    -0.000179967         0.411634       -0.884733
                        0.637651       -0.745165     -4.41805e-05     -0.00018084        0.0515311        0.163149     -5.34715e-05    -3.75328e-05
                    -0.000268145     2.41641e-05         0.411365       -0.884694     -5.55667e-05     2.93596e-05         0.170652        0.106059
281722                  0.172087        0.025723     -2.25698e-05    -9.70608e-05          0.63758       -0.745659     -0.000155565     6.24728e-05
                     8.43239e-05    -0.000115239         0.193991       0.0615651      1.25857e-05     -0.00018052         0.411377        -0.88485
                        0.637433       -0.745351     -4.60865e-05    -0.000173805        0.0516364        0.163119     -5.36584e-05    -3.70306e-05
                    -0.000266138     2.52701e-05         0.411099       -0.884821      -5.0971e-05     2.86931e-05         0.170727        0.105964
281724                  0.172088       0.0257323     -1.80311e-05    -9.53444e-05         0.637359       -0.745847     -0.000154504     6.25595e-05
                     8.42447e-05    -0.000114734         0.194002       0.0615738       1.0343e-05    -0.000180919         0.411121       -0.884966
                        0.637216       -0.745537     -4.94178e-05    -0.000165025        0.0517416         0.16309     -5.37257e-05    -3.65329e-05
                    -0.000264494     2.62253e-05         0.410836       -0.884948     -4.72075e-05     2.78705e-05         0.170801        0.105869
281726                   0.17209       0.0257416     -1.16858e-05    -9.36949e-05         0.637138       -0.746034     -0.000153563     6.27935e-05
                     8.40991e-05    -0.000114399         0.194013       0.0615826      8.29985e-06    -0.000181227         0.410864       -0.885082
                        0.636998       -0.745723     -5.43732e-05    -0.000154937        0.0518468         0.16306     -5.36719e-05    -3.60582e-05
                    -0.000263095     2.70203e-05         0.410577       -0.885075     -4.40782e-05     2.69959e-05         0.170875        0.105774
281728                  0.172092       0.0257509     -3.34037e-06    -9.26242e-05         0.636917        -0.74622     -0.000152749     6.31465e-05
                     8.38768e-05    -0.000114186         0.194025       0.0615915      6.41123e-06    -0.000181484         0.410607       -0.885198
                        0.636781       -0.745908     -6.09083e-05     -0.00014414        0.0519519        0.163031     -5.34997e-05    -3.56252e-05
                    -0.000261863     2.76675e-05         0.410319       -0.885201     -4.14336e-05     2.61299e-05          0.17095        0.105679
281730                  0.172094       0.0257603      6.90953e-06    -9.28109e-05         0.636696       -0.746407     -0.000152063     6.35922e-05
                     8.35789e-05    -0.000114059         0.194036       0.0616005      4.64155e-06    -0.000181719          0.41035       -0.885313
                        0.636564       -0.746094     -6.87126e-05    -0.000133258         0.052057        0.163001     -5.32158e-05    -3.52512e-05
                    -0.000260745     2.81864e-05         0.410062       -0.885326     -3.91598e-05      2.5311e-05         0.171024        0.105583
281732                  0.172096       0.0257696      1.85319e-05    -9.49178e-05         0.636476       -0.746593     -0.000151502     6.41062e-05
                     8.32113e-05    -0.000113994         0.194047       0.0616095      2.96249e-06    -0.000181953         0.410093       -0.885428
                        0.636346       -0.746279     -7.72768e-05    -0.000122815        0.0521621        0.162972     -5.28312e-05    -3.49519e-05
                    -0.000259704     2.85971e-05         0.409805       -0.885451     -3.71678e-05     2.45685e-05         0.171099        0.105487
281734                  0.172097       0.0257789       3.0574e-05    -9.92911e-05         0.636255       -0.746778     -0.000151064     6.46658e-05
                     8.27815e-05    -0.000113974         0.194058       0.0616187      1.35104e-06    -0.000182204         0.409835       -0.885543
                        0.636129       -0.746464     -8.60188e-05    -0.000113164        0.0522671        0.162942     -5.23601e-05    -3.47396e-05
                    -0.000258719     2.89176e-05         0.409549       -0.885574     -3.53866e-05     2.39314e-05         0.171174         0.10539
281736                  0.172099       0.0257882      4.19309e-05    -0.000105719         0.636035       -0.746964     -0.000150741     6.52503e-05
                     8.22973e-05    -0.000113989         0.194068       0.0616279     -2.11763e-07    -0.000182495         0.409577       -0.885657
                        0.635912       -0.746649      -9.4407e-05    -0.000104487        0.0523721        0.162913     -5.18196e-05    -3.46229e-05
                    -0.000257774     2.91637e-05         0.409292       -0.885697     -3.37593e-05     2.34366e-05         0.171249        0.105294
281738                    0.1721       0.0257975      5.17376e-05    -0.000113465         0.635815       -0.747149     -0.000150525     6.58398e-05
                     8.17655e-05    -0.000114034         0.194079       0.0616371     -1.74123e-06    -0.000182856          0.40932       -0.885772
                        0.635695       -0.746834     -0.000102039     -9.6835e-05         0.052477        0.162883     -5.12287e-05     -3.4606e-05
                    -0.000256858     2.93484e-05         0.409035        -0.88582     -3.22423e-05     2.31401e-05         0.171325        0.105198
281740                  0.172102       0.0258068       5.9615e-05    -0.000121566         0.635595       -0.747334     -0.000150408      6.6415e-05
                     8.11925e-05     -0.00011411          0.19409       0.0616463     -3.24713e-06    -0.000183334         0.409062       -0.885886
                        0.635478       -0.747019     -0.000108668    -9.01838e-05         0.052582        0.162853     -5.06076e-05    -3.46883e-05
                    -0.000255963     2.94827e-05         0.408778       -0.885942     -3.08136e-05      2.3133e-05         0.171401        0.105102
281742                  0.172103       0.0258159      6.56376e-05    -0.000129177         0.635374       -0.747519      -0.00015038     6.69563e-05
                     8.05846e-05    -0.000114225           0.1941       0.0616555     -4.72509e-06    -0.000184007         0.408803          -0.886
                        0.635261       -0.747203     -0.000114189    -8.44754e-05        0.0526869        0.162823     -4.99774e-05    -3.48646e-05
                    -0.000255087      2.9576e-05         0.408521       -0.886063     -2.95017e-05     2.35666e-05         0.171477        0.105006
281744                  0.172104       0.0258249      7.01312e-05    -0.000135749         0.635155       -0.747704      -0.00015043     6.74426e-05
                       7.995e-05    -0.000114393         0.194111       0.0616647     -6.12448e-06    -0.000185024         0.408545       -0.886114
                        0.635044       -0.747388     -0.000118606    -7.96404e-05        0.0527919        0.162794     -4.93598e-05    -3.51247e-05
                    -0.000254225     2.96362e-05         0.408263       -0.886184     -2.84718e-05     2.46771e-05         0.171553         0.10491
281746                  0.172106       0.0258338      7.34746e-05    -0.000141033         0.634935       -0.747889     -0.000150551     6.78495e-05
                     7.93041e-05    -0.000114642         0.194121       0.0616739     -7.22554e-06    -0.000186656         0.408287       -0.886228
                        0.634826       -0.747573     -0.000121996    -7.56094e-05        0.0528971        0.162764     -4.87773e-05    -3.54531e-05
                    -0.000253376     2.96705e-05         0.408004       -0.886304     -2.82471e-05      2.6723e-05         0.171629        0.104815
281748                  0.172107       0.0258426      7.59879e-05    -0.000145001         0.634715       -0.748074     -0.000150731     6.81472e-05
                      7.8686e-05    -0.000115024         0.194132       0.0616829     -7.18189e-06    -0.000189215         0.408028       -0.886343
                        0.634609       -0.747757     -0.000124479    -7.23151e-05        0.0530029        0.162735     -4.82543e-05    -3.58282e-05
                    -0.000252541     2.96858e-05         0.407745       -0.886423      -3.0016e-05      2.9442e-05         0.171705        0.104721
281750                  0.172109       0.0258513      7.78992e-05     -0.00014775         0.634495       -0.748258     -0.000150964     6.82971e-05
                     7.82078e-05    -0.000115613         0.194142       0.0616918     -3.81905e-06    -0.000191366          0.40777       -0.886457
                        0.634391       -0.747942      -0.00012619    -6.96927e-05        0.0531007        0.162704     -4.78188e-05    -3.62215e-05
                     -0.00025172     2.96894e-05         0.407485       -0.886541     -3.47479e-05      3.0671e-05         0.171781        0.104626
281752                  0.172111       0.0258599      7.93547e-05    -0.000149436         0.634275       -0.748442     -0.000151248     6.82467e-05
                     7.81817e-05    -0.000116425         0.194152       0.0617006      5.92502e-07    -0.000187645         0.407511       -0.886571
                        0.634173       -0.748127     -0.000127267    -6.76791e-05        0.0532087        0.162673     -4.75059e-05     -3.6594e-05
                    -0.000250919     2.96901e-05         0.407225       -0.886657     -3.98889e-05     2.77483e-05         0.171856        0.104533
281754                  0.172112       0.0258687      8.04416e-05    -0.000150233         0.634055       -0.748627     -0.000151591     6.79212e-05
                     7.91186e-05    -0.000116906         0.194163       0.0617093     -9.16436e-07    -0.000182383         0.407253       -0.886686
                        0.633955       -0.748311     -0.000127839    -6.62134e-05         0.053314        0.162643     -4.73636e-05    -3.68912e-05
                     -0.00025015     2.97002e-05         0.406965       -0.886772     -4.19088e-05     2.26592e-05         0.171931        0.104439
281756                  0.172114       0.0258777      8.12107e-05    -0.000150311         0.633835       -0.748811     -0.000152025     6.72115e-05
                     8.02507e-05    -0.000115748         0.194173       0.0617178     -4.16011e-06    -0.000180227         0.406995       -0.886801
                        0.633737       -0.748496     -0.000128019    -6.52369e-05        0.0534189        0.162613     -4.74639e-05    -3.70333e-05
                    -0.000249441     2.97397e-05         0.406706       -0.886884     -4.14653e-05     1.83933e-05         0.172006        0.104345
281758                  0.172116       0.0258868       8.1693e-05    -0.000149822         0.633615       -0.748995     -0.000152637     6.59576e-05
                     7.98021e-05    -0.000113922         0.194184       0.0617261     -6.85434e-06    -0.000179547         0.406737       -0.886916
                        0.633519       -0.748681     -0.000127905    -6.46938e-05        0.0535236        0.162582     -4.79248e-05    -3.68945e-05
                    -0.000248883     2.98399e-05          0.40645       -0.886994     -4.02175e-05     1.54335e-05         0.172079        0.104252
281760                  0.172118       0.0258959      8.19108e-05    -0.000148904         0.633395       -0.749179     -0.000153639     6.39346e-05
                     7.85441e-05    -0.000112876         0.194195       0.0617342      -8.9985e-06    -0.000179344          0.40648       -0.887033
                        0.633301       -0.748866     -0.000127579    -6.45325e-05        0.0536283        0.162552     -4.89593e-05    -3.62602e-05
                     -0.00024884     2.99454e-05         0.406196       -0.887104     -3.89082e-05     1.33614e-05         0.172153        0.104158
281762                   0.17212       0.0259052      8.18833e-05     -0.00014767         0.633175       -0.749363     -0.000155527     6.08867e-05
                     7.73066e-05      -0.0001124         0.194206       0.0617422     -1.07932e-05    -0.000179293         0.406225       -0.887153
                        0.633082       -0.749051     -0.000127105    -6.47052e-05         0.053733        0.162522     -5.09979e-05    -3.47229e-05
