! TOUCHSTONE file generated by CST MICROWAVE STUDIO
! Date and time: Wed Oct 15 17:29:18 2025
! Project name: Teste_Macro_Metasurface_Nanopilar.cst
! Parameters = {H=600; L_x=95; L_y=135; Lambda=1064; Max_L=200; Min_L=70; PathPara=1; Phi=0; Step_L=10; Theta=0; p=520; phaseX=180; phaseY=0}
! Header version: 2018
! Port assignment regex: !\s*Touchstone port\s*([0-9]+)\s*=\s*(CST MWS port|CST DS port)\s*([0-9]+|Zmin|Zmax)\s*\(\"(.*)\"\)(\s*mode\s*([0-9]+))?.*
! Touchstone port assignment:
! Touchstone port 1 = CST MWS port Zmax ("") mode 1
! Touchstone port 2 = CST MWS port Zmax ("") mode 2
! Touchstone port 3 = CST MWS port Zmin ("") mode 1
! Touchstone port 4 = CST MWS port Zmin ("") mode 2
! S-Parameters are not renormalized. Each port impedance will be approximated by the real part at minimum frequency. The values are described via the [Reference] keyword.
! Default impedance is overridden by [Reference]
[Version] 2.0
# GHz S RI R 376.73
[Number of Ports] 4
[Reference]
376.73 376.73 259.888 259.888 
[Number of Frequencies] 51
[Network Data]
281700               -0.00853954       -0.058395     -9.74195e-05    -0.000296334         0.236734         0.96026     -0.000391889     0.000329096
                    -3.44926e-05    -0.000384944      -0.00749008       0.0471267      0.000513811    -0.000128803        -0.757657       -0.646468
                        0.237603        0.959295       0.00044754    -0.000146656        0.0170503       0.0573625     -0.000293438     -0.00013618
                    -0.000348463     0.000324185        -0.757486       -0.646094     -0.000372871    -0.000289329       -0.0451141       0.0158167
281702               -0.00855838      -0.0583611     -9.75582e-05    -0.000296302         0.237122        0.960166     -0.000391851     0.000329289
                    -3.43836e-05    -0.000384879      -0.00748798       0.0471421      0.000513636    -0.000128802        -0.757846       -0.646245
                        0.237992        0.959203      0.000447514    -0.000146782        0.0170639       0.0573271     -0.000293666     -0.00013614
                    -0.000348362     0.000324418        -0.757675       -0.645872     -0.000372854     -0.00028959       -0.0451205       0.0158436
281704               -0.00857721      -0.0583272     -9.76967e-05    -0.000296269          0.23751        0.960072     -0.000391812     0.000329482
                    -3.42744e-05    -0.000384813      -0.00748588       0.0471575      0.000513461    -0.000128801        -0.758034       -0.646023
                        0.238382        0.959111      0.000447488    -0.000146908        0.0170774       0.0572917     -0.000293895    -0.000136099
                    -0.000348262      0.00032465        -0.757863       -0.645649     -0.000372836    -0.000289851       -0.0451269       0.0158704
281706               -0.00859603      -0.0582932      -9.7835e-05    -0.000296236         0.237898        0.959978     -0.000391773     0.000329675
                    -3.41649e-05    -0.000384744      -0.00748378       0.0471729      0.000513285      -0.0001288        -0.758222       -0.645801
                        0.238771        0.959019      0.000447463    -0.000147034        0.0170909       0.0572563     -0.000294123    -0.000136059
                    -0.000348164     0.000324882        -0.758051       -0.645427     -0.000372819    -0.000290112       -0.0451333       0.0158973
281708               -0.00861484      -0.0582593     -9.79731e-05    -0.000296203         0.238286        0.959883     -0.000391734     0.000329868
                    -3.40553e-05    -0.000384674      -0.00748167       0.0471883       0.00051311    -0.000128798         -0.75841       -0.645579
                         0.23916        0.958926      0.000447437     -0.00014716        0.0171043        0.057221     -0.000294352    -0.000136019
                    -0.000348066     0.000325113        -0.758239       -0.645205     -0.000372801    -0.000290374       -0.0451396       0.0159242
281710               -0.00863363      -0.0582254      -9.8111e-05     -0.00029617         0.238674        0.959789     -0.000391694     0.000330061
                    -3.39455e-05    -0.000384603      -0.00747956       0.0472037      0.000512935    -0.000128797        -0.758598       -0.645356
                        0.239549        0.958834      0.000447412    -0.000147287        0.0171177       0.0571856     -0.000294581     -0.00013598
                    -0.000347969     0.000325344        -0.758427       -0.644983     -0.000372784    -0.000290636        -0.045146       0.0159511
281712               -0.00865242      -0.0581914     -9.82488e-05    -0.000296137         0.239062        0.959694     -0.000391654     0.000330255
                    -3.38354e-05    -0.000384529      -0.00747745       0.0472191       0.00051276    -0.000128795        -0.758786       -0.645134
                        0.239939        0.958741      0.000447387    -0.000147413         0.017131       0.0571502     -0.000294809    -0.000135942
                    -0.000347873     0.000325574        -0.758615        -0.64476     -0.000372766    -0.000290898       -0.0451523        0.015978
281714               -0.00867119      -0.0581575     -9.83863e-05    -0.000296103          0.23945        0.959599     -0.000391614     0.000330449
                    -3.37253e-05    -0.000384455      -0.00747533       0.0472346      0.000512585    -0.000128793        -0.758974       -0.644911
                        0.240328        0.958648      0.000447362    -0.000147539        0.0171444       0.0571149     -0.000295037    -0.000135907
                    -0.000347778     0.000325804        -0.758803       -0.644538     -0.000372749    -0.000291161       -0.0451587       0.0160049
281716               -0.00868996      -0.0581235     -9.85237e-05     -0.00029607         0.239838        0.959503     -0.000391574     0.000330644
                     -3.3615e-05    -0.000384378      -0.00747322         0.04725       0.00051241    -0.000128791        -0.759162       -0.644688
                        0.240717        0.958556      0.000447337    -0.000147665        0.0171576       0.0570795      -0.00029526    -0.000135877
                    -0.000347684     0.000326033        -0.758991       -0.644316     -0.000372731    -0.000291423        -0.045165       0.0160319
281718               -0.00870871      -0.0580896     -9.86609e-05    -0.000296037         0.240226        0.959408     -0.000391533      0.00033084
                    -3.35045e-05      -0.0003843      -0.00747109       0.0472654      0.000512235    -0.000128789         -0.75935       -0.644466
                        0.241106        0.958463      0.000447313    -0.000147791        0.0171709       0.0570442     -0.000295469    -0.000135857
                    -0.000347591     0.000326262        -0.759179       -0.644093     -0.000372714    -0.000291686       -0.0451713       0.0160588
281720               -0.00872745      -0.0580556     -9.87979e-05    -0.000296003         0.240613        0.959313     -0.000391492     0.000331038
                     -3.3394e-05    -0.000384221      -0.00746897       0.0472808       0.00051206    -0.000128787        -0.759537       -0.644243
                        0.241495        0.958369      0.000447288    -0.000147916        0.0171841       0.0570089     -0.000295615    -0.000135811
                    -0.000347499      0.00032649        -0.759367       -0.643871     -0.000372696    -0.000291949       -0.0451775       0.0160858
281722               -0.00874617      -0.0580216     -9.89348e-05    -0.000295969         0.241001        0.959217     -0.000391452     0.000331238
                    -3.32833e-05     -0.00038414      -0.00746684       0.0472962      0.000511885    -0.000128785        -0.759725        -0.64402
                        0.241884        0.958276      0.000447264    -0.000148042        0.0171972       0.0569735     -0.000295854    -0.000135649
                    -0.000347408     0.000326718        -0.759554       -0.643648     -0.000372679    -0.000292212       -0.0451838       0.0161127
281724               -0.00876489      -0.0579877     -9.90716e-05    -0.000295936         0.241389        0.959121     -0.000391414     0.000331442
                    -3.31726e-05    -0.000384057      -0.00746472       0.0473116       0.00051171    -0.000128782        -0.759913       -0.643797
                        0.242272        0.958183       0.00044724    -0.000148168        0.0172104       0.0569382     -0.000296143    -0.000135599
                    -0.000347318     0.000326945        -0.759742       -0.643425     -0.000372662    -0.000292476       -0.0451901       0.0161397
281726                -0.0087836      -0.0579537     -9.92081e-05    -0.000295902         0.241776        0.959025     -0.000391385      0.00033165
                    -3.30618e-05    -0.000383973      -0.00746258       0.0473271      0.000511535    -0.000128779          -0.7601       -0.643575
                        0.242661        0.958089      0.000447215    -0.000148294        0.0172235       0.0569029     -0.000296395    -0.000135566
                    -0.000347228     0.000327172        -0.759929       -0.643202     -0.000372645    -0.000292739       -0.0451963       0.0161667
281728               -0.00880229      -0.0579197     -9.93445e-05    -0.000295868         0.242164        0.958929     -0.000391374      0.00033185
                     -3.2951e-05    -0.000383887      -0.00746045       0.0473425       0.00051136    -0.000128777        -0.760288       -0.643352
                         0.24305        0.957995      0.000447192     -0.00014842        0.0172365       0.0568676     -0.000296635    -0.000135529
                     -0.00034714     0.000327398        -0.760117        -0.64298     -0.000372627    -0.000293003       -0.0452025       0.0161937
281730               -0.00882097      -0.0578857     -9.94808e-05    -0.000295834         0.242551        0.958833     -0.000391359     0.000332022
                    -3.28402e-05      -0.0003838      -0.00745831       0.0473579      0.000511184    -0.000128774        -0.760475       -0.643129
                        0.243439        0.957901      0.000447168    -0.000148545        0.0172495       0.0568323      -0.00029687     -0.00013549
                    -0.000347052     0.000327623        -0.760304       -0.642757      -0.00037261    -0.000293267       -0.0452087       0.0162207
281732               -0.00883964      -0.0578517     -9.96169e-05      -0.0002958         0.242939        0.958736      -0.00039132      0.00033219
                    -3.27294e-05    -0.000383711      -0.00745617       0.0473733      0.000511009     -0.00012877        -0.760662       -0.642905
                        0.243827        0.957807      0.000447144    -0.000148671        0.0172625        0.056797     -0.000297105    -0.000135448
                    -0.000346966     0.000327848        -0.760492       -0.642534     -0.000372593    -0.000293531       -0.0452149       0.0162477
281734                -0.0088583      -0.0578177     -9.97529e-05    -0.000295765         0.243326         0.95864     -0.000391271     0.000332369
                    -3.26187e-05    -0.000383621      -0.00745403       0.0473887      0.000510834    -0.000128767         -0.76085       -0.642682
                        0.244216        0.957713      0.000447121    -0.000148796        0.0172754       0.0567617     -0.000297338    -0.000135405
                     -0.00034688     0.000328072        -0.760679       -0.642311     -0.000372576    -0.000293796       -0.0452211       0.0162748
281736               -0.00887695      -0.0577837     -9.98887e-05    -0.000295731         0.243714        0.958543     -0.000391223     0.000332556
                    -3.25082e-05    -0.000383529      -0.00745188       0.0474042      0.000510658    -0.000128764        -0.761037       -0.642459
                        0.244605        0.957619      0.000447097    -0.000148922        0.0172883       0.0567264     -0.000297571    -0.000135361
                    -0.000346794     0.000328296        -0.760866       -0.642088     -0.000372558     -0.00029406       -0.0452272       0.0163018
281738               -0.00889559      -0.0577497     -0.000100024    -0.000295696         0.244101        0.958446     -0.000391176     0.000332747
                    -3.23981e-05    -0.000383436      -0.00744973       0.0474196      0.000510483    -0.000128761        -0.761224       -0.642236
                        0.244993        0.957524      0.000447074    -0.000149047        0.0173012       0.0566911     -0.000297804    -0.000135316
                    -0.000346709     0.000328518        -0.761053       -0.641865     -0.000372541    -0.000294325       -0.0452334       0.0163289
281740               -0.00891421      -0.0577157      -0.00010016    -0.000295662         0.244488        0.958349     -0.000391131     0.000332939
                    -3.22885e-05    -0.000383341      -0.00744758        0.047435      0.000510307    -0.000128757        -0.761411       -0.642013
                        0.245382        0.957429      0.000447051    -0.000149173         0.017314       0.0566559     -0.000298037    -0.000135271
                    -0.000346624     0.000328738        -0.761241       -0.641642     -0.000372524     -0.00029459       -0.0452395       0.0163559
281742               -0.00893282      -0.0576817     -0.000100295    -0.000295627         0.244876        0.958252     -0.000391087     0.000333131
                    -3.21804e-05    -0.000383244      -0.00744542       0.0474504      0.000510132    -0.000128754        -0.761598       -0.641789
                         0.24577        0.957335      0.000447029    -0.000149298        0.0173268       0.0566206     -0.000298271    -0.000135225
                    -0.000346538     0.000328956        -0.761428       -0.641418     -0.000372507    -0.000294855       -0.0452456        0.016383
281744               -0.00895141      -0.0576477      -0.00010043    -0.000295592         0.245263        0.958155     -0.000391043     0.000333324
                    -3.20762e-05    -0.000383146      -0.00744327       0.0474658      0.000509956     -0.00012875        -0.761785       -0.641566
                        0.246158         0.95724      0.000447006    -0.000149423        0.0173396       0.0565853     -0.000298504    -0.000135179
                    -0.000346447     0.000329166        -0.761615       -0.641195      -0.00037249     -0.00029512       -0.0452517       0.0164101
281746               -0.00896996      -0.0576137     -0.000100565    -0.000295558          0.24565        0.958057        -0.000391     0.000333517
                    -3.19967e-05    -0.000383042      -0.00744111       0.0474813       0.00050978    -0.000128747        -0.761972       -0.641342
                        0.246547        0.957144      0.000446984    -0.000149549        0.0173523       0.0565501     -0.000298737    -0.000135132
                    -0.000346315     0.000329315        -0.761801       -0.640972     -0.000372472    -0.000295385       -0.0452578       0.0164372
281748               -0.00898866      -0.0575796     -0.000100699    -0.000295523         0.246037        0.957959     -0.000390958      0.00033371
                     -3.1766e-05    -0.000382944      -0.00743894       0.0474967      0.000509604    -0.000128743        -0.762159       -0.641119
                        0.246935         0.95705      0.000446962    -0.000149674        0.0173649       0.0565148     -0.000298971    -0.000135085
                    -0.000346389     0.000329705        -0.761988       -0.640748     -0.000372455     -0.00029565       -0.0452639       0.0164643
281750               -0.00900719      -0.0575456     -0.000100833    -0.000295488         0.246424        0.957862     -0.000390915     0.000333904
                    -3.17033e-05    -0.000382846      -0.00743678       0.0475121      0.000509428    -0.000128739        -0.762346       -0.640895
                        0.247323        0.956954      0.000446941      -0.0001498        0.0173776       0.0564796     -0.000299205    -0.000135038
                    -0.000346263     0.000329884        -0.762175       -0.640525     -0.000372438    -0.000295916       -0.0452699       0.0164914
281752               -0.00902574      -0.0575115     -0.000100965    -0.000295453         0.246811        0.957764     -0.000390873     0.000334097
                    -3.16007e-05    -0.000382742      -0.00743461       0.0475275      0.000509252    -0.000128736        -0.762532       -0.640671
                        0.247711        0.956859      0.000446921    -0.000149926        0.0173902       0.0564444     -0.000299439     -0.00013499
                    -0.000346176     0.000330095        -0.762362       -0.640302      -0.00037242    -0.000296181       -0.0452759       0.0165185
281754               -0.00904428      -0.0574775      -0.00010109    -0.000295419         0.247198        0.957665     -0.000390831      0.00033429
                    -3.14932e-05    -0.000382637      -0.00743244       0.0475429      0.000509076    -0.000128732        -0.762719       -0.640448
                        0.248099        0.956763       0.00044691    -0.000150054        0.0174027       0.0564092     -0.000299673    -0.000134941
                    -0.000346095      0.00033031        -0.762549       -0.640078     -0.000372403    -0.000296447        -0.045282       0.0165456
281756               -0.00906281      -0.0574434     -0.000101381    -0.000295234         0.247585        0.957567     -0.000390789     0.000334484
                    -3.13842e-05    -0.000382531      -0.00743023       0.0475584        0.0005089    -0.000128728        -0.762906       -0.640224
                        0.248487        0.956667      0.000446822    -0.000150095        0.0174152       0.0563739     -0.000299907    -0.000134893
                    -0.000346018     0.000330526        -0.762735       -0.639855     -0.000372386    -0.000296713        -0.045288       0.0165728
281758               -0.00908134      -0.0574094     -0.000101394     -0.00029534         0.247972        0.957469     -0.000390747     0.000334677
                    -3.12745e-05    -0.000382423      -0.00742808       0.0475738      0.000508724    -0.000128725        -0.763092           -0.64
                        0.248875        0.956571      0.000446833    -0.000150288        0.0174277       0.0563387     -0.000300142    -0.000134844
                    -0.000345942     0.000330743        -0.762922       -0.639631     -0.000372368    -0.000296979       -0.0452939       0.0165999
281760               -0.00909985      -0.0573753     -0.000101521    -0.000295306         0.248359         0.95737     -0.000390705     0.000334871
                    -3.11645e-05    -0.000382314       -0.0074259       0.0475892      0.000508547    -0.000128721        -0.763279       -0.639776
                        0.249263        0.956475      0.000446817    -0.000150417        0.0174402       0.0563035     -0.000300377    -0.000134794
                    -0.000345868      0.00033096        -0.763108       -0.639407     -0.000372351    -0.000297245       -0.0452999       0.0166271
281762               -0.00911834      -0.0573413     -0.000101653    -0.000295271         0.248746        0.957271     -0.000390664     0.000335064
                    -3.10545e-05    -0.000382203      -0.00742372       0.0476046      0.000508371    -0.000128718        -0.763465       -0.639552
                        0.249651        0.956379      0.000446797    -0.000150543        0.0174526       0.0562683     -0.000300611    -0.000134744
