! TOUCHSTONE file generated by CST MICROWAVE STUDIO
! Date and time: Wed Oct 15 17:32:49 2025
! Project name: Teste_Macro_Metasurface_Nanopilar.cst
! Parameters = {H=600; L_x=155; L_y=155; Lambda=1064; Max_L=200; Min_L=70; PathPara=1; Phi=0; Step_L=10; Theta=0; p=520; phaseX=180; phaseY=0}
! Header version: 2018
! Port assignment regex: !\s*Touchstone port\s*([0-9]+)\s*=\s*(CST MWS port|CST DS port)\s*([0-9]+|Zmin|Zmax)\s*\(\"(.*)\"\)(\s*mode\s*([0-9]+))?.*
! Touchstone port assignment:
! Touchstone port 1 = CST MWS port Zmax ("") mode 1
! Touchstone port 2 = CST MWS port Zmax ("") mode 2
! Touchstone port 3 = CST MWS port Zmin ("") mode 1
! Touchstone port 4 = CST MWS port Zmin ("") mode 2
! S-Parameters are not renormalized. Each port impedance will be approximated by the real part at minimum frequency. The values are described via the [Reference] keyword.
! Default impedance is overridden by [Reference]
[Version] 2.0
# GHz S RI R 376.73
[Number of Ports] 4
[Reference]
376.73 376.73 259.888 259.888 
[Number of Frequencies] 51
[Network Data]
281700                  0.182089      -0.0748878     -0.000860452    -0.000293411         0.817726       -0.530017      3.41932e-05    -0.000308405
                    -0.000830428    -0.000195917         0.183014      -0.0736901     -0.000120227      -0.0002312         0.816495       -0.531697
                        0.817756       -0.530151     -0.000146644    -0.000217962        -0.140213        0.127492      0.000142172    -0.000963971
                    -8.64088e-05    -0.000449383         0.816866        -0.53185      0.000100887    -0.000810585        -0.138968        0.129495
281702                  0.182066      -0.0748375     -0.000860456    -0.000293319         0.817552       -0.530303      3.36006e-05    -0.000308349
                    -0.000830279    -0.000195569         0.182991      -0.0736405     -0.000120593     -0.00023121         0.816321       -0.531983
                        0.817583       -0.530437     -0.000147366    -0.000218537         -0.14007        0.127592      0.000142201    -0.000964292
                    -8.72151e-05    -0.000449667         0.816692       -0.532137      0.000100797     -0.00081106        -0.138824        0.129594
281704                  0.182043      -0.0747871     -0.000860452     -0.00029323         0.817378       -0.530589       3.3005e-05    -0.000308294
                     -0.00083013    -0.000195224         0.182969      -0.0735909     -0.000120958    -0.000231221         0.816146        -0.53227
                        0.817409       -0.530724     -0.000148067    -0.000219144        -0.139927        0.127692      0.000142234    -0.000964615
                    -8.80204e-05    -0.000449948         0.816519       -0.532424      0.000100707    -0.000811531         -0.13868        0.129693
281706                   0.18202      -0.0747368      -0.00086044    -0.000293146         0.817204       -0.530875      3.24064e-05     -0.00030824
                    -0.000829982    -0.000194881         0.182946      -0.0735414     -0.000121322    -0.000231232         0.815972       -0.532556
                        0.817236        -0.53101     -0.000148743    -0.000219782        -0.139785        0.127792      0.000142271    -0.000964938
                    -8.88245e-05    -0.000450227         0.816345       -0.532711      0.000100617    -0.000811999        -0.138537        0.129792
281708                  0.181998      -0.0746865     -0.000860421    -0.000293065         0.817029       -0.531161      3.18049e-05    -0.000308189
                    -0.000829833    -0.000194541         0.182923      -0.0734919     -0.000121686    -0.000231245         0.815797       -0.532842
                        0.817063       -0.531296      -0.00014939    -0.000220452        -0.139642        0.127892      0.000142311    -0.000965264
                    -8.96275e-05    -0.000450505         0.816171       -0.532998      0.000100526    -0.000812464        -0.138393        0.129891
281710                  0.181975      -0.0746363     -0.000860395    -0.000292988         0.816855       -0.531447      3.12004e-05    -0.000308138
                    -0.000829686    -0.000194203         0.182901      -0.0734425     -0.000122049    -0.000231258         0.815622       -0.533128
                        0.816889       -0.531582     -0.000150004    -0.000221152        -0.139499        0.127992      0.000142355    -0.000965591
                    -9.04293e-05     -0.00045078         0.815997       -0.533284      0.000100435    -0.000812925        -0.138249         0.12999
281712                  0.181952       -0.074586     -0.000860361    -0.000292916         0.816681       -0.531733      3.05929e-05    -0.000308089
                    -0.000829538    -0.000193867         0.182878      -0.0733931     -0.000122411    -0.000231272         0.815447       -0.533413
                        0.816715       -0.531867     -0.000150582    -0.000221883        -0.139356        0.128091      0.000142404    -0.000965919
                      -9.123e-05    -0.000451052         0.815824       -0.533571      0.000100343    -0.000813383        -0.138105        0.130088
281714                  0.181929      -0.0745358     -0.000860321    -0.000292848         0.816506       -0.532019      2.99824e-05    -0.000308041
                    -0.000829391    -0.000193534         0.182856      -0.0733437     -0.000122772    -0.000231287         0.815272       -0.533699
                        0.816542       -0.532153     -0.000151118    -0.000222644        -0.139213        0.128191      0.000142456     -0.00096625
                    -9.20294e-05    -0.000451323          0.81565       -0.533858      0.000100252    -0.000813837        -0.137962        0.130187
281716                  0.181907      -0.0744857     -0.000860274    -0.000292785         0.816332       -0.532304      2.93689e-05    -0.000307994
                    -0.000829244    -0.000193204         0.182833      -0.0732943     -0.000123133    -0.000231303         0.815097       -0.533985
                        0.816368       -0.532439     -0.000151609    -0.000223434         -0.13907         0.12829      0.000142512    -0.000966582
                    -9.28277e-05    -0.000451592         0.815476       -0.534144       0.00010016    -0.000814289        -0.137818        0.130285
281718                  0.181884      -0.0744355      -0.00086022    -0.000292727         0.816157        -0.53259      2.87524e-05    -0.000307948
                    -0.000829098    -0.000192876         0.182811       -0.073245     -0.000123492     -0.00023132         0.814922        -0.53427
                        0.816194       -0.532724      -0.00015205    -0.000224251        -0.138927        0.128389      0.000142571    -0.000966917
                    -9.36247e-05    -0.000451858         0.815302        -0.53443      0.000100067    -0.000814737        -0.137674        0.130383
281720                  0.181861      -0.0743854     -0.000860161    -0.000292674         0.815982       -0.532875      2.81329e-05    -0.000307904
                    -0.000828952    -0.000192551         0.182788      -0.0731958     -0.000123851    -0.000231337         0.814747       -0.534556
                         0.81602        -0.53301     -0.000152435    -0.000225094        -0.138784        0.128488      0.000142635    -0.000967253
                    -9.44205e-05    -0.000452122         0.815128       -0.534716      9.99744e-05    -0.000815182         -0.13753        0.130481
281722                  0.181839      -0.0743353     -0.000860096    -0.000292625         0.815807       -0.533161      2.75103e-05     -0.00030786
                    -0.000828806    -0.000192228         0.182766      -0.0731465      -0.00012421    -0.000231355         0.814571       -0.534841
                        0.815846       -0.533295     -0.000152762    -0.000225961        -0.138641        0.128587      0.000142702    -0.000967592
                     -9.5215e-05    -0.000452384         0.814953       -0.535002      9.98813e-05    -0.000815624        -0.137386        0.130579
281724                  0.181816      -0.0742852     -0.000860027    -0.000292582         0.815633       -0.533446      2.68848e-05    -0.000307818
                    -0.000828661    -0.000191908         0.182744      -0.0730973     -0.000124567    -0.000231374         0.814396       -0.535126
                        0.815672        -0.53358     -0.000153025     -0.00022685        -0.138498        0.128686      0.000142774    -0.000967933
                    -9.60083e-05    -0.000452645         0.814779       -0.535288      9.97879e-05    -0.000816062        -0.137242        0.130677
281726                  0.181794      -0.0742352     -0.000859954    -0.000292543         0.815458       -0.533731      2.62563e-05    -0.000307776
                    -0.000828516     -0.00019159         0.182721      -0.0730481     -0.000124924    -0.000231393          0.81422       -0.535411
                        0.815498       -0.533865      -0.00015322    -0.000227758        -0.138355        0.128785      0.000142849    -0.000968277
                    -9.68003e-05    -0.000452903         0.814605       -0.535573      9.96941e-05    -0.000816497        -0.137098        0.130775
281728                  0.181771      -0.0741852     -0.000859877     -0.00029251         0.815282       -0.534016      2.56248e-05    -0.000307735
                    -0.000828372    -0.000191275         0.182699      -0.0729989     -0.000125279    -0.000231414         0.814045       -0.535696
                        0.815323        -0.53415     -0.000153343    -0.000228681        -0.138212        0.128883      0.000142927    -0.000968623
                    -9.75911e-05    -0.000453158          0.81443       -0.535859         9.96e-05    -0.000816928        -0.136954        0.130872
281730                  0.181748      -0.0741352     -0.000859797     -0.00029248         0.815107       -0.534301      2.49905e-05    -0.000307695
                    -0.000828228    -0.000190963         0.182677      -0.0729498     -0.000125634    -0.000231434         0.813869       -0.535981
                        0.815149       -0.534435     -0.000153392    -0.000229616        -0.138068        0.128982      0.000143009    -0.000968972
                    -9.83805e-05    -0.000453412         0.814256       -0.536144      9.95055e-05    -0.000817355         -0.13681        0.130969
281732                  0.181726      -0.0740852     -0.000859716    -0.000292455         0.814932       -0.534586      2.43532e-05    -0.000307655
                    -0.000828084    -0.000190653         0.182655      -0.0729007     -0.000125987    -0.000231455         0.813693       -0.536266
                        0.814974        -0.53472     -0.000153362    -0.000230559        -0.137925         0.12908      0.000143095    -0.000969324
                    -9.91686e-05    -0.000453664         0.814081       -0.536428      9.94107e-05    -0.000817777        -0.136666        0.131067
281734                  0.181704      -0.0740353     -0.000859634    -0.000292435         0.814757       -0.534871      2.37131e-05    -0.000307616
                    -0.000827941    -0.000190345         0.182633      -0.0728517     -0.000126338    -0.000231475         0.813517       -0.536551
                          0.8148       -0.535005     -0.000153252    -0.000231507        -0.137782        0.129178      0.000143184    -0.000969678
                    -9.99553e-05    -0.000453914         0.813906       -0.536713      9.93156e-05    -0.000818191        -0.136522        0.131164
281736                  0.181681      -0.0739854     -0.000859553    -0.000292418         0.814581       -0.535156      2.30702e-05    -0.000307578
                    -0.000827798     -0.00019004         0.182611      -0.0728026     -0.000126686    -0.000231492         0.813341       -0.536836
                        0.814625        -0.53529     -0.000153059    -0.000232454        -0.137639        0.129276      0.000143277    -0.000970035
                    -0.000100741    -0.000454162         0.813731       -0.536997      9.92208e-05    -0.000818592        -0.136378        0.131261
281738                  0.181659      -0.0739355     -0.000859473    -0.000292404         0.814406       -0.535439      2.24246e-05     -0.00030754
                    -0.000827656    -0.000189738         0.182589      -0.0727536     -0.000127031    -0.000231503         0.813165        -0.53712
                         0.81445       -0.535574     -0.000152782    -0.000233397        -0.137496        0.129374      0.000143372    -0.000970396
                    -0.000101525    -0.000454407         0.813556       -0.537281      9.91291e-05    -0.000818962        -0.136234        0.131357
281740                  0.181636      -0.0738856     -0.000859395    -0.000292393          0.81423       -0.535724      2.17764e-05    -0.000307502
                    -0.000827514    -0.000189438         0.182567      -0.0727046     -0.000127383    -0.000231492         0.812989       -0.537405
                        0.814275       -0.535859     -0.000152422     -0.00023433        -0.137352        0.129471      0.000143471    -0.000970759
                    -0.000102307    -0.000454651         0.813381       -0.537564      9.90861e-05    -0.000819196         -0.13609        0.131454
281742                  0.181614      -0.0738358     -0.000859321    -0.000292385         0.814054       -0.536008      2.11255e-05    -0.000307464
                    -0.000827373    -0.000189141         0.182545      -0.0726556     -0.000127795    -0.000231481         0.812813       -0.537689
                          0.8141       -0.536143     -0.000151977    -0.000235249        -0.137209        0.129569      0.000143573    -0.000971126
                    -0.000103089    -0.000454892         0.813205       -0.537848      9.94316e-05    -0.000820449        -0.135946        0.131551
281744                  0.181592       -0.073786     -0.000859251    -0.000292378         0.813879       -0.536293      2.04721e-05    -0.000307426
                    -0.000827232    -0.000188846         0.182523      -0.0726067     -0.000128193    -0.000231555         0.812637       -0.537973
                        0.813925       -0.536427     -0.000151451    -0.000236149        -0.137066        0.129666      0.000143677    -0.000971496
                    -0.000103869    -0.000455132         0.813029       -0.538131      9.89004e-05    -0.000820545        -0.135801        0.131647
281746                  0.181569      -0.0737362     -0.000859186    -0.000292373         0.813703       -0.536577      1.98164e-05    -0.000307388
                    -0.000827092    -0.000188554         0.182501      -0.0725578     -0.000128539    -0.000231614         0.812461       -0.538257
                         0.81375       -0.536711     -0.000150844    -0.000237024        -0.136922        0.129763      0.000143784    -0.000971869
                    -0.000104647     -0.00045537         0.812853       -0.538414      9.87725e-05    -0.000820882        -0.135657        0.131743
281748                  0.181547      -0.0736865     -0.000859128    -0.000292368         0.813527       -0.536861      1.91583e-05     -0.00030735
                    -0.000826952    -0.000188264         0.182479      -0.0725089     -0.000128882    -0.000231655         0.812284       -0.538541
                        0.813575       -0.536995     -0.000150161    -0.000237872        -0.136779        0.129861      0.000143894    -0.000972245
                    -0.000105424    -0.000455605         0.812677       -0.538696      9.86666e-05    -0.000821262        -0.135513         0.13184
281750                  0.181525      -0.0736368     -0.000859076    -0.000292363         0.813351       -0.537145       1.8498e-05    -0.000307312
                    -0.000826812    -0.000187977         0.182457        -0.07246     -0.000129227    -0.000231689         0.812108       -0.538825
                          0.8134       -0.537279     -0.000149403    -0.000238686        -0.136636        0.129958      0.000144005    -0.000972626
                      -0.0001062    -0.000455839           0.8125       -0.538979      9.85656e-05    -0.000821654        -0.135369        0.131936
281752                  0.181503      -0.0735871     -0.000859033    -0.000292357         0.813174       -0.537429      1.78356e-05    -0.000307273
                    -0.000826673    -0.000187693         0.182435      -0.0724111     -0.000129574    -0.000231722         0.811931       -0.539109
                        0.813224       -0.537563     -0.000148577    -0.000239464        -0.136492        0.130054      0.000144119    -0.000973009
                    -0.000106974    -0.000456071         0.812324       -0.539261      9.84663e-05    -0.000822051        -0.135225        0.132031
281754                   0.18148      -0.0735374     -0.000858999     -0.00029235         0.812998       -0.537713      1.71713e-05    -0.000307234
                    -0.000826535    -0.000187411         0.182413      -0.0723623     -0.000129922    -0.000231754         0.811754       -0.539393
                        0.813049       -0.537847     -0.000147687      -0.0002402        -0.136349        0.130151      0.000144234    -0.000973397
                    -0.000107747      -0.0004563         0.812147       -0.539543      9.83677e-05    -0.000822449         -0.13508        0.132127
281756                  0.181458      -0.0734878     -0.000858974    -0.000292341         0.812822       -0.537996      1.65052e-05    -0.000307194
                    -0.000826397    -0.000187132         0.182392      -0.0723135     -0.000130271    -0.000231786         0.811578       -0.539677
                        0.812873       -0.538131      -0.00014674    -0.000240893        -0.136205        0.130248      0.000144351    -0.000973787
                    -0.000108518    -0.000456528         0.811969       -0.539824      9.82693e-05    -0.000822847        -0.134936        0.132223
281758                  0.181436      -0.0734382      -0.00085896     -0.00029233         0.812646        -0.53828      1.58374e-05    -0.000307153
                     -0.00082626    -0.000186855          0.18237      -0.0722647      -0.00013062    -0.000231819         0.811401        -0.53996
                        0.812698       -0.538414     -0.000145741    -0.000241538        -0.136062        0.130344      0.000144469    -0.000974182
                    -0.000109288    -0.000456754         0.811792       -0.540106       9.8171e-05    -0.000823244        -0.134792        0.132318
281760                  0.181414      -0.0733886     -0.000858955    -0.000292315         0.812469       -0.538563      1.51682e-05    -0.000307111
                    -0.000826124    -0.000186582         0.182348      -0.0722159     -0.000130969    -0.000231852         0.811224       -0.540244
                        0.812522       -0.538698     -0.000144698    -0.000242133        -0.135919         0.13044      0.000144588     -0.00097458
                    -0.000110056    -0.000456978         0.811614       -0.540387      9.80726e-05     -0.00082364        -0.134647        0.132413
281762                  0.181392       -0.073339     -0.000858962    -0.000292297         0.812292       -0.538847      1.44976e-05    -0.000307068
                    -0.000825988    -0.000186311         0.182327      -0.0721671     -0.000131318    -0.000231886         0.811047       -0.540527
                        0.812346       -0.538981     -0.000143616    -0.000242677        -0.135775        0.130537      0.000144707    -0.000974982
