! TOUCHSTONE file generated by CST MICROWAVE STUDIO
! Date and time: Wed Oct 15 17:33:15 2025
! Project name: Teste_Macro_Metasurface_Nanopilar.cst
! Parameters = {H=600; L_x=165; L_y=95; Lambda=1064; Max_L=200; Min_L=70; PathPara=1; Phi=0; Step_L=10; Theta=0; p=520; phaseX=180; phaseY=0}
! Header version: 2018
! Port assignment regex: !\s*Touchstone port\s*([0-9]+)\s*=\s*(CST MWS port|CST DS port)\s*([0-9]+|Zmin|Zmax)\s*\(\"(.*)\"\)(\s*mode\s*([0-9]+))?.*
! Touchstone port assignment:
! Touchstone port 1 = CST MWS port Zmax ("") mode 1
! Touchstone port 2 = CST MWS port Zmax ("") mode 2
! Touchstone port 3 = CST MWS port Zmin ("") mode 1
! Touchstone port 4 = CST MWS port Zmin ("") mode 2
! S-Parameters are not renormalized. Each port impedance will be approximated by the real part at minimum frequency. The values are described via the [Reference] keyword.
! Default impedance is overridden by [Reference]
[Version] 2.0
# GHz S RI R 376.73
[Number of Ports] 4
[Reference]
376.73 376.73 259.888 259.888 
[Number of Frequencies] 51
[Network Data]
281700                 0.0399751        0.124633     -0.000461395     6.51696e-05        -0.968739       -0.186161      -0.00017248     0.000264138
                    -0.000453675     6.46238e-05        0.0999426        0.213489     -0.000229327    -0.000253735         0.916601       -0.306862
                       -0.968741       -0.186396     -0.000193455      -0.0002344       -0.0820794        0.101632      -0.00040225     7.25908e-06
                    -0.000195034     0.000209168         0.916648       -0.305824     -0.000412987    -6.96505e-06        0.0501841        0.229207
281702                 0.0399948        0.124647     -0.000461324     6.52121e-05        -0.968797       -0.185843     -0.000172422     0.000264196
                    -0.000453629     6.46816e-05        0.0999687        0.213513     -0.000229441    -0.000253662         0.916491       -0.307167
                       -0.968799       -0.186078     -0.000193547    -0.000234321       -0.0820363        0.101692     -0.000402189     7.46391e-06
                    -0.000194985     0.000209224         0.916538       -0.306129     -0.000412943    -6.82846e-06        0.0503326        0.229209
281704                 0.0400145        0.124661     -0.000461252     6.52545e-05        -0.968855       -0.185525     -0.000172364     0.000264255
                    -0.000453583     6.47393e-05        0.0999948        0.213538     -0.000229554    -0.000253589          0.91638       -0.307472
                       -0.968857        -0.18576     -0.000193638    -0.000234241       -0.0819931        0.101751      -0.00040213     7.66583e-06
                    -0.000194936     0.000209281         0.916428       -0.306433     -0.000412899    -6.69172e-06        0.0504812         0.22921
281706                 0.0400342        0.124675      -0.00046118     6.52969e-05        -0.968913       -0.185207     -0.000172306     0.000264314
                    -0.000453538      6.4797e-05         0.100021        0.213563     -0.000229668    -0.000253515         0.916269       -0.307777
                       -0.968914       -0.185443      -0.00019373    -0.000234162       -0.0819499         0.10181     -0.000402072     7.86667e-06
                    -0.000194887     0.000209337         0.916317       -0.306737     -0.000412855    -6.55486e-06        0.0506299        0.229211
281708                 0.0400539        0.124688     -0.000461109     6.53393e-05         -0.96897       -0.184889     -0.000172248     0.000264372
                    -0.000453492     6.48547e-05         0.100047        0.213588     -0.000229781    -0.000253442         0.916158       -0.308083
                       -0.968972       -0.185125     -0.000193821    -0.000234082       -0.0819067        0.101869     -0.000402016     8.06744e-06
                    -0.000194838     0.000209393         0.916206       -0.307042     -0.000412811    -6.41787e-06        0.0507785        0.229212
281710                 0.0400736        0.124702     -0.000461037     6.53816e-05        -0.969028       -0.184571      -0.00017219     0.000264431
                    -0.000453446     6.49123e-05         0.100073        0.213613     -0.000229894    -0.000253369         0.916046       -0.308388
                        -0.96903       -0.184807     -0.000193913    -0.000234003       -0.0818635        0.101928      -0.00040196     8.26848e-06
                     -0.00019479      0.00020945         0.916096       -0.307346     -0.000412767    -6.28074e-06        0.0509272        0.229213
281712                 0.0400934        0.124716     -0.000460965     6.54239e-05        -0.969085       -0.184254     -0.000172132     0.000264489
                    -0.000453401     6.49699e-05         0.100099        0.213638     -0.000230007    -0.000253296         0.915935       -0.308693
                       -0.969087        -0.18449     -0.000194004    -0.000233924       -0.0818201        0.101988     -0.000401905     8.46984e-06
                    -0.000194741     0.000209506         0.915985       -0.307651     -0.000412724    -6.14349e-06        0.0510759        0.229214
281714                 0.0401131        0.124729     -0.000460894     6.54661e-05        -0.969143       -0.183936     -0.000172074     0.000264547
                    -0.000453355     6.50275e-05         0.100125        0.213663      -0.00023012    -0.000253223         0.915823       -0.308998
                       -0.969145       -0.184172     -0.000194095    -0.000233844       -0.0817768        0.102047      -0.00040185     8.67145e-06
                    -0.000194692     0.000209562         0.915874       -0.307955      -0.00041268    -6.00611e-06        0.0512246        0.229215
281716                 0.0401328        0.124743     -0.000460822     6.55084e-05          -0.9692       -0.183618     -0.000172016     0.000264606
                    -0.000453309     6.50851e-05         0.100151        0.213688     -0.000230233     -0.00025315         0.915712       -0.309303
                       -0.969202       -0.183854     -0.000194187    -0.000233765       -0.0817334        0.102106     -0.000401795     8.87326e-06
                    -0.000194643     0.000209619         0.915763       -0.308259     -0.000412636     -5.8686e-06        0.0513733        0.229216
281718                 0.0401526        0.124757     -0.000460751     6.55505e-05        -0.969257         -0.1833     -0.000171957     0.000264664
                    -0.000453264     6.51426e-05         0.100177        0.213713     -0.000230346    -0.000253076           0.9156       -0.309608
                       -0.969259       -0.183536     -0.000194278    -0.000233686         -0.08169        0.102165      -0.00040174     9.07519e-06
                    -0.000194594     0.000209675         0.915652       -0.308563     -0.000412592    -5.73098e-06        0.0515221        0.229217
281720                 0.0401723        0.124771     -0.000460679     6.55927e-05        -0.969314       -0.182982     -0.000171899     0.000264723
                    -0.000453218     6.52002e-05         0.100204        0.213738     -0.000230459    -0.000253003         0.915488       -0.309913
                       -0.969316       -0.183218     -0.000194369    -0.000233606       -0.0816465        0.102224     -0.000401685      9.2772e-06
                    -0.000194546     0.000209731          0.91554       -0.308867     -0.000412548    -5.59323e-06        0.0516709        0.229217
281722                 0.0401921        0.124784     -0.000460608     6.56348e-05        -0.969371       -0.182664     -0.000171841     0.000264781
                    -0.000453172     6.52577e-05          0.10023        0.213763     -0.000230571     -0.00025293         0.915377       -0.310217
                       -0.969373         -0.1829      -0.00019446    -0.000233527        -0.081603        0.102283      -0.00040163     9.47925e-06
                    -0.000194497     0.000209788         0.915429       -0.309172     -0.000412504    -5.45536e-06        0.0518197        0.229218
281724                 0.0402119        0.124798     -0.000460536     6.56769e-05        -0.969428       -0.182346     -0.000171783     0.000264839
                    -0.000453127     6.53152e-05         0.100256        0.213787     -0.000230684    -0.000252857         0.915265       -0.310522
                        -0.96943       -0.182583     -0.000194551    -0.000233448       -0.0815595        0.102342     -0.000401574     9.68131e-06
                    -0.000194448     0.000209844         0.915317       -0.309476      -0.00041246    -5.31737e-06        0.0519686        0.229218
281726                 0.0402316        0.124812     -0.000460465     6.57189e-05        -0.969484       -0.182027     -0.000171724     0.000264897
                    -0.000453081     6.53726e-05         0.100282        0.213812     -0.000230797    -0.000252783         0.915152       -0.310827
                       -0.969487       -0.182265     -0.000194642    -0.000233369       -0.0815159        0.102401     -0.000401518     9.88335e-06
                    -0.000194399       0.0002099         0.915206        -0.30978     -0.000412417    -5.17927e-06        0.0521174        0.229218
281728                 0.0402514        0.124825     -0.000460393     6.57609e-05        -0.969541       -0.181709     -0.000171666     0.000264956
                    -0.000453036     6.54301e-05         0.100308        0.213837     -0.000230909     -0.00025271          0.91504       -0.311132
                       -0.969543       -0.181947     -0.000194733     -0.00023329       -0.0814722         0.10246     -0.000401462     1.00854e-05
                    -0.000194351     0.000209957         0.915094       -0.310084     -0.000412373    -5.04105e-06        0.0522663        0.229219
281730                 0.0402712        0.124839     -0.000460322     6.58029e-05        -0.969597       -0.181391     -0.000171607     0.000265014
                     -0.00045299     6.54875e-05         0.100334        0.213862     -0.000231022    -0.000252637         0.914928       -0.311437
                         -0.9696       -0.181629     -0.000194824    -0.000233211       -0.0814286        0.102519     -0.000401406     1.02873e-05
                    -0.000194302     0.000210013         0.914982       -0.310388     -0.000412329    -4.90271e-06        0.0524152        0.229219
281732                 0.0402909        0.124853      -0.00046025     6.58448e-05        -0.969654       -0.181073     -0.000171549     0.000265072
                    -0.000452944     6.55449e-05          0.10036        0.213887     -0.000231134    -0.000252564         0.914816       -0.311741
                       -0.969656       -0.181311     -0.000194915    -0.000233132       -0.0813848        0.102578      -0.00040135     1.04892e-05
                    -0.000194253      0.00021007          0.91487       -0.310692     -0.000412285    -4.76426e-06        0.0525642        0.229219
281734                 0.0403107        0.124866     -0.000460179     6.58867e-05         -0.96971       -0.180755     -0.000171491      0.00026513
                    -0.000452899     6.56023e-05         0.100386        0.213912     -0.000231246     -0.00025249         0.914703       -0.312046
                       -0.969712       -0.180993     -0.000195006    -0.000233053       -0.0813411        0.102637     -0.000401293     1.06911e-05
                    -0.000194205     0.000210126         0.914758       -0.310996     -0.000412241    -4.62569e-06        0.0527131        0.229219
281736                 0.0403305         0.12488     -0.000460108     6.59285e-05        -0.969766       -0.180437     -0.000171432     0.000265188
                    -0.000452853     6.56597e-05         0.100413        0.213937     -0.000231359    -0.000252417          0.91459       -0.312351
                       -0.969769       -0.180675     -0.000195096    -0.000232975       -0.0812973        0.102696     -0.000401237     1.08928e-05
                    -0.000194156     0.000210182         0.914646       -0.311299     -0.000412197    -4.48701e-06        0.0528621        0.229219
281738                 0.0403503        0.124894     -0.000460036     6.59703e-05        -0.969822       -0.180118     -0.000171373     0.000265246
                    -0.000452808     6.57171e-05         0.100439        0.213962     -0.000231471    -0.000252344         0.914478       -0.312655
                       -0.969825       -0.180357     -0.000195187    -0.000232896       -0.0812534        0.102755      -0.00040118     1.10945e-05
                    -0.000194107     0.000210239         0.914534       -0.311603     -0.000412154    -4.34821e-06        0.0530111        0.229218
281740                 0.0403701        0.124907     -0.000459965     6.60121e-05        -0.969878         -0.1798     -0.000171315     0.000265304
                    -0.000452762     6.57745e-05         0.100465        0.213987     -0.000231583    -0.000252271         0.914365        -0.31296
                       -0.969881       -0.180039     -0.000195278    -0.000232817       -0.0812096        0.102814     -0.000401123     1.12961e-05
                    -0.000194059     0.000210295         0.914422       -0.311907      -0.00041211     -4.2093e-06        0.0531602        0.229218
281742                 0.0403899        0.124921     -0.000459894     6.60539e-05        -0.969934       -0.179482     -0.000171256     0.000265362
                    -0.000452717     6.58318e-05         0.100491        0.214012     -0.000231695    -0.000252197         0.914252       -0.313264
                       -0.969937        -0.17972     -0.000195368    -0.000232739       -0.0811657        0.102873     -0.000401065     1.14977e-05
                     -0.00019401     0.000210352         0.914309       -0.312211     -0.000412066    -4.07026e-06        0.0533092        0.229218
281744                 0.0404097        0.124935     -0.000459822     6.60955e-05         -0.96999       -0.179164     -0.000171198      0.00026542
                    -0.000452672     6.58892e-05         0.100517        0.214037     -0.000231807    -0.000252124         0.914139       -0.313569
                       -0.969993       -0.179402     -0.000195459     -0.00023266       -0.0811217        0.102932     -0.000401008     1.16991e-05
                    -0.000193961     0.000210409         0.914197       -0.312515     -0.000412022    -3.93109e-06        0.0534583        0.229217
281746                 0.0404295        0.124948     -0.000459751     6.61372e-05        -0.970046       -0.178845     -0.000171139     0.000265478
                    -0.000452626     6.59465e-05         0.100544        0.214062     -0.000231919    -0.000252051         0.914026       -0.313873
                       -0.970048       -0.179084     -0.000195549    -0.000232582       -0.0810777        0.102991      -0.00040095     1.19004e-05
                    -0.000193913     0.000210465         0.914084       -0.312818     -0.000411978    -3.79178e-06        0.0536074        0.229217
281748                 0.0404493        0.124962      -0.00045968     6.61788e-05        -0.970101       -0.178527      -0.00017108     0.000265536
                    -0.000452581     6.60038e-05          0.10057        0.214087     -0.000232031    -0.000251977         0.913913       -0.314177
                       -0.970104       -0.178766      -0.00019564    -0.000232504       -0.0810336         0.10305     -0.000400892     1.21017e-05
                    -0.000193864     0.000210522         0.913971       -0.313122     -0.000411934    -3.65229e-06        0.0537566        0.229216
281750                 0.0404692        0.124976     -0.000459609     6.62204e-05        -0.970157       -0.178208     -0.000171022     0.000265594
                    -0.000452535     6.60611e-05         0.100596        0.214112     -0.000232142    -0.000251904         0.913799       -0.314482
                       -0.970159       -0.178448      -0.00019573    -0.000232425       -0.0809896        0.103109     -0.000400834     1.23028e-05
                    -0.000193816     0.000210578         0.913858       -0.313425     -0.000411891    -3.51259e-06        0.0539057        0.229215
281752                  0.040489        0.124989     -0.000459537      6.6262e-05        -0.970212        -0.17789     -0.000170963     0.000265652
                     -0.00045249     6.61184e-05         0.100622        0.214137     -0.000232254    -0.000251831         0.913686       -0.314786
                       -0.970215       -0.178129      -0.00019582    -0.000232347       -0.0809454        0.103168     -0.000400776     1.25038e-05
                    -0.000193767     0.000210635         0.913745       -0.313729     -0.000411847    -3.37257e-06        0.0540549        0.229214
281754                 0.0405088        0.125003     -0.000459466     6.63035e-05        -0.970267       -0.177572     -0.000170904      0.00026571
                    -0.000452445     6.61757e-05         0.100648        0.214162     -0.000232365    -0.000251758         0.913572        -0.31509
                        -0.97027       -0.177811     -0.000195911    -0.000232269       -0.0809013        0.103226     -0.000400717     1.27048e-05
                    -0.000193719     0.000210692         0.913632       -0.314033     -0.000411804    -3.23199e-06        0.0542041        0.229213
281756                 0.0405287        0.125017     -0.000459395      6.6345e-05        -0.970322       -0.177253     -0.000170846     0.000265768
                    -0.000452399      6.6233e-05         0.100675        0.214187     -0.000232476    -0.000251685         0.913458       -0.315395
                       -0.970325       -0.177493     -0.000196001    -0.000232192       -0.0808571        0.103285     -0.000400659     1.29056e-05
                    -0.000193671     0.000210749         0.913519       -0.314336     -0.000411761    -3.09001e-06        0.0543533        0.229212
281758                 0.0405485         0.12503     -0.000459324     6.63865e-05        -0.970377       -0.176935     -0.000170787     0.000265826
                    -0.000452354     6.62903e-05         0.100701        0.214212     -0.000232585    -0.000251616         0.913345       -0.315699
                        -0.97038       -0.177175     -0.000196091    -0.000232114       -0.0808128        0.103344       -0.0004006     1.31063e-05
                    -0.000193622     0.000210806         0.913406       -0.314639      -0.00041172    -2.94234e-06        0.0545026        0.229211
281760                 0.0405683        0.125044     -0.000459252      6.6428e-05        -0.970433       -0.176616     -0.000170729     0.000265884
                    -0.000452308     6.63476e-05         0.100727        0.214237     -0.000232709    -0.000251549         0.913231       -0.316003
                       -0.970435       -0.176856     -0.000196181    -0.000232036       -0.0807685        0.103403     -0.000400541      1.3307e-05
                    -0.000193574     0.000210862         0.913293       -0.314943     -0.000411637    -2.78253e-06        0.0546519         0.22921
281762                 0.0405882        0.125057     -0.000459181     6.64694e-05        -0.970487       -0.176298      -0.00017067     0.000265942
                    -0.000452263     6.64049e-05         0.100753        0.214262      -0.00023282    -0.000251466         0.913117       -0.316307
                        -0.97049       -0.176538     -0.000196271    -0.000231959       -0.0807242        0.103461     -0.000400482     1.35075e-05
