! TOUCHSTONE file generated by CST MICROWAVE STUDIO
! Date and time: Wed Oct 15 17:31:20 2025
! Project name: Teste_Macro_Metasurface_Nanopilar.cst
! Parameters = {H=600; L_x=130; L_y=135; Lambda=1064; Max_L=200; Min_L=70; PathPara=1; Phi=0; Step_L=10; Theta=0; p=520; phaseX=180; phaseY=0}
! Header version: 2018
! Port assignment regex: !\s*Touchstone port\s*([0-9]+)\s*=\s*(CST MWS port|CST DS port)\s*([0-9]+|Zmin|Zmax)\s*\(\"(.*)\"\)(\s*mode\s*([0-9]+))?.*
! Touchstone port assignment:
! Touchstone port 1 = CST MWS port Zmax ("") mode 1
! Touchstone port 2 = CST MWS port Zmax ("") mode 2
! Touchstone port 3 = CST MWS port Zmin ("") mode 1
! Touchstone port 4 = CST MWS port Zmin ("") mode 2
! S-Parameters are not renormalized. Each port impedance will be approximated by the real part at minimum frequency. The values are described via the [Reference] keyword.
! Default impedance is overridden by [Reference]
[Version] 2.0
# GHz S RI R 376.73
[Number of Ports] 4
[Reference]
376.73 376.73 259.888 259.888 
[Number of Frequencies] 51
[Network Data]
281700                 0.0770492        0.121717     -0.000230379     -0.00118574         0.984075       0.0140249      8.03861e-05     0.000859018
                    -0.000205714     -0.00118764        0.0631853         0.10167      0.000198489     0.000768385         0.969501        0.184484
                         0.98422       0.0140848      0.000147086     0.000790276       -0.0792679        0.119731       0.00024328     -0.00131075
                     2.09273e-06     0.000820557         0.969747        0.184855      0.000264155     -0.00123078       -0.0948617       0.0722393
281702                 0.0770639        0.121728     -0.000230834     -0.00118567         0.984077       0.0137019      8.06331e-05      0.00085913
                    -0.000205946     -0.00118762        0.0631992        0.101683       0.00019885     0.000768339         0.969561        0.184158
                        0.984223       0.0137617      0.000147463      0.00078989       -0.0792044        0.119794      0.000242676     -0.00131114
                     2.47958e-06     0.000820585         0.969812        0.184528      0.000263426     -0.00123092        -0.094831       0.0723099
281704                 0.0770786         0.12174      -0.00023127      -0.0011856          0.98408       0.0133789      8.08802e-05     0.000859241
                    -0.000206176      -0.0011876        0.0632132        0.101695       0.00019921     0.000768293         0.969621        0.183831
                        0.984225       0.0134386      0.000147831     0.000789518       -0.0791408        0.119857      0.000242071     -0.00131152
                      2.8661e-06     0.000820613         0.969876          0.1842      0.000262696     -0.00123107       -0.0948002       0.0723804
281706                 0.0770933        0.121752     -0.000231684     -0.00118553         0.984082       0.0130559      8.11273e-05     0.000859352
                    -0.000206406     -0.00118759        0.0632271        0.101708      0.000199571     0.000768248         0.969681        0.183504
                        0.984227       0.0131155      0.000148187     0.000789164       -0.0790772         0.11992      0.000241466      -0.0013119
                     3.25217e-06     0.000820643         0.969939        0.183872      0.000261967     -0.00123121       -0.0947694       0.0724509
281708                  0.077108        0.121763     -0.000232075     -0.00118546         0.984084        0.012733      8.13746e-05     0.000859463
                    -0.000206635     -0.00118757        0.0632411        0.101721      0.000199931     0.000768202         0.969741        0.183178
                        0.984229       0.0127923      0.000148531     0.000788828       -0.0790135        0.119983       0.00024086     -0.00131228
                     3.63771e-06     0.000820674         0.970002        0.183545      0.000261237     -0.00123135       -0.0947386       0.0725214
281710                 0.0771227        0.121775      -0.00023244     -0.00118537         0.984086         0.01241      8.16219e-05     0.000859574
                    -0.000206864     -0.00118756        0.0632551        0.101734      0.000200292     0.000768156         0.969801        0.182851
                        0.984231       0.0124692      0.000148863     0.000788514       -0.0789498        0.120046      0.000240253     -0.00131266
                     4.02264e-06     0.000820706         0.970064        0.183218      0.000260508      -0.0012315       -0.0947077       0.0725919
281712                 0.0771374        0.121786     -0.000232776     -0.00118529         0.984087        0.012087      8.18693e-05     0.000859684
                    -0.000207093     -0.00118754        0.0632691        0.101746      0.000200653     0.000768111         0.969861        0.182524
                        0.984233       0.0121461      0.000149179     0.000788223        -0.078886        0.120109      0.000239645     -0.00131304
                     4.40695e-06     0.000820738         0.970125         0.18289      0.000259778     -0.00123164       -0.0946768       0.0726624
281714                  0.077152        0.121798     -0.000233079      -0.0011852         0.984089       0.0117641      8.21167e-05     0.000859794
                    -0.000207321     -0.00118753        0.0632831        0.101759      0.000201014     0.000768065          0.96992        0.182198
                        0.984235       0.0118231       0.00014948     0.000787959       -0.0788222        0.120172      0.000239036     -0.00131342
                     4.79062e-06     0.000820772         0.970186        0.182563      0.000259048     -0.00123178       -0.0946458       0.0727328
281716                 0.0771667         0.12181     -0.000233345      -0.0011851         0.984091       0.0114411      8.23641e-05     0.000859904
                     -0.00020755     -0.00118751        0.0632971        0.101772      0.000201375      0.00076802          0.96998        0.181871
                        0.984236          0.0115      0.000149763     0.000787724       -0.0787583        0.120235      0.000238427      -0.0013138
                     5.17367e-06     0.000820806         0.970246        0.182236      0.000258318     -0.00123193       -0.0946147       0.0728032
281718                 0.0771814        0.121821      -0.00023357     -0.00118499         0.984092       0.0111182      8.26115e-05     0.000860013
                    -0.000207778      -0.0011875        0.0633112        0.101785      0.000201736     0.000767975         0.970039        0.181544
                        0.984238       0.0111769      0.000150025     0.000787524       -0.0786944        0.120298      0.000237816     -0.00131418
                     5.55614e-06      0.00082084         0.970305        0.181909      0.000257588     -0.00123207       -0.0945836       0.0728737
281720                 0.0771961        0.121833     -0.000233748     -0.00118488         0.984093       0.0107952      8.28589e-05     0.000860122
                    -0.000208005     -0.00118748        0.0633253        0.101798      0.000202097     0.000767929         0.970098        0.181217
                        0.984239       0.0108538      0.000150266     0.000787362       -0.0786305        0.120361      0.000237205     -0.00131456
                     5.93806e-06     0.000820875         0.970363        0.181582      0.000256858     -0.00123221       -0.0945525       0.0729441
281722                 0.0772108        0.121845     -0.000233874     -0.00118476         0.984095       0.0104723      8.31061e-05     0.000860231
                    -0.000208233     -0.00118747        0.0633394        0.101811      0.000202458     0.000767884         0.970158        0.180891
                         0.98424       0.0105307      0.000150481     0.000787245       -0.0785665        0.120424      0.000236592     -0.00131493
                     6.31948e-06     0.000820911          0.97042        0.181255      0.000256128     -0.00123236       -0.0945213       0.0730145
281724                 0.0772255        0.121856     -0.000233942     -0.00118464         0.984096       0.0101494      8.33532e-05     0.000860339
                     -0.00020846     -0.00118746        0.0633535        0.101824      0.000202819     0.000767839         0.970217        0.180564
                        0.984242       0.0102077      0.000150668     0.000787177       -0.0785024        0.120486      0.000235979     -0.00131531
                     6.70044e-06     0.000820947         0.970476        0.180928      0.000255398      -0.0012325       -0.0944901       0.0730848
281726                 0.0772402        0.121868     -0.000233943      -0.0011845         0.984097      0.00982643      8.35999e-05     0.000860445
                    -0.000208688     -0.00118744        0.0633678        0.101837      0.000203181     0.000767795         0.970276        0.180237
                        0.984243      0.00988462      0.000150824     0.000787165       -0.0784383        0.120549      0.000235364     -0.00131569
                     7.08099e-06     0.000820983          0.97053        0.180601      0.000254668     -0.00123264       -0.0944588       0.0731552
281728                 0.0772549         0.12188     -0.000233871     -0.00118435         0.984098      0.00950351      8.38462e-05     0.000860551
                    -0.000208915     -0.00118743         0.063382         0.10185      0.000203542      0.00076775         0.970335        0.179911
                        0.984244      0.00956157      0.000150945     0.000787218       -0.0783742        0.120612      0.000234748     -0.00131606
                     7.46114e-06      0.00082102         0.970583        0.180274      0.000253937     -0.00123279       -0.0944275       0.0732255
281730                 0.0772696        0.121891     -0.000233717     -0.00118419         0.984098       0.0091806      8.40917e-05     0.000860654
                    -0.000209142     -0.00118742        0.0633964        0.101863      0.000203904     0.000767706         0.970393        0.179584
                        0.984244      0.00923852      0.000151028     0.000787343         -0.07831        0.120674       0.00023413     -0.00131644
                     7.84092e-06     0.000821057         0.970633        0.179947      0.000253207     -0.00123294       -0.0943961       0.0732959
281732                 0.0772843        0.121903     -0.000233476     -0.00118402         0.984099       0.0088577      8.43359e-05     0.000860754
                    -0.000209369     -0.00118741        0.0634109        0.101877      0.000204267     0.000767663         0.970452        0.179257
                        0.984245      0.00891547      0.000151069     0.000787548       -0.0782458        0.120737       0.00023351     -0.00131681
                     8.22037e-06     0.000821095         0.970682         0.17962      0.000252478     -0.00123309       -0.0943647       0.0733662
281734                  0.077299        0.121915     -0.000233144     -0.00118384           0.9841      0.00853482      8.45778e-05     0.000860848
                    -0.000209596      -0.0011874        0.0634256         0.10189       0.00020463     0.000767622          0.97051         0.17893
                        0.984246      0.00859244      0.000151067     0.000787836       -0.0781815        0.120799      0.000232888     -0.00131719
                     8.59948e-06     0.000821133         0.970729        0.179293      0.000251749     -0.00123324       -0.0943333       0.0734365
281736                 0.0773137        0.121926     -0.000232724     -0.00118364           0.9841      0.00821195      8.48158e-05     0.000860928
                    -0.000209822     -0.00118738        0.0634405        0.101903      0.000204996     0.000767584         0.970569        0.178604
                        0.984246       0.0082694      0.000151023     0.000788208       -0.0781172        0.120862      0.000232264     -0.00131756
                     8.97827e-06     0.000821171         0.970774        0.178965      0.000251022     -0.00123341       -0.0943017       0.0735068
281738                 0.0773284        0.121938     -0.000232234     -0.00118344         0.984101      0.00788915      8.50473e-05     0.000860972
                    -0.000210049     -0.00118737        0.0634557        0.101917      0.000205366     0.000767553         0.970627        0.178277
                        0.984247      0.00794638      0.000150946      0.00078865       -0.0780529        0.120924      0.000231637     -0.00131794
                     9.35674e-06      0.00082121         0.970816        0.178636      0.000250299      -0.0012336       -0.0942702        0.073577
281740                 0.0773431        0.121949     -0.000231718     -0.00118324         0.984101      0.00756652       8.5312e-05     0.000860838
                    -0.000210275     -0.00118736        0.0634711         0.10193      0.000205756     0.000767557         0.970685         0.17795
                        0.984247      0.00762336      0.000150857     0.000789126       -0.0779886        0.120987      0.000231008     -0.00131832
                     9.73489e-06     0.000821249         0.970859        0.178307      0.000249598     -0.00123392       -0.0942386       0.0736473
281742                 0.0773578        0.121961     -0.000231269     -0.00118305          0.98411      0.00725264       8.6311e-05     0.000861473
                    -0.000210502     -0.00118735        0.0634867        0.101944      0.000205474     0.000765595         0.970744        0.177623
                        0.984247      0.00730034      0.000150802     0.000789551       -0.0779296        0.121047      0.000230378     -0.00131871
                     1.01127e-05     0.000821289         0.970902        0.177977      0.000248637     -0.00122955       -0.0942069       0.0737175
281744                 0.0773725        0.121973     -0.000231066     -0.00118289           0.9841      0.00691951      8.60481e-05     0.000861633
                    -0.000210728     -0.00118735        0.0635019        0.101957      0.000206373     0.000767277         0.970802        0.177296
                        0.984248      0.00697733      0.000150868     0.000789759       -0.0778589        0.121112      0.000229748      -0.0013191
                     1.04902e-05     0.000821329          0.97095        0.177647      0.000248032     -0.00123356       -0.0941752       0.0737878
281746                 0.0773872        0.121984     -0.000231423     -0.00118282         0.984101      0.00659696      8.62139e-05     0.000861687
                    -0.000210954     -0.00118734        0.0635159        0.101969      0.000206757     0.000767274         0.970859         0.17697
                        0.984248      0.00665432      0.000151207     0.000789454       -0.0777946        0.121174      0.000229122     -0.00131949
                     1.08674e-05      0.00082137         0.971011        0.177319       0.00024732     -0.00123384       -0.0941434        0.073858
281748                 0.0774019        0.121996     -0.000232835     -0.00118289         0.984101      0.00627418       8.6434e-05     0.000861769
                    -0.000211179     -0.00118733        0.0635277        0.101981      0.000207126     0.000767242         0.970917        0.176643
                        0.984248      0.00633132      0.000152056     0.000788186         -0.07773        0.121237      0.000228504     -0.00131989
                     1.12443e-05     0.000821411         0.971094        0.176996      0.000246595     -0.00123403       -0.0941116       0.0739282
281750                 0.0774166        0.122008     -0.000235942      -0.0011832           0.9841      0.00595136      8.66694e-05     0.000861863
                    -0.000211405     -0.00118732        0.0635373        0.101992      0.000207491     0.000767203         0.970975        0.176316
                        0.984247      0.00600833      0.000153708     0.000785432       -0.0776654        0.121299      0.000227895     -0.00132028
                     1.16208e-05     0.000821452         0.971211        0.176674      0.000245866     -0.00123419       -0.0940798       0.0739984
281752                 0.0774313        0.122019      -0.00024127     -0.00118383           0.9841      0.00562852      8.69112e-05     0.000861963
                    -0.000211631     -0.00118731        0.0635475           0.102      0.000207854     0.000767161         0.971032        0.175989
                        0.984247      0.00568534      0.000156368     0.000780909       -0.0776007        0.121361      0.000227292     -0.00132067
                      1.1997e-05     0.000821494         0.971364        0.176339      0.000245135     -0.00123434       -0.0940479       0.0740686
281754                  0.077446        0.122031      -0.00024871      -0.0011848           0.9841      0.00530567      8.71564e-05     0.000862065
                    -0.000211856      -0.0011873        0.0635602        0.102009      0.000208216     0.000767117          0.97109        0.175662
                        0.984247      0.00536236      0.000159893     0.000775018       -0.0775359        0.121423      0.000226689     -0.00132105
                     1.23728e-05     0.000821537         0.971532        0.175976      0.000244404     -0.00123448       -0.0940159       0.0741387
281756                 0.0774607        0.122042     -0.000257154     -0.00118597         0.984099      0.00498282      8.74036e-05      0.00086217
                    -0.000212081      -0.0011873        0.0635744        0.102019      0.000208578     0.000767072         0.971147        0.175335
                        0.984246      0.00503938      0.000163695     0.000768874       -0.0774711        0.121486      0.000226082     -0.00132142
                     1.27482e-05      0.00082158          0.97168         0.17559      0.000243671     -0.00123463        -0.093984       0.0742088
281758                 0.0774754        0.122054     -0.000264968     -0.00118708         0.984098      0.00465998      8.76522e-05     0.000862276
                    -0.000212306     -0.00118729        0.0635889         0.10203       0.00020894     0.000767026         0.971205        0.175009
                        0.984246      0.00471641      0.000167056     0.000763619       -0.0774063        0.121548       0.00022547     -0.00132179
                     1.31233e-05     0.000821623         0.971793        0.175205      0.000242939     -0.00123477        -0.093952       0.0742789
281760                 0.0774901        0.122066     -0.000270997     -0.00118793         0.984098      0.00433713      8.79018e-05     0.000862382
                    -0.000212531     -0.00118728        0.0636033        0.102042      0.000209301      0.00076698         0.971262        0.174683
                        0.984245      0.00439344      0.000169571     0.000759782       -0.0773414         0.12161      0.000224853     -0.00132215
                     1.34979e-05     0.000821667         0.971879        0.174836      0.000242206      -0.0012349       -0.0939203       0.0743488
281762                 0.0775048        0.122077     -0.000275019     -0.00118843         0.984097      0.00401429      8.81523e-05      0.00086249
                    -0.000212756     -0.00118728        0.0636176        0.102055      0.000209662     0.000766934         0.971317        0.174353
                        0.984244      0.00407048      0.000171241     0.000757274       -0.0772765        0.121672       0.00022423     -0.00132252
