! TOUCHSTONE file generated by CST MICROWAVE STUDIO
! Date and time: Wed Oct 15 17:33:22 2025
! Project name: Teste_Macro_Metasurface_Nanopilar.cst
! Parameters = {H=600; L_x=165; L_y=150; Lambda=1064; Max_L=200; Min_L=70; PathPara=1; Phi=0; Step_L=10; Theta=0; p=520; phaseX=180; phaseY=0}
! Header version: 2018
! Port assignment regex: !\s*Touchstone port\s*([0-9]+)\s*=\s*(CST MWS port|CST DS port)\s*([0-9]+|Zmin|Zmax)\s*\(\"(.*)\"\)(\s*mode\s*([0-9]+))?.*
! Touchstone port assignment:
! Touchstone port 1 = CST MWS port Zmax ("") mode 1
! Touchstone port 2 = CST MWS port Zmax ("") mode 2
! Touchstone port 3 = CST MWS port Zmin ("") mode 1
! Touchstone port 4 = CST MWS port Zmin ("") mode 2
! S-Parameters are not renormalized. Each port impedance will be approximated by the real part at minimum frequency. The values are described via the [Reference] keyword.
! Default impedance is overridden by [Reference]
[Version] 2.0
# GHz S RI R 376.73
[Number of Ports] 4
[Reference]
376.73 376.73 259.888 259.888 
[Number of Frequencies] 51
[Network Data]
281700                  0.189394      -0.0677002     -0.000467183     0.000866094         0.827273       -0.512872     -0.000306062    -0.000200229
                    -0.000475572     0.000899938         0.169708      -0.0158356      8.62009e-05    -0.000426255         0.692923       -0.694495
                        0.827781       -0.512877      0.000130188    -0.000418445        -0.142173        0.131148       0.00110548    -0.000221804
                    -0.000228807    -0.000177532         0.693159       -0.694406       0.00112392     -0.00016021       -0.0153588        0.165007
281702                  0.189369      -0.0676497     -0.000466691     0.000866078         0.827104       -0.513164     -0.000306144    -0.000199519
                    -0.000475155     0.000900309         0.169706      -0.0158117       8.5953e-05    -0.000426096         0.692712       -0.694707
                        0.827612       -0.513169      0.000129971    -0.000418263        -0.142026        0.131252       0.00110449     -0.00022122
                    -0.000228452    -0.000177775         0.692948       -0.694618        0.0011236    -0.000160534       -0.0152338        0.165017
281704                  0.189345      -0.0675993     -0.000466199     0.000866062         0.826934       -0.513457     -0.000305994    -0.000199055
                    -0.000474737     0.000900679         0.169705      -0.0157878      8.57018e-05    -0.000425936         0.692501       -0.694919
                        0.827443       -0.513462      0.000129754    -0.000418082        -0.141879        0.131356       0.00110396    -0.000221305
                    -0.000228098    -0.000178018         0.692736        -0.69483       0.00112325    -0.000160827       -0.0151089        0.165026
281706                   0.18932       -0.067549     -0.000465707     0.000866046         0.826765        -0.51375     -0.000305892    -0.000198743
                     -0.00047432     0.000901047         0.169704      -0.0157638      8.54482e-05    -0.000425776          0.69229       -0.695131
                        0.827274       -0.513754      0.000129537      -0.0004179        -0.141732         0.13146       0.00110355    -0.000221501
                    -0.000227744    -0.000178259         0.692525       -0.695042       0.00112291    -0.000161071        -0.014984        0.165035
281708                  0.189295      -0.0674986     -0.000465216      0.00086603         0.826595       -0.514042     -0.000305844    -0.000198472
                    -0.000473902     0.000901414         0.169703      -0.0157399      8.51927e-05    -0.000425615         0.692078       -0.695343
                        0.827104       -0.514046      0.000129321    -0.000417718        -0.141585        0.131564       0.00110319    -0.000221733
                    -0.000227392    -0.000178499         0.692314       -0.695254       0.00112262    -0.000161301        -0.014859        0.165044
281710                  0.189271      -0.0674483     -0.000464725     0.000866013         0.826426       -0.514334      -0.00030583    -0.000198212
                    -0.000473484     0.000901779         0.169702       -0.015716      8.49358e-05    -0.000425454         0.691867       -0.695555
                        0.826935       -0.514338      0.000129105    -0.000417537        -0.141438        0.131668       0.00110286    -0.000221981
                    -0.000227041    -0.000178738         0.692102       -0.695466       0.00112234    -0.000161545       -0.0147341        0.165053
281712                  0.189246      -0.0673981     -0.000464234     0.000865997         0.826256       -0.514627     -0.000305833    -0.000197952
                    -0.000473066     0.000902143         0.169701      -0.0156921       8.4678e-05    -0.000425293         0.691656       -0.695767
                        0.826765        -0.51463       0.00012889    -0.000417355        -0.141291        0.131771       0.00110254    -0.000222237
                     -0.00022669    -0.000178976         0.691891       -0.695678       0.00112207    -0.000161801       -0.0146092        0.165062
281714                  0.189222      -0.0673478     -0.000463743      0.00086598         0.826086       -0.514919     -0.000305848    -0.000197692
                    -0.000472648     0.000902506           0.1697      -0.0156682      8.44194e-05    -0.000425132         0.691444       -0.695979
                        0.826596       -0.514922      0.000128675    -0.000417174        -0.141144        0.131874       0.00110223    -0.000222499
                     -0.00022634    -0.000179213         0.691679        -0.69589        0.0011218    -0.000162066       -0.0144843        0.165071
281716                  0.189198      -0.0672976     -0.000463252     0.000865964         0.825916       -0.515211      -0.00030587     -0.00019743
                    -0.000472229     0.000902867         0.169699      -0.0156444      8.41604e-05    -0.000424971         0.691233       -0.696191
                        0.826426       -0.515214       0.00012846    -0.000416992        -0.140997        0.131977       0.00110192    -0.000222763
                    -0.000225991    -0.000179449         0.691468       -0.696102       0.00112153    -0.000162337       -0.0143594         0.16508
281718                  0.189173      -0.0672474     -0.000462762     0.000865947         0.825746       -0.515503     -0.000305896    -0.000197167
                    -0.000471811     0.000903227         0.169698      -0.0156205      8.39009e-05    -0.000424809         0.691021       -0.696402
                        0.826256       -0.515505      0.000128246    -0.000416811         -0.14085         0.13208       0.00110162     -0.00022303
                    -0.000225643    -0.000179684         0.691256       -0.696313       0.00112126     -0.00016261       -0.0142345        0.165089
281720                  0.189149      -0.0671973     -0.000462271      0.00086593         0.825576       -0.515795     -0.000305925    -0.000196902
                    -0.000471392     0.000903585         0.169696      -0.0155966      8.36412e-05    -0.000424648          0.69081       -0.696614
                        0.826086       -0.515797      0.000128031     -0.00041663        -0.140703        0.132183       0.00110132    -0.000223298
                    -0.000225296    -0.000179918         0.691044       -0.696525       0.00112099    -0.000162885       -0.0141096        0.165097
281722                  0.189125      -0.0671472     -0.000461781     0.000865912         0.825406       -0.516086     -0.000305956    -0.000196637
                    -0.000470973     0.000903942         0.169695      -0.0155728      8.33814e-05    -0.000424486         0.690598       -0.696825
                        0.825917       -0.516088      0.000127818    -0.000416449        -0.140556        0.132286       0.00110102    -0.000223567
                    -0.000224949    -0.000180151         0.690832       -0.696736       0.00112071    -0.000163161       -0.0139847        0.165106
281724                    0.1891      -0.0670971     -0.000461291     0.000865895         0.825236       -0.516378     -0.000305988    -0.000196371
                    -0.000470554     0.000904298         0.169694       -0.015549      8.31215e-05    -0.000424325         0.690386       -0.697036
                        0.825746       -0.516379      0.000127604    -0.000416268        -0.140409        0.132388       0.00110072    -0.000223836
                    -0.000224603    -0.000180383          0.69062       -0.696948       0.00112044    -0.000163438       -0.0138598        0.165114
281726                  0.189076       -0.067047     -0.000460801     0.000865878         0.825065       -0.516669     -0.000306021    -0.000196104
                    -0.000470134     0.000904653         0.169693      -0.0155251      8.28617e-05    -0.000424163         0.690174       -0.697248
                        0.825576       -0.516671      0.000127391    -0.000416087        -0.140262        0.132491       0.00110043    -0.000224106
                    -0.000224258    -0.000180616         0.690408       -0.697159       0.00112016    -0.000163714       -0.0137349        0.165123
281728                  0.189052       -0.066997     -0.000460312      0.00086586         0.824895       -0.516961     -0.000306055    -0.000195837
                    -0.000469715     0.000905007         0.169692      -0.0155013      8.26019e-05    -0.000424002         0.689962       -0.697459
                        0.825406       -0.516962      0.000127178    -0.000415906        -0.140114        0.132593       0.00110013    -0.000224377
                    -0.000223913    -0.000180849         0.690196        -0.69737       0.00111988    -0.000163991         -0.01361        0.165131
281730                  0.189028       -0.066947     -0.000459822     0.000865842         0.824724       -0.517252     -0.000306089    -0.000195569
                    -0.000469294      0.00090536         0.169691      -0.0154775      8.23422e-05     -0.00042384         0.689751        -0.69767
                        0.825236       -0.517253      0.000126966    -0.000415725        -0.139967        0.132695       0.00109984    -0.000224647
                    -0.000223568    -0.000181084         0.689984       -0.697582        0.0011196    -0.000164268       -0.0134851        0.165139
281732                  0.189003      -0.0668971     -0.000459333     0.000865824         0.824554       -0.517543     -0.000306124    -0.000195301
                    -0.000468872     0.000905713          0.16969      -0.0154537      8.20826e-05    -0.000423678         0.689539       -0.697881
                        0.825065       -0.517544      0.000126754    -0.000415544         -0.13982        0.132797       0.00109955    -0.000224918
                    -0.000223221    -0.000181325         0.689772       -0.697793       0.00111933    -0.000164545       -0.0133603        0.165147
281734                  0.188979      -0.0668472     -0.000458844     0.000865806         0.824383       -0.517834     -0.000306159    -0.000195033
                    -0.000468447     0.000906068         0.169689      -0.0154299      8.18232e-05    -0.000423516         0.689327       -0.698092
                        0.824895       -0.517835      0.000126542    -0.000415363        -0.139673        0.132899       0.00109925    -0.000225189
                    -0.000222868    -0.000181583          0.68956       -0.698004       0.00111905    -0.000164822       -0.0132354        0.165155
281736                  0.188955      -0.0667973     -0.000458355     0.000865787         0.824212       -0.518125     -0.000306194    -0.000194765
                    -0.000468007     0.000906434         0.169688      -0.0154061       8.1564e-05    -0.000423355         0.689114       -0.698303
                        0.824724       -0.518126      0.000126331    -0.000415183        -0.139525        0.133001       0.00109896    -0.000225459
                    -0.000222468    -0.000181939         0.689348       -0.698215       0.00111877    -0.000165098       -0.0131105        0.165163
281738                  0.188931      -0.0667473     -0.000457866     0.000865768         0.824041       -0.518416      -0.00030623    -0.000194496
                    -0.000467354     0.000906639         0.169687      -0.0153824      8.13049e-05    -0.000423193         0.688902       -0.698513
                        0.824554       -0.518415      0.000126119    -0.000415002        -0.139378        0.133102       0.00109867     -0.00022573
                    -0.000222211     -0.00018143         0.689136       -0.698426       0.00111849    -0.000165375       -0.0129857        0.165171
281740                  0.188907      -0.0666975     -0.000457377      0.00086575          0.82387       -0.518707     -0.000306265    -0.000194228
                    -0.000467223     0.000907018         0.169686      -0.0153586      8.10461e-05    -0.000423031          0.68869       -0.698724
                        0.824383       -0.518706      0.000125908    -0.000414822        -0.139231        0.133204       0.00109838    -0.000226001
                    -0.000221904    -0.000182025         0.688923       -0.698637       0.00111821    -0.000165651       -0.0128609        0.165179
281742                  0.188883      -0.0666477     -0.000456888      0.00086573         0.823699       -0.518998       -0.0003063    -0.000193959
                    -0.000466798      0.00090739         0.169685      -0.0153348      8.07875e-05    -0.000422869         0.688478       -0.698935
                        0.824212       -0.518996      0.000125698    -0.000414641        -0.139083        0.133305       0.00109809    -0.000226272
                    -0.000221559    -0.000182297         0.688711       -0.698847       0.00111793    -0.000165927        -0.012736        0.165186
281744                  0.188859      -0.0665979       -0.0004564     0.000865711         0.823528       -0.519288     -0.000306336     -0.00019369
                    -0.000466375     0.000907741         0.169684      -0.0153111      8.05291e-05    -0.000422706         0.688265       -0.699145
                        0.824041       -0.519287      0.000125488    -0.000414461        -0.138936        0.133406        0.0010978    -0.000226543
                    -0.000221219    -0.000182536         0.688498       -0.699058       0.00111765    -0.000166203       -0.0126112        0.165194
281746                  0.188835      -0.0665482     -0.000455912     0.000865692         0.823357       -0.519579     -0.000306372    -0.000193421
                    -0.000465953     0.000908085         0.169683      -0.0152874      8.02709e-05    -0.000422544         0.688053       -0.699356
                         0.82387       -0.519577      0.000125278    -0.000414281        -0.138788        0.133507       0.00109752    -0.000226815
                    -0.000220882    -0.000182763         0.688286       -0.699269       0.00111737    -0.000166479       -0.0124864        0.165201
281748                  0.188811      -0.0664985     -0.000455424     0.000865672         0.823185       -0.519869     -0.000306409    -0.000193151
                    -0.000465532     0.000908425         0.169682      -0.0152636      8.00127e-05    -0.000422382          0.68784       -0.699566
                        0.823699       -0.519867      0.000125068    -0.000414101        -0.138641        0.133608       0.00109723    -0.000227087
                    -0.000220546    -0.000182984         0.688073       -0.699479       0.00111709    -0.000166755       -0.0123615        0.165209
281750                  0.188787      -0.0664488     -0.000454936     0.000865652         0.823014        -0.52016     -0.000306448    -0.000192882
                    -0.000465112     0.000908763         0.169681      -0.0152399      7.97543e-05     -0.00042222         0.687628       -0.699776
                        0.823528       -0.520157      0.000124859    -0.000413921        -0.138494        0.133708       0.00109695    -0.000227361
                    -0.000220212    -0.000183202         0.687861        -0.69969       0.00111681    -0.000167032       -0.0122367        0.165216
281752                  0.188763      -0.0663991     -0.000454448     0.000865632         0.822842        -0.52045     -0.000306493    -0.000192612
                    -0.000464691     0.000909099          0.16968      -0.0152162      7.94952e-05    -0.000422058         0.687415       -0.699987
                        0.823357       -0.520447       0.00012465    -0.000413741        -0.138346        0.133809       0.00109667    -0.000227639
                    -0.000219878    -0.000183417         0.687648         -0.6999       0.00111652     -0.00016731       -0.0121119        0.165223
281754                  0.188739      -0.0663495      -0.00045396     0.000865613         0.822671        -0.52074     -0.000306559     -0.00019234
                     -0.00046427     0.000909433         0.169679      -0.0151925      7.92325e-05    -0.000421895         0.687203       -0.700197
                        0.823185       -0.520737      0.000124442    -0.000413561        -0.138199        0.133909       0.00109642    -0.000227934
                    -0.000219546    -0.000183631         0.687435        -0.70011       0.00111622    -0.000167598        -0.011987         0.16523
281756                  0.188716      -0.0662999     -0.000453474     0.000865593         0.822499        -0.52103     -0.000306906    -0.000192743
                     -0.00046385     0.000909766         0.169678      -0.0151688      7.89348e-05    -0.000421708          0.68699       -0.700406
                        0.823014       -0.521026      0.000124234    -0.000413382        -0.138051        0.134009       0.00109715    -0.000229188
                    -0.000219215    -0.000183842         0.687223       -0.700321       0.00111617    -0.000167957       -0.0118621        0.165237
281758                  0.188692      -0.0662504     -0.000452991     0.000865575         0.822326        -0.52132     -0.000306488    -0.000191832
                    -0.000463429     0.000910097         0.169677      -0.0151451      7.87537e-05    -0.000421557         0.686775       -0.700615
                        0.822842       -0.521316      0.000124027    -0.000413202        -0.137903         0.13411       0.00109566    -0.000228359
                    -0.000218885    -0.000184052          0.68701       -0.700531       0.00111573    -0.000168113       -0.0117368        0.165244
281760                  0.188668      -0.0662008     -0.000452506     0.000865542         0.822157        -0.52161     -0.000306554    -0.000191551
                    -0.000463008     0.000910426         0.169676      -0.0151215      7.84881e-05    -0.000421401         0.686565        -0.70083
                        0.822671       -0.521605      0.000123821    -0.000413022        -0.137757         0.13421       0.00109542    -0.000228657
                    -0.000218556     -0.00018426         0.686797       -0.700741       0.00111544     -0.00016839       -0.0116126        0.165253
281762                  0.188644      -0.0661513     -0.000452013     0.000865521         0.821984       -0.521899     -0.000306598    -0.000191279
                    -0.000462588     0.000910754         0.169675      -0.0150978      7.82299e-05     -0.00042124         0.686352       -0.701038
                        0.822499       -0.521895      0.000123615    -0.000412842        -0.137609        0.134309       0.00109514    -0.000228935
