! TOUCHSTONE file generated by CST MICROWAVE STUDIO
! Date and time: Wed Oct 15 17:29:49 2025
! Project name: Teste_Macro_Metasurface_Nanopilar.cst
! Parameters = {H=600; L_x=105; L_y=105; Lambda=1064; Max_L=200; Min_L=70; PathPara=1; Phi=0; Step_L=10; Theta=0; p=520; phaseX=180; phaseY=0}
! Header version: 2018
! Port assignment regex: !\s*Touchstone port\s*([0-9]+)\s*=\s*(CST MWS port|CST DS port)\s*([0-9]+|Zmin|Zmax)\s*\(\"(.*)\"\)(\s*mode\s*([0-9]+))?.*
! Touchstone port assignment:
! Touchstone port 1 = CST MWS port Zmax ("") mode 1
! Touchstone port 2 = CST MWS port Zmax ("") mode 2
! Touchstone port 3 = CST MWS port Zmin ("") mode 1
! Touchstone port 4 = CST MWS port Zmin ("") mode 2
! S-Parameters are not renormalized. Each port impedance will be approximated by the real part at minimum frequency. The values are described via the [Reference] keyword.
! Default impedance is overridden by [Reference]
[Version] 2.0
# GHz S RI R 376.73
[Number of Ports] 4
[Reference]
376.73 376.73 259.888 259.888 
[Number of Frequencies] 51
[Network Data]
281700                 0.0210492       0.0542698      0.000138018     0.000207478        -0.815153       -0.570484     -0.000129422    -2.59883e-05
                     0.000161317       0.0001557        0.0213382       0.0550357      4.37937e-05     0.000122229        -0.814897       -0.570352
                       -0.815077       -0.570477      4.36463e-05    -6.00039e-05       -0.0580404    -9.37707e-05     -0.000101057    -0.000180553
                    -0.000101288    -9.66275e-05        -0.814873       -0.570517     -0.000137863    -0.000191908       -0.0588719    -9.36602e-05
281702                 0.0210556       0.0542837       0.00013806     0.000207428        -0.815324       -0.570237     -0.000129364    -2.59135e-05
                     0.000161431     0.000155586        0.0213448       0.0550498      4.39255e-05     0.000122218        -0.815069       -0.570106
                       -0.815248        -0.57023      4.37008e-05    -6.00284e-05       -0.0580558    -5.98801e-05     -0.000101216    -0.000180668
                    -0.000101319    -9.65762e-05        -0.815045        -0.57027     -0.000138011     -0.00019192       -0.0588875     -5.9425e-05
281704                 0.0210621       0.0542977      0.000138102     0.000207377        -0.815495        -0.56999     -0.000129305    -2.58391e-05
                     0.000161545     0.000155472        0.0213514       0.0550638      4.40571e-05     0.000122207         -0.81524       -0.569859
                        -0.81542       -0.569983      4.37551e-05    -6.00529e-05       -0.0580712    -2.59739e-05     -0.000101374    -0.000180781
                    -0.000101349    -9.65249e-05        -0.815216       -0.570023      -0.00013816    -0.000191932        -0.058903    -2.51743e-05
281706                 0.0210685       0.0543116      0.000138144     0.000207327        -0.815666       -0.569743     -0.000129246    -2.57649e-05
                     0.000161658     0.000155357        0.0213579       0.0550778      4.41887e-05     0.000122195        -0.815411       -0.569612
                       -0.815591       -0.569736       4.3809e-05    -6.00773e-05       -0.0580865     7.94789e-06     -0.000101534    -0.000180895
                     -0.00010138    -9.64736e-05        -0.815387       -0.569776     -0.000138308    -0.000191944       -0.0589185     9.09196e-06
281708                 0.0210749       0.0543256      0.000138186     0.000207277        -0.815837       -0.569496     -0.000129187    -2.56911e-05
                     0.000161772     0.000155243        0.0213645       0.0550918      4.43201e-05     0.000122184        -0.815582       -0.569365
                       -0.815761       -0.569489      4.38627e-05    -6.01016e-05       -0.0581019     4.18853e-05     -0.000101694    -0.000181008
                     -0.00010141    -9.64224e-05        -0.815558       -0.569528     -0.000138456    -0.000191956        -0.058934     4.33738e-05
281710                 0.0210813       0.0543395      0.000138229     0.000207227        -0.816008       -0.569249     -0.000129127    -2.56175e-05
                     0.000161885     0.000155129        0.0213711       0.0551058      4.44513e-05     0.000122172        -0.815752       -0.569118
                       -0.815932       -0.569242      4.39161e-05    -6.01258e-05       -0.0581172     7.58383e-05     -0.000101854     -0.00018112
                    -0.000101441    -9.63713e-05        -0.815729       -0.569281     -0.000138604    -0.000191968       -0.0589495     7.76711e-05
281712                 0.0210878       0.0543535      0.000138271     0.000207177        -0.816179       -0.569002     -0.000129068    -2.55443e-05
                     0.000161999     0.000155014        0.0213777       0.0551198      4.45825e-05      0.00012216        -0.815923       -0.568871
                       -0.816103       -0.568995      4.39692e-05    -6.01499e-05       -0.0581325     0.000109807     -0.000102015    -0.000181232
                    -0.000101472    -9.63202e-05        -0.815901       -0.569034     -0.000138752     -0.00019198       -0.0589649     0.000111984
281714                 0.0210942       0.0543674      0.000138313     0.000207128         -0.81635       -0.568755     -0.000129008    -2.54713e-05
                     0.000162112       0.0001549        0.0213843       0.0551339      4.47135e-05     0.000122148        -0.816094       -0.568624
                       -0.816274       -0.568748       4.4022e-05    -6.01739e-05       -0.0581477     0.000143791     -0.000102177    -0.000181344
                    -0.000101502    -9.62692e-05        -0.816071       -0.568787       -0.0001389    -0.000191991       -0.0589804     0.000146312
281716                 0.0211006       0.0543813      0.000138355     0.000207078         -0.81652       -0.568508     -0.000128948    -2.53987e-05
                     0.000162226     0.000154786        0.0213909       0.0551479      4.48443e-05     0.000122136        -0.816265       -0.568377
                       -0.816444       -0.568501      4.40745e-05    -6.01978e-05        -0.058163     0.000177791     -0.000102339    -0.000181455
                    -0.000101533    -9.62182e-05        -0.816242       -0.568539     -0.000139048    -0.000192003       -0.0589958     0.000180656
281718                 0.0211071       0.0543953      0.000138397     0.000207028        -0.816691       -0.568261     -0.000128888    -2.53262e-05
                     0.000162339     0.000154672        0.0213976       0.0551619       4.4975e-05     0.000122124        -0.816435       -0.568129
                       -0.816615       -0.568253      4.41267e-05    -6.02216e-05       -0.0581782     0.000211806     -0.000102501    -0.000181566
                    -0.000101564    -9.61673e-05        -0.816413       -0.568292     -0.000139195    -0.000192014       -0.0590112     0.000215016
281720                 0.0211135       0.0544092      0.000138439     0.000206979        -0.816862       -0.568013     -0.000128828    -2.52541e-05
                     0.000162453     0.000154557        0.0214042       0.0551759      4.51056e-05     0.000122111        -0.816606       -0.567882
                       -0.816785       -0.568006      4.41787e-05    -6.02453e-05       -0.0581935     0.000245837     -0.000102664    -0.000181677
                    -0.000101595    -9.61164e-05        -0.816584       -0.568044     -0.000139343    -0.000192025       -0.0590265     0.000249391
281722                   0.02112       0.0544232      0.000138482     0.000206929        -0.817032       -0.567766     -0.000128768    -2.51822e-05
                     0.000162566     0.000154443        0.0214108       0.0551899      4.52361e-05     0.000122099        -0.816776       -0.567635
                       -0.816956       -0.567759      4.42303e-05    -6.02689e-05       -0.0582086     0.000279883     -0.000102827    -0.000181787
                    -0.000101627    -9.60655e-05        -0.816755       -0.567797      -0.00013949    -0.000192036       -0.0590419     0.000283781
281724                 0.0211264       0.0544371      0.000138524      0.00020688        -0.817202       -0.567519     -0.000128707    -2.51106e-05
                      0.00016268     0.000154328        0.0214174       0.0552039      4.53664e-05     0.000122086        -0.816946       -0.567387
                       -0.817126       -0.567511      4.42817e-05    -6.02924e-05       -0.0582238     0.000313945     -0.000102991    -0.000181896
                    -0.000101658    -9.60147e-05        -0.816925       -0.567549     -0.000139638    -0.000192047       -0.0590572     0.000318187
281726                 0.0211329       0.0544511      0.000138566      0.00020683        -0.817373       -0.567271     -0.000128646    -2.50392e-05
                     0.000162794     0.000154214         0.021424       0.0552179      4.54966e-05     0.000122073        -0.817117        -0.56714
                       -0.817297       -0.567264      4.43327e-05    -6.03158e-05        -0.058239     0.000348023     -0.000103155    -0.000182005
                    -0.000101689    -9.59639e-05        -0.817096       -0.567301     -0.000139785    -0.000192058       -0.0590725     0.000352609
281728                 0.0211393        0.054465      0.000138608     0.000206781        -0.817543       -0.567024     -0.000128585     -2.4968e-05
                     0.000162907     0.000154099        0.0214307       0.0552319      4.56267e-05      0.00012206        -0.817287       -0.566892
                       -0.817467       -0.567016      4.43835e-05    -6.03391e-05       -0.0582541     0.000382116     -0.000103319    -0.000182114
                    -0.000101721    -9.59131e-05        -0.817266       -0.567054     -0.000139932    -0.000192069       -0.0590878     0.000387046
281730                 0.0211458       0.0544789      0.000138651     0.000206732        -0.817713       -0.566776     -0.000128523    -2.48971e-05
                     0.000163021     0.000153985        0.0214373       0.0552459      4.57567e-05     0.000122047        -0.817457       -0.566645
                       -0.817637       -0.566768      4.44339e-05    -6.03623e-05       -0.0582692     0.000416224     -0.000103484    -0.000182222
                    -0.000101752    -9.58624e-05        -0.817437       -0.566806      -0.00014008     -0.00019208       -0.0591031     0.000421498
281732                 0.0211522       0.0544929      0.000138693     0.000206683        -0.817883       -0.566529     -0.000128462    -2.48264e-05
                     0.000163134      0.00015387        0.0214439         0.05526      4.58865e-05     0.000122034        -0.817627       -0.566397
                       -0.817807       -0.566521      4.44841e-05    -6.03854e-05       -0.0582843     0.000450348     -0.000103649     -0.00018233
                    -0.000101784    -9.58117e-05        -0.817607       -0.566558     -0.000140227    -0.000192091       -0.0591183     0.000455966
281734                 0.0211587       0.0545068      0.000138736     0.000206633        -0.818053       -0.566281       -0.0001284    -2.47559e-05
                     0.000163248     0.000153756        0.0214506        0.055274      4.60162e-05      0.00012202        -0.817797       -0.566149
                       -0.817977       -0.566273      4.45339e-05    -6.04084e-05       -0.0582994     0.000484487     -0.000103815    -0.000182437
                    -0.000101815     -9.5761e-05        -0.817777        -0.56631     -0.000140374    -0.000192101       -0.0591336     0.000490449
281736                 0.0211652       0.0545207      0.000138778     0.000206584        -0.818223       -0.566033     -0.000128338    -2.46857e-05
                     0.000163362     0.000153641        0.0214572        0.055288      4.61458e-05     0.000122007        -0.817967       -0.565902
                       -0.818147       -0.566025      4.45835e-05    -6.04313e-05       -0.0583145     0.000518642     -0.000103981    -0.000182544
                    -0.000101847    -9.57103e-05        -0.817947       -0.566062      -0.00014052    -0.000192112       -0.0591488     0.000524948
281738                 0.0211717       0.0545347      0.000138821     0.000206535        -0.818393       -0.565785     -0.000128276    -2.46157e-05
                     0.000163475     0.000153527        0.0214639        0.055302      4.62752e-05     0.000121993        -0.818137       -0.565654
                       -0.818317       -0.565777      4.46327e-05    -6.04541e-05       -0.0583295     0.000552812     -0.000104147     -0.00018265
                    -0.000101879    -9.56597e-05        -0.818117       -0.565814     -0.000140667    -0.000192122        -0.059164     0.000559462
281740                 0.0211781       0.0545486      0.000138863     0.000206486        -0.818563       -0.565538     -0.000128213     -2.4546e-05
                     0.000163589     0.000153412        0.0214705        0.055316      4.64046e-05     0.000121979        -0.818306       -0.565406
                       -0.818486       -0.565529      4.46817e-05    -6.04768e-05       -0.0583446     0.000586998     -0.000104314    -0.000182756
                    -0.000101911    -9.56091e-05        -0.818287       -0.565566     -0.000140814    -0.000192133       -0.0591792     0.000593992
281742                 0.0211846       0.0545625      0.000138906     0.000206437        -0.818733        -0.56529      -0.00012815    -2.44766e-05
                     0.000163703     0.000153297        0.0214772         0.05533      4.65338e-05     0.000121965        -0.818476       -0.565158
                       -0.818656       -0.565281      4.47303e-05    -6.04994e-05       -0.0583596     0.000621199     -0.000104481    -0.000182862
                    -0.000101943    -9.55585e-05        -0.818457       -0.565318      -0.00014096    -0.000192143       -0.0591943     0.000628537
281744                 0.0211911       0.0545765      0.000138949     0.000206388        -0.818902       -0.565042     -0.000128087    -2.44078e-05
                     0.000163816     0.000153182        0.0214838        0.055344      4.66629e-05     0.000121951        -0.818646        -0.56491
                       -0.818826       -0.565033      4.47787e-05    -6.05219e-05       -0.0583745     0.000655415     -0.000104649    -0.000182966
                    -0.000101975    -9.55079e-05        -0.818627        -0.56507     -0.000141107    -0.000192153       -0.0592095     0.000663097
281746                 0.0211976       0.0545904      0.000138991     0.000206339        -0.819072       -0.564794     -0.000128023    -2.43396e-05
                      0.00016393     0.000153067        0.0214905        0.055358      4.67918e-05     0.000121937        -0.818815       -0.564662
                       -0.818995       -0.564785      4.48267e-05    -6.05443e-05       -0.0583895     0.000689647     -0.000104818     -0.00018307
                    -0.000102007    -9.54573e-05        -0.818797       -0.564822     -0.000141253    -0.000192163       -0.0592246     0.000697672
281748                 0.0212041       0.0546043      0.000139034      0.00020629        -0.819242       -0.564546     -0.000127958    -2.42728e-05
                     0.000164044     0.000152952        0.0214972        0.055372      4.69207e-05     0.000121922        -0.818985       -0.564414
                       -0.819165       -0.564537      4.48745e-05    -6.05666e-05       -0.0584045     0.000723895     -0.000104988    -0.000183171
                     -0.00010204    -9.54068e-05        -0.818967       -0.564573     -0.000141399    -0.000192173       -0.0592397     0.000732261
281750                 0.0212106       0.0546183      0.000139077     0.000206241        -0.819411       -0.564297      -0.00012789    -2.42095e-05
                     0.000164157     0.000152837        0.0215038        0.055386      4.70494e-05     0.000121908        -0.819154       -0.564166
                       -0.819334       -0.564289      4.49219e-05    -6.05887e-05       -0.0584194     0.000758157     -0.000105162    -0.000183267
                    -0.000102072    -9.53563e-05        -0.819137       -0.564325     -0.000141545    -0.000192183       -0.0592547     0.000766861
281752                 0.0212171       0.0546322       0.00013912     0.000206192         -0.81958       -0.564049     -0.000127797    -2.41559e-05
                     0.000164271     0.000152722        0.0215105          0.0554       4.7178e-05     0.000121893        -0.819323       -0.563918
                       -0.819504       -0.564041       4.4969e-05    -6.06108e-05       -0.0584343     0.000792435     -0.000105342    -0.000183325
                    -0.000102104    -9.53058e-05        -0.819306       -0.564077     -0.000141691    -0.000192192       -0.0592698     0.000801443
281754                 0.0212236       0.0546461      0.000139163     0.000206143         -0.81975       -0.563801     -0.000127759     -2.4002e-05
                     0.000164385     0.000152607        0.0215172        0.055414      4.73065e-05     0.000121878        -0.819493       -0.563669
                       -0.819673       -0.563792      4.50159e-05    -6.06327e-05       -0.0584492     0.000826729     -0.000105402    -0.000183503
                    -0.000102137    -9.52554e-05        -0.819476       -0.563828     -0.000141838    -0.000192201       -0.0592849     0.000836177
281756                 0.0212301       0.0546601      0.000139206     0.000206094        -0.819919       -0.563553     -0.000127711    -2.39638e-05
                     0.000164499     0.000152493        0.0215239        0.055428      4.74349e-05     0.000121863        -0.819662       -0.563421
                       -0.819842       -0.563544      4.50624e-05    -6.06546e-05        -0.058464     0.000861038      -0.00010562    -0.000183611
                     -0.00010217    -9.52051e-05        -0.819645        -0.56358     -0.000141975    -0.000192207       -0.0592999     0.000870807
281758                 0.0212366        0.054674      0.000139249     0.000206045        -0.820088       -0.563304     -0.000127647    -2.39026e-05
                     0.000164612     0.000152378        0.0215306        0.055442      4.75629e-05     0.000121848        -0.819831       -0.563173
                       -0.820011       -0.563295      4.51086e-05    -6.06763e-05       -0.0584789     0.000895361     -0.000105799    -0.000183711
                    -0.000102202    -9.51552e-05        -0.819815       -0.563331     -0.000142124    -0.000192222       -0.0593149     0.000905471
281760                 0.0212431       0.0546879      0.000139293     0.000205996        -0.820257       -0.563056     -0.000127582    -2.38368e-05
                     0.000164725     0.000152265        0.0215372        0.055456       4.7692e-05     0.000121833            -0.82       -0.562924
                        -0.82018       -0.563047      4.51545e-05    -6.06979e-05       -0.0584937       0.0009297     -0.000105971    -0.000183811
                    -0.000102235    -9.51062e-05        -0.819984       -0.563082     -0.000142271    -0.000192231       -0.0593298     0.000940153
281762                 0.0212497       0.0547018      0.000139336     0.000205947        -0.820426       -0.562808     -0.000127517    -2.37696e-05
                     0.000164832     0.000152157        0.0215439         0.05547      4.78197e-05     0.000121817        -0.820169       -0.562676
                       -0.820349       -0.562798      4.52001e-05    -6.07194e-05       -0.0585085     0.000964055     -0.000106142    -0.000183913
