! TOUCHSTONE file generated by CST MICROWAVE STUDIO
! Date and time: Wed Oct 15 17:32:41 2025
! Project name: Teste_Macro_Metasurface_Nanopilar.cst
! Parameters = {H=600; L_x=155; L_y=95; Lambda=1064; Max_L=200; Min_L=70; PathPara=1; Phi=0; Step_L=10; Theta=0; p=520; phaseX=180; phaseY=0}
! Header version: 2018
! Port assignment regex: !\s*Touchstone port\s*([0-9]+)\s*=\s*(CST MWS port|CST DS port)\s*([0-9]+|Zmin|Zmax)\s*\(\"(.*)\"\)(\s*mode\s*([0-9]+))?.*
! Touchstone port assignment:
! Touchstone port 1 = CST MWS port Zmax ("") mode 1
! Touchstone port 2 = CST MWS port Zmax ("") mode 2
! Touchstone port 3 = CST MWS port Zmin ("") mode 1
! Touchstone port 4 = CST MWS port Zmin ("") mode 2
! S-Parameters are not renormalized. Each port impedance will be approximated by the real part at minimum frequency. The values are described via the [Reference] keyword.
! Default impedance is overridden by [Reference]
[Version] 2.0
# GHz S RI R 376.73
[Number of Ports] 4
[Reference]
376.73 376.73 259.888 259.888 
[Number of Frequencies] 51
[Network Data]
281700                 0.0176082       0.0999762     -0.000206417    -0.000445184        -0.923225       -0.360674     -0.000208144      0.00094111
                    -0.000151857    -0.000423922        0.0495355        0.151761     -8.57382e-06    -0.000998961         0.979385       0.0626007
                       -0.922908       -0.360503      1.60647e-05    -0.000962335       -0.0798498       0.0625295     -0.000213977     0.000520872
                    -0.000293023      0.00093203         0.979443       0.0628132     -6.22161e-05     0.000302253       -0.0672371        0.144741
281702                 0.0176212       0.0999923     -0.000206463    -0.000445239        -0.923337       -0.360381     -0.000207973     0.000941451
                    -0.000151944    -0.000424029        0.0495561        0.151778      -8.9669e-06    -0.000999011         0.979402       0.0622694
                        -0.92302       -0.360211      1.57518e-05    -0.000962423       -0.0798308       0.0625831     -0.000213677     0.000520849
                    -0.000292614     0.000932246         0.979461       0.0624815     -6.21535e-05     0.000302596       -0.0671618          0.1448
281704                 0.0176341        0.100008      -0.00020651    -0.000445294        -0.923449       -0.360089     -0.000207801     0.000941791
                    -0.000152031    -0.000424137        0.0495766        0.151795      -9.3599e-06    -0.000999061          0.97942       0.0619382
                       -0.923131       -0.359919       1.5439e-05    -0.000962511       -0.0798118       0.0626366     -0.000213377     0.000520826
                    -0.000292206     0.000932463         0.979478       0.0621505     -6.20904e-05     0.000302938       -0.0670865         0.14486
281706                 0.0176471        0.100024     -0.000206558     -0.00044535         -0.92356       -0.359797     -0.000207629      0.00094213
                    -0.000152117    -0.000424246        0.0495972        0.151812     -9.75282e-06    -0.000999111         0.979438        0.061607
                       -0.923243       -0.359627      1.51266e-05    -0.000962599       -0.0797927       0.0626902     -0.000213078     0.000520803
                    -0.000291797     0.000932679         0.979496       0.0618191     -6.20268e-05     0.000303281       -0.0670111        0.144919
281708                   0.01766         0.10004     -0.000206605    -0.000445405        -0.923672       -0.359504     -0.000207456      0.00094247
                    -0.000152202    -0.000424355        0.0496178        0.151829     -1.01456e-05     -0.00099916         0.979456       0.0612758
                       -0.923354       -0.359335      1.48147e-05    -0.000962687       -0.0797735       0.0627437     -0.000212779     0.000520781
                    -0.000291387     0.000932895         0.979513       0.0614877     -6.19628e-05     0.000303623       -0.0669357        0.144979
281710                  0.017673        0.100056     -0.000206654     -0.00044546        -0.923783       -0.359212     -0.000207282     0.000942808
                    -0.000152287    -0.000424465        0.0496383        0.151846     -1.05384e-05    -0.000999208         0.979473       0.0609446
                       -0.923466       -0.359043      1.45032e-05    -0.000962774       -0.0797544       0.0627973      -0.00021248      0.00052076
                    -0.000290978     0.000933111         0.979531       0.0611563     -6.18983e-05     0.000303965       -0.0668602        0.145038
281712                 0.0176859        0.100072     -0.000206703    -0.000445516        -0.923894       -0.358919     -0.000207108     0.000943146
                    -0.000152372    -0.000424576        0.0496589        0.151863      -1.0931e-05    -0.000999256          0.97949       0.0606133
                       -0.923577       -0.358751      1.41923e-05    -0.000962861       -0.0797352       0.0628508     -0.000212181      0.00052074
                    -0.000290568     0.000933326         0.979548       0.0608249     -6.18334e-05     0.000304308       -0.0667847        0.145097
281714                 0.0176989        0.100088     -0.000206754    -0.000445572        -0.924005       -0.358627     -0.000206933     0.000943484
                    -0.000152455    -0.000424687        0.0496795         0.15188     -1.13234e-05    -0.000999303         0.979508       0.0602821
                       -0.923688       -0.358459       1.3882e-05    -0.000962946        -0.079716       0.0629043     -0.000211882      0.00052072
                    -0.000290158     0.000933542         0.979565       0.0604935     -6.17679e-05      0.00030465       -0.0667092        0.145157
281716                 0.0177118        0.100104     -0.000206806     -0.00044563        -0.924116       -0.358334     -0.000206757     0.000943821
                    -0.000152539    -0.000424798           0.0497        0.151897     -1.17158e-05     -0.00099935         0.979525       0.0599509
                       -0.923799       -0.358166       1.3572e-05     -0.00096303       -0.0796967       0.0629579     -0.000211584       0.0005207
                    -0.000289748     0.000933757         0.979582       0.0601621     -6.17021e-05     0.000304992       -0.0666336        0.145216
281718                 0.0177248         0.10012     -0.000206859    -0.000445692        -0.924227       -0.358041     -0.000206581     0.000944158
                    -0.000152622    -0.000424911        0.0497206        0.151914      -1.2108e-05    -0.000999396         0.979542       0.0596197
                        -0.92391       -0.357874      1.32614e-05    -0.000963112       -0.0796774       0.0630114     -0.000211286     0.000520682
                    -0.000289338     0.000933972         0.979599       0.0598306     -6.16357e-05     0.000305333       -0.0665579        0.145275
281720                 0.0177378        0.100136      -0.00020691    -0.000445758        -0.924338       -0.357749     -0.000206404     0.000944495
                    -0.000152704    -0.000425024        0.0497412        0.151931        -1.25e-05    -0.000999442         0.979559       0.0592884
                       -0.924021       -0.357582      1.29495e-05    -0.000963192       -0.0796581       0.0630649     -0.000210988     0.000520663
                    -0.000288927     0.000934186         0.979615       0.0594992     -6.15689e-05     0.000305675       -0.0664822        0.145334
281722                 0.0177508        0.100152     -0.000206955    -0.000445827        -0.924449       -0.357456     -0.000206227      0.00094483
                    -0.000152786    -0.000425137        0.0497618        0.151948     -1.28919e-05    -0.000999487         0.979576       0.0589572
                       -0.924131       -0.357289      1.26353e-05    -0.000963271       -0.0796387       0.0631184      -0.00021069     0.000520646
                    -0.000288517     0.000934401         0.979632       0.0591678     -6.15016e-05     0.000306016       -0.0664065        0.145393
281724                 0.0177637        0.100168     -0.000206993    -0.000445893         -0.92456       -0.357163     -0.000206049     0.000945166
                    -0.000152868    -0.000425251        0.0497823        0.151965     -1.32835e-05    -0.000999532         0.979592        0.058626
                       -0.924242       -0.356997      1.23187e-05     -0.00096335       -0.0796193        0.063172     -0.000210392     0.000520629
                    -0.000288106     0.000934615         0.979649       0.0588364     -6.14339e-05     0.000306358       -0.0663307        0.145452
281726                 0.0177767        0.100184     -0.000207029    -0.000445953         -0.92467        -0.35687      -0.00020587     0.000945501
                    -0.000152949    -0.000425366        0.0498029        0.151982      -1.3675e-05    -0.000999576         0.979609       0.0582947
                       -0.924353       -0.356704      1.20003e-05     -0.00096343       -0.0795999       0.0632255     -0.000210094     0.000520612
                    -0.000287695     0.000934829         0.979665        0.058505     -6.13656e-05     0.000306699       -0.0662548        0.145511
281728                 0.0177897          0.1002     -0.000207066    -0.000446009        -0.924781       -0.356578     -0.000205691     0.000945835
                     -0.00015303    -0.000425481        0.0498235        0.151999     -1.40663e-05     -0.00099962         0.979625       0.0579635
                       -0.924463       -0.356412      1.16811e-05    -0.000963512       -0.0795804        0.063279     -0.000209797     0.000520597
                    -0.000287284     0.000935043         0.979681       0.0581736      -6.1297e-05      0.00030704       -0.0661789         0.14557
281730                 0.0178027        0.100216     -0.000207106    -0.000446062        -0.924891       -0.356285     -0.000205511     0.000946169
                     -0.00015311    -0.000425596        0.0498441        0.152016     -1.44574e-05    -0.000999663         0.979642       0.0576323
                       -0.924573       -0.356119      1.13618e-05    -0.000963595       -0.0795609       0.0633325       -0.0002095     0.000520581
                    -0.000286873     0.000935257         0.979697       0.0578422     -6.12278e-05     0.000307381        -0.066103        0.145629
281732                 0.0178157        0.100232     -0.000207149    -0.000446116        -0.925001       -0.355992     -0.000205331     0.000946503
                     -0.00015319    -0.000425713        0.0498646        0.152033     -1.48483e-05    -0.000999705         0.979658        0.057301
                       -0.924684       -0.355827      1.10429e-05    -0.000963679       -0.0795414        0.063386     -0.000209202     0.000520566
                    -0.000286462     0.000935471         0.979714       0.0575108     -6.11583e-05     0.000307722        -0.066027        0.145688
281734                 0.0178287        0.100248     -0.000207192    -0.000446169        -0.925112       -0.355699      -0.00020515     0.000946836
                     -0.00015327     -0.00042583        0.0498852         0.15205     -1.52389e-05    -0.000999748         0.979674       0.0569698
                       -0.924794       -0.355534      1.07244e-05    -0.000963764       -0.0795218       0.0634395     -0.000208905     0.000520552
                    -0.000286051     0.000935685         0.979729       0.0571794     -6.10882e-05     0.000308062        -0.065951        0.145747
281736                 0.0178417        0.100264     -0.000207236    -0.000446223        -0.925222       -0.355406     -0.000204968     0.000947168
                     -0.00015335    -0.000425947        0.0499058        0.152067     -1.56293e-05    -0.000999789          0.97969       0.0566386
                       -0.924904       -0.355241      1.04063e-05    -0.000963849       -0.0795022        0.063493     -0.000208609     0.000520539
                     -0.00028564     0.000935899         0.979745        0.056848     -6.10177e-05     0.000308403       -0.0658749        0.145806
281738                 0.0178547         0.10028     -0.000207281    -0.000446276        -0.925332       -0.355113     -0.000204786     0.000947501
                    -0.000153429    -0.000426065        0.0499264        0.152084     -1.60195e-05    -0.000999831         0.979706       0.0563073
                       -0.925014       -0.354948      1.00886e-05    -0.000963934       -0.0794826       0.0635465     -0.000208312     0.000520526
                     -0.00028523     0.000936112         0.979761       0.0565166     -6.09467e-05     0.000308743       -0.0657987        0.145865
281740                 0.0178677        0.100296     -0.000207327    -0.000446331        -0.925442        -0.35482     -0.000204603     0.000947832
                    -0.000153507    -0.000426184        0.0499469        0.152101     -1.64095e-05    -0.000999872         0.979722       0.0559761
                       -0.925124       -0.354656      9.77127e-06    -0.000964019       -0.0794629          0.0636     -0.000208015     0.000520513
                    -0.000284821     0.000936326         0.979777       0.0561852     -6.08753e-05     0.000309083       -0.0657226        0.145924
281742                 0.0178807        0.100312     -0.000207372    -0.000446385        -0.925551       -0.354526     -0.000204419     0.000948163
                    -0.000153586    -0.000426303        0.0499675        0.152118     -1.67992e-05    -0.000999912         0.979737       0.0556448
                       -0.925234       -0.354363      9.45414e-06    -0.000964104       -0.0794432       0.0636535     -0.000207719     0.000520501
                    -0.000284412     0.000936539         0.979792       0.0558538     -6.08034e-05     0.000309423       -0.0656463        0.145982
281744                 0.0178938        0.100328     -0.000207418     -0.00044644        -0.925661       -0.354233     -0.000204235     0.000948494
                    -0.000153664    -0.000426423        0.0499881        0.152135     -1.71887e-05    -0.000999952         0.979753       0.0553136
                       -0.925343        -0.35407      9.13719e-06    -0.000964188       -0.0794234        0.063707     -0.000207423     0.000520489
                    -0.000284005     0.000936751         0.979808       0.0555224     -6.07311e-05     0.000309763       -0.0655701        0.146041
281746                 0.0179068        0.100344     -0.000207464    -0.000446494        -0.925771        -0.35394     -0.000204051     0.000948824
                    -0.000153742    -0.000426543        0.0500087        0.152152     -1.75779e-05    -0.000999992         0.979768       0.0549824
                       -0.925453       -0.353777      8.82035e-06    -0.000964273       -0.0794036       0.0637605     -0.000207127     0.000520478
                    -0.000283598     0.000936962         0.979823        0.055191     -6.06583e-05     0.000310103       -0.0654937          0.1461
281748                 0.0179198         0.10036      -0.00020751    -0.000446549         -0.92588       -0.353647     -0.000203866     0.000949154
                    -0.000153819    -0.000426664        0.0500293        0.152169     -1.79669e-05     -0.00100003         0.979783       0.0546511
                       -0.925563       -0.353484       8.5036e-06    -0.000964358       -0.0793838        0.063814     -0.000206831     0.000520468
                    -0.000283193     0.000937171         0.979838       0.0548596     -6.05851e-05     0.000310442       -0.0654174        0.146158
281750                 0.0179329        0.100376     -0.000207556    -0.000446604         -0.92599       -0.353353      -0.00020368     0.000949483
                    -0.000153896    -0.000426786        0.0500499        0.152186     -1.83557e-05     -0.00100007         0.979799       0.0543199
                       -0.925672       -0.353191      8.18689e-06    -0.000964442        -0.079364       0.0638675     -0.000206535     0.000520458
                    -0.000282789     0.000937377         0.979853       0.0545282     -6.05113e-05     0.000310782       -0.0653409        0.146217
281752                 0.0179459        0.100392     -0.000207602    -0.000446659        -0.926099        -0.35306     -0.000203493     0.000949812
                    -0.000153973    -0.000426908        0.0500705        0.152203     -1.87442e-05     -0.00100011         0.979814       0.0539886
                       -0.925782       -0.352898       7.8702e-06    -0.000964526       -0.0793441       0.0639209     -0.000206239     0.000520449
                    -0.000282384      0.00093758         0.979868       0.0541968     -6.04372e-05     0.000311121       -0.0652645        0.146275
281754                 0.0179589        0.100408     -0.000207649    -0.000446714        -0.926208       -0.352767     -0.000203307      0.00095014
                     -0.00015405    -0.000427031         0.050091         0.15222     -1.91325e-05     -0.00100015         0.979829       0.0536574
                       -0.925891       -0.352605       7.5535e-06     -0.00096461       -0.0793242       0.0639744     -0.000205944      0.00052044
                    -0.000281977      0.00093778         0.979883       0.0538654     -6.03625e-05      0.00031146        -0.065188        0.146334
281756                  0.017972        0.100424     -0.000207695    -0.000446769        -0.926318       -0.352473     -0.000203119     0.000950468
                    -0.000154126    -0.000427154        0.0501116        0.152237     -1.95205e-05     -0.00100018         0.979844       0.0533261
                          -0.926       -0.352312      7.23678e-06    -0.000964694       -0.0793042       0.0640279     -0.000205648     0.000520431
                    -0.000281567     0.000937977         0.979898        0.053534     -6.02874e-05     0.000311799       -0.0651114        0.146392
281758                  0.017985         0.10044     -0.000207741    -0.000446823        -0.926427        -0.35218     -0.000202931     0.000950795
                    -0.000154202    -0.000427279        0.0501322        0.152254     -1.99083e-05     -0.00100022         0.979858       0.0529949
                       -0.926109       -0.352019      6.92001e-06    -0.000964778       -0.0792842       0.0640814     -0.000205353     0.000520423
                    -0.000281153     0.000938174         0.979912       0.0532026     -6.02118e-05     0.000312137       -0.0650348        0.146451
281760                 0.0179981        0.100456     -0.000207787    -0.000446878        -0.926536       -0.351886     -0.000202742     0.000951122
                    -0.000154277    -0.000427404        0.0501528        0.152271     -2.02959e-05     -0.00100026         0.979873       0.0526637
                       -0.926218       -0.351726      6.60319e-06    -0.000964862       -0.0792642       0.0641348     -0.000205058     0.000520415
                    -0.000280737     0.000938371         0.979927       0.0528712     -6.01358e-05     0.000312476       -0.0649582        0.146509
281762                 0.0180111        0.100472     -0.000207834    -0.000446933        -0.926645       -0.351593     -0.000202553     0.000951448
                    -0.000154351    -0.000427531        0.0501734        0.152288     -2.06833e-05     -0.00100029         0.979888       0.0523324
                       -0.926327       -0.351432      6.28628e-06    -0.000964945       -0.0792442       0.0641883     -0.000204763     0.000520408
