! TOUCHSTONE file generated by CST MICROWAVE STUDIO
! Date and time: Wed Oct 15 17:31:28 2025
! Project name: Teste_Macro_Metasurface_Nanopilar.cst
! Parameters = {H=600; L_x=130; L_y=200; Lambda=1064; Max_L=200; Min_L=70; PathPara=1; Phi=0; Step_L=10; Theta=0; p=520; phaseX=180; phaseY=0}
! Header version: 2018
! Port assignment regex: !\s*Touchstone port\s*([0-9]+)\s*=\s*(CST MWS port|CST DS port)\s*([0-9]+|Zmin|Zmax)\s*\(\"(.*)\"\)(\s*mode\s*([0-9]+))?.*
! Touchstone port assignment:
! Touchstone port 1 = CST MWS port Zmax ("") mode 1
! Touchstone port 2 = CST MWS port Zmax ("") mode 2
! Touchstone port 3 = CST MWS port Zmin ("") mode 1
! Touchstone port 4 = CST MWS port Zmin ("") mode 2
! S-Parameters are not renormalized. Each port impedance will be approximated by the real part at minimum frequency. The values are described via the [Reference] keyword.
! Default impedance is overridden by [Reference]
[Version] 2.0
# GHz S RI R 376.73
[Number of Ports] 4
[Reference]
376.73 376.73 259.888 259.888 
[Number of Frequencies] 51
[Network Data]
281700                  0.188739       0.0404284      0.000462999     0.000559462         0.387616       -0.897116     -0.000538504     1.37457e-05
                     0.000445918     0.000577384         0.198778        0.359574     -0.000566053    -8.20394e-05         0.636043       -0.631566
                        0.387567       -0.897126     -0.000441265      -0.0001101         0.157043        0.105757      0.000688871    -2.02993e-05
                    -0.000684324    -0.000112955         0.636396       -0.631892      0.000626609    -0.000301008         0.360097         0.17257
281702                  0.188755       0.0404466      0.000463338     0.000559655         0.387345       -0.897229     -0.000539191     1.43369e-05
                     0.000446239     0.000576643         0.198964        0.359803     -0.000566153    -8.05933e-05          0.63554       -0.631847
                        0.387298        -0.89724     -0.000441492    -0.000109748         0.157131        0.105664      0.000689118    -2.05585e-05
                    -0.000683954    -0.000112728         0.635893       -0.632171      0.000625215    -0.000303158         0.360564        0.172253
281704                   0.18877       0.0404648      0.000463675     0.000559843         0.387074       -0.897342     -0.000539892     1.49386e-05
                      0.00044654     0.000575891         0.199151        0.360033     -0.000566207    -7.90939e-05         0.635036       -0.632128
                        0.387029       -0.897353     -0.000441718    -0.000109392         0.157218         0.10557      0.000689354    -2.08046e-05
                    -0.000683551    -0.000112531          0.63539       -0.632451      0.000623775    -0.000305364         0.361031        0.171936
281706                  0.188786       0.0404831      0.000464008     0.000560024         0.386803       -0.897454     -0.000540611     1.55521e-05
                     0.000446818     0.000575127         0.199338        0.360263      -0.00056621    -7.75323e-05         0.634532       -0.632409
                        0.386759       -0.897466     -0.000441944    -0.000109031         0.157305        0.105477      0.000689576    -2.10358e-05
                    -0.000683113    -0.000112371         0.634886       -0.632731      0.000622289    -0.000307634         0.361499        0.171621
281708                  0.188801       0.0405014       0.00046434     0.000560199         0.386532       -0.897567     -0.000541349     1.61785e-05
                      0.00044707     0.000574348         0.199525        0.360494     -0.000566158     -7.5897e-05         0.634026        -0.63269
                         0.38649        -0.89758      -0.00044217    -0.000108667         0.157392        0.105383      0.000689781    -2.12501e-05
                    -0.000682636    -0.000112255         0.634381        -0.63301      0.000620755    -0.000309976         0.361964        0.171311
281710                  0.188817       0.0405197      0.000464669     0.000560366          0.38626       -0.897679     -0.000542115     1.68195e-05
                     0.000447293     0.000573552         0.199713        0.360725     -0.000566045    -7.41742e-05          0.63352       -0.632971
                        0.386221       -0.897693     -0.000442396    -0.000108298         0.157479        0.105288      0.000689964    -2.14452e-05
                    -0.000682118    -0.000112192         0.633875       -0.633289      0.000619176    -0.000312402         0.362418        0.171004
281712                  0.188833        0.040538      0.000464996     0.000560526         0.385989        -0.89779     -0.000542913     1.74764e-05
                     0.000447482     0.000572736         0.199901        0.360957     -0.000565868     -7.2346e-05         0.633013       -0.633252
                        0.385951       -0.897805     -0.000442623    -0.000107923         0.157566        0.105194       0.00069012    -2.16184e-05
                    -0.000681555    -0.000112194         0.633369       -0.633569      0.000617553    -0.000314922         0.362858        0.170682
281714                  0.188848       0.0405563      0.000465322     0.000560677         0.385717       -0.897901     -0.000543755     1.81505e-05
                     0.000447632     0.000571896         0.200089        0.361189     -0.000565622    -7.03898e-05         0.632505       -0.633532
                        0.385682       -0.897918     -0.000442851    -0.000107544         0.157653        0.105099      0.000690242     -2.1767e-05
                    -0.000680943    -0.000112274         0.632861       -0.633848      0.000615891    -0.000317548          0.36331        0.170342
281716                  0.188864       0.0405747      0.000465647     0.000560819         0.385445       -0.898012     -0.000544656     1.88426e-05
                     0.000447735     0.000571027         0.200278        0.361422     -0.000565305    -6.82771e-05         0.631996       -0.633812
                        0.385412        -0.89803     -0.000443079     -0.00010716          0.15774        0.105004      0.000690319    -2.18883e-05
                    -0.000680282    -0.000112452         0.632353       -0.634127      0.000614196    -0.000320296         0.363773        0.170004
281718                   0.18888        0.040593      0.000465972     0.000560952         0.385173       -0.898122     -0.000545635     1.95514e-05
                     0.000447781     0.000570124         0.200468        0.361656     -0.000564917    -6.59708e-05         0.631487       -0.634092
                        0.385142       -0.898143     -0.000443309     -0.00010677         0.157828        0.104909      0.000690338      -2.198e-05
                    -0.000679572    -0.000112751         0.631844       -0.634406      0.000612479     -0.00032318         0.364239        0.169669
281720                  0.188896       0.0406113      0.000466297     0.000561075         0.384901       -0.898231     -0.000546724     2.02714e-05
                     0.000447755     0.000569179         0.200658        0.361889     -0.000564465    -6.34237e-05         0.630977       -0.634372
                        0.384873       -0.898255      -0.00044354    -0.000106375         0.157915        0.104813       0.00069028    -2.20414e-05
                    -0.000678817      -0.0001132         0.631334       -0.634685      0.000610752    -0.000326214         0.364706        0.169337
281722                  0.188913       0.0406296      0.000466624     0.000561187         0.384629       -0.898339     -0.000547969      2.0987e-05
                     0.000447638     0.000568183         0.200848        0.362124     -0.000563965    -6.05754e-05         0.630466       -0.634652
                        0.384603       -0.898367     -0.000443773    -0.000105973         0.158003        0.104718      0.000690119    -2.20748e-05
                    -0.000678028    -0.000113836         0.630823       -0.634963      0.000609035    -0.000329415         0.365172        0.169005
281724                  0.188929       0.0406479      0.000466953      0.00056129         0.384357       -0.898446     -0.000549439     2.16583e-05
                       0.0004474     0.000567127         0.201039        0.362358     -0.000563453      -5.735e-05         0.629954       -0.634931
                        0.384333       -0.898478     -0.000444009    -0.000105565          0.15809        0.104622       0.00068982    -2.20898e-05
                    -0.000677225    -0.000114704         0.630311       -0.635241      0.000607354    -0.000332793         0.365638        0.168672
281726                  0.188945       0.0406661      0.000467286     0.000561381         0.384087       -0.898551     -0.000551234      2.2189e-05
                        0.000447     0.000565998         0.201231        0.362593     -0.000562994    -5.36551e-05         0.629442        -0.63521
                        0.384063        -0.89859     -0.000444248    -0.000105151         0.158178        0.104526      0.000689335    -2.21099e-05
                    -0.000676448    -0.000115859         0.629798        -0.63552      0.000605739    -0.000336358         0.366104         0.16834
281728                  0.188961       0.0406844      0.000467622     0.000561461         0.383818       -0.898655     -0.000553467      2.2351e-05
                      0.00044637      0.00056479         0.201423        0.362829     -0.000562705    -4.93862e-05         0.628928       -0.635488
                        0.383794       -0.898701     -0.000444491     -0.00010473         0.158266         0.10443      0.000688603    -2.21867e-05
                    -0.000675763    -0.000117359         0.629285       -0.635797      0.000604232    -0.000340111          0.36657        0.168006
281730                  0.188978       0.0407026      0.000467965      0.00056153         0.383552       -0.898759     -0.000556134     2.16474e-05
                     0.000445407     0.000563504         0.201616        0.363065      -0.00056278    -4.44434e-05         0.628414       -0.635766
                        0.383524       -0.898813     -0.000444739    -0.000104303         0.158354        0.104335      0.000687556    -2.24223e-05
                    -0.000675277    -0.000119259          0.62877       -0.636075      0.000602876    -0.000344039         0.367036        0.167672
281732                  0.188994       0.0407208      0.000468314     0.000561588          0.38329       -0.898865     -0.000558611     1.93077e-05
                     0.000443945     0.000562177          0.20181        0.363301     -0.000563521    -3.87756e-05           0.6279       -0.636044
                        0.383254       -0.898923     -0.000444991    -0.000103869         0.158442        0.104239      0.000686158    -2.30025e-05
                    -0.000675149    -0.000121589         0.628254       -0.636352      0.000601723    -0.000348115         0.367501        0.167336
281734                  0.189011        0.040739      0.000468671     0.000561635         0.383029       -0.898973     -0.000559055     1.53924e-05
                     0.000441728     0.000560945         0.202004        0.363537     -0.000565358    -3.24685e-05         0.627384       -0.636322
                        0.382984       -0.899034      -0.00044525    -0.000103428          0.15853        0.104143      0.000684482    -2.42134e-05
                    -0.000675596    -0.000124314         0.627738       -0.636629       0.00060082    -0.000352291         0.367967           0.167
281736                  0.189027       0.0407572      0.000469038     0.000561672         0.382768       -0.899086     -0.000556448     1.24768e-05
                       0.0004384     0.000560199         0.202199        0.363774     -0.000568784    -2.58831e-05         0.626868       -0.636599
                        0.382714       -0.899145     -0.000445517     -0.00010298         0.158618        0.104047      0.000682862    -2.63599e-05
                    -0.000676866    -0.000127283         0.627221       -0.636906      0.000600207    -0.000356489         0.368433        0.166663
281738                  0.189044       0.0407754      0.000469416     0.000561698         0.382505       -0.899202     -0.000553141     1.24145e-05
                     0.000433716     0.000560918         0.202394        0.364011     -0.000574153    -1.97786e-05         0.626351       -0.636875
                        0.382444       -0.899255     -0.000445791    -0.000102526         0.158706        0.103952      0.000681942    -2.94749e-05
                    -0.000679162    -0.000130172         0.626703       -0.637182      0.000599904    -0.000360609         0.368899        0.166325
281740                   0.18906       0.0407935      0.000469806     0.000561715         0.382239       -0.899319      -0.00055106     1.39847e-05
                     0.000428505     0.000564858          0.20259        0.364248     -0.000581307    -1.52292e-05         0.625834       -0.637152
                        0.382174       -0.899365     -0.000446076    -0.000102065         0.158794        0.103856      0.000682325    -3.30022e-05
                    -0.000682511    -0.000132508         0.626183       -0.637458      0.000599894    -0.000364524         0.369365        0.165986
281742                  0.189077       0.0408116       0.00047021     0.000561723          0.38197       -0.899435     -0.000550164     1.58669e-05
                     0.000426129     0.000572717         0.202786        0.364485     -0.000589328    -1.31575e-05         0.625315       -0.637427
                        0.381904       -0.899475     -0.000446372    -0.000101599         0.158882         0.10376      0.000683988    -3.60487e-05
                    -0.000686642    -0.000133806         0.625663       -0.637733      0.000600122    -0.000368098         0.369831        0.165646
281744                  0.189094       0.0408298      0.000470631     0.000561723         0.381699       -0.899551     -0.000549967     1.75965e-05
                     0.000429513      0.00058056         0.202983        0.364723     -0.000596817    -1.37231e-05         0.624796       -0.637703
                        0.381634       -0.899584     -0.000446682    -0.000101127          0.15897        0.103665      0.000686299    -3.80958e-05
                    -0.000691017    -0.000133792         0.625143       -0.638008      0.000600479    -0.000371194         0.370298        0.165305
281746                  0.189111       0.0408479      0.000471068     0.000561717         0.381428       -0.899665     -0.000550135     1.91021e-05
                     0.000435786     0.000584142         0.203181        0.364961      -0.00060262    -1.62003e-05         0.624276       -0.637978
                        0.381363       -0.899693     -0.000447007    -0.000100651         0.159057        0.103569      0.000688623    -3.92091e-05
                     -0.00069504    -0.000132547         0.624621       -0.638283      0.000600813    -0.000373692         0.370764        0.164962
281748                  0.189128       0.0408661      0.000471525     0.000561706         0.381156       -0.899778     -0.000550492     2.04156e-05
                     0.000441155     0.000584232         0.203379        0.365199     -0.000606315    -1.94902e-05         0.623755       -0.638252
                        0.381093       -0.899802      -0.00044735    -0.000100172         0.159145        0.103474      0.000690647     -3.9704e-05
                    -0.000698298    -0.000130435         0.624098       -0.638556      0.000600941    -0.000375498         0.371231        0.164619
281750                  0.189144       0.0408843      0.000472004     0.000561691         0.380883        -0.89989     -0.000550945     2.15832e-05
                     0.000444762     0.000582952         0.203578        0.365437       -0.0006081    -2.26941e-05         0.623234       -0.638526
                        0.380821        -0.89991     -0.000447713    -9.96927e-05         0.159232        0.103378      0.000692311    -3.98643e-05
                    -0.000700656    -0.000127904         0.623575        -0.63883      0.000600667    -0.000376543         0.371698        0.164275
281752                  0.189161       0.0409027      0.000472507     0.000561673          0.38061       -0.900002     -0.000551443     2.26436e-05
                     0.000447034     0.000581425         0.203777        0.365675     -0.000608417    -2.53193e-05         0.622711       -0.638799
                        0.380548       -0.900018     -0.000448101    -9.92145e-05         0.159319        0.103283      0.000693659    -3.98695e-05
                    -0.000702191    -0.000125322         0.623051       -0.639103      0.000599813    -0.000376764         0.372165         0.16393
281754                  0.189178       0.0409212      0.000473038     0.000561656         0.380338       -0.900113      -0.00055196     2.36274e-05
                     0.000448459     0.000580045         0.203976        0.365914     -0.000607676    -2.72032e-05         0.622188       -0.639072
                        0.380274       -0.900127     -0.000448518    -9.87413e-05         0.159406        0.103187       0.00069476    -3.98159e-05
                    -0.000703078     -0.00012292         0.622527       -0.639375      0.000598236    -0.000376076         0.372633        0.163584
281756                  0.189195       0.0409398        0.0004736     0.000561641         0.380065       -0.900223     -0.000552475      2.4558e-05
                     0.000449363     0.000578912         0.204177        0.366153     -0.000606154    -2.83741e-05         0.621663       -0.639344
                            0.38       -0.900239     -0.000448971    -9.82784e-05         0.159493        0.103091      0.000695677    -3.97491e-05
                    -0.000703503     -0.00012081         0.622002       -0.639647      0.000595866    -0.000374332         0.373101        0.163237
281758                  0.189212       0.0409585      0.000474201      0.00056163         0.379792       -0.900333     -0.000552973     2.54554e-05
                     0.000449944     0.000578032         0.204377        0.366392     -0.000603982    -2.89567e-05         0.621138       -0.639616
                        0.379729       -0.900351     -0.000449468    -9.78336e-05          0.15958        0.102996      0.000696455    -3.96871e-05
                    -0.000703625    -0.000119031         0.621476       -0.639918      0.000592756    -0.000371285         0.373569        0.162888
281760                  0.189228       0.0409771       0.00047485     0.000561626          0.37952       -0.900443     -0.000553439     2.63396e-05
                     0.000450319     0.000577387         0.204578        0.366632     -0.000601168    -2.91373e-05         0.620612       -0.639888
                        0.379459       -0.900463     -0.000450024    -9.74197e-05         0.159666          0.1029      0.000697131    -3.96326e-05
                    -0.000703567    -0.000117579          0.62095       -0.640189      0.000589171    -0.000366581         0.374037        0.162539
281762                  0.189244       0.0409955      0.000475565     0.000561631         0.379247       -0.900552      -0.00055385     2.72351e-05
                     0.000450563     0.000576956          0.20478        0.366871     -0.000597629    -2.91813e-05         0.620085       -0.640159
                         0.37919       -0.900574     -0.000450663    -9.70595e-05         0.159752        0.102804      0.000697728    -3.95791e-05
