! TOUCHSTONE file generated by CST MICROWAVE STUDIO
! Date and time: Wed Oct 15 17:32:22 2025
! Project name: Teste_Macro_Metasurface_Nanopilar.cst
! Parameters = {H=600; L_x=150; L_y=80; Lambda=1064; Max_L=200; Min_L=70; PathPara=1; Phi=0; Step_L=10; Theta=0; p=520; phaseX=180; phaseY=0}
! Header version: 2018
! Port assignment regex: !\s*Touchstone port\s*([0-9]+)\s*=\s*(CST MWS port|CST DS port)\s*([0-9]+|Zmin|Zmax)\s*\(\"(.*)\"\)(\s*mode\s*([0-9]+))?.*
! Touchstone port assignment:
! Touchstone port 1 = CST MWS port Zmax ("") mode 1
! Touchstone port 2 = CST MWS port Zmax ("") mode 2
! Touchstone port 3 = CST MWS port Zmin ("") mode 1
! Touchstone port 4 = CST MWS port Zmin ("") mode 2
! S-Parameters are not renormalized. Each port impedance will be approximated by the real part at minimum frequency. The values are described via the [Reference] keyword.
! Default impedance is overridden by [Reference]
[Version] 2.0
# GHz S RI R 376.73
[Number of Ports] 4
[Reference]
376.73 376.73 259.888 259.888 
[Number of Frequencies] 51
[Network Data]
281700                -0.0111821      -0.0672839      0.000156198     0.000142351        -0.278847       -0.957226      -0.00025029    -0.000308059
                    -9.35974e-05     0.000240954        -0.055678      -0.0423035      9.05892e-05    -0.000472127         0.384125        0.911191
                       -0.278921       -0.956444     -0.000132153    -0.000300088        0.0266159       0.0630894      5.43167e-05     0.000185109
                    -0.000320172    -0.000289947         0.383899        0.911113      0.000213908     4.64946e-05       -0.0108366       0.0714011
281702                -0.0111932      -0.0672776      0.000156165      0.00014219         -0.27909       -0.957155     -0.000250348    -0.000308089
                    -9.32582e-05     0.000241195       -0.0556895      -0.0422604      9.04981e-05    -0.000472164         0.384485         0.91104
                       -0.279163       -0.956374     -0.000132212    -0.000299886        0.0266351       0.0630766      5.44827e-05     0.000185287
                    -0.000320332    -0.000289833         0.384259        0.910963        0.0002141     4.64825e-05       -0.0108193       0.0713876
281704                -0.0112043      -0.0672713      0.000156132     0.000142028        -0.279333       -0.957085     -0.000250406    -0.000308119
                    -9.29195e-05     0.000241434        -0.055701      -0.0422174      9.04066e-05      -0.0004722         0.384845         0.91089
                       -0.279405       -0.956303      -0.00013227    -0.000299685        0.0266543       0.0630638      5.46489e-05     0.000185466
                    -0.000320491    -0.000289719         0.384619        0.910813      0.000214292     4.64706e-05       -0.0108021        0.071374
281706                -0.0112155       -0.067265      0.000156099     0.000141867        -0.279576       -0.957014     -0.000250464    -0.000308149
                    -9.25812e-05     0.000241673       -0.0557125      -0.0421743      9.03147e-05    -0.000472235         0.385205        0.910739
                       -0.279648       -0.956233     -0.000132327    -0.000299483        0.0266734       0.0630509      5.48153e-05     0.000185645
                     -0.00032065    -0.000289605         0.384979        0.910662      0.000214484      4.6459e-05       -0.0107848       0.0713605
281708                -0.0112266      -0.0672588      0.000156065     0.000141705        -0.279819       -0.956944     -0.000250522    -0.000308178
                    -9.22433e-05     0.000241912        -0.055724      -0.0421312      9.02225e-05    -0.000472271         0.385565        0.910587
                        -0.27989       -0.956162     -0.000132384     -0.00029928        0.0266926       0.0630381       5.4982e-05     0.000185823
                    -0.000320809    -0.000289492         0.385339        0.910512      0.000214675     4.64475e-05       -0.0107676       0.0713469
281710                -0.0112377      -0.0672525       0.00015603     0.000141543        -0.280062       -0.956873     -0.000250581    -0.000308207
                    -9.19058e-05     0.000242149       -0.0557355      -0.0420881      9.01301e-05    -0.000472306         0.385925        0.910436
                       -0.280132       -0.956092     -0.000132441    -0.000299078        0.0267117       0.0630253      5.51488e-05     0.000186002
                    -0.000320968    -0.000289378         0.385699        0.910361      0.000214866     4.64361e-05       -0.0107504       0.0713334
281712                -0.0112488      -0.0672462      0.000155995     0.000141381        -0.280305       -0.956802      -0.00025064    -0.000308235
                    -9.15688e-05     0.000242386        -0.055747       -0.042045      9.00373e-05    -0.000472341         0.386284        0.910285
                       -0.280374       -0.956021     -0.000132497    -0.000298875        0.0267309       0.0630125      5.53158e-05     0.000186181
                    -0.000321127    -0.000289264         0.386059        0.910211      0.000215056      4.6425e-05       -0.0107332       0.0713199
281714                -0.0112599      -0.0672399      0.000155959     0.000141219        -0.280548       -0.956732     -0.000250699    -0.000308264
                    -9.12323e-05     0.000242622       -0.0557584      -0.0420019      8.99443e-05    -0.000472375         0.386644        0.910133
                       -0.280617       -0.955951     -0.000132552    -0.000298673          0.02675       0.0629996      5.54831e-05     0.000186359
                    -0.000321285    -0.000289151         0.386419         0.91006      0.000215247     4.64141e-05        -0.010716       0.0713064
281716                 -0.011271      -0.0672336      0.000155923     0.000141057        -0.280791       -0.956661     -0.000250758    -0.000308291
                    -9.08962e-05     0.000242858       -0.0557699      -0.0419588      8.98511e-05     -0.00047241         0.387004        0.909982
                       -0.280859        -0.95588     -0.000132607     -0.00029847        0.0267691       0.0629868      5.56505e-05     0.000186538
                    -0.000321443    -0.000289038         0.386778        0.909909      0.000215436     4.64033e-05       -0.0106989       0.0712928
281718                -0.0112821      -0.0672273      0.000155886     0.000140895        -0.281034        -0.95659     -0.000250817    -0.000308319
                    -9.05605e-05     0.000243092       -0.0557813      -0.0419157      8.97577e-05    -0.000472444         0.387363         0.90983
                       -0.281101       -0.955809     -0.000132662    -0.000298267        0.0267883       0.0629739      5.58182e-05     0.000186717
                    -0.000321601    -0.000288924         0.387138        0.909758      0.000215626     4.63927e-05       -0.0106818       0.0712793
281720                -0.0112932       -0.067221      0.000155849     0.000140733        -0.281277       -0.956519     -0.000250876    -0.000308346
                    -9.02254e-05     0.000243326       -0.0557927      -0.0418726       8.9664e-05    -0.000472478         0.387723        0.909678
                       -0.281343       -0.955738     -0.000132716    -0.000298063        0.0268074       0.0629611      5.59861e-05     0.000186896
                    -0.000321758    -0.000288811         0.387497        0.909607      0.000215815     4.63823e-05       -0.0106647       0.0712659
281722                -0.0113043      -0.0672147      0.000155811      0.00014057         -0.28152       -0.956448     -0.000250936    -0.000308372
                    -8.98907e-05     0.000243559       -0.0558041      -0.0418295      8.95702e-05    -0.000472511         0.388082        0.909526
                       -0.281585       -0.955667     -0.000132769     -0.00029786        0.0268265       0.0629482      5.61541e-05     0.000187075
                    -0.000321916    -0.000288698         0.387857        0.909455      0.000216003      4.6372e-05       -0.0106476       0.0712524
281724                -0.0113154      -0.0672084      0.000155773     0.000140408        -0.281763       -0.956377     -0.000250996    -0.000308399
                    -8.95565e-05     0.000243792       -0.0558155      -0.0417863      8.94761e-05    -0.000472545         0.388441        0.909373
                       -0.281828       -0.955596     -0.000132822    -0.000297656        0.0268456       0.0629354      5.63224e-05     0.000187254
                    -0.000322073    -0.000288585         0.388216        0.909304      0.000216192     4.63619e-05       -0.0106305       0.0712389
281726                -0.0113265      -0.0672021      0.000155734     0.000140245        -0.282006       -0.956305     -0.000251056    -0.000308425
                    -8.92228e-05     0.000244024       -0.0558269      -0.0417432      8.93819e-05    -0.000472578         0.388801        0.909221
                        -0.28207       -0.955525     -0.000132875    -0.000297453        0.0268647       0.0629225      5.64909e-05     0.000187433
                     -0.00032223    -0.000288472         0.388576        0.909152      0.000216379      4.6352e-05       -0.0106135       0.0712254
281728                -0.0113377      -0.0671958      0.000155695     0.000140083        -0.282249       -0.956234     -0.000251116     -0.00030845
                    -8.88896e-05     0.000244255       -0.0558383      -0.0417001      8.92875e-05    -0.000472611          0.38916        0.909069
                       -0.282312       -0.955454     -0.000132927    -0.000297249        0.0268838       0.0629096      5.66596e-05     0.000187612
                    -0.000322386     -0.00028836         0.388935           0.909      0.000216567     4.63422e-05       -0.0105965       0.0712119
281730                -0.0113488      -0.0671895      0.000155655      0.00013992        -0.282491       -0.956163     -0.000251176    -0.000308475
                    -8.85569e-05     0.000244485       -0.0558496       -0.041657       8.9193e-05    -0.000472644         0.389519        0.908916
                       -0.282554       -0.955383     -0.000132978    -0.000297045        0.0269028       0.0628967      5.68285e-05     0.000187791
                    -0.000322543    -0.000288247         0.389294        0.908848      0.000216754     4.63326e-05       -0.0105795       0.0711985
281732                -0.0113599      -0.0671832      0.000155615     0.000139757        -0.282734       -0.956092     -0.000251236      -0.0003085
                    -8.82247e-05     0.000244715        -0.055861      -0.0416139      8.90983e-05    -0.000472676         0.389878        0.908763
                       -0.282796       -0.955312     -0.000133029     -0.00029684        0.0269219       0.0628839      5.69976e-05      0.00018797
                    -0.000322699    -0.000288134         0.389653        0.908696       0.00021694     4.63232e-05       -0.0105625        0.071185
281734                 -0.011371      -0.0671769      0.000155574     0.000139595        -0.282977        -0.95602     -0.000251297    -0.000308524
                     -8.7893e-05     0.000244943       -0.0558723      -0.0415708      8.90034e-05    -0.000472709         0.390237         0.90861
                       -0.283038       -0.955241     -0.000133079    -0.000296636         0.026941        0.062871      5.71669e-05     0.000188149
                    -0.000322855    -0.000288022         0.390012        0.908544      0.000217126     4.63139e-05       -0.0105456       0.0711716
281736                -0.0113821      -0.0671706      0.000155533     0.000139432         -0.28322       -0.955949     -0.000251358    -0.000308548
                    -8.75618e-05     0.000245172       -0.0558837      -0.0415276      8.89084e-05    -0.000472741         0.390596        0.908457
                        -0.28328       -0.955169     -0.000133129    -0.000296431        0.0269601       0.0628581      5.73363e-05     0.000188328
                    -0.000323011     -0.00028791         0.390371        0.908392      0.000217312     4.63048e-05       -0.0105287       0.0711581
281738                -0.0113932      -0.0671643      0.000155491     0.000139269        -0.283463       -0.955877     -0.000251419    -0.000308572
                    -8.72312e-05     0.000245399        -0.055895      -0.0414845      8.88133e-05    -0.000472773         0.390955        0.908304
                       -0.283522       -0.955098     -0.000133179    -0.000296226        0.0269791       0.0628452       5.7506e-05     0.000188508
                    -0.000323166    -0.000287797          0.39073        0.908239      0.000217497     4.62959e-05       -0.0105118       0.0711447
281740                -0.0114043       -0.067158      0.000155449     0.000139106        -0.283705       -0.955806      -0.00025148    -0.000308594
                    -8.69011e-05     0.000245626       -0.0559063      -0.0414414       8.8718e-05    -0.000472805         0.391314         0.90815
                       -0.283764       -0.955026     -0.000133228    -0.000296022        0.0269982       0.0628323      5.76758e-05     0.000188687
                    -0.000323322    -0.000287685         0.391089        0.908087      0.000217682     4.62871e-05       -0.0104949       0.0711313
281742                -0.0114154      -0.0671517      0.000155406     0.000138943        -0.283948       -0.955734     -0.000251542    -0.000308616
                    -8.65715e-05     0.000245852       -0.0559175      -0.0413983      8.86226e-05    -0.000472837         0.391672        0.907997
                       -0.284006       -0.954955     -0.000133276    -0.000295816        0.0270172       0.0628194      5.78456e-05     0.000188866
                    -0.000323477    -0.000287573         0.391448        0.907934      0.000217867     4.62786e-05        -0.010478       0.0711179
281744                -0.0114265      -0.0671453      0.000155362     0.000138779        -0.284191       -0.955662     -0.000251604    -0.000308637
                    -8.62424e-05     0.000246077       -0.0559288      -0.0413551      8.85269e-05    -0.000472869         0.392031        0.907843
                       -0.284248       -0.954883     -0.000133324    -0.000295611        0.0270362       0.0628065      5.80152e-05     0.000189047
                    -0.000323632    -0.000287461         0.391807        0.907781      0.000218051     4.62702e-05       -0.0104612       0.0711045
281746                -0.0114376       -0.067139      0.000155318     0.000138616        -0.284434       -0.955591     -0.000251675    -0.000308644
                     -8.5914e-05     0.000246302       -0.0559401       -0.041312      8.84311e-05      -0.0004729          0.39239        0.907689
                        -0.28449       -0.954812     -0.000133371    -0.000295406        0.0270553       0.0627935      5.81806e-05     0.000189231
                    -0.000323786    -0.000287349         0.392166        0.907628      0.000218235     4.62621e-05       -0.0104444       0.0710911
281748                -0.0114487      -0.0671327      0.000155274     0.000138453        -0.284676       -0.955519     -0.000251724    -0.000308696
                     -8.5586e-05     0.000246525       -0.0559513      -0.0412689       8.8335e-05    -0.000472931         0.392748        0.907536
                       -0.284732        -0.95474     -0.000133418      -0.0002952        0.0270743       0.0627806      5.83633e-05     0.000189397
                    -0.000323941    -0.000287238         0.392524        0.907475      0.000218419     4.62545e-05       -0.0104276       0.0710777
281750                -0.0114598      -0.0671264      0.000155229     0.000138289        -0.284919       -0.955447     -0.000251787    -0.000308711
                    -8.52586e-05     0.000246749       -0.0559626      -0.0412257      8.82383e-05    -0.000472962         0.393107        0.907381
                       -0.284974       -0.954668     -0.000133464    -0.000294995        0.0270933       0.0627677      5.85315e-05     0.000189579
                    -0.000324095    -0.000287126         0.392883        0.907321      0.000218604     4.62478e-05       -0.0104108       0.0710643
281752                -0.0114709      -0.0671201      0.000155183     0.000138126        -0.285162       -0.955375     -0.000251849    -0.000308731
                    -8.49318e-05     0.000246971       -0.0559738      -0.0411826      8.81407e-05    -0.000472992         0.393465        0.907227
                       -0.285216       -0.954596      -0.00013351    -0.000294789        0.0271123       0.0627548      5.87021e-05      0.00018976
                    -0.000324249    -0.000287014         0.393241        0.907168      0.000218792     4.62439e-05       -0.0103941       0.0710509
281754                 -0.011482      -0.0671138      0.000155137     0.000137962        -0.285405       -0.955304     -0.000251912    -0.000308751
                    -8.46055e-05     0.000247193        -0.055985      -0.0411394      8.80396e-05    -0.000473018         0.393824        0.907073
                       -0.285458       -0.954524     -0.000133555    -0.000294583        0.0271314       0.0627417      5.88732e-05     0.000189939
                    -0.000324403    -0.000286903           0.3936        0.907014      0.000219148     4.61701e-05       -0.0103773       0.0710375
281756                -0.0114931      -0.0671074       0.00015509     0.000137799        -0.285647        -0.95523     -0.000251974    -0.000308771
                    -8.42798e-05     0.000247414       -0.0559962      -0.0410963      8.78907e-05    -0.000472944         0.394182        0.906918
                         -0.2857       -0.954452       -0.0001336    -0.000294377        0.0271503       0.0627289      5.90448e-05     0.000190118
                    -0.000324557    -0.000286791         0.393958         0.90686      0.000219131      4.6207e-05       -0.0103606       0.0710242
281758                -0.0115042      -0.0671011      0.000155043     0.000137635        -0.285889       -0.955158     -0.000252037    -0.000308791
                    -8.39547e-05     0.000247634       -0.0560074      -0.0410532      8.78751e-05    -0.000473101          0.39454        0.906764
                       -0.285942        -0.95438     -0.000133644     -0.00029417        0.0271693        0.062716      5.92166e-05     0.000190298
                    -0.000324711     -0.00028668         0.394316        0.906706      0.000219317     4.62052e-05       -0.0103439       0.0710108
281760                -0.0115153      -0.0670948      0.000154996     0.000137471        -0.286132       -0.955086       -0.0002521     -0.00030881
                    -8.36301e-05     0.000247853       -0.0560186        -0.04101      8.77705e-05    -0.000473126         0.394898        0.906609
                       -0.286183       -0.954308     -0.000133688    -0.000293964        0.0271883        0.062703      5.93886e-05     0.000190477
                    -0.000324864    -0.000286569         0.394675        0.906552      0.000219499     4.61993e-05       -0.0103273       0.0709975
281762                -0.0115264      -0.0670885      0.000154947     0.000137308        -0.286375       -0.955014     -0.000252163    -0.000308829
                    -8.33061e-05     0.000248072       -0.0560297      -0.0409669      8.76719e-05    -0.000473155         0.395256        0.906454
                       -0.286425       -0.954236     -0.000133731    -0.000293757        0.0272073       0.0626901      5.95609e-05     0.000190656
