! TOUCHSTONE file generated by CST MICROWAVE STUDIO
! Date and time: Wed Oct 15 17:27:51 2025
! Project name: Teste_Macro_Metasurface_Nanopilar.cst
! Parameters = {H=600; L_x=70; L_y=115; Lambda=1064; Max_L=200; Min_L=70; PathPara=1; Phi=0; Step_L=10; Theta=0; p=520; phaseX=180; phaseY=0}
! Header version: 2018
! Port assignment regex: !\s*Touchstone port\s*([0-9]+)\s*=\s*(CST MWS port|CST DS port)\s*([0-9]+|Zmin|Zmax)\s*\(\"(.*)\"\)(\s*mode\s*([0-9]+))?.*
! Touchstone port assignment:
! Touchstone port 1 = CST MWS port Zmax ("") mode 1
! Touchstone port 2 = CST MWS port Zmax ("") mode 2
! Touchstone port 3 = CST MWS port Zmin ("") mode 1
! Touchstone port 4 = CST MWS port Zmin ("") mode 2
! S-Parameters are not renormalized. Each port impedance will be approximated by the real part at minimum frequency. The values are described via the [Reference] keyword.
! Default impedance is overridden by [Reference]
[Version] 2.0
# GHz S RI R 376.73
[Number of Ports] 4
[Reference]
376.73 376.73 259.888 259.888 
[Number of Frequencies] 51
[Network Data]
281700                 0.0158357     -0.00690276      7.17577e-05    -0.000307051        -0.531165        -0.84502     -0.000166863    -7.01635e-05
                    -0.000210261    -0.000170847        0.0429554       -0.123891     -7.50167e-05     0.000132486         0.108684       -0.985002
                       -0.531261       -0.845222     -0.000135272     0.000219615        0.0127198        -0.01072       0.00016977     0.000227888
                     4.48552e-06    -0.000131783         0.109186       -0.985032       7.1236e-05     0.000146719        0.0148059        0.130358
281702                 0.0158326     -0.00689256      7.15977e-05    -0.000307047        -0.531394       -0.844876      -0.00016689    -7.00574e-05
                    -0.000210234    -0.000170912         0.042943       -0.123892     -7.50055e-05     0.000132536         0.108449       -0.985028
                       -0.531489       -0.845078     -0.000135164     0.000219621        0.0127034      -0.0107285      0.000169787     0.000227743
                     4.47394e-06    -0.000131685         0.108951       -0.985058      7.13119e-05     0.000146629        0.0148557        0.130349
281704                 0.0158296     -0.00688236      7.14379e-05    -0.000307044        -0.531623       -0.844732     -0.000166916    -6.99514e-05
                    -0.000210207    -0.000170976        0.0429306       -0.123893     -7.49942e-05     0.000132587         0.108215       -0.985054
                       -0.531718       -0.844934     -0.000135057     0.000219628         0.012687       -0.010737      0.000169803     0.000227599
                     4.46246e-06    -0.000131588         0.108717       -0.985085      7.13877e-05     0.000146538        0.0149055        0.130341
281706                 0.0158265     -0.00687216      7.12783e-05    -0.000307041        -0.531852       -0.844588     -0.000166943    -6.98455e-05
                    -0.000210181    -0.000171041        0.0429182       -0.123894     -7.49829e-05     0.000132638          0.10798        -0.98508
                       -0.531947        -0.84479     -0.000134949     0.000219634        0.0126707      -0.0107455       0.00016982     0.000227455
                     4.45109e-06    -0.000131491         0.108482       -0.985111      7.14634e-05     0.000146448        0.0149554        0.130332
281708                 0.0158235     -0.00686196       7.1119e-05    -0.000307038         -0.53208       -0.844444     -0.000166969    -6.97395e-05
                    -0.000210155    -0.000171106        0.0429058       -0.123895     -7.49716e-05     0.000132688         0.107745       -0.985107
                       -0.532176       -0.844645     -0.000134841      0.00021964        0.0126543       -0.010754      0.000169836     0.000227311
                     4.43983e-06    -0.000131393         0.108247       -0.985137       7.1539e-05     0.000146357        0.0150052        0.130323
281710                 0.0158205     -0.00685176      7.09599e-05    -0.000307035        -0.532309         -0.8443     -0.000166996    -6.96336e-05
                    -0.000210129     -0.00017117        0.0428934       -0.123896     -7.49602e-05     0.000132739         0.107511       -0.985133
                       -0.532405       -0.844501     -0.000134734     0.000219647        0.0126379      -0.0107625      0.000169853     0.000227167
                     4.42867e-06    -0.000131296         0.108012       -0.985163      7.16145e-05     0.000146267         0.015055        0.130314
281712                 0.0158174     -0.00684156      7.08011e-05    -0.000307033        -0.532538       -0.844156     -0.000167022    -6.95277e-05
                    -0.000210103    -0.000171235         0.042881       -0.123897     -7.49487e-05      0.00013279         0.107276       -0.985159
                       -0.532634       -0.844357     -0.000134626     0.000219653        0.0126215      -0.0107709      0.000169869     0.000227023
                     4.41761e-06    -0.000131198         0.107777       -0.985189        7.169e-05     0.000146176        0.0151048        0.130305
281714                 0.0158144     -0.00683136      7.06424e-05     -0.00030703        -0.532766       -0.844012     -0.000167048    -6.94218e-05
                    -0.000210077    -0.000171299        0.0428686       -0.123898     -7.49373e-05     0.000132841         0.107041       -0.985185
                       -0.532862       -0.844212     -0.000134519      0.00021966        0.0126051      -0.0107793      0.000169886     0.000226879
                     4.40665e-06    -0.000131101         0.107542       -0.985215      7.17653e-05     0.000146086        0.0151546        0.130297
281716                 0.0158114     -0.00682116      7.04841e-05    -0.000307027        -0.532995       -0.843867     -0.000167074     -6.9316e-05
                    -0.000210052    -0.000171364        0.0428562       -0.123899     -7.49258e-05     0.000132891         0.106806       -0.985211
                       -0.533091       -0.844068     -0.000134411     0.000219666        0.0125887      -0.0107878      0.000169902     0.000226736
                     4.39579e-06    -0.000131003         0.107307       -0.985241      7.18406e-05     0.000145995        0.0152043        0.130288
281718                 0.0158083     -0.00681096      7.03259e-05    -0.000307024        -0.533224       -0.843723       -0.0001671    -6.92102e-05
                    -0.000210027    -0.000171428        0.0428439         -0.1239     -7.49142e-05     0.000132942         0.106572       -0.985236
                       -0.533319       -0.843923     -0.000134304     0.000219673        0.0125723      -0.0107962      0.000169919     0.000226592
                     4.38502e-06    -0.000130905         0.107073       -0.985267      7.19159e-05     0.000145905        0.0152541        0.130279
281720                 0.0158053     -0.00680075       7.0168e-05    -0.000307021        -0.533452       -0.843578     -0.000167125    -6.91044e-05
                    -0.000210002    -0.000171492        0.0428315       -0.123901     -7.49027e-05     0.000132993         0.106337       -0.985262
                       -0.533548       -0.843779     -0.000134196     0.000219679        0.0125558      -0.0108046      0.000169935     0.000226449
                     4.37434e-06    -0.000130807         0.106838       -0.985293       7.1991e-05     0.000145814        0.0153039         0.13027
281722                 0.0158023     -0.00679055      7.00103e-05    -0.000307018        -0.533681       -0.843434     -0.000167151    -6.89986e-05
                    -0.000209978    -0.000171557        0.0428191       -0.123902     -7.48911e-05     0.000133044         0.106102       -0.985288
                       -0.533777       -0.843634     -0.000134089     0.000219686        0.0125394      -0.0108129      0.000169952     0.000226306
                     4.36376e-06     -0.00013071         0.106603       -0.985319      7.20661e-05     0.000145723        0.0153537        0.130261
281724                 0.0157992     -0.00678034      6.98529e-05    -0.000307016        -0.533909       -0.843289     -0.000167176    -6.88928e-05
                    -0.000209954    -0.000171621        0.0428067       -0.123903     -7.48794e-05     0.000133095         0.105867       -0.985314
                       -0.534005       -0.843489     -0.000133982     0.000219693         0.012523      -0.0108213      0.000169968     0.000226163
                     4.35325e-06    -0.000130612         0.106368       -0.985345      7.21411e-05     0.000145633        0.0154035        0.130252
281726                 0.0157962     -0.00677014      6.96957e-05    -0.000307013        -0.534138       -0.843145     -0.000167201    -6.87871e-05
                     -0.00020993    -0.000171685        0.0427943       -0.123904     -7.48677e-05     0.000133146         0.105633       -0.985339
                       -0.534234       -0.843345     -0.000133875     0.000219699        0.0125066      -0.0108297      0.000169984      0.00022602
                     4.34284e-06    -0.000130514         0.106133        -0.98537       7.2216e-05     0.000145542        0.0154532        0.130243
281728                 0.0157932     -0.00675993      6.95387e-05     -0.00030701        -0.534366          -0.843     -0.000167226    -6.86814e-05
                    -0.000209906     -0.00017175        0.0427819       -0.123905      -7.4856e-05     0.000133197         0.105398       -0.985365
                       -0.534462         -0.8432     -0.000133767     0.000219706        0.0124901       -0.010838      0.000170001     0.000225877
                     4.33249e-06    -0.000130416         0.105898       -0.985396      7.22909e-05     0.000145452         0.015503        0.130234
281730                 0.0157902     -0.00674972      6.93819e-05    -0.000307008        -0.534594       -0.842855     -0.000167251    -6.85756e-05
                    -0.000209882    -0.000171814        0.0427695       -0.123906     -7.48442e-05     0.000133247         0.105163        -0.98539
                        -0.53469       -0.843055      -0.00013366     0.000219713        0.0124737      -0.0108464      0.000170017     0.000225734
                     4.32223e-06    -0.000130318         0.105663       -0.985422      7.23656e-05     0.000145361        0.0155527        0.130225
281732                 0.0157871     -0.00673951      6.92254e-05    -0.000307005        -0.534823        -0.84271     -0.000167276    -6.84699e-05
                    -0.000209859    -0.000171878        0.0427571       -0.123907     -7.48324e-05     0.000133298         0.104928       -0.985416
                       -0.534919        -0.84291     -0.000133553      0.00021972        0.0124572      -0.0108547      0.000170033     0.000225592
                     4.31203e-06    -0.000130219         0.105428       -0.985447      7.24404e-05     0.000145271        0.0156025        0.130216
281734                 0.0157841      -0.0067293      6.90691e-05    -0.000307002        -0.535051       -0.842565     -0.000167301    -6.83641e-05
                    -0.000209836    -0.000171942        0.0427447       -0.123908     -7.48206e-05     0.000133349         0.104693       -0.985441
                       -0.535147       -0.842765     -0.000133445     0.000219726        0.0124408       -0.010863      0.000170049     0.000225449
                     4.30188e-06    -0.000130121         0.105193       -0.985473       7.2515e-05      0.00014518        0.0156522        0.130207
281736                 0.0157811     -0.00671909       6.8913e-05       -0.000307        -0.535279        -0.84242     -0.000167325    -6.82582e-05
                    -0.000209813    -0.000172006        0.0427323       -0.123909     -7.48087e-05       0.0001334         0.104459       -0.985467
                       -0.535375        -0.84262     -0.000133338     0.000219733        0.0124243      -0.0108713      0.000170065     0.000225307
                     4.29179e-06    -0.000130023         0.104958       -0.985498      7.25896e-05     0.000145089         0.015702        0.130198
281738                 0.0157781     -0.00670888      6.87571e-05    -0.000306997        -0.535507       -0.842275      -0.00016735    -6.81521e-05
                     -0.00020979     -0.00017207        0.0427199        -0.12391     -7.47968e-05     0.000133451         0.104224       -0.985492
                       -0.535604       -0.842475     -0.000133231      0.00021974        0.0124078      -0.0108796      0.000170081     0.000225164
                     4.28173e-06    -0.000129924         0.104723       -0.985523      7.26641e-05     0.000144999        0.0157517        0.130189
281740                 0.0157751     -0.00669867      6.86015e-05    -0.000306995        -0.535735        -0.84213     -0.000167375    -6.80457e-05
                    -0.000209768    -0.000172134        0.0427075       -0.123911     -7.47849e-05     0.000133502         0.103989       -0.985517
                       -0.535832       -0.842329     -0.000133124     0.000219747        0.0123914      -0.0108878      0.000170096     0.000225022
                     4.27168e-06    -0.000129826         0.104488       -0.985549      7.27386e-05     0.000144908        0.0158014        0.130179
281742                 0.0157721     -0.00668846       6.8446e-05    -0.000306992        -0.535964       -0.841985       -0.0001674    -6.79384e-05
                    -0.000209745    -0.000172198        0.0426951       -0.123912     -7.47729e-05     0.000133553         0.103754       -0.985542
                        -0.53606       -0.842184     -0.000133016     0.000219754        0.0123749      -0.0108961      0.000170109     0.000224881
                      4.2616e-06    -0.000129727         0.104253       -0.985574       7.2813e-05     0.000144818        0.0158512         0.13017
281744                 0.0157691     -0.00667824      6.82908e-05     -0.00030699        -0.536192        -0.84184     -0.000167427    -6.78286e-05
                    -0.000209723    -0.000172261        0.0426828       -0.123913     -7.47609e-05     0.000133604         0.103519       -0.985567
                       -0.536288       -0.842039     -0.000132909     0.000219761        0.0123584      -0.0109043      0.000170118      0.00022474
                     4.25139e-06    -0.000129628         0.104018       -0.985599      7.28873e-05     0.000144727        0.0159009        0.130161
281746                 0.0157661     -0.00666803      6.81358e-05    -0.000306987         -0.53642       -0.841694      -0.00016746    -6.77052e-05
                    -0.000209701    -0.000172325        0.0426704       -0.123914     -7.47489e-05     0.000133655         0.103285       -0.985592
                       -0.536516       -0.841893     -0.000132802     0.000219767        0.0123419      -0.0109126      0.000170103     0.000224601
                     4.24083e-06    -0.000129529         0.103783       -0.985624      7.29616e-05     0.000144636        0.0159506        0.130152
281748                 0.0157631     -0.00665781       6.7981e-05    -0.000306985        -0.536648       -0.841549     -0.000167415    -6.76946e-05
                    -0.000209677    -0.000172388         0.042658       -0.123915     -7.47368e-05     0.000133706         0.103049       -0.985618
                       -0.536744       -0.841748     -0.000132694     0.000219774        0.0123254      -0.0109208      0.000170289     0.000224438
                     4.22917e-06    -0.000129428         0.103548       -0.985649      7.30358e-05     0.000144546        0.0160003        0.130143
281750                 0.0157601      -0.0066476      6.78265e-05    -0.000306982        -0.536876       -0.841404     -0.000167479    -6.75418e-05
                    -0.000209648    -0.000172449        0.0426456       -0.123916     -7.47247e-05     0.000133757         0.102815       -0.985643
                       -0.536972       -0.841602     -0.000132587     0.000219781        0.0123089       -0.010929      0.000170218     0.000224308
                     4.21075e-06    -0.000129321         0.103313       -0.985674        7.311e-05     0.000144455          0.01605        0.130134
281752                 0.0157571     -0.00663738      6.76721e-05     -0.00030698        -0.537104       -0.841258     -0.000167507    -6.74301e-05
                    -0.000209649    -0.000172516        0.0426332       -0.123917     -7.47125e-05     0.000133808          0.10258       -0.985667
                         -0.5372       -0.841457      -0.00013248     0.000219788        0.0122924      -0.0109372      0.000170223     0.000224168
                     4.23657e-06    -0.000129243         0.103078       -0.985699      7.31841e-05     0.000144364        0.0160997        0.130124
281754                 0.0157541     -0.00662716      6.75179e-05    -0.000306978        -0.537332       -0.841112     -0.000167531    -6.73225e-05
                    -0.000209622     -0.00017258        0.0426208       -0.123918     -7.47003e-05     0.000133859         0.102345       -0.985692
                       -0.537428       -0.841311     -0.000132372     0.000219795        0.0122759      -0.0109454      0.000170236     0.000224027
                     4.21254e-06    -0.000129138         0.102843       -0.985724      7.32581e-05     0.000144274        0.0161494        0.130115
281756                 0.0157511     -0.00661695       6.7364e-05    -0.000306975        -0.537559       -0.840967     -0.000167555    -6.72163e-05
                      -0.0002096    -0.000172644        0.0426084       -0.123919     -7.46881e-05      0.00013391          0.10211       -0.985717
                       -0.537656       -0.841165     -0.000132265     0.000219801        0.0122594      -0.0109536      0.000170251     0.000223886
                     4.20061e-06    -0.000129038         0.102608       -0.985749      7.33321e-05     0.000144183        0.0161991        0.130106
281758                 0.0157481     -0.00660673      6.72102e-05    -0.000306973        -0.537787       -0.840821     -0.000167578    -6.71107e-05
                    -0.000209579    -0.000172707         0.042596        -0.12392     -7.46758e-05     0.000133961         0.101875       -0.985742
                       -0.537884       -0.841019     -0.000132157     0.000219808        0.0122429      -0.0109617      0.000170266     0.000223745
                     4.19023e-06    -0.000128938         0.102373       -0.985774       7.3406e-05     0.000144092        0.0162488        0.130097
281760                 0.0157451     -0.00659651      6.70564e-05    -0.000306971        -0.538015       -0.840675     -0.000167601    -6.70054e-05
                    -0.000209558     -0.00017277        0.0425836       -0.123921     -7.46636e-05     0.000134012          0.10164       -0.985766
                       -0.538112       -0.840874     -0.000132049     0.000219814        0.0122264      -0.0109699      0.000170282     0.000223604
                     4.18037e-06    -0.000128838         0.102138       -0.985799      7.34795e-05     0.000144002        0.0162985        0.130087
281762                 0.0157421     -0.00658629      6.69033e-05    -0.000306968        -0.538243        -0.84053     -0.000167624    -6.69004e-05
                    -0.000209537    -0.000172833        0.0425712       -0.123922     -7.46513e-05     0.000134063         0.101406       -0.985791
                        -0.53834       -0.840728     -0.000131943      0.00021982        0.0122098       -0.010978      0.000170299     0.000223463
