! TOUCHSTONE file generated by CST MICROWAVE STUDIO
! Date and time: Wed Oct 15 17:34:02 2025
! Project name: Teste_Macro_Metasurface_Nanopilar.cst
! Parameters = {H=600; L_x=175; L_y=195; Lambda=1064; Max_L=200; Min_L=70; PathPara=1; Phi=0; Step_L=10; Theta=0; p=520; phaseX=180; phaseY=0}
! Header version: 2018
! Port assignment regex: !\s*Touchstone port\s*([0-9]+)\s*=\s*(CST MWS port|CST DS port)\s*([0-9]+|Zmin|Zmax)\s*\(\"(.*)\"\)(\s*mode\s*([0-9]+))?.*
! Touchstone port assignment:
! Touchstone port 1 = CST MWS port Zmax ("") mode 1
! Touchstone port 2 = CST MWS port Zmax ("") mode 2
! Touchstone port 3 = CST MWS port Zmin ("") mode 1
! Touchstone port 4 = CST MWS port Zmin ("") mode 2
! S-Parameters are not renormalized. Each port impedance will be approximated by the real part at minimum frequency. The values are described via the [Reference] keyword.
! Default impedance is overridden by [Reference]
[Version] 2.0
# GHz S RI R 376.73
[Number of Ports] 4
[Reference]
376.73 376.73 259.888 259.888 
[Number of Frequencies] 51
[Network Data]
281700                   0.15342       0.0614852     -7.32532e-05    -3.91599e-05        -0.145204       -0.966526      0.000448997     7.17808e-06
                    -5.77508e-05     5.50692e-05         0.286296         0.14315      0.000429672     5.65766e-05         0.277917       -0.902429
                       -0.144786       -0.966461       0.00039921     6.65537e-05         0.130045      -0.0932262      -8.6049e-05      0.00010384
                     0.000451268    -0.000117308         0.278132       -0.902362     -1.88148e-05     0.000243997         0.315896       0.0418059
281702                  0.153322       0.0614761      -7.3209e-05    -3.92737e-05        -0.145602       -0.966476      0.000449045     7.03267e-06
                    -5.74749e-05     5.48224e-05         0.286311        0.143139      0.000429786     5.63142e-05         0.277662       -0.902505
                       -0.145184       -0.966411      0.000399459     6.64769e-05         0.129879      -0.0932817     -8.59222e-05     0.000104169
                     0.000451203    -0.000117265         0.277878       -0.902437     -1.86133e-05     0.000244429         0.315925       0.0416449
281704                  0.153224        0.061467      -7.3165e-05    -3.93866e-05           -0.146       -0.966425      0.000449091     6.88782e-06
                    -5.72006e-05     5.45773e-05         0.286325        0.143127      0.000429901     5.60512e-05         0.277406       -0.902581
                       -0.145583       -0.966361      0.000399709     6.63999e-05         0.129714       -0.093337     -8.57955e-05     0.000104498
                      0.00045114    -0.000117218         0.277623       -0.902513     -1.84117e-05     0.000244862         0.315954        0.041484
281706                  0.153125       0.0614579     -7.31211e-05    -3.94986e-05        -0.146399       -0.966374      0.000449136      6.7436e-06
                    -5.69278e-05     5.43338e-05         0.286339        0.143116      0.000430015     5.57875e-05         0.277151       -0.902657
                       -0.145981       -0.966311       0.00039996     6.63227e-05         0.129548      -0.0933921      -8.5669e-05     0.000104825
                     0.000451081    -0.000117168         0.277369       -0.902588     -1.82101e-05     0.000245297         0.315983        0.041323
281708                  0.153027       0.0614489     -7.30772e-05    -3.96098e-05        -0.146797       -0.966323       0.00044918     6.60009e-06
                    -5.66564e-05     5.40919e-05         0.286353        0.143104       0.00043013     5.55233e-05         0.276895       -0.902733
                        -0.14638        -0.96626      0.000400211     6.62455e-05         0.129381      -0.0934471     -8.55426e-05     0.000105153
                     0.000451024    -0.000117116         0.277114       -0.902663     -1.80083e-05     0.000245732         0.316011        0.041162
281710                  0.152928       0.0614399     -7.30334e-05    -3.97201e-05        -0.147196       -0.966272      0.000449224      6.4573e-06
                    -5.63866e-05     5.38516e-05         0.286368        0.143093      0.000430244     5.52585e-05         0.276639       -0.902809
                       -0.146779        -0.96621      0.000400464      6.6168e-05         0.129215      -0.0935018     -8.54164e-05     0.000105479
                     0.000450971     -0.00011706         0.276859       -0.902738     -1.78065e-05     0.000246169          0.31604        0.041001
281712                  0.152829        0.061431     -7.29897e-05    -3.98296e-05        -0.147595       -0.966221      0.000449267     6.31523e-06
                    -5.61183e-05     5.36128e-05         0.286382        0.143081      0.000430358      5.4993e-05         0.276384       -0.902885
                       -0.147178       -0.966159      0.000400718     6.60903e-05         0.129048      -0.0935563     -8.52904e-05     0.000105805
                      0.00045092    -0.000117002         0.276605       -0.902814     -1.76047e-05     0.000246607         0.316068       0.0408399
281714                   0.15273       0.0614221      -7.2946e-05    -3.99382e-05        -0.147993       -0.966169      0.000449309     6.17386e-06
                    -5.58515e-05     5.33756e-05         0.286396         0.14307      0.000430473      5.4727e-05         0.276128       -0.902961
                       -0.147577       -0.966108      0.000400973     6.60124e-05         0.128882      -0.0936106     -8.51646e-05     0.000106131
                     0.000450872     -0.00011694          0.27635       -0.902889     -1.74028e-05     0.000247046         0.316097       0.0406789
281716                  0.152631       0.0614132     -7.29023e-05     -4.0046e-05        -0.148392       -0.966117      0.000449352     6.03317e-06
                    -5.55861e-05     5.31398e-05          0.28641        0.143058      0.000430587     5.44604e-05         0.275872       -0.903036
                       -0.147977       -0.966057      0.000401228     6.59342e-05         0.128715      -0.0936647     -8.50389e-05     0.000106456
                     0.000450827    -0.000116876         0.276095       -0.902964     -1.72009e-05     0.000247487         0.316125       0.0405178
281718                  0.152532       0.0614043     -7.28587e-05     -4.0153e-05        -0.148792       -0.966066      0.000449394     5.89311e-06
                    -5.53221e-05     5.29054e-05         0.286425        0.143046      0.000430702     5.41931e-05         0.275617       -0.903112
                       -0.148376       -0.966006      0.000401485     6.58558e-05         0.128548      -0.0937186     -8.49135e-05     0.000106781
                     0.000450784    -0.000116809         0.275841       -0.903039     -1.69991e-05     0.000247929         0.316153       0.0403567
281720                  0.152432       0.0613955      -7.2815e-05    -4.02592e-05        -0.149191       -0.966013      0.000449436     5.75363e-06
                    -5.50597e-05     5.26725e-05         0.286439        0.143035      0.000430816     5.39253e-05         0.275361       -0.903187
                       -0.148776       -0.965955      0.000401743     6.57771e-05         0.128381      -0.0937723     -8.47883e-05     0.000107105
                     0.000450745    -0.000116739         0.275586       -0.903113     -1.67972e-05     0.000248372         0.316181       0.0401956
281722                  0.152333       0.0613868     -7.27713e-05    -4.03646e-05         -0.14959       -0.965961      0.000449478     5.61468e-06
                    -5.47986e-05      5.2441e-05         0.286453        0.143023      0.000430931     5.36568e-05         0.275105       -0.903263
                       -0.149175       -0.965903      0.000402002     6.56982e-05         0.128213      -0.0938258     -8.46633e-05     0.000107429
                     0.000450708    -0.000116667         0.275331       -0.903188     -1.65954e-05     0.000248815         0.316209       0.0400345
281724                  0.152233        0.061378     -7.27276e-05    -4.04692e-05         -0.14999       -0.965909       0.00044952     5.47622e-06
                     -5.4539e-05     5.22109e-05         0.286467        0.143012      0.000431045     5.33877e-05          0.27485       -0.903338
                       -0.149575       -0.965851      0.000402262     6.56189e-05         0.128046      -0.0938791     -8.45385e-05     0.000107752
                     0.000450674    -0.000116591         0.275077       -0.903263     -1.63937e-05     0.000249261         0.316237       0.0398733
281726                  0.152133       0.0613693     -7.26839e-05     -4.0573e-05        -0.150389       -0.965856      0.000449562     5.33818e-06
                    -5.42808e-05     5.19821e-05         0.286482           0.143       0.00043116     5.31181e-05         0.274594       -0.903413
                       -0.149975       -0.965799      0.000402523     6.55392e-05         0.127878      -0.0939322     -8.44139e-05     0.000108075
                     0.000450642    -0.000116514         0.274822       -0.903338      -1.6192e-05     0.000249707         0.316265       0.0397122
281728                  0.152033       0.0613607     -7.26402e-05    -4.06761e-05        -0.150789       -0.965803      0.000449604     5.20053e-06
                     -5.4024e-05     5.17546e-05         0.286496        0.142989      0.000431275     5.28478e-05         0.274338       -0.903489
                       -0.150375       -0.965747      0.000402785     6.54593e-05          0.12771       -0.093985     -8.42896e-05     0.000108397
                     0.000450614    -0.000116433         0.274567       -0.903412     -1.59903e-05     0.000250154         0.316293        0.039551
281730                  0.151933        0.061352     -7.25964e-05    -4.07783e-05        -0.151189        -0.96575      0.000449646     5.06321e-06
                    -5.37686e-05     5.15284e-05          0.28651        0.142977       0.00043139     5.25769e-05         0.274082       -0.903564
                       -0.150776       -0.965694      0.000403048     6.53789e-05         0.127542      -0.0940377     -8.41656e-05     0.000108719
                     0.000450588     -0.00011635         0.274312       -0.903487     -1.57888e-05     0.000250603         0.316321       0.0393898
281732                  0.151833       0.0613434     -7.25526e-05    -4.08798e-05        -0.151589       -0.965697      0.000449689     4.92618e-06
                    -5.35146e-05     5.13034e-05         0.286524        0.142966      0.000431504     5.23054e-05         0.273826       -0.903639
                       -0.151176       -0.965642      0.000403312     6.52982e-05         0.127374      -0.0940902     -8.40417e-05     0.000109041
                     0.000450565    -0.000116264         0.274058       -0.903561     -1.55873e-05     0.000251052         0.316348       0.0392286
281734                  0.151732       0.0613349     -7.25088e-05    -4.09805e-05        -0.151989       -0.965643      0.000449731     4.78939e-06
                     -5.3262e-05     5.10797e-05         0.286539        0.142954      0.000431619     5.20334e-05         0.273571       -0.903714
                       -0.151576       -0.965589      0.000403578     6.52171e-05         0.127205      -0.0941424     -8.39182e-05     0.000109362
                     0.000450545    -0.000116176         0.273803       -0.903636     -1.53859e-05     0.000251503         0.316376       0.0390674
281736                  0.151632       0.0613264     -7.24649e-05    -4.10802e-05        -0.152389        -0.96559      0.000449773     4.65282e-06
                    -5.30107e-05     5.08572e-05         0.286553        0.142943      0.000431734     5.17607e-05         0.273315       -0.903789
                       -0.151977       -0.965536      0.000403844     6.51355e-05         0.127037      -0.0941945     -8.37949e-05     0.000109683
                     0.000450527    -0.000116085         0.273548        -0.90371     -1.51847e-05     0.000251954         0.316403       0.0389061
281738                  0.151531       0.0613179     -7.24213e-05     -4.1179e-05         -0.15279       -0.965536      0.000449816     4.51642e-06
                    -5.27608e-05     5.06359e-05         0.286567        0.142931      0.000431849     5.14874e-05         0.273059       -0.903863
                       -0.152378       -0.965483      0.000404112     6.50535e-05         0.126868      -0.0942463     -8.36718e-05     0.000110003
                     0.000450512    -0.000115992         0.273293       -0.903784     -1.49835e-05     0.000252407         0.316431       0.0387449
281740                   0.15143       0.0613094     -7.23782e-05    -4.12764e-05         -0.15319       -0.965482      0.000449858     4.38015e-06
                    -5.25123e-05     5.04157e-05         0.286581         0.14292      0.000431964     5.12136e-05         0.272803       -0.903938
                       -0.152779        -0.96543      0.000404381      6.4971e-05         0.126699      -0.0942979     -8.35491e-05     0.000110323
                       0.0004505    -0.000115896         0.273038       -0.903858     -1.47824e-05      0.00025286         0.316458       0.0385836
281742                  0.151329        0.061301     -7.23381e-05    -4.13724e-05        -0.153591       -0.965428      0.000449901     4.24399e-06
                    -5.22651e-05     5.01967e-05         0.286596        0.142908       0.00043208     5.09391e-05         0.272547       -0.904013
                        -0.15318       -0.965376      0.000404652     6.48878e-05          0.12653      -0.0943493     -8.34266e-05     0.000110643
                      0.00045049    -0.000115798         0.272784       -0.903932     -1.45815e-05     0.000253315         0.316485       0.0384223
281744                  0.151228       0.0612927     -7.23024e-05    -4.14787e-05        -0.153991       -0.965373      0.000449944      4.1079e-06
                    -5.20193e-05     4.99788e-05          0.28661        0.142897      0.000432195     5.06641e-05         0.272291       -0.904087
                       -0.153581       -0.965322      0.000404926     6.48021e-05          0.12636      -0.0944005     -8.33044e-05     0.000110963
                     0.000450483    -0.000115697         0.272529       -0.904006     -1.43805e-05     0.000253771         0.316513        0.038261
281746                  0.151127       0.0612843     -7.22485e-05    -4.15816e-05        -0.154392       -0.965319      0.000449987     3.97184e-06
                    -5.17748e-05     4.97619e-05         0.286624        0.142885       0.00043231     5.03884e-05         0.272035       -0.904162
                       -0.153982       -0.965268      0.000405198     6.47056e-05         0.126191      -0.0944515     -8.31825e-05     0.000111283
                     0.000450479    -0.000115594         0.272274        -0.90408     -1.41796e-05     0.000254228          0.31654       0.0380997
281748                  0.151025       0.0612761     -7.22005e-05    -4.16758e-05        -0.154793       -0.965264       0.00045003     3.83576e-06
                    -5.15316e-05     4.95461e-05         0.286638        0.142874      0.000432426     5.01122e-05         0.271779       -0.904236
                       -0.154383       -0.965214      0.000405457     6.46234e-05         0.126021      -0.0945023     -8.30609e-05     0.000111602
                     0.000450477    -0.000115489         0.272019       -0.904154     -1.39787e-05     0.000254687         0.316567       0.0379384
281750                  0.150924       0.0612678     -7.21548e-05    -4.17702e-05        -0.155194       -0.965209      0.000450073     3.69963e-06
                    -5.12897e-05     4.93314e-05         0.286653        0.142862      0.000432541     4.98354e-05         0.271523       -0.904311
                       -0.154785        -0.96516      0.000405729     6.45434e-05         0.125852      -0.0945529     -8.29396e-05     0.000111921
                     0.000450478    -0.000115381         0.271764       -0.904228     -1.37816e-05     0.000255151         0.316594        0.037777
281752                  0.150822       0.0612596     -7.21095e-05    -4.18644e-05        -0.155596       -0.965154      0.000450116     3.56336e-06
                    -5.10492e-05     4.91175e-05         0.286667         0.14285      0.000432656     4.95579e-05         0.271267       -0.904385
                       -0.155187       -0.965105      0.000406004     6.44595e-05         0.125682      -0.0946033     -8.28186e-05      0.00011224
                     0.000450481    -0.000115272         0.271509       -0.904302     -1.35902e-05     0.000255605          0.31662       0.0376157
281754                   0.15072       0.0612514     -7.20644e-05    -4.19583e-05        -0.155997       -0.965099       0.00045016     3.42687e-06
                    -5.08099e-05     4.89046e-05         0.286681        0.142839       0.00043277     4.92796e-05         0.271011       -0.904459
                       -0.155588       -0.965051       0.00040628      6.4374e-05         0.125511      -0.0946534     -8.26979e-05     0.000112558
                     0.000450487    -0.000115161         0.271254       -0.904376     -1.33885e-05      0.00025606         0.316647       0.0374543
281756                  0.150618       0.0612433     -7.20191e-05    -4.20518e-05        -0.156399       -0.965043      0.000450203     3.28999e-06
                     -5.0572e-05     4.86924e-05         0.286695        0.142827      0.000432878     4.89954e-05         0.270755       -0.904534
                        -0.15599       -0.964996      0.000406557     6.42874e-05         0.125341      -0.0947034     -8.25776e-05     0.000112877
                     0.000450496    -0.000115048         0.270999       -0.904449     -1.31875e-05     0.000256519         0.316674       0.0372929
281758                  0.150516       0.0612352     -7.19738e-05    -4.21447e-05          -0.1568       -0.964987      0.000450247     3.15242e-06
                    -5.03356e-05     4.84807e-05          0.28671        0.142816      0.000433017     4.87175e-05         0.270499       -0.904608
                       -0.156392       -0.964941      0.000406834        6.42e-05         0.125171      -0.0947531     -8.24577e-05     0.000113196
                     0.000450509    -0.000114934         0.270744       -0.904523     -1.29875e-05      0.00025698           0.3167       0.0371315
281760                  0.150414       0.0612271     -7.19284e-05    -4.22371e-05        -0.157202       -0.964931      0.000450291     3.01357e-06
                    -5.01018e-05     4.82695e-05         0.286724        0.142804      0.000433129     4.84417e-05         0.270243       -0.904682
                       -0.156795       -0.964886      0.000407113     6.41117e-05            0.125      -0.0948026     -8.23385e-05     0.000113518
                     0.000450529    -0.000114816         0.270489       -0.904596     -1.27882e-05     0.000257442         0.316727       0.0369701
281762                  0.150311       0.0612191     -7.18829e-05     -4.2329e-05        -0.157604       -0.964875      0.000450334     2.87195e-06
                    -4.98709e-05     4.80616e-05         0.286738        0.142793      0.000433244     4.81619e-05         0.269987       -0.904756
                       -0.157197        -0.96483      0.000407392     6.40227e-05         0.124829      -0.0948519     -8.21202e-05     0.000113877
