! TOUCHSTONE file generated by CST MICROWAVE STUDIO
! Date and time: Wed Oct 15 17:29:27 2025
! Project name: Teste_Macro_Metasurface_Nanopilar.cst
! Parameters = {H=600; L_x=95; L_y=200; Lambda=1064; Max_L=200; Min_L=70; PathPara=1; Phi=0; Step_L=10; Theta=0; p=520; phaseX=180; phaseY=0}
! Header version: 2018
! Port assignment regex: !\s*Touchstone port\s*([0-9]+)\s*=\s*(CST MWS port|CST DS port)\s*([0-9]+|Zmin|Zmax)\s*\(\"(.*)\"\)(\s*mode\s*([0-9]+))?.*
! Touchstone port assignment:
! Touchstone port 1 = CST MWS port Zmax ("") mode 1
! Touchstone port 2 = CST MWS port Zmax ("") mode 2
! Touchstone port 3 = CST MWS port Zmin ("") mode 1
! Touchstone port 4 = CST MWS port Zmin ("") mode 2
! S-Parameters are not renormalized. Each port impedance will be approximated by the real part at minimum frequency. The values are described via the [Reference] keyword.
! Default impedance is overridden by [Reference]
[Version] 2.0
# GHz S RI R 376.73
[Number of Ports] 4
[Reference]
376.73 376.73 259.888 259.888 
[Number of Frequencies] 51
[Network Data]
281700                  0.489933       -0.416809     -1.86504e-06    -8.34481e-05          0.74933       -0.014043      9.24629e-05     0.000239045
                    -5.63619e-06    -0.000154661         0.140647        0.154134      3.23796e-05     9.76146e-06        -0.886515        0.396701
                        0.749031      -0.0139632     -1.55038e-05    -0.000205879        -0.480657       -0.417243     -8.75515e-05    -0.000125502
                     7.12826e-05     1.69997e-05        -0.887046        0.396344      4.86071e-06      9.4778e-05        0.0222295        0.206795
281702                  0.489694       -0.416803       -2.271e-06    -8.34913e-05         0.749486      -0.0144349      9.21243e-05     0.000238651
                    -5.76756e-06    -0.000154642         0.140677        0.154124      3.23949e-05      9.7494e-06        -0.886368         0.39702
                        0.749187      -0.0143551     -1.51475e-05    -0.000205978        -0.480859       -0.416728     -8.68999e-05    -0.000125053
                     7.12403e-05     1.70137e-05          -0.8869        0.396663      4.89071e-06     9.48951e-05         0.022352        0.206794
281704                  0.489455       -0.416797     -2.67617e-06    -8.35353e-05         0.749642      -0.0148269      9.17867e-05     0.000238256
                    -5.90036e-06    -0.000154623         0.140706        0.154114      3.24101e-05     9.73718e-06        -0.886222        0.397338
                        0.749344      -0.0147472     -1.47919e-05    -0.000206075         -0.48106       -0.416214     -8.62496e-05    -0.000124604
                     7.11983e-05     1.70275e-05        -0.886754        0.396983      4.92119e-06     9.50123e-05        0.0224745        0.206794
281706                  0.489217       -0.416791     -3.08056e-06    -8.35804e-05         0.749798       -0.015219      9.14503e-05     0.000237862
                     -6.0346e-06    -0.000154604         0.140735        0.154105      3.24251e-05     9.72479e-06        -0.886075        0.397657
                          0.7495      -0.0151393     -1.44373e-05     -0.00020617         -0.48126       -0.415699     -8.56008e-05    -0.000124156
                     7.11566e-05     1.70413e-05        -0.886607        0.397302      4.95214e-06     9.51295e-05         0.022597        0.206793
281708                  0.488978       -0.416785     -3.48418e-06    -8.36264e-05         0.749953      -0.0156111       9.1115e-05     0.000237468
                     -6.1703e-06    -0.000154585         0.140765        0.154095        3.244e-05     9.71223e-06        -0.885929        0.397975
                        0.749655      -0.0155315     -1.40834e-05    -0.000206263         -0.48146       -0.415185     -8.49534e-05    -0.000123707
                     7.11151e-05      1.7055e-05        -0.886461        0.397621      4.98356e-06     9.52468e-05        0.0227195        0.206792
281710                   0.48874       -0.416779     -3.88705e-06    -8.36734e-05         0.750108      -0.0160033      9.07807e-05     0.000237075
                    -6.30746e-06    -0.000154567         0.140794        0.154086      3.24547e-05     9.69951e-06        -0.885782        0.398293
                        0.749811      -0.0159238     -1.37304e-05    -0.000206353         -0.48166       -0.414671     -8.43074e-05    -0.000123258
                      7.1074e-05     1.70686e-05        -0.886314         0.39794      5.01545e-06     9.53641e-05        0.0228421        0.206791
281712                  0.488502       -0.416772     -4.28918e-06    -8.37214e-05         0.750263      -0.0163956      9.04475e-05     0.000236681
                     -6.4461e-06    -0.000154549         0.140823        0.154076      3.24694e-05     9.68662e-06        -0.885635        0.398612
                        0.749966      -0.0163162     -1.33782e-05    -0.000206441        -0.481859       -0.414156     -8.36627e-05     -0.00012281
                     7.10332e-05     1.70821e-05        -0.886167        0.398259      5.04779e-06     9.54814e-05        0.0229646         0.20679
281714                  0.488264       -0.416766     -4.69059e-06    -8.37705e-05         0.750418       -0.016788      9.01154e-05     0.000236288
                    -6.58625e-06    -0.000154531         0.140853        0.154066      3.24839e-05     9.67355e-06        -0.885488         0.39893
                        0.750121      -0.0167087     -1.30267e-05    -0.000206526        -0.482057       -0.413642     -8.30193e-05    -0.000122361
                     7.09927e-05     1.70956e-05        -0.886021        0.398578      5.08059e-06     9.55987e-05        0.0230871        0.206789
281716                  0.488026       -0.416759     -5.09129e-06    -8.38207e-05         0.750572      -0.0171805      8.97843e-05     0.000235895
                    -6.72791e-06    -0.000154513         0.140882        0.154057      3.24982e-05     9.66032e-06        -0.885341        0.399248
                        0.750275      -0.0171012      -1.2676e-05    -0.000206609        -0.482255       -0.413127     -8.23772e-05    -0.000121913
                     7.09526e-05     1.71089e-05        -0.885874        0.398897      5.11384e-06     9.57159e-05        0.0232097        0.206788
281718                  0.487788       -0.416752      -5.4913e-06    -8.38719e-05         0.750726      -0.0175731      8.94542e-05     0.000235502
                    -6.87111e-06    -0.000154495         0.140911        0.154047      3.25124e-05     9.64691e-06        -0.885194        0.399566
                        0.750429      -0.0174938      -1.2326e-05     -0.00020669        -0.482453       -0.412613     -8.17364e-05    -0.000121465
                     7.09127e-05     1.71222e-05        -0.885727        0.399215      5.14752e-06     9.58331e-05        0.0233323        0.206787
281720                   0.48755       -0.416745     -5.89061e-06    -8.39241e-05         0.750879      -0.0179658      8.91251e-05      0.00023511
                    -7.01586e-06    -0.000154478         0.140941        0.154037      3.25265e-05     9.63332e-06        -0.885047        0.399884
                        0.750583      -0.0178865     -1.19767e-05    -0.000206768        -0.482649       -0.412099     -8.10968e-05    -0.000121018
                     7.08732e-05     1.71354e-05         -0.88558        0.399534      5.18163e-06     9.59502e-05        0.0234548        0.206786
281722                  0.487312       -0.416738     -6.28926e-06    -8.39775e-05         0.751033      -0.0183585       8.8797e-05     0.000234718
                    -7.16217e-06     -0.00015446          0.14097        0.154027      3.25404e-05     9.61956e-06        -0.884899        0.400202
                        0.750736      -0.0182793      -1.1628e-05    -0.000206844        -0.482846       -0.411584     -8.04585e-05     -0.00012057
                      7.0834e-05     1.71485e-05        -0.885432        0.399853      5.21614e-06     9.60672e-05        0.0235774        0.206785
281724                  0.487075       -0.416731     -6.68725e-06     -8.4032e-05         0.751186      -0.0187513      8.84699e-05     0.000234326
                    -7.31006e-06    -0.000154443         0.140999        0.154018      3.25542e-05     9.60561e-06        -0.884752         0.40052
                        0.750889      -0.0186721       -1.128e-05    -0.000206917        -0.483041        -0.41107     -7.98213e-05    -0.000120123
                     7.07952e-05     1.71615e-05        -0.885285        0.400172      5.25106e-06     9.61841e-05           0.0237        0.206783
281726                  0.486837       -0.416724     -7.08459e-06    -8.40876e-05         0.751338      -0.0191442      8.81437e-05     0.000233934
                    -7.45955e-06    -0.000154426         0.141029        0.154008      3.25678e-05     9.59149e-06        -0.884604        0.400838
                        0.751042       -0.019065     -1.09327e-05    -0.000206988        -0.483237       -0.410556     -7.91853e-05    -0.000119676
                     7.07567e-05     1.71745e-05        -0.885137         0.40049      5.28636e-06     9.63008e-05        0.0238226        0.206782
281728                    0.4866       -0.416716      -7.4813e-06    -8.41443e-05          0.75149      -0.0195372      8.78184e-05     0.000233543
                    -7.61066e-06     -0.00015441         0.141058        0.153998      3.25812e-05     9.57719e-06        -0.884456        0.401156
                        0.751195      -0.0194581     -1.05859e-05    -0.000207056        -0.483431       -0.410042     -7.85505e-05    -0.000119229
                     7.07185e-05     1.71873e-05         -0.88499        0.400809      5.32203e-06     9.64174e-05        0.0239452         0.20678
281730                  0.486363       -0.416709     -7.87737e-06    -8.42021e-05         0.751642      -0.0199303      8.74941e-05     0.000233152
                    -7.76341e-06    -0.000154393         0.141087        0.153989      3.25945e-05      9.5627e-06        -0.884308        0.401474
                        0.751347      -0.0198511     -1.02397e-05    -0.000207122        -0.483626       -0.409528     -7.79168e-05    -0.000118783
                     7.06807e-05     1.72001e-05        -0.884842        0.401128      5.35805e-06     9.65338e-05        0.0240678        0.206779
281732                  0.486126       -0.416701     -8.27284e-06    -8.42611e-05         0.751794      -0.0203235      8.71707e-05     0.000232762
                    -7.91781e-06    -0.000154377         0.141117        0.153979      3.26076e-05     9.54803e-06         -0.88416        0.401792
                        0.751498      -0.0202443     -9.89406e-06    -0.000207185        -0.483819       -0.409013     -7.72842e-05    -0.000118337
                     7.06433e-05     1.72128e-05        -0.884694        0.401446      5.39441e-06       9.665e-05        0.0241904        0.206777
281734                  0.485889       -0.416693      -8.6677e-06    -8.43212e-05         0.751945      -0.0207167      8.68482e-05     0.000232371
                    -8.07387e-06    -0.000154361         0.141146        0.153969      3.26205e-05     9.53318e-06        -0.884012         0.40211
                         0.75165      -0.0206375     -9.54897e-06    -0.000207245        -0.484013       -0.408499     -7.66527e-05    -0.000117891
                     7.06062e-05     1.72255e-05        -0.884546        0.401765      5.43107e-06      9.6766e-05         0.024313        0.206775
281736                  0.485652       -0.416685     -9.06197e-06    -8.43825e-05         0.752096        -0.02111      8.65266e-05     0.000231981
                    -8.23163e-06    -0.000154345         0.141175        0.153959      3.26333e-05     9.51813e-06        -0.883864        0.402427
                        0.751801      -0.0210308     -9.20438e-06    -0.000207303        -0.484205       -0.407985     -7.60223e-05    -0.000117446
                     7.05695e-05      1.7238e-05        -0.884398        0.402083      5.46803e-06     9.68818e-05        0.0244356        0.206774
281738                  0.485415       -0.416677     -9.45565e-06     -8.4445e-05         0.752247      -0.0215034      8.62058e-05     0.000231592
                    -8.39109e-06     -0.00015433         0.141204        0.153949      3.26459e-05      9.5029e-06        -0.883715        0.402745
                        0.751952      -0.0214242      -8.8603e-06    -0.000207359        -0.484397       -0.407471     -7.53929e-05    -0.000117002
                     7.05332e-05     1.72504e-05         -0.88425        0.402401      5.50525e-06     9.69974e-05        0.0245583        0.206772
281740                  0.485178       -0.416669     -9.84875e-06    -8.45086e-05         0.752397      -0.0218969      8.58859e-05     0.000231202
                    -8.55227e-06    -0.000154315         0.141234         0.15394      3.26583e-05     9.48748e-06        -0.883567        0.403063
                        0.752102      -0.0218177     -8.51669e-06    -0.000207412        -0.484589       -0.406957     -7.47646e-05    -0.000116557
                     7.04972e-05     1.72628e-05        -0.884102         0.40272      5.54273e-06     9.71128e-05        0.0246809         0.20677
281742                  0.484942       -0.416661     -1.02413e-05    -8.45734e-05         0.752547      -0.0222905      8.55668e-05     0.000230813
                     -8.7152e-06      -0.0001543         0.141263         0.15393      3.26705e-05     9.47186e-06        -0.883418         0.40338
                        0.752253      -0.0222112     -8.17354e-06    -0.000207462         -0.48478       -0.406443     -7.41373e-05    -0.000116114
                     7.04616e-05     1.72751e-05        -0.883953        0.403038      5.58043e-06     9.72279e-05        0.0248036        0.206768
281744                  0.484706       -0.416652     -1.06333e-05    -8.46393e-05         0.752697      -0.0226841      8.52486e-05     0.000230424
                     -8.8799e-06    -0.000154285         0.141292         0.15392      3.26825e-05     9.45606e-06        -0.883269        0.403698
                        0.752403      -0.0226049     -7.83083e-06     -0.00020751         -0.48497       -0.405929      -7.3511e-05     -0.00011567
                     7.04265e-05     1.72873e-05        -0.883805        0.403356      5.61833e-06     9.73428e-05        0.0249262        0.206766
281746                  0.484469       -0.416644     -1.10247e-05    -8.47064e-05         0.752846      -0.0230779      8.49312e-05     0.000230036
                    -9.04637e-06    -0.000154271         0.141322         0.15391      3.26943e-05     9.44006e-06        -0.883121        0.404015
                        0.752552      -0.0229985     -7.48856e-06    -0.000207555         -0.48516       -0.405415     -7.28856e-05    -0.000115227
                     7.03917e-05     1.72994e-05        -0.883656        0.403674      5.65641e-06     9.74574e-05        0.0250489        0.206763
281748                  0.484233       -0.416635     -1.14156e-05    -8.47747e-05         0.752995      -0.0234717      8.46145e-05     0.000229648
                    -9.21465e-06    -0.000154257         0.141351          0.1539      3.27059e-05     9.42387e-06        -0.882972        0.404333
                        0.752701      -0.0233923     -7.14669e-06    -0.000207598         -0.48535       -0.404901     -7.22613e-05    -0.000114785
                     7.03573e-05     1.73115e-05        -0.883507        0.403992      5.69464e-06     9.75717e-05        0.0251716        0.206761
281750                  0.483997       -0.416627     -1.18059e-05    -8.48442e-05         0.753144      -0.0238655      8.42988e-05     0.000229261
                    -9.38475e-06    -0.000154243          0.14138        0.153891      3.27174e-05     9.40748e-06        -0.882822         0.40465
                         0.75285      -0.0237861     -6.80523e-06    -0.000207638        -0.485539       -0.404388      -7.1638e-05    -0.000114344
                     7.03233e-05     1.73234e-05        -0.883358        0.404311      5.73301e-06     9.76858e-05        0.0252942        0.206759
281752                  0.483761       -0.416618     -1.21957e-05    -8.49148e-05         0.753292      -0.0242595      8.39838e-05     0.000228873
                    -9.55668e-06     -0.00015423          0.14141        0.153881      3.27286e-05      9.3909e-06        -0.882673        0.404967
                        0.752999        -0.02418     -6.46416e-06    -0.000207676        -0.485727       -0.403874     -7.10157e-05    -0.000113902
                     7.02898e-05     1.73353e-05        -0.883209        0.404629      5.77148e-06     9.77996e-05        0.0254169        0.206756
281754                  0.483525       -0.416609      -1.2585e-05    -8.49865e-05         0.753441      -0.0246536      8.36696e-05     0.000228486
                    -9.73049e-06    -0.000154217         0.141439        0.153871      3.27396e-05     9.37412e-06        -0.882524        0.405284
                        0.753147       -0.024574     -6.12347e-06    -0.000207711        -0.485915        -0.40336     -7.03944e-05    -0.000113462
                     7.02567e-05     1.73471e-05         -0.88306        0.404947      5.81004e-06     9.79132e-05        0.0255396        0.206754
281756                  0.483289         -0.4166     -1.29738e-05    -8.50595e-05         0.753588      -0.0250477      8.33563e-05       0.0002281
                    -9.90617e-06    -0.000154205         0.141468        0.153861      3.27504e-05     9.35715e-06        -0.882375        0.405602
                        0.753295      -0.0249681     -5.78316e-06    -0.000207744        -0.486103       -0.402846     -6.97742e-05    -0.000113022
                      7.0224e-05     1.73588e-05        -0.882911        0.405265      5.84865e-06     9.80264e-05        0.0256623        0.206751
281758                  0.483054        -0.41659     -1.33621e-05    -8.51335e-05         0.753736      -0.0254419      8.30439e-05     0.000227714
                    -1.00838e-05    -0.000154193         0.141497        0.153851       3.2761e-05     9.33998e-06        -0.882225        0.405919
                        0.753443      -0.0253622     -5.44321e-06    -0.000207774        -0.486289       -0.402332     -6.91553e-05    -0.000112582
                     7.01917e-05     1.73703e-05        -0.882762        0.405582       5.8873e-06     9.81395e-05         0.025785        0.206748
281760                  0.482818       -0.416581     -1.37498e-05    -8.52087e-05         0.753883      -0.0258361      8.27325e-05     0.000227328
                    -1.02633e-05    -0.000154181         0.141527        0.153841      3.27713e-05     9.32261e-06        -0.882075        0.406236
                         0.75359      -0.0257564     -5.10363e-06    -0.000207802        -0.486476       -0.401819     -6.85377e-05    -0.000112143
                     7.01599e-05     1.73818e-05        -0.882612          0.4059      5.92597e-06     9.82522e-05        0.0259078        0.206746
281762                  0.482583       -0.416572     -1.41371e-05    -8.52851e-05          0.75403      -0.0262305      8.24223e-05     0.000226943
                    -1.04447e-05     -0.00015417         0.141556        0.153832      3.27815e-05     9.30505e-06        -0.881926        0.406553
                        0.753737      -0.0261507     -4.76441e-06    -0.000207827        -0.486662       -0.401305     -6.79221e-05    -0.000111704
