! TOUCHSTONE file generated by CST MICROWAVE STUDIO
! Date and time: Wed Oct 15 17:29:41 2025
! Project name: Teste_Macro_Metasurface_Nanopilar.cst
! Parameters = {H=600; L_x=100; L_y=175; Lambda=1064; Max_L=200; Min_L=70; PathPara=1; Phi=0; Step_L=10; Theta=0; p=520; phaseX=180; phaseY=0}
! Header version: 2018
! Port assignment regex: !\s*Touchstone port\s*([0-9]+)\s*=\s*(CST MWS port|CST DS port)\s*([0-9]+|Zmin|Zmax)\s*\(\"(.*)\"\)(\s*mode\s*([0-9]+))?.*
! Touchstone port assignment:
! Touchstone port 1 = CST MWS port Zmax ("") mode 1
! Touchstone port 2 = CST MWS port Zmax ("") mode 2
! Touchstone port 3 = CST MWS port Zmin ("") mode 1
! Touchstone port 4 = CST MWS port Zmin ("") mode 2
! S-Parameters are not renormalized. Each port impedance will be approximated by the real part at minimum frequency. The values are described via the [Reference] keyword.
! Default impedance is overridden by [Reference]
[Version] 2.0
# GHz S RI R 376.73
[Number of Ports] 4
[Reference]
376.73 376.73 259.888 259.888 
[Number of Frequencies] 51
[Network Data]
281700                  0.327294         0.44107      0.000565583    -0.000685498         0.448916       -0.691606     -9.79612e-05     0.000225372
                     0.000583413    -0.000669093         0.174283        0.102071      3.42233e-05     0.000455083        -0.785643        0.571136
                        0.449036        -0.69158      0.000153092     0.000366364         0.534496        0.101509       0.00043568    -0.000733276
                    -0.000241602     0.000327307         -0.78545         0.57141      0.000471779    -0.000799341        0.0436837        0.196255
281702                  0.327482        0.441146       0.00056509    -0.000685564          0.44851       -0.691725     -9.82493e-05     0.000225914
                     0.000583024    -0.000669362         0.174302         0.10205       3.4623e-05     0.000454773        -0.785425        0.571433
                         0.44863         -0.6917      0.000153116      0.00036601         0.534746        0.101106      0.000435482    -0.000732995
                    -0.000241288     0.000327518        -0.785236        0.571706      0.000470955    -0.000799109        0.0438059        0.196234
281704                  0.327669        0.441222        0.0005646    -0.000685631         0.448104       -0.691845     -9.85355e-05     0.000226451
                     0.000582634     -0.00066963         0.174321        0.102029        3.502e-05     0.000454463        -0.785208        0.571731
                        0.448224        -0.69182      0.000153141     0.000365658         0.534996        0.100704      0.000435283    -0.000732717
                    -0.000240975     0.000327728        -0.785021        0.572002      0.000470135    -0.000798876        0.0439282        0.196213
281706                  0.327857        0.441297       0.00056411    -0.000685702         0.447698       -0.691964     -9.88199e-05     0.000226986
                     0.000582245    -0.000669898          0.17434        0.102008      3.54143e-05     0.000454154        -0.784991        0.572028
                        0.447817       -0.691939      0.000153165     0.000365308         0.535245          0.1003      0.000435083     -0.00073244
                    -0.000240662     0.000327939        -0.784807        0.572297       0.00046932    -0.000798643        0.0440504        0.196191
281708                  0.328046        0.441373      0.000563622    -0.000685774         0.447292       -0.692083     -9.91025e-05     0.000227517
                     0.000581856    -0.000670165         0.174359        0.101987      3.58061e-05     0.000453845        -0.784773        0.572325
                         0.44741       -0.692059      0.000153189      0.00036496         0.535494       0.0998967      0.000434882    -0.000732165
                    -0.000240351     0.000328149        -0.784592        0.572593      0.000468508     -0.00079841        0.0441726         0.19617
281710                  0.328234        0.441448      0.000563136    -0.000685848         0.446886       -0.692201     -9.93831e-05     0.000228046
                     0.000581467    -0.000670432         0.174378        0.101965      3.61953e-05     0.000453536        -0.784556        0.572621
                        0.447003       -0.692178      0.000153214     0.000364614         0.535743       0.0994927       0.00043468    -0.000731891
                    -0.000240041     0.000328359        -0.784377        0.572888      0.000467702    -0.000798175        0.0442949        0.196148
281712                  0.328423        0.441524      0.000562651    -0.000685925         0.446479        -0.69232     -9.96619e-05     0.000228571
                     0.000581078    -0.000670699         0.174398        0.101944       3.6582e-05     0.000453227        -0.784338        0.572918
                        0.446596       -0.692297      0.000153238      0.00036427         0.535992       0.0990883      0.000434478     -0.00073162
                    -0.000239732     0.000328569        -0.784162        0.573184      0.000466899    -0.000797941        0.0444171        0.196126
281714                  0.328611          0.4416      0.000562167    -0.000686004         0.446072       -0.692438     -9.99388e-05     0.000229092
                     0.000580689    -0.000670966         0.174417        0.101923      3.69663e-05     0.000452919         -0.78412        0.573215
                        0.446189       -0.692415      0.000153263     0.000363931          0.53624       0.0986834      0.000434275     -0.00073135
                    -0.000239424     0.000328779        -0.783946        0.573479      0.000466101    -0.000797705        0.0445393        0.196104
281716                    0.3288        0.441675      0.000561685    -0.000686085         0.445665       -0.692555     -0.000100214     0.000229611
                     0.000580301    -0.000671232         0.174436        0.101902      3.73481e-05      0.00045261        -0.783903        0.573512
                        0.445782       -0.692533      0.000153284     0.000363599         0.536488       0.0982781      0.000434071    -0.000731083
                    -0.000239117     0.000328989        -0.783731        0.573774      0.000465306     -0.00079747        0.0446615        0.196083
281718                  0.328989         0.44175      0.000561205    -0.000686168         0.445258       -0.692673     -0.000100487     0.000230126
                     0.000579913    -0.000671498         0.174455        0.101881      3.77276e-05     0.000452302        -0.783685        0.573808
                        0.445374       -0.692651      0.000153289     0.000363258         0.536737       0.0978725      0.000433866    -0.000730817
                    -0.000238811     0.000329198        -0.783515        0.574069      0.000464516    -0.000797233        0.0447837        0.196061
281720                  0.329178        0.441826      0.000560725    -0.000686253         0.444851        -0.69279     -0.000100758     0.000230639
                     0.000579524    -0.000671764         0.174474         0.10186      3.81048e-05     0.000451995        -0.783466        0.574105
                        0.444966       -0.692769      0.000153315     0.000362908         0.536984       0.0974664       0.00043366    -0.000730553
                    -0.000238505     0.000329407          -0.7833        0.574365       0.00046373    -0.000796997        0.0449058        0.196039
281722                  0.329368        0.441901      0.000560248     -0.00068634         0.444443       -0.692907     -0.000101027     0.000231148
                     0.000579136    -0.000672029         0.174493        0.101839      3.84796e-05     0.000451687        -0.783248        0.574401
                        0.444558       -0.692886      0.000153343      0.00036257         0.537232         0.09706      0.000433454     -0.00073029
                    -0.000238201     0.000329617        -0.783084         0.57466      0.000462948     -0.00079676         0.045028        0.196016
281724                  0.329557        0.441977      0.000559771    -0.000686429         0.444036       -0.693024     -0.000101295     0.000231655
                     0.000578749    -0.000672294         0.174512        0.101818      3.88522e-05      0.00045138         -0.78303        0.574697
                         0.44415       -0.693004      0.000153368     0.000362236          0.53748       0.0966531      0.000433247     -0.00073003
                    -0.000237898     0.000329826        -0.782868        0.574955      0.000462169    -0.000796522        0.0451502        0.195994
281726                  0.329747        0.442052      0.000559296     -0.00068652         0.443628        -0.69314      -0.00010156     0.000232158
                     0.000578361    -0.000672559         0.174531        0.101796      3.92226e-05     0.000451073        -0.782811        0.574993
                        0.443742        -0.69312      0.000153392     0.000361905         0.537727       0.0962458      0.000433038    -0.000729771
                    -0.000237596     0.000330034        -0.782652        0.575249      0.000461395    -0.000796285        0.0452723        0.195972
281728                  0.329936        0.442127      0.000558823    -0.000686613          0.44322       -0.693256     -0.000101824     0.000232658
                     0.000577973    -0.000672823          0.17455        0.101775      3.95909e-05     0.000450767        -0.782593         0.57529
                        0.443334       -0.693237      0.000153416     0.000361576         0.537974       0.0958381       0.00043283    -0.000729514
                    -0.000237294     0.000330243        -0.782435        0.575544      0.000460624    -0.000796046        0.0453944         0.19595
281730                  0.330126        0.442203      0.000558351    -0.000686708         0.442812       -0.693372     -0.000102085     0.000233156
                     0.000577586    -0.000673087         0.174569        0.101754      3.99569e-05     0.000450461        -0.782374        0.575586
                        0.442925       -0.693353       0.00015344     0.000361248         0.538221         0.09543       0.00043262    -0.000729259
                    -0.000236994     0.000330451        -0.782219        0.575839      0.000459857    -0.000795808        0.0455166        0.195927
281732                  0.330317        0.442278       0.00055788    -0.000686805         0.442403       -0.693488     -0.000102345      0.00023365
                     0.000577199    -0.000673351         0.174589        0.101733      4.03209e-05     0.000450155        -0.782156        0.575882
                        0.442516       -0.693469      0.000153463     0.000360922         0.538468       0.0950215      0.000432409    -0.000729006
                    -0.000236694      0.00033066        -0.782002        0.576134      0.000459094    -0.000795569        0.0456387        0.195905
281734                  0.330507        0.442353      0.000557411    -0.000686903         0.441995       -0.693603     -0.000102603     0.000234142
                     0.000576811    -0.000673614         0.174608        0.101712      4.06828e-05     0.000449849        -0.781937        0.576177
                        0.442107       -0.693585      0.000153487     0.000360599         0.538714       0.0946126      0.000432198    -0.000728754
                    -0.000236395     0.000330868        -0.781785        0.576428      0.000458334     -0.00079533        0.0457608        0.195882
281736                  0.330697        0.442428      0.000556943    -0.000687004         0.441586       -0.693718     -0.000102858     0.000234631
                     0.000576424    -0.000673877         0.174627        0.101691      4.10426e-05     0.000449544        -0.781718        0.576473
                        0.441698         -0.6937       0.00015351     0.000360277          0.53896       0.0942033      0.000431986    -0.000728504
                    -0.000236098     0.000331076        -0.781568        0.576723      0.000457578    -0.000795091        0.0458829        0.195859
281738                  0.330888        0.442503      0.000556477    -0.000687106         0.441177       -0.693833     -0.000103112     0.000235117
                     0.000576038     -0.00067414         0.174646        0.101669      4.14005e-05     0.000449239        -0.781499        0.576769
                        0.441289       -0.693816      0.000153533     0.000359957         0.539206       0.0937936      0.000431773    -0.000728256
                    -0.000235801     0.000331284        -0.781351        0.577017      0.000456826    -0.000794851        0.0460049        0.195836
281740                  0.331079        0.442579      0.000556012     -0.00068721         0.440768       -0.693947     -0.000103364       0.0002356
                     0.000575651    -0.000674402         0.174665        0.101648      4.17563e-05     0.000448934        -0.781279        0.577064
                         0.44088       -0.693931      0.000153556     0.000359639         0.539452       0.0933835      0.000431559    -0.000728009
                    -0.000235505     0.000331491        -0.781134        0.577312      0.000456077    -0.000794611         0.046127        0.195814
281742                  0.331269        0.442654      0.000555549    -0.000687316         0.440359       -0.694061     -0.000103614      0.00023608
                     0.000575264    -0.000674664         0.174684        0.101627      4.21102e-05      0.00044863         -0.78106         0.57736
                         0.44047       -0.694045      0.000153579     0.000359323         0.539698       0.0929729      0.000431345    -0.000727764
                     -0.00023521     0.000331699        -0.780917        0.577606      0.000455331    -0.000794371        0.0462491        0.195791
281744                  0.331461        0.442729      0.000555087    -0.000687424          0.43995       -0.694175     -0.000103862     0.000236558
                     0.000574878    -0.000674926         0.174703        0.101606      4.24622e-05     0.000448326        -0.780841        0.577655
                        0.440061       -0.694159      0.000153602     0.000359009         0.539943        0.092562      0.000431129    -0.000727521
                    -0.000234915     0.000331906        -0.780699        0.577901      0.000454589    -0.000794131        0.0463711        0.195768
281746                  0.331652        0.442804      0.000554626    -0.000687533          0.43954       -0.694289     -0.000104108     0.000237033
                     0.000574491    -0.000675187         0.174722        0.101585      4.28123e-05     0.000448022        -0.780621        0.577951
                        0.439651       -0.694274      0.000153625     0.000358697         0.540188       0.0921507      0.000430913     -0.00072728
                    -0.000234622     0.000332113        -0.780482        0.578195      0.000453851     -0.00079389        0.0464932        0.195745
281748                  0.331843        0.442879      0.000554167    -0.000687644         0.439131       -0.694402     -0.000104353     0.000237506
                     0.000574105    -0.000675448         0.174741        0.101563      4.31605e-05     0.000447719        -0.780402        0.578246
                        0.439241       -0.694387      0.000153648     0.000358387         0.540433       0.0917389      0.000430696     -0.00072704
                    -0.000234329      0.00033232        -0.780264        0.578489      0.000453115     -0.00079365        0.0466152        0.195721
281750                  0.332035        0.442954      0.000553709    -0.000687757         0.438721       -0.694515     -0.000104595     0.000237976
                     0.000573719    -0.000675709          0.17476        0.101542      4.35069e-05     0.000447416        -0.780182        0.578541
                         0.43883       -0.694501      0.000153671     0.000358078         0.540678       0.0913267      0.000430478    -0.000726802
                    -0.000234037     0.000332527        -0.780046        0.578783      0.000452383    -0.000793409        0.0467372        0.195698
281752                  0.332226        0.443029      0.000553251     -0.00068787         0.438311       -0.694628     -0.000104836     0.000238446
                     0.000573333    -0.000675969         0.174779        0.101521      4.38514e-05     0.000447114        -0.779962        0.578836
                         0.43842       -0.694614      0.000153694     0.000357772         0.540923       0.0909142      0.000430259    -0.000726565
                    -0.000233746     0.000332733        -0.779828        0.579077      0.000451654    -0.000793168        0.0468592        0.195675
281754                  0.332418        0.443104      0.000552791    -0.000687986         0.437901       -0.694741     -0.000105061     0.000238922
                     0.000572947    -0.000676229         0.174798          0.1015      4.41942e-05     0.000446811        -0.779742        0.579131
                         0.43801       -0.694727      0.000153717     0.000357468         0.541167       0.0905012      0.000430039     -0.00072633
                    -0.000233456      0.00033294         -0.77961        0.579371      0.000450928    -0.000792927        0.0469812        0.195651
281756                   0.33261        0.443179       0.00055234    -0.000688115          0.43749       -0.694853       -0.0001053     0.000239362
                     0.000572561    -0.000676489         0.174817        0.101478      4.45352e-05      0.00044651        -0.779522        0.579426
                        0.437599        -0.69484       0.00015374     0.000357165         0.541411       0.0900878      0.000429819    -0.000726097
                    -0.000233166     0.000333146        -0.779392        0.579665      0.000450205    -0.000792686        0.0471032        0.195628
281758                  0.332803        0.443254      0.000551893    -0.000688231          0.43708       -0.694965     -0.000105538     0.000239822
                     0.000572175    -0.000676748         0.174836        0.101457      4.48745e-05     0.000446208        -0.779302        0.579721
                        0.437188       -0.694952      0.000153763     0.000356864         0.541655        0.089674      0.000429597    -0.000725866
                    -0.000232878     0.000333352        -0.779173        0.579959      0.000449486    -0.000792445        0.0472252        0.195604
281760                  0.332995        0.443328      0.000551443    -0.000688351         0.436669       -0.695076     -0.000105772     0.000240279
                      0.00057179    -0.000677007         0.174855        0.101436       4.5212e-05     0.000445907        -0.779081        0.580016
                        0.436777       -0.695064      0.000153786     0.000356566         0.541899       0.0892598      0.000429375    -0.000725636
                     -0.00023259     0.000333558        -0.778954        0.580252      0.000448769    -0.000792204        0.0473471        0.195581
281762                  0.333187        0.443403      0.000550994    -0.000688473         0.436258       -0.695188     -0.000106002     0.000240733
                     0.000571404    -0.000677266         0.174874        0.101415      4.55479e-05     0.000445606        -0.778861        0.580311
                        0.436366       -0.695176       0.00015381     0.000356269         0.542143       0.0888452      0.000429152    -0.000725408
