! TOUCHSTONE file generated by CST MICROWAVE STUDIO
! Date and time: Wed Oct 15 17:27:52 2025
! Project name: Teste_Macro_Metasurface_Nanopilar.cst
! Parameters = {H=600; L_x=70; L_y=130; Lambda=1064; Max_L=200; Min_L=70; PathPara=1; Phi=0; Step_L=10; Theta=0; p=520; phaseX=180; phaseY=0}
! Header version: 2018
! Port assignment regex: !\s*Touchstone port\s*([0-9]+)\s*=\s*(CST MWS port|CST DS port)\s*([0-9]+|Zmin|Zmax)\s*\(\"(.*)\"\)(\s*mode\s*([0-9]+))?.*
! Touchstone port assignment:
! Touchstone port 1 = CST MWS port Zmax ("") mode 1
! Touchstone port 2 = CST MWS port Zmax ("") mode 2
! Touchstone port 3 = CST MWS port Zmin ("") mode 1
! Touchstone port 4 = CST MWS port Zmin ("") mode 2
! S-Parameters are not renormalized. Each port impedance will be approximated by the real part at minimum frequency. The values are described via the [Reference] keyword.
! Default impedance is overridden by [Reference]
[Version] 2.0
# GHz S RI R 376.73
[Number of Ports] 4
[Reference]
376.73 376.73 259.888 259.888 
[Number of Frequencies] 51
[Network Data]
281700                  0.127542       0.0356753      0.000139502     -0.00011541        -0.936912       -0.309721     -6.31794e-05     0.000163991
                     0.000132918    -0.000138799        0.0331617       -0.117922     -0.000162575    -3.11678e-05        0.0556282       -0.990702
                       -0.936943       -0.309719     -0.000124573    -9.04922e-06        -0.123559      -0.0461603      0.000194688    -8.65066e-05
                    -6.41085e-05     0.000232751        0.0559227       -0.990805      0.000189501    -4.90556e-05        0.0195736        0.120957
281702                  0.127554       0.0356709      0.000139408    -0.000115474        -0.937009       -0.309422     -6.31269e-05     0.000164023
                     0.000132862    -0.000138854        0.0331495       -0.117921     -0.000162597    -3.11226e-05        0.0553906       -0.990716
                        -0.93704        -0.30942     -0.000124681    -8.98899e-06        -0.123596      -0.0460924      0.000194713    -8.65344e-05
                    -6.40273e-05     0.000232758        0.0556851       -0.990819      0.000189524    -4.90995e-05        0.0196195        0.120946
281704                  0.127567       0.0356666      0.000139314    -0.000115538        -0.937106       -0.309123     -6.30737e-05     0.000164055
                     0.000132805    -0.000138909        0.0331372       -0.117921     -0.000162618    -3.10767e-05         0.055153       -0.990729
                       -0.937137       -0.309121     -0.000124788    -8.92838e-06        -0.123633      -0.0460246      0.000194737    -8.65622e-05
                    -6.39462e-05     0.000232765        0.0554475       -0.990832      0.000189548    -4.91435e-05        0.0196654        0.120935
281706                  0.127579       0.0356622      0.000139221    -0.000115603        -0.937203       -0.308823     -6.30198e-05     0.000164087
                     0.000132748    -0.000138964         0.033125       -0.117921     -0.000162639      -3.103e-05        0.0549155       -0.990743
                       -0.937234       -0.308822     -0.000124895    -8.86754e-06         -0.12367      -0.0459567      0.000194762    -8.65901e-05
                     -6.3865e-05     0.000232771        0.0552099       -0.990846      0.000189572    -4.91876e-05        0.0197112        0.120924
281708                  0.127592       0.0356578      0.000139127    -0.000115667        -0.937299       -0.308524     -6.29654e-05     0.000164119
                     0.000132691    -0.000139019        0.0331128       -0.117921     -0.000162661    -3.09826e-05        0.0546779       -0.990756
                        -0.93733       -0.308522     -0.000125001    -8.80658e-06        -0.123707      -0.0458888      0.000194786     -8.6618e-05
                    -6.37838e-05     0.000232778        0.0549723        -0.99086      0.000189596    -4.92318e-05        0.0197571        0.120913
281710                  0.127604       0.0356534      0.000139034    -0.000115731        -0.937396       -0.308225     -6.29106e-05     0.000164152
                     0.000132634    -0.000139073        0.0331005       -0.117921     -0.000162684    -3.09348e-05        0.0544403        -0.99077
                       -0.937427       -0.308223     -0.000125106    -8.74557e-06        -0.123744      -0.0458209       0.00019481     -8.6646e-05
                    -6.37027e-05     0.000232785        0.0547347       -0.990873       0.00018962    -4.92763e-05        0.0198029        0.120902
281712                  0.127617        0.035649      0.000138941    -0.000115796        -0.937492       -0.307925     -6.28558e-05     0.000164186
                     0.000132577    -0.000139128        0.0330883        -0.11792     -0.000162707     -3.0887e-05        0.0542027       -0.990783
                       -0.937523       -0.307924     -0.000125212    -8.68457e-06        -0.123781      -0.0457529      0.000194834    -8.66742e-05
                    -6.36215e-05     0.000232791        0.0544971       -0.990887      0.000189644    -4.93211e-05        0.0198488        0.120891
281714                  0.127629       0.0356446      0.000138848    -0.000115861        -0.937588       -0.307626     -6.28011e-05     0.000164219
                      0.00013252    -0.000139183         0.033076        -0.11792      -0.00016273    -3.08394e-05        0.0539651       -0.990796
                        -0.93762       -0.307624     -0.000125317     -8.6236e-06        -0.123817      -0.0456849      0.000194858    -8.67027e-05
                    -6.35403e-05     0.000232798        0.0542595         -0.9909      0.000189668    -4.93664e-05        0.0198946         0.12088
281716                  0.127642       0.0356402      0.000138755    -0.000115925        -0.937685       -0.307326     -6.27466e-05     0.000164253
                     0.000132462    -0.000139238        0.0330638        -0.11792     -0.000162754    -3.07921e-05        0.0537275       -0.990809
                       -0.937716       -0.307325     -0.000125422    -8.56269e-06        -0.123854      -0.0456169      0.000194881    -8.67318e-05
                    -6.34592e-05     0.000232804        0.0540219       -0.990914      0.000189692    -4.94124e-05        0.0199405        0.120869
281718                  0.127654       0.0356358      0.000138662     -0.00011599        -0.937781       -0.307027     -6.26923e-05     0.000164288
                     0.000132405    -0.000139293        0.0330515        -0.11792     -0.000162777    -3.07451e-05        0.0534899       -0.990823
                       -0.937812       -0.307026     -0.000125527    -8.50186e-06        -0.123891      -0.0455489      0.000194904    -8.67623e-05
                     -6.3378e-05     0.000232811        0.0537843       -0.990927      0.000189715    -4.94596e-05        0.0199863        0.120858
281720                  0.127667       0.0356314      0.000138569    -0.000116055        -0.937877       -0.306727     -6.26382e-05     0.000164322
                     0.000132348    -0.000139348        0.0330393        -0.11792     -0.000162801    -3.06981e-05        0.0532523       -0.990836
                       -0.937908       -0.306726     -0.000125632    -8.44112e-06        -0.123927      -0.0454808       0.00019493    -8.67945e-05
                    -6.32969e-05     0.000232817        0.0535467       -0.990941      0.000189737    -4.95078e-05        0.0200321        0.120847
281722                  0.127679        0.035627      0.000138475     -0.00011612        -0.937973       -0.306428     -6.25842e-05     0.000164356
                      0.00013229    -0.000139402        0.0330271       -0.117919     -0.000162825    -3.06513e-05        0.0530147       -0.990849
                       -0.938004       -0.306427     -0.000125737    -8.38047e-06        -0.123964      -0.0454127      0.000194959    -8.68252e-05
                    -6.32157e-05     0.000232823         0.053309       -0.990954      0.000189756    -4.95554e-05        0.0200779        0.120836
281724                  0.127692       0.0356226      0.000138382    -0.000116186        -0.938069       -0.306128     -6.25304e-05     0.000164391
                     0.000132233    -0.000139457        0.0330148       -0.117919     -0.000162848    -3.06046e-05        0.0527771       -0.990862
                         -0.9381       -0.306127     -0.000125842    -8.31992e-06           -0.124      -0.0453446      0.000194988    -8.68522e-05
                    -6.31345e-05     0.000232829        0.0530714       -0.990967      0.000189773    -4.95997e-05        0.0201238        0.120825
281726                  0.127704       0.0356182      0.000138289    -0.000116251        -0.938164       -0.305829     -6.24767e-05     0.000164425
                     0.000132175    -0.000139512        0.0330026       -0.117919     -0.000162872    -3.05579e-05        0.0525395       -0.990875
                       -0.938196       -0.305827     -0.000125947    -8.25947e-06        -0.124037      -0.0452764      0.000195014    -8.68779e-05
                    -6.30534e-05     0.000232836        0.0528338        -0.99098      0.000189791     -4.9641e-05        0.0201696        0.120813
281728                  0.127717       0.0356138      0.000138196    -0.000116317         -0.93826       -0.305529     -6.24231e-05     0.000164459
                     0.000132118    -0.000139567        0.0329903       -0.117919     -0.000162895    -3.05113e-05        0.0523019       -0.990888
                       -0.938291       -0.305528     -0.000126052    -8.19913e-06        -0.124073      -0.0452083       0.00019504    -8.69041e-05
                    -6.29722e-05     0.000232842        0.0525962       -0.990993      0.000189813    -4.96815e-05        0.0202154        0.120802
281730                  0.127729       0.0356093      0.000138102    -0.000116382        -0.938356       -0.305229     -6.23695e-05     0.000164493
                      0.00013206    -0.000139622        0.0329781       -0.117919     -0.000162919    -3.04647e-05        0.0520643         -0.9909
                       -0.938387       -0.305228     -0.000126157    -8.13889e-06         -0.12411      -0.0451401      0.000195064    -8.69309e-05
                     -6.2891e-05     0.000232848        0.0523586       -0.991006      0.000189835    -4.97226e-05        0.0202612        0.120791
281732                  0.127742       0.0356049      0.000138009    -0.000116448        -0.938451        -0.30493     -6.23159e-05     0.000164527
                     0.000132002    -0.000139677        0.0329659       -0.117918     -0.000162942    -3.04181e-05        0.0518267       -0.990913
                       -0.938483       -0.304928     -0.000126262    -8.07877e-06        -0.124146      -0.0450719      0.000195089    -8.69581e-05
                    -6.28099e-05     0.000232854        0.0521209       -0.991019      0.000189859    -4.97645e-05        0.0203069         0.12078
281734                  0.127754       0.0356005      0.000137915    -0.000116514        -0.938546        -0.30463     -6.22624e-05     0.000164561
                     0.000131945    -0.000139732        0.0329536       -0.117918     -0.000162965    -3.03715e-05        0.0515891       -0.990926
                       -0.938578       -0.304629     -0.000126368    -8.01875e-06        -0.124182      -0.0450036      0.000195114    -8.69855e-05
                    -6.27287e-05      0.00023286        0.0518833       -0.991032      0.000189882    -4.98071e-05        0.0203527        0.120769
281736                  0.127767        0.035596      0.000137822     -0.00011658        -0.938642        -0.30433     -6.22088e-05     0.000164595
                     0.000131887    -0.000139787        0.0329414       -0.117918     -0.000162989    -3.03249e-05        0.0513514       -0.990938
                       -0.938673       -0.304329     -0.000126473    -7.95884e-06        -0.124219      -0.0449353      0.000195138    -8.70131e-05
                    -6.26475e-05     0.000232866        0.0516457       -0.991045      0.000189906    -4.98502e-05        0.0203985        0.120757
281738                  0.127779       0.0355916      0.000137728    -0.000116647        -0.938737        -0.30403     -6.21553e-05     0.000164629
                     0.000131829    -0.000139842        0.0329291       -0.117918     -0.000163012    -3.02783e-05        0.0511138       -0.990951
                       -0.938769       -0.304029     -0.000126578    -7.89905e-06        -0.124255       -0.044867      0.000195163    -8.70408e-05
                    -6.25664e-05     0.000232872         0.051408       -0.991058      0.000189929    -4.98936e-05        0.0204443        0.120746
281740                  0.127792       0.0355872      0.000137634    -0.000116713        -0.938832        -0.30373     -6.21018e-05     0.000164663
                     0.000131771    -0.000139897        0.0329169       -0.117918     -0.000163035    -3.02317e-05        0.0508762       -0.990964
                       -0.938864       -0.303729     -0.000126684    -7.83936e-06        -0.124291      -0.0447987      0.000195188    -8.70687e-05
                    -6.24852e-05     0.000232877        0.0511704       -0.991071      0.000189953    -4.99371e-05          0.02049        0.120735
281742                  0.127804       0.0355827       0.00013754    -0.000116779        -0.938927        -0.30343     -6.20482e-05     0.000164697
                     0.000131713    -0.000139952        0.0329047       -0.117917     -0.000163058     -3.0185e-05        0.0506385       -0.990976
                       -0.938959       -0.303429      -0.00012679    -7.77979e-06        -0.124327      -0.0447304      0.000195212    -8.70965e-05
                     -6.2404e-05     0.000232883        0.0509328       -0.991083      0.000189976    -4.99809e-05        0.0205358        0.120723
281744                  0.127817       0.0355783      0.000137446    -0.000116846        -0.939022        -0.30313     -6.19947e-05      0.00016473
                     0.000131656    -0.000140007        0.0328924       -0.117917     -0.000163081    -3.01384e-05        0.0504009       -0.990989
                       -0.939054        -0.30313     -0.000126895    -7.72032e-06        -0.124363       -0.044662      0.000195237    -8.71245e-05
                    -6.23228e-05     0.000232889        0.0506951       -0.991096          0.00019    -5.00247e-05        0.0205816        0.120712
281746                  0.127829       0.0355738      0.000137352    -0.000116913        -0.939117        -0.30283     -6.19411e-05     0.000164764
                     0.000131598    -0.000140062        0.0328802       -0.117917     -0.000163105    -3.00917e-05        0.0501632       -0.991001
                       -0.939148        -0.30283     -0.000127001    -7.66097e-06          -0.1244      -0.0445936      0.000195262    -8.71524e-05
                    -6.22416e-05     0.000232894        0.0504575       -0.991108      0.000190023    -5.00686e-05        0.0206273        0.120701
281748                  0.127842       0.0355693      0.000137257    -0.000116979        -0.939211        -0.30253     -6.18875e-05     0.000164798
                     0.000131539    -0.000140117         0.032868       -0.117917     -0.000163128     -3.0045e-05        0.0499256       -0.991013
                       -0.939243        -0.30253     -0.000127107    -7.60173e-06        -0.124436      -0.0445251      0.000195286    -8.71804e-05
                    -6.21604e-05       0.0002329        0.0502198       -0.991121      0.000190046    -5.01126e-05        0.0206731        0.120689
281750                  0.127854       0.0355649      0.000137163    -0.000117046        -0.939306        -0.30223     -6.18339e-05     0.000164831
                     0.000131481    -0.000140172        0.0328557       -0.117917     -0.000163151    -2.99984e-05        0.0496879       -0.991025
                       -0.939338        -0.30223     -0.000127214     -7.5426e-06        -0.124472      -0.0444567      0.000195311    -8.72084e-05
                    -6.20792e-05     0.000232906        0.0499821       -0.991133       0.00019007    -5.01566e-05        0.0207188        0.120678
281752                  0.127867       0.0355604      0.000137069    -0.000117113        -0.939401        -0.30193     -6.17802e-05     0.000164865
                     0.000131423    -0.000140227        0.0328435       -0.117916     -0.000163174    -2.99516e-05        0.0494503       -0.991038
                       -0.939432        -0.30193      -0.00012732    -7.48359e-06        -0.124508      -0.0443882      0.000195336    -8.72364e-05
                     -6.1998e-05     0.000232911        0.0497445       -0.991146      0.000190093    -5.02007e-05        0.0207645        0.120667
281754                  0.127879       0.0355559      0.000136974     -0.00011718        -0.939495        -0.30163     -6.17266e-05     0.000164898
                     0.000131365    -0.000140282        0.0328312       -0.117916     -0.000163197    -2.99049e-05        0.0492126        -0.99105
                       -0.939527       -0.301629     -0.000127426    -7.42468e-06        -0.124544      -0.0443197      0.000195361    -8.72645e-05
                    -6.19168e-05     0.000232917        0.0495068       -0.991158      0.000190116    -5.02448e-05        0.0208102        0.120655
281756                  0.127892       0.0355515      0.000136879    -0.000117248        -0.939589        -0.30133     -6.16729e-05     0.000164932
                     0.000131307    -0.000140337         0.032819       -0.117916      -0.00016322    -2.98582e-05         0.048975       -0.991062
                       -0.939621       -0.301329     -0.000127533    -7.36589e-06         -0.12458      -0.0442512      0.000195385    -8.72925e-05
                    -6.18356e-05     0.000232922        0.0492692        -0.99117      0.000190139    -5.02889e-05         0.020856        0.120644
281758                  0.127904        0.035547      0.000136784    -0.000117315        -0.939684        -0.30103     -6.16192e-05     0.000164965
                     0.000131249    -0.000140392        0.0328068       -0.117916     -0.000163243    -2.98114e-05        0.0487373       -0.991074
                       -0.939716       -0.301029      -0.00012764    -7.30721e-06        -0.124615      -0.0441826       0.00019541    -8.73206e-05
                    -6.17543e-05     0.000232927        0.0490315       -0.991183      0.000190162    -5.03331e-05        0.0209017        0.120632
281760                  0.127917       0.0355425       0.00013669    -0.000117383        -0.939778       -0.300729     -6.15654e-05     0.000164999
                     0.000131191    -0.000140447        0.0327945       -0.117916     -0.000163265    -2.97646e-05        0.0484996       -0.991086
                        -0.93981       -0.300729     -0.000127746    -7.24864e-06        -0.124651       -0.044114      0.000195435    -8.73486e-05
                    -6.16731e-05     0.000232933        0.0487938       -0.991195      0.000190185    -5.03772e-05        0.0209474        0.120621
281762                  0.127929        0.035538      0.000136595     -0.00011745        -0.939872       -0.300429     -6.15117e-05     0.000165032
                     0.000131132    -0.000140502        0.0327823       -0.117915     -0.000163288    -2.97178e-05         0.048262       -0.991098
                       -0.939904       -0.300429     -0.000127853    -7.19018e-06        -0.124687      -0.0440454       0.00019546    -8.73767e-05
