! TOUCHSTONE file generated by CST MICROWAVE STUDIO
! Date and time: Wed Oct 15 17:34:40 2025
! Project name: Teste_Macro_Metasurface_Nanopilar.cst
! Parameters = {H=600; L_x=190; L_y=90; Lambda=1064; Max_L=200; Min_L=70; PathPara=1; Phi=0; Step_L=10; Theta=0; p=520; phaseX=180; phaseY=0}
! Header version: 2018
! Port assignment regex: !\s*Touchstone port\s*([0-9]+)\s*=\s*(CST MWS port|CST DS port)\s*([0-9]+|Zmin|Zmax)\s*\(\"(.*)\"\)(\s*mode\s*([0-9]+))?.*
! Touchstone port assignment:
! Touchstone port 1 = CST MWS port Zmax ("") mode 1
! Touchstone port 2 = CST MWS port Zmax ("") mode 2
! Touchstone port 3 = CST MWS port Zmin ("") mode 1
! Touchstone port 4 = CST MWS port Zmin ("") mode 2
! S-Parameters are not renormalized. Each port impedance will be approximated by the real part at minimum frequency. The values are described via the [Reference] keyword.
! Default impedance is overridden by [Reference]
[Version] 2.0
# GHz S RI R 376.73
[Number of Ports] 4
[Reference]
376.73 376.73 259.888 259.888 
[Number of Frequencies] 51
[Network Data]
281700                0.00328376        0.123449     -0.000304836    -0.000422693        -0.935465       -0.318462      0.000911778    -0.000569006
                    -0.000304599    -0.000495542         0.579059        0.493747      0.000163234    -0.000275373         0.151989       -0.610533
                       -0.935582       -0.318231      0.000144451    -0.000341294       -0.0767114       0.0966851       0.00081598     0.000689257
                     0.000929303    -0.000584465         0.151666       -0.610489      0.000817883     0.000712867          0.72844       -0.198123
281702                0.00329947        0.123467     -0.000305044    -0.000422535        -0.935563       -0.318169       0.00091136    -0.000569825
                    -0.000304954    -0.000495342         0.579369        0.493689      0.000162989    -0.000275468         0.151568       -0.610381
                       -0.935679       -0.317937      0.000144116    -0.000341304       -0.0766747       0.0967386      0.000816768     0.000688948
                     0.000929231    -0.000585263         0.151245       -0.610337      0.000818336     0.000712618         0.728452       -0.198826
281704                0.00331518        0.123486     -0.000305253    -0.000422376        -0.935659       -0.317875      0.000910942    -0.000570644
                    -0.000305309    -0.000495142         0.579679        0.493631      0.000162744    -0.000275564         0.151147       -0.610229
                       -0.935775       -0.317644      0.000143781    -0.000341313        -0.076638        0.096792      0.000817555     0.000688637
                     0.000929158    -0.000586061         0.150825       -0.610185       0.00081879     0.000712369         0.728463       -0.199529
281706                 0.0033309        0.123505     -0.000305463    -0.000422217        -0.935756       -0.317581      0.000910523    -0.000571462
                    -0.000305664    -0.000494942         0.579989        0.493573      0.000162499     -0.00027566         0.150727       -0.610077
                       -0.935872        -0.31735      0.000143446    -0.000341323       -0.0766013       0.0968454      0.000818343     0.000688325
                     0.000929085     -0.00058686         0.150405       -0.610032      0.000819242     0.000712119         0.728474       -0.200232
281708                0.00334662        0.123523     -0.000305672    -0.000422058        -0.935853       -0.317287      0.000910102     -0.00057228
                    -0.000306019    -0.000494741         0.580299        0.493515      0.000162254    -0.000275755         0.150307       -0.609924
                       -0.935969       -0.317056      0.000143111    -0.000341333       -0.0765645       0.0968989       0.00081913     0.000688011
                     0.000929011    -0.000587659         0.149985       -0.609879      0.000819695     0.000711869         0.728484       -0.200936
281710                0.00336235        0.123542     -0.000305882    -0.000421898         -0.93595       -0.316993      0.000909681    -0.000573098
                    -0.000306374    -0.000494539         0.580609        0.493456      0.000162008     -0.00027585         0.149886        -0.60977
                       -0.936065       -0.316762      0.000142776    -0.000341342       -0.0765277       0.0969523      0.000819917     0.000687695
                     0.000928936    -0.000588458         0.149565       -0.609725      0.000820148     0.000711619         0.728493        -0.20164
281712                0.00337808        0.123561     -0.000306092    -0.000421739        -0.936046       -0.316699      0.000909259    -0.000573915
                    -0.000306728    -0.000494338         0.580919        0.493397      0.000161763    -0.000275945         0.149466       -0.609616
                       -0.936161       -0.316468      0.000142441    -0.000341352       -0.0764908       0.0970057      0.000820704     0.000687378
                     0.000928861    -0.000589258         0.149145       -0.609571        0.0008206     0.000711368         0.728501       -0.202344
281714                0.00339382        0.123579     -0.000306303    -0.000421578        -0.936143       -0.316405      0.000908835    -0.000574733
                    -0.000307083    -0.000494136          0.58123        0.493338      0.000161517     -0.00027604         0.149046       -0.609462
                       -0.936258       -0.316174      0.000142107    -0.000341361       -0.0764539       0.0970591      0.000821491     0.000687059
                     0.000928784    -0.000590058         0.148725       -0.609417      0.000821052     0.000711117         0.728509       -0.203049
281716                0.00340956        0.123598     -0.000306514    -0.000421418        -0.936239       -0.316111      0.000908411     -0.00057555
                    -0.000307437    -0.000493934         0.581541        0.493279      0.000161271    -0.000276134         0.148626       -0.609307
                       -0.936354       -0.315881      0.000141772     -0.00034137        -0.076417       0.0971125      0.000822277     0.000686738
                     0.000928708    -0.000590858         0.148305       -0.609262      0.000821503     0.000710866         0.728516       -0.203754
281718                0.00342531        0.123617     -0.000306725    -0.000421257        -0.936336       -0.315817      0.000907985    -0.000576366
                    -0.000307791    -0.000493731         0.581851        0.493219      0.000161025    -0.000276228         0.148206       -0.609152
                        -0.93645       -0.315587      0.000141437    -0.000341379         -0.07638       0.0971659      0.000823063     0.000686416
                      0.00092863    -0.000591658         0.147886       -0.609106      0.000821955     0.000710614         0.728523       -0.204459
281720                0.00344106        0.123636     -0.000306936    -0.000421096        -0.936432       -0.315523      0.000907559    -0.000577183
                    -0.000308145    -0.000493528         0.582162         0.49316      0.000160779    -0.000276323         0.147786       -0.608996
                       -0.936546       -0.315293      0.000141103    -0.000341388        -0.076343       0.0972192      0.000823849     0.000686091
                     0.000928552    -0.000592459         0.147466        -0.60895      0.000822406     0.000710362         0.728529       -0.205165
281722                0.00345682        0.123654     -0.000307147    -0.000420934        -0.936528       -0.315229      0.000907131    -0.000577999
                    -0.000308499    -0.000493324         0.582473          0.4931      0.000160533    -0.000276417         0.147367        -0.60884
                       -0.936642       -0.314999      0.000140769    -0.000341397        -0.076306       0.0972726      0.000824635     0.000685766
                     0.000928473     -0.00059326         0.147047       -0.608794      0.000822857      0.00071011         0.728534        -0.20587
281724                0.00347258        0.123673     -0.000307359    -0.000420772        -0.936624       -0.314934      0.000906703    -0.000578815
                    -0.000308853    -0.000493121         0.582785        0.493039      0.000160287     -0.00027651         0.146947       -0.608684
                       -0.936738       -0.314704      0.000140434    -0.000341405       -0.0762689       0.0973259       0.00082542     0.000685438
                     0.000928394    -0.000594061         0.146627       -0.608637      0.000823308     0.000709857         0.728538       -0.206577
281726                0.00348834        0.123692     -0.000307572     -0.00042061         -0.93672        -0.31464      0.000906273    -0.000579631
                    -0.000309207    -0.000492916         0.583096        0.492979      0.000160041    -0.000276604         0.146528       -0.608527
                       -0.936833        -0.31441        0.0001401    -0.000341414       -0.0762318       0.0973792      0.000826205     0.000685109
                     0.000928313    -0.000594863         0.146208        -0.60848      0.000823758     0.000709603         0.728542       -0.207283
281728                0.00350411         0.12371     -0.000307784    -0.000420448        -0.936816       -0.314346      0.000905843    -0.000580446
                    -0.000309561    -0.000492712         0.583407        0.492918      0.000159795    -0.000276697         0.146108       -0.608369
                       -0.936929       -0.314116      0.000139766    -0.000341422       -0.0761947       0.0974325       0.00082699     0.000684779
                     0.000928232    -0.000595665         0.145789       -0.608322      0.000824208      0.00070935         0.728545        -0.20799
281730                0.00351989        0.123729     -0.000307997    -0.000420285        -0.936912       -0.314051      0.000905411    -0.000581261
                    -0.000309914    -0.000492507         0.583719        0.492857      0.000159548    -0.000276791         0.145689       -0.608211
                       -0.937025       -0.313822      0.000139432    -0.000341431       -0.0761575       0.0974858      0.000827774     0.000684446
                     0.000928151    -0.000596468          0.14537       -0.608164      0.000824659     0.000709096         0.728547       -0.208697
281732                0.00353567        0.123748      -0.00030821    -0.000420122        -0.937007       -0.313757      0.000904979    -0.000582076
                    -0.000310268    -0.000492302          0.58403        0.492796      0.000159301    -0.000276884          0.14527       -0.608053
                        -0.93712       -0.313528      0.000139098    -0.000341439       -0.0761203       0.0975391      0.000828558     0.000684112
                     0.000928068     -0.00059727         0.144951       -0.608006      0.000825108     0.000708841         0.728548       -0.209404
281734                0.00355146        0.123766     -0.000308423    -0.000419958        -0.937103       -0.313463      0.000904546    -0.000582891
                    -0.000310621    -0.000492096         0.584342        0.492735      0.000159055    -0.000276976         0.144851       -0.607894
                       -0.937215       -0.313234      0.000138764    -0.000341447       -0.0760831       0.0975924      0.000829342     0.000683776
                     0.000927985    -0.000598073         0.144532       -0.607847      0.000825558     0.000708586         0.728549       -0.210112
281736                0.00356725        0.123785     -0.000308637    -0.000419794        -0.937198       -0.313168      0.000904111    -0.000583706
                    -0.000310975     -0.00049189         0.584654        0.492673      0.000158808    -0.000277069         0.144432       -0.607735
                       -0.937311       -0.312939       0.00013843    -0.000341455       -0.0760458       0.0976456      0.000830125     0.000683439
                     0.000927902    -0.000598877         0.144114       -0.607687      0.000826007     0.000708331         0.728549        -0.21082
281738                0.00358304        0.123804     -0.000308851     -0.00041963        -0.937294       -0.312874      0.000903676     -0.00058452
                    -0.000311328    -0.000491683         0.584966        0.492611      0.000158561    -0.000277161         0.144013       -0.607575
                       -0.937406       -0.312645      0.000138097    -0.000341463       -0.0760085       0.0976989      0.000830908       0.0006831
                     0.000927817    -0.000599681         0.143695       -0.607527      0.000826456     0.000708075         0.728549       -0.211528
281740                0.00359884        0.123822     -0.000309065    -0.000419465        -0.937389       -0.312579       0.00090324    -0.000585334
                    -0.000311681    -0.000491476         0.585278        0.492549      0.000158314    -0.000277253         0.143594       -0.607415
                       -0.937501       -0.312351      0.000137763     -0.00034147       -0.0759711       0.0977521       0.00083169     0.000682759
                     0.000927732    -0.000600485         0.143277       -0.607367      0.000826905     0.000707819         0.728548       -0.212237
281742                0.00361465        0.123841     -0.000309279    -0.000419301        -0.937484       -0.312285      0.000902803    -0.000586148
                    -0.000312034    -0.000491269          0.58559        0.492487      0.000158067    -0.000277345         0.143176       -0.607254
                       -0.937596       -0.312056      0.000137429    -0.000341478       -0.0759337       0.0978053      0.000832472     0.000682417
                     0.000927646     -0.00060129         0.142858       -0.607206      0.000827354     0.000707562         0.728546       -0.212945
281744                0.00363046         0.12386     -0.000309494    -0.000419135        -0.937579        -0.31199      0.000902365    -0.000586961
                    -0.000312387    -0.000491061         0.585903        0.492424       0.00015782    -0.000277437         0.142757       -0.607093
                       -0.937691       -0.311762      0.000137096    -0.000341485       -0.0758963       0.0978585      0.000833254     0.000682073
                      0.00092756    -0.000602095          0.14244       -0.607045      0.000827802     0.000707305         0.728543       -0.213655
281746                0.00364627        0.123878     -0.000309709     -0.00041897        -0.937674       -0.311696      0.000901927    -0.000587774
                    -0.000312741    -0.000490853         0.586215        0.492361      0.000157573    -0.000277529         0.142339       -0.606931
                       -0.937786       -0.311467      0.000136762    -0.000341493       -0.0758589       0.0979117      0.000834035     0.000681728
                     0.000927473      -0.0006029         0.142022       -0.606883      0.000828251     0.000707048          0.72854       -0.214364
281748                0.00366209        0.123897     -0.000309924    -0.000418804        -0.937769       -0.311401      0.000901487    -0.000588588
                    -0.000313094    -0.000490645         0.586528        0.492298      0.000157325     -0.00027762         0.141921       -0.606769
                        -0.93788       -0.311173      0.000136429      -0.0003415       -0.0758214       0.0979649      0.000834816      0.00068138
                     0.000927385    -0.000603706         0.141604       -0.606721      0.000828699      0.00070679         0.728536       -0.215074
281750                0.00367791        0.123915      -0.00031014    -0.000418637        -0.937864       -0.311106      0.000901047      -0.0005894
                    -0.000313446    -0.000490436         0.586841        0.492235      0.000157078    -0.000277711         0.141502       -0.606607
                       -0.937975       -0.310878      0.000136096    -0.000341507       -0.0757838       0.0980181      0.000835596     0.000681032
                     0.000927296    -0.000604512         0.141186       -0.606558      0.000829147     0.000706531         0.728531       -0.215784
281752                0.00369374        0.123934     -0.000310356    -0.000418471        -0.937959       -0.310812      0.000900606    -0.000590213
                    -0.000313799    -0.000490226         0.587154        0.492172       0.00015683    -0.000277802         0.141084       -0.606444
                        -0.93807       -0.310584      0.000135763    -0.000341515       -0.0757463       0.0980713      0.000836376     0.000680681
                     0.000927206    -0.000605319         0.140768       -0.606395      0.000829594     0.000706272         0.728526       -0.216494
281754                0.00370958        0.123953     -0.000310572    -0.000418304        -0.938054       -0.310517      0.000900165    -0.000591025
                    -0.000314152    -0.000490016         0.587467        0.492108      0.000156583    -0.000277893         0.140666        -0.60628
                       -0.938164       -0.310289       0.00013543    -0.000341522       -0.0757087       0.0981244      0.000837156     0.000680329
                     0.000927116    -0.000606126         0.140351       -0.606231      0.000830042     0.000706013          0.72852       -0.217205
281756                0.00372541        0.123971     -0.000310789    -0.000418136        -0.938148       -0.310222      0.000899722    -0.000591837
                    -0.000314505    -0.000489806          0.58778        0.492044      0.000156335    -0.000277983         0.140249       -0.606116
                       -0.938258       -0.309995      0.000135097    -0.000341528        -0.075671       0.0981775      0.000837935     0.000679975
                     0.000927025    -0.000606933         0.139933       -0.606067      0.000830489     0.000705753         0.728513       -0.217916
281758                0.00374126         0.12399     -0.000311006    -0.000417968        -0.938243       -0.309928      0.000899279    -0.000592649
                    -0.000314858    -0.000489595         0.588093         0.49198      0.000156087    -0.000278074         0.139831       -0.605952
                       -0.938353         -0.3097      0.000134764    -0.000341535       -0.0756334       0.0982307      0.000838713      0.00067962
                     0.000926934    -0.000607741         0.139516       -0.605903      0.000830936     0.000705493         0.728505       -0.218627
281760                 0.0037571        0.124009     -0.000311223      -0.0004178        -0.938337       -0.309633      0.000898835     -0.00059346
                     -0.00031521    -0.000489384         0.588406        0.491915      0.000155839    -0.000278164         0.139413       -0.605787
                       -0.938447       -0.309405      0.000134431    -0.000341542       -0.0755956       0.0982838      0.000839491     0.000679263
                     0.000926842    -0.000608549         0.139098       -0.605738      0.000831383     0.000705232         0.728497       -0.219338
281762                0.00377296        0.124027      -0.00031144    -0.000417632        -0.938432       -0.309338       0.00089839    -0.000594271
                    -0.000315563    -0.000489172          0.58872        0.491851      0.000155591    -0.000278254         0.138996       -0.605622
                       -0.938541       -0.309111      0.000134098    -0.000341549       -0.0755579       0.0983369      0.000840268     0.000678904
