! TOUCHSTONE file generated by CST MICROWAVE STUDIO
! Date and time: Wed Oct 15 17:34:56 2025
! Project name: Teste_Macro_Metasurface_Nanopilar.cst
! Parameters = {H=600; L_x=195; L_y=80; Lambda=1064; Max_L=200; Min_L=70; PathPara=1; Phi=0; Step_L=10; Theta=0; p=520; phaseX=180; phaseY=0}
! Header version: 2018
! Port assignment regex: !\s*Touchstone port\s*([0-9]+)\s*=\s*(CST MWS port|CST DS port)\s*([0-9]+|Zmin|Zmax)\s*\(\"(.*)\"\)(\s*mode\s*([0-9]+))?.*
! Touchstone port assignment:
! Touchstone port 1 = CST MWS port Zmax ("") mode 1
! Touchstone port 2 = CST MWS port Zmax ("") mode 2
! Touchstone port 3 = CST MWS port Zmin ("") mode 1
! Touchstone port 4 = CST MWS port Zmin ("") mode 2
! S-Parameters are not renormalized. Each port impedance will be approximated by the real part at minimum frequency. The values are described via the [Reference] keyword.
! Default impedance is overridden by [Reference]
[Version] 2.0
# GHz S RI R 376.73
[Number of Ports] 4
[Reference]
376.73 376.73 259.888 259.888 
[Number of Frequencies] 51
[Network Data]
281700                -0.0402544      -0.0140902     -0.000183158    -0.000108531        -0.540138       -0.838422       0.00050429    -0.000166257
                    -0.000114574    -0.000164823         0.222438        0.421828      0.000427798     0.000141004         0.629008       -0.602663
                       -0.540275       -0.838631      0.000421342     0.000108051      -0.00373872       0.0430794     -0.000170958     0.000357807
                     0.000527019    -0.000113756         0.628849        -0.60254     -0.000216033     0.000348781         0.413306        0.231947
281702                -0.0402622      -0.0140764     -0.000183184    -0.000108556        -0.540361       -0.838278      0.000504553    -0.000166572
                    -0.000114625    -0.000164887         0.222544        0.421887      0.000427845     0.000140838         0.628719       -0.602883
                       -0.540498       -0.838487      0.000421413     0.000107883      -0.00373155       0.0430829     -0.000170951      0.00035833
                     0.000527091    -0.000113949          0.62856        -0.60276     -0.000215803     0.000348986         0.413553        0.231711
281704                  -0.04027      -0.0140627      -0.00018321    -0.000108581        -0.540585       -0.838134      0.000504816    -0.000166888
                    -0.000114677    -0.000164951          0.22265        0.421946       0.00042789     0.000140672          0.62843       -0.603102
                       -0.540721       -0.838343      0.000421483     0.000107714      -0.00372439       0.0430864     -0.000170943     0.000358853
                     0.000527163    -0.000114143         0.628271        -0.60298     -0.000215572     0.000349192         0.413801        0.231475
281706                -0.0402778       -0.014049     -0.000183235    -0.000108606        -0.540808       -0.837989      0.000505078    -0.000167204
                    -0.000114729    -0.000165014         0.222755        0.422005      0.000427936     0.000140506         0.628141       -0.603321
                       -0.540945       -0.838198      0.000421553     0.000107546      -0.00371722       0.0430899     -0.000170933     0.000359376
                     0.000527235    -0.000114336         0.627981       -0.603199      -0.00021534     0.000349397         0.414048        0.231239
281708                -0.0402856      -0.0140353      -0.00018326    -0.000108631        -0.541031       -0.837845       0.00050534    -0.000167521
                    -0.000114782    -0.000165078         0.222861        0.422064      0.000427981     0.000140339         0.627852       -0.603541
                       -0.541168       -0.838054      0.000421623     0.000107377      -0.00371005       0.0430934     -0.000170922       0.0003599
                     0.000527307     -0.00011453         0.627691       -0.603419     -0.000215108     0.000349602         0.414295        0.231003
281710                -0.0402934      -0.0140216     -0.000183285    -0.000108655        -0.541254       -0.837701        0.0005056    -0.000167838
                    -0.000114834    -0.000165141         0.222967        0.422123      0.000428025     0.000140173         0.627563        -0.60376
                       -0.541391        -0.83791      0.000421692     0.000107209      -0.00370288       0.0430969      -0.00017091     0.000360423
                     0.000527379    -0.000114724         0.627402       -0.603638     -0.000214875     0.000349806         0.414543        0.230766
281712                -0.0403012      -0.0140078      -0.00018331     -0.00010868        -0.541477       -0.837556       0.00050586    -0.000168156
                    -0.000114886    -0.000165205         0.223073        0.422182      0.000428069     0.000140006         0.627274       -0.603979
                       -0.541614       -0.837765      0.000421761      0.00010704       -0.0036957       0.0431004     -0.000170897     0.000360947
                     0.000527451    -0.000114918         0.627112       -0.603858     -0.000214641     0.000350011          0.41479        0.230529
281714                -0.0403089      -0.0139941     -0.000183335    -0.000108705          -0.5417       -0.837412      0.000506118    -0.000168475
                    -0.000114939    -0.000165268         0.223179         0.42224      0.000428113     0.000139839         0.626984       -0.604197
                       -0.541837       -0.837621       0.00042183     0.000106871      -0.00368853       0.0431039     -0.000170882     0.000361471
                     0.000527522    -0.000115113         0.626822       -0.604077     -0.000214407     0.000350215         0.415037        0.230292
281716                -0.0403167      -0.0139804     -0.000183359    -0.000108729        -0.541922       -0.837267      0.000506377    -0.000168795
                    -0.000114992    -0.000165331         0.223285        0.422299      0.000428157     0.000139672         0.626695       -0.604416
                        -0.54206       -0.837476      0.000421898     0.000106702      -0.00368135       0.0431074     -0.000170866     0.000361995
                     0.000527594    -0.000115307         0.626532       -0.604296     -0.000214172     0.000350419         0.415284        0.230055
281718                -0.0403245      -0.0139667     -0.000183383    -0.000108754        -0.542145       -0.837122      0.000506634    -0.000169115
                    -0.000115044    -0.000165395         0.223391        0.422358        0.0004282     0.000139506         0.626405       -0.604635
                       -0.542283       -0.837331      0.000421966     0.000106533      -0.00367417       0.0431109     -0.000170848      0.00036252
                     0.000527665    -0.000115502         0.626241       -0.604515     -0.000213936     0.000350623          0.41553        0.229817
281720                -0.0403323      -0.0139529     -0.000183407    -0.000108778        -0.542368       -0.836978       0.00050689    -0.000169436
                    -0.000115097    -0.000165458         0.223498        0.422417      0.000428243     0.000139338         0.626115       -0.604853
                       -0.542506       -0.837187      0.000422033     0.000106365      -0.00366698       0.0431144     -0.000170829     0.000363045
                     0.000527737    -0.000115697         0.625951       -0.604733     -0.000213699     0.000350827         0.415777        0.229579
281722                -0.0403401      -0.0139392     -0.000183431    -0.000108802        -0.542591       -0.836833      0.000507146    -0.000169757
                     -0.00011515    -0.000165521         0.223604        0.422476      0.000428286     0.000139171         0.625826       -0.605071
                       -0.542729       -0.837042      0.000422101     0.000106196       -0.0036598        0.043118     -0.000170809     0.000363569
                     0.000527808    -0.000115892          0.62566       -0.604952     -0.000213463     0.000351031         0.416024        0.229341
281724                -0.0403478      -0.0139255     -0.000183454    -0.000108826        -0.542814       -0.836688      0.000507401     -0.00017008
                    -0.000115203    -0.000165584          0.22371        0.422535      0.000428329     0.000139004         0.625536       -0.605289
                       -0.542952       -0.836897      0.000422168     0.000106026      -0.00365261       0.0431215     -0.000170788     0.000364094
                      0.00052788    -0.000116087          0.62537        -0.60517     -0.000213225     0.000351234          0.41627        0.229103
281726                -0.0403556      -0.0139117     -0.000183477    -0.000108851        -0.543036       -0.836543      0.000507655    -0.000170402
                    -0.000115256    -0.000165647         0.223816        0.422594      0.000428371     0.000138836         0.625245       -0.605507
                       -0.543175       -0.836752      0.000422234     0.000105857      -0.00364542        0.043125     -0.000170766      0.00036462
                     0.000527951    -0.000116282         0.625079       -0.605389     -0.000212987     0.000351438         0.416516        0.228865
281728                -0.0403634       -0.013898       -0.0001835    -0.000108875        -0.543259       -0.836398      0.000507908    -0.000170726
                     -0.00011531    -0.000165711         0.223923        0.422652      0.000428413     0.000138669         0.624955       -0.605725
                       -0.543398       -0.836607        0.0004223     0.000105688      -0.00363822       0.0431285     -0.000170742     0.000365145
                     0.000528022    -0.000116478         0.624788       -0.605607     -0.000212748     0.000351641         0.416763        0.228626
281730                -0.0403711      -0.0138843     -0.000183523    -0.000108899        -0.543482       -0.836253       0.00050816     -0.00017105
                    -0.000115363    -0.000165774         0.224029        0.422711      0.000428455     0.000138501         0.624665       -0.605943
                       -0.543621       -0.836462      0.000422366     0.000105519      -0.00363103       0.0431321     -0.000170717      0.00036567
                     0.000528094    -0.000116674         0.624497       -0.605825     -0.000212509     0.000351845         0.417009        0.228387
281732                -0.0403789      -0.0138705     -0.000183546    -0.000108923        -0.543704       -0.836108      0.000508412    -0.000171374
                    -0.000115416    -0.000165837         0.224136         0.42277      0.000428497     0.000138334         0.624374       -0.606161
                       -0.543844       -0.836317      0.000422432      0.00010535      -0.00362383       0.0431356     -0.000170691     0.000366196
                     0.000528165    -0.000116869         0.624206       -0.606043     -0.000212269     0.000352048         0.417255        0.228148
281734                -0.0403867      -0.0138568     -0.000183568    -0.000108947        -0.543927       -0.835963      0.000508663    -0.000171699
                     -0.00011547      -0.0001659         0.224242        0.422829      0.000428538     0.000138166         0.624084       -0.606378
                       -0.544066       -0.836172      0.000422497      0.00010518      -0.00361663       0.0431391     -0.000170664     0.000366722
                     0.000528236    -0.000117065         0.623915       -0.606261     -0.000212029     0.000352251         0.417501        0.227909
281736                -0.0403944       -0.013843      -0.00018359     -0.00010897        -0.544149       -0.835818      0.000508913    -0.000172025
                    -0.000115523    -0.000165963         0.224349        0.422888       0.00042858     0.000137998         0.623793       -0.606595
                       -0.544289       -0.836027      0.000422562     0.000105011      -0.00360942       0.0431427     -0.000170635     0.000367247
                     0.000528308    -0.000117261         0.623624       -0.606478     -0.000211788     0.000352455         0.417747        0.227669
281738                -0.0404022      -0.0138293     -0.000183612    -0.000108994        -0.544372       -0.835673      0.000509162    -0.000172352
                    -0.000115577    -0.000166026         0.224455        0.422947      0.000428621      0.00013783         0.623502       -0.606812
                       -0.544512       -0.835882      0.000422626     0.000104841      -0.00360222       0.0431462     -0.000170605     0.000367773
                     0.000528379    -0.000117458         0.623332       -0.606696     -0.000211547     0.000352658         0.417993        0.227429
281740                  -0.04041      -0.0138156     -0.000183634    -0.000109018        -0.544594       -0.835527       0.00050941    -0.000172678
                    -0.000115631    -0.000166089         0.224562        0.423005      0.000428662     0.000137662         0.623211       -0.607029
                       -0.544734       -0.835736       0.00042269     0.000104672      -0.00359501       0.0431498     -0.000170574     0.000368299
                      0.00052845    -0.000117654         0.623041       -0.606913     -0.000211305     0.000352861         0.418238        0.227189
281742                -0.0404177      -0.0138018     -0.000183655    -0.000109041        -0.544816       -0.835382      0.000509658    -0.000173006
                    -0.000115684    -0.000166153         0.224669        0.423064      0.000428703     0.000137494          0.62292       -0.607246
                       -0.544957       -0.835591      0.000422754     0.000104502       -0.0035878       0.0431533     -0.000170542     0.000368825
                     0.000528521     -0.00011785         0.622749        -0.60713     -0.000211063     0.000353064         0.418484        0.226949
281744                -0.0404255      -0.0137881     -0.000183676    -0.000109065        -0.545039       -0.835237      0.000509904    -0.000173334
                    -0.000115738    -0.000166216         0.224775        0.423123      0.000428744     0.000137326         0.622629       -0.607463
                       -0.545179       -0.835446      0.000422817     0.000104333      -0.00358059       0.0431569     -0.000170508     0.000369352
                     0.000528593    -0.000118047         0.622457       -0.607347      -0.00021082     0.000353267         0.418729        0.226708
281746                -0.0404332      -0.0137743     -0.000183697    -0.000109088        -0.545261       -0.835091       0.00051015    -0.000173663
                    -0.000115792    -0.000166279         0.224882        0.423182      0.000428784     0.000137157         0.622338        -0.60768
                       -0.545402         -0.8353       0.00042288     0.000104163      -0.00357337       0.0431604     -0.000170474     0.000369878
                     0.000528664    -0.000118244         0.622165       -0.607564     -0.000210577      0.00035347         0.418975        0.226467
281748                 -0.040441      -0.0137606     -0.000183718    -0.000109111        -0.545483       -0.834946      0.000510395    -0.000173992
                    -0.000115846    -0.000166342         0.224989        0.423241      0.000428824     0.000136989         0.622046       -0.607896
                       -0.545624       -0.835155      0.000422943     0.000103993      -0.00356616        0.043164     -0.000170438     0.000370404
                     0.000528735     -0.00011844         0.621873       -0.607781     -0.000210334     0.000353673          0.41922        0.226226
281750                -0.0404488      -0.0137468     -0.000183739    -0.000109135        -0.545706         -0.8348      0.000510639    -0.000174322
                      -0.0001159    -0.000166405         0.225096        0.423299      0.000428865     0.000136821         0.621755       -0.608112
                       -0.545847       -0.835009      0.000423005     0.000103824      -0.00355894       0.0431675       -0.0001704     0.000370931
                     0.000528806    -0.000118637         0.621581       -0.607998      -0.00021009     0.000353876         0.419465        0.225985
281752                -0.0404565      -0.0137331     -0.000183759    -0.000109158        -0.545928       -0.834654      0.000510883    -0.000174652
                    -0.000115954    -0.000166469         0.225203        0.423358      0.000428905     0.000136652         0.621463       -0.608329
                       -0.546069       -0.834863      0.000423067     0.000103654      -0.00355172       0.0431711     -0.000170362     0.000371457
                     0.000528878    -0.000118834         0.621289       -0.608214     -0.000209846     0.000354079          0.41971        0.225744
281754                -0.0404642      -0.0137193     -0.000183779    -0.000109181         -0.54615       -0.834509      0.000511125    -0.000174983
                    -0.000116009    -0.000166532          0.22531        0.423417      0.000428945     0.000136484         0.621171       -0.608545
                       -0.546292       -0.834718      0.000423129     0.000103484      -0.00354449       0.0431746     -0.000170322     0.000371984
                     0.000528949    -0.000119031         0.620997       -0.608431     -0.000209601     0.000354282         0.419955        0.225502
281756                 -0.040472      -0.0137056     -0.000183799    -0.000109204        -0.546372       -0.834363      0.000511367    -0.000175314
                    -0.000116063    -0.000166595         0.225417        0.423476      0.000428984     0.000136315          0.62088       -0.608761
                       -0.546514       -0.834572       0.00042319     0.000103314      -0.00353726       0.0431782     -0.000170282      0.00037251
                      0.00052902    -0.000119228         0.620704       -0.608647     -0.000209356     0.000354485           0.4202         0.22526
281758                -0.0404797      -0.0136918     -0.000183819    -0.000109227        -0.546594       -0.834217      0.000511607    -0.000175646
                    -0.000116117    -0.000166658         0.225524        0.423535      0.000429024     0.000136146         0.620588       -0.608976
                       -0.546736       -0.834426      0.000423251     0.000103144      -0.00353004       0.0431818     -0.000170239     0.000373037
                     0.000529091    -0.000119425         0.620412       -0.608863      -0.00020911     0.000354688         0.420445        0.225018
281760                -0.0404875      -0.0136781     -0.000183838     -0.00010925        -0.546816       -0.834071      0.000511847    -0.000175979
                    -0.000116172    -0.000166722         0.225631        0.423593      0.000429063     0.000135978         0.620295       -0.609192
                       -0.546958        -0.83428      0.000423311     0.000102974       -0.0035228       0.0431853     -0.000170195     0.000373564
                     0.000529162    -0.000119622         0.620119       -0.609079     -0.000208864     0.000354891          0.42069        0.224775
281762                -0.0404952      -0.0136643     -0.000183857    -0.000109273        -0.547038       -0.833925      0.000512086    -0.000176313
                    -0.000116226    -0.000166785         0.225739        0.423652      0.000429102     0.000135809         0.620003       -0.609408
                       -0.547181       -0.834134      0.000423372     0.000102804      -0.00351557       0.0431889      -0.00017015     0.000374091
