! TOUCHSTONE file generated by CST MICROWAVE STUDIO
! Date and time: Wed Oct 15 17:33:48 2025
! Project name: Teste_Macro_Metasurface_Nanopilar.cst
! Parameters = {H=600; L_x=175; L_y=90; Lambda=1064; Max_L=200; Min_L=70; PathPara=1; Phi=0; Step_L=10; Theta=0; p=520; phaseX=180; phaseY=0}
! Header version: 2018
! Port assignment regex: !\s*Touchstone port\s*([0-9]+)\s*=\s*(CST MWS port|CST DS port)\s*([0-9]+|Zmin|Zmax)\s*\(\"(.*)\"\)(\s*mode\s*([0-9]+))?.*
! Touchstone port assignment:
! Touchstone port 1 = CST MWS port Zmax ("") mode 1
! Touchstone port 2 = CST MWS port Zmax ("") mode 2
! Touchstone port 3 = CST MWS port Zmin ("") mode 1
! Touchstone port 4 = CST MWS port Zmin ("") mode 2
! S-Parameters are not renormalized. Each port impedance will be approximated by the real part at minimum frequency. The values are described via the [Reference] keyword.
! Default impedance is overridden by [Reference]
[Version] 2.0
# GHz S RI R 376.73
[Number of Ports] 4
[Reference]
376.73 376.73 259.888 259.888 
[Number of Frequencies] 51
[Network Data]
281700                -0.0183695       0.0856897     -0.000130802     0.000759506        -0.864579       -0.487751     -3.01198e-05     -0.00046177
                    -7.57217e-05      0.00077134         0.126945        0.274993      0.000269871     0.000453852         0.836236       -0.445037
                       -0.864505       -0.487922      0.000335777     0.000397952       -0.0631129       0.0609825     -0.000191389    -0.000723134
                     9.15604e-07    -0.000435887         0.836954       -0.444354      -0.00022624    -0.000708206         0.158758        0.255862
281702                -0.0183625         0.08571     -0.000130689     0.000759575        -0.864724        -0.48749     -3.03641e-05    -0.000461823
                     -7.5579e-05     0.000771449         0.126985        0.275032      0.000270064     0.000453859         0.836064       -0.445323
                        -0.86465        -0.48766      0.000336023     0.000398047       -0.0630972       0.0610253     -0.000191771    -0.000723178
                     7.11153e-07    -0.000435962         0.836781       -0.444641     -0.000226636    -0.000708218         0.158949        0.255804
281704                -0.0183555       0.0857304     -0.000130576     0.000759643         -0.86487       -0.487229     -3.06082e-05    -0.000461876
                    -7.54362e-05     0.000771558         0.127026        0.275071      0.000270257     0.000453866         0.835892        -0.44561
                       -0.864795       -0.487398      0.000336269     0.000398142       -0.0630814        0.061068     -0.000192152    -0.000723223
                     5.06609e-07    -0.000436037         0.836609       -0.444928     -0.000227032    -0.000708231          0.15914        0.255747
281706                -0.0183485       0.0857508     -0.000130463     0.000759713        -0.865015       -0.486967     -3.08523e-05    -0.000461928
                    -7.52935e-05     0.000771667         0.127067         0.27511      0.000270451     0.000453873          0.83572       -0.445897
                        -0.86494       -0.487137      0.000336515     0.000398236       -0.0630657       0.0611108     -0.000192534    -0.000723266
                     3.01971e-07    -0.000436112         0.836436       -0.445215     -0.000227429    -0.000708243         0.159331        0.255689
281708                -0.0183415       0.0857712      -0.00013035     0.000759782         -0.86516       -0.486706     -3.10964e-05    -0.000461981
                    -7.51507e-05     0.000771776         0.127108        0.275149      0.000270644     0.000453879         0.835547       -0.446183
                       -0.865086       -0.486875       0.00033676      0.00039833       -0.0630499       0.0611535     -0.000192916     -0.00072331
                     9.72413e-08    -0.000436187         0.836263       -0.445502     -0.000227825    -0.000708255         0.159522        0.255631
281710                -0.0183346       0.0857915     -0.000130236     0.000759852        -0.865305       -0.486444     -3.13403e-05    -0.000462033
                    -7.50078e-05     0.000771886         0.127149        0.275189      0.000270838     0.000453886         0.835375        -0.44647
                       -0.865231       -0.486613      0.000337005     0.000398424       -0.0630341       0.0611963     -0.000193297    -0.000723353
                    -1.07581e-07    -0.000436262          0.83609       -0.445789     -0.000228222    -0.000708267         0.159713        0.255573
281712                -0.0183276       0.0858119     -0.000130122     0.000759922         -0.86545       -0.486182     -3.15842e-05    -0.000462085
                     -7.4865e-05     0.000771995         0.127189        0.275228      0.000271031     0.000453893         0.835202       -0.446757
                       -0.865376       -0.486351      0.000337249     0.000398517       -0.0630182       0.0612391      -0.00019368    -0.000723397
                    -3.12497e-07    -0.000436337         0.835916       -0.446076     -0.000228619    -0.000708279         0.159904        0.255515
281714                -0.0183206       0.0858323     -0.000130008     0.000759992        -0.865595       -0.485921     -3.18281e-05    -0.000462137
                    -7.47221e-05     0.000772103          0.12723        0.275267      0.000271225     0.000453899          0.83503       -0.447043
                       -0.865521       -0.486089      0.000337493      0.00039861       -0.0630023       0.0612818     -0.000194062     -0.00072344
                    -5.17505e-07    -0.000436411         0.835743       -0.446363     -0.000229016    -0.000708291         0.160095        0.255457
281716                -0.0183136       0.0858527     -0.000129893     0.000760063         -0.86574       -0.485659     -3.20719e-05    -0.000462189
                    -7.45792e-05     0.000772212         0.127271        0.275306      0.000271419     0.000453906         0.834857       -0.447329
                       -0.865665       -0.485828      0.000337737     0.000398703       -0.0629864       0.0613246     -0.000194444    -0.000723482
                    -7.22607e-07    -0.000436485          0.83557        -0.44665     -0.000229413    -0.000708302         0.160286        0.255399
281718                -0.0183065        0.085873     -0.000129778     0.000760134        -0.865885       -0.485397     -3.23156e-05    -0.000462241
                    -7.44363e-05     0.000772321         0.127312        0.275345      0.000271612     0.000453912         0.834684       -0.447616
                        -0.86581       -0.485566       0.00033798     0.000398796       -0.0629705       0.0613673     -0.000194827    -0.000723525
                    -9.27801e-07     -0.00043656         0.835396       -0.446936      -0.00022981    -0.000708313         0.160477         0.25534
281720                -0.0182995       0.0858934     -0.000129664     0.000760205        -0.866029       -0.485135     -3.25594e-05    -0.000462292
                    -7.42933e-05      0.00077243         0.127353        0.275384      0.000271806     0.000453918         0.834511       -0.447902
                       -0.865955       -0.485304      0.000338223     0.000398888       -0.0629545       0.0614101      -0.00019521    -0.000723567
                    -1.13309e-06    -0.000436634         0.835223       -0.447223     -0.000230208    -0.000708324         0.160668        0.255282
281722                -0.0182925       0.0859138     -0.000129549     0.000760277        -0.866174       -0.484873      -3.2803e-05    -0.000462344
                    -7.41503e-05     0.000772539         0.127394        0.275423         0.000272     0.000453925         0.834338       -0.448188
                         -0.8661       -0.485042      0.000338466      0.00039898       -0.0629386       0.0614528     -0.000195592    -0.000723609
                    -1.33847e-06    -0.000436708         0.835049        -0.44751     -0.000230606    -0.000708335         0.160858        0.255223
281724                -0.0182855       0.0859341     -0.000129433     0.000760349        -0.866318       -0.484612     -3.30467e-05    -0.000462395
                    -7.40073e-05     0.000772648         0.127435        0.275462      0.000272193     0.000453931         0.834165       -0.448475
                       -0.866244       -0.484779      0.000338708     0.000399072       -0.0629226       0.0614956     -0.000195976     -0.00072365
                    -1.54394e-06    -0.000436781         0.834875       -0.447796     -0.000231003    -0.000708346         0.161049        0.255164
281726                -0.0182785       0.0859545     -0.000129318     0.000760421        -0.866463        -0.48435     -3.32903e-05    -0.000462446
                    -7.38643e-05     0.000772757         0.127476        0.275502      0.000272387     0.000453937         0.833991       -0.448761
                       -0.866389       -0.484517       0.00033895     0.000399163       -0.0629065       0.0615383     -0.000196359    -0.000723692
                    -1.74951e-06    -0.000436855         0.834701       -0.448083     -0.000231401    -0.000708357          0.16124        0.255105
281728                -0.0182714       0.0859749     -0.000129203     0.000760493        -0.866607       -0.484088     -3.35338e-05    -0.000462497
                    -7.37212e-05     0.000772866         0.127517        0.275541      0.000272581     0.000453943         0.833818       -0.449047
                       -0.866533       -0.484255      0.000339192     0.000399254       -0.0628904       0.0615811     -0.000196742    -0.000723733
                    -1.95518e-06    -0.000436928         0.834527       -0.448369       -0.0002318    -0.000708367         0.161431        0.255046
281730                -0.0182644       0.0859953     -0.000129087     0.000760565        -0.866751       -0.483825     -3.37774e-05    -0.000462548
                    -7.35781e-05     0.000772974         0.127558         0.27558      0.000272775     0.000453948         0.833644       -0.449333
                       -0.866677       -0.483993      0.000339434     0.000399345       -0.0628744       0.0616238     -0.000197126    -0.000723774
                    -2.16093e-06    -0.000437001         0.834353       -0.448655     -0.000232198    -0.000708377         0.161622        0.254987
281732                -0.0182574       0.0860156     -0.000128972     0.000760638        -0.866896       -0.483563     -3.40209e-05    -0.000462599
                     -7.3435e-05     0.000773083         0.127599        0.275619      0.000272969     0.000453954         0.833471       -0.449619
                       -0.866821        -0.48373      0.000339676     0.000399435       -0.0628582       0.0616666     -0.000197509    -0.000723814
                    -2.36678e-06    -0.000437074         0.834179       -0.448942     -0.000232596    -0.000708387         0.161813        0.254928
281734                -0.0182503        0.086036     -0.000128858     0.000760709         -0.86704       -0.483301     -3.42644e-05     -0.00046265
                    -7.32919e-05     0.000773192          0.12764        0.275658      0.000273162      0.00045396         0.833297       -0.449905
                       -0.866966       -0.483468      0.000339918     0.000399523       -0.0628421       0.0617093     -0.000197893    -0.000723855
                    -2.57273e-06    -0.000437147         0.834004       -0.449228     -0.000232995    -0.000708397         0.162004        0.254868
281736                -0.0182433       0.0860564     -0.000128748     0.000760775        -0.867184       -0.483039     -3.45079e-05      -0.0004627
                    -7.31487e-05     0.000773301         0.127681        0.275697      0.000273356     0.000453966         0.833123        -0.45019
                        -0.86711       -0.483206      0.000340165     0.000399609       -0.0628259       0.0617521     -0.000198277    -0.000723895
                    -2.77877e-06     -0.00043722          0.83383       -0.449514     -0.000233394    -0.000708406         0.162195        0.254809
281738                -0.0182362       0.0860767     -0.000128584     0.000760762        -0.867328       -0.482777     -3.47513e-05    -0.000462751
                    -7.30055e-05     0.000773409         0.127722        0.275737       0.00027355     0.000453971         0.832949       -0.450476
                       -0.867254       -0.482943      0.000340587     0.000399788       -0.0628097       0.0617948     -0.000198661    -0.000723935
                    -2.98491e-06    -0.000437292         0.833655       -0.449801     -0.000233792    -0.000708415         0.162386        0.254749
281740                -0.0182292       0.0860971     -0.000128478     0.000760946        -0.867472       -0.482514     -3.49948e-05    -0.000462801
                    -7.28623e-05     0.000773518         0.127763        0.275776      0.000273744     0.000453977         0.832775       -0.450762
                       -0.867398       -0.482681      0.000340616     0.000399811       -0.0627935       0.0618376     -0.000199046    -0.000723974
                    -3.19115e-06    -0.000437365         0.833481       -0.450086     -0.000234191    -0.000708425         0.162577        0.254689
281742                -0.0182221       0.0861175     -0.000128372     0.000761018        -0.867616       -0.482252     -3.52382e-05    -0.000462851
                    -7.27191e-05     0.000773627         0.127804        0.275815      0.000273938     0.000453982         0.832601       -0.451047
                       -0.867541       -0.482418      0.000340861     0.000399894       -0.0627772       0.0618803      -0.00019943    -0.000724014
                    -3.39748e-06    -0.000437437         0.833306       -0.450372      -0.00023459    -0.000708433         0.162768        0.254629
281744                 -0.018215       0.0861379     -0.000128258     0.000761092        -0.867759        -0.48199     -3.54816e-05    -0.000462901
                    -7.25758e-05     0.000773735         0.127845        0.275854      0.000274132     0.000453988         0.832426       -0.451333
                       -0.867685       -0.482156      0.000341102     0.000399981        -0.062761       0.0619231     -0.000199815    -0.000724053
                     -3.6039e-06    -0.000437509         0.833131       -0.450658      -0.00023499    -0.000708442         0.162959        0.254569
281746                 -0.018208       0.0861582     -0.000128141     0.000761166        -0.867903       -0.481727      -3.5725e-05    -0.000462951
                    -7.24325e-05     0.000773844         0.127886        0.275894      0.000274326     0.000453993         0.832252       -0.451619
                       -0.867829       -0.481893      0.000341342     0.000400068       -0.0627446       0.0619658       -0.0002002    -0.000724092
                    -3.81043e-06    -0.000437581         0.832956       -0.450944     -0.000235389    -0.000708451         0.163151        0.254509
281748                -0.0182009       0.0861786     -0.000128024     0.000761241        -0.868047       -0.481465     -3.59683e-05    -0.000463001
                    -7.22892e-05     0.000773952         0.127927        0.275933       0.00027452     0.000453998         0.832077       -0.451904
                       -0.867972        -0.48163       0.00034158     0.000400156       -0.0627283       0.0620086     -0.000200585     -0.00072413
                    -4.01705e-06    -0.000437652         0.832781        -0.45123     -0.000235788    -0.000708459         0.163342        0.254448
281750                -0.0181938        0.086199     -0.000127907     0.000761317         -0.86819       -0.481202     -3.62116e-05    -0.000463051
                    -7.21459e-05     0.000774061         0.127968        0.275972      0.000274714     0.000454003         0.831903       -0.452189
                       -0.868116       -0.481368      0.000341818     0.000400244       -0.0627119       0.0620513      -0.00020097    -0.000724169
                    -4.22378e-06    -0.000437724         0.832605       -0.451515     -0.000236188    -0.000708467         0.163533        0.254388
281752                -0.0181867       0.0862194     -0.000127789     0.000761393        -0.868333        -0.48094     -3.64549e-05    -0.000463101
                    -7.20025e-05     0.000774169         0.128009        0.276011      0.000274909     0.000454008         0.831728       -0.452475
                       -0.868259       -0.481105      0.000342056     0.000400332       -0.0626956       0.0620941     -0.000201355    -0.000724207
                     -4.4306e-06    -0.000437795          0.83243       -0.451801     -0.000236588    -0.000708475         0.163724        0.254327
281754                -0.0181796       0.0862397      -0.00012767      0.00076147        -0.868477       -0.480677      -3.6698e-05     -0.00046315
                    -7.18592e-05     0.000774278          0.12805        0.276051      0.000275103     0.000454013         0.831553        -0.45276
                       -0.868403       -0.480842      0.000342293     0.000400419       -0.0626791       0.0621368      -0.00020174    -0.000724245
                    -4.63751e-06    -0.000437866         0.832254       -0.452087     -0.000236987    -0.000708482         0.163915        0.254266
281756                -0.0181725       0.0862601     -0.000127552     0.000761546         -0.86862       -0.480414      -3.6941e-05      -0.0004632
                    -7.17158e-05     0.000774386         0.128091         0.27609      0.000275297     0.000454018         0.831378       -0.453045
                       -0.868546       -0.480579      0.000342529     0.000400507       -0.0626627       0.0621796     -0.000202126    -0.000724282
                    -4.84453e-06    -0.000437937         0.832079       -0.452372     -0.000237387     -0.00070849         0.164106        0.254205
281758                -0.0181654       0.0862805     -0.000127433     0.000761623        -0.868763       -0.480152     -3.71838e-05    -0.000463249
                    -7.15723e-05     0.000774495         0.128133        0.276129      0.000275491     0.000454023         0.831203        -0.45333
                       -0.868689       -0.480316      0.000342766     0.000400594       -0.0626462       0.0622223     -0.000202511    -0.000724319
                    -5.05165e-06    -0.000438008         0.831903       -0.452658     -0.000237787    -0.000708497         0.164297        0.254144
281760                -0.0181583       0.0863008     -0.000127314     0.000761701        -0.868906       -0.479889     -3.74259e-05    -0.000463298
                    -7.14289e-05     0.000774603         0.128174        0.276168      0.000275685     0.000454028         0.831028       -0.453616
                       -0.868832       -0.480053      0.000343002     0.000400681       -0.0626297       0.0622651     -0.000202897    -0.000724355
                    -5.25887e-06    -0.000438078         0.831727       -0.452943     -0.000238187    -0.000708504         0.164488        0.254083
281762                -0.0181512       0.0863212     -0.000127194     0.000761778         -0.86905       -0.479626     -3.76668e-05    -0.000463348
                    -7.12854e-05     0.000774712         0.128215        0.276208      0.000275879     0.000454033         0.830852       -0.453901
                       -0.868976        -0.47979      0.000343237     0.000400767       -0.0626132       0.0623078     -0.000203282    -0.000724388
