! TOUCHSTONE file generated by CST MICROWAVE STUDIO
! Date and time: Wed Oct 15 17:30:33 2025
! Project name: Teste_Macro_Metasurface_Nanopilar.cst
! Parameters = {H=600; L_x=115; L_y=170; Lambda=1064; Max_L=200; Min_L=70; PathPara=1; Phi=0; Step_L=10; Theta=0; p=520; phaseX=180; phaseY=0}
! Header version: 2018
! Port assignment regex: !\s*Touchstone port\s*([0-9]+)\s*=\s*(CST MWS port|CST DS port)\s*([0-9]+|Zmin|Zmax)\s*\(\"(.*)\"\)(\s*mode\s*([0-9]+))?.*
! Touchstone port assignment:
! Touchstone port 1 = CST MWS port Zmax ("") mode 1
! Touchstone port 2 = CST MWS port Zmax ("") mode 2
! Touchstone port 3 = CST MWS port Zmin ("") mode 1
! Touchstone port 4 = CST MWS port Zmin ("") mode 2
! S-Parameters are not renormalized. Each port impedance will be approximated by the real part at minimum frequency. The values are described via the [Reference] keyword.
! Default impedance is overridden by [Reference]
[Version] 2.0
# GHz S RI R 376.73
[Number of Ports] 4
[Reference]
376.73 376.73 259.888 259.888 
[Number of Frequencies] 51
[Network Data]
281700                  0.872817       -0.190752     -0.000236149     0.000243402          0.32137         0.17581     -4.64542e-05     0.000203732
                     -0.00031937     0.000237524        0.0637732       0.0328726      0.000706999     0.000217337         0.787796        0.600059
                        0.321451        0.175983      0.000879192     0.000289112        -0.108732        -0.87105      -0.00047564     0.000624092
                     5.03824e-05     8.99178e-05          0.78784        0.600377     -0.000425253     0.000887601       -0.0479049      -0.0503684
281702                  0.872349       -0.191386     -0.000236195     0.000244661         0.322253        0.175914      -4.5969e-05     0.000203619
                    -0.000319539     0.000238483        0.0637736       0.0328897      0.000707031     0.000215877         0.788012        0.599774
                        0.322334        0.176088      0.000878176     0.000287068        -0.110047       -0.870562     -0.000475852     0.000624665
                     5.04708e-05     8.99353e-05         0.788057        0.600091     -0.000424886     0.000887528       -0.0479582      -0.0503297
281704                   0.87188       -0.192018      -0.00023624      0.00024592         0.323137        0.176017     -4.54849e-05     0.000203501
                    -0.000319707     0.000239441        0.0637739       0.0329067       0.00070706     0.000214418         0.788228        0.599489
                        0.323217         0.17619      0.000877158     0.000285025        -0.111362       -0.870073      -0.00047606     0.000625241
                     5.05592e-05     8.99522e-05         0.788273        0.599805     -0.000424519     0.000887453       -0.0480114       -0.050291
281706                   0.87141        -0.19265     -0.000236283     0.000247178          0.32402        0.176117      -4.5002e-05     0.000203381
                    -0.000319872     0.000240399        0.0637743       0.0329238      0.000707087      0.00021296         0.788444        0.599203
                          0.3241        0.176291       0.00087614     0.000282985        -0.112674       -0.869581     -0.000476263      0.00062582
                     5.06478e-05     8.99683e-05          0.78849        0.599519     -0.000424151     0.000887378       -0.0480646      -0.0502523
281708                   0.87094        -0.19328     -0.000236325     0.000248435         0.324903        0.176215     -4.45203e-05     0.000203258
                    -0.000320035     0.000241357        0.0637747       0.0329409       0.00070711     0.000211502          0.78866        0.598918
                        0.324983         0.17639      0.000875121     0.000280946        -0.113985       -0.869086     -0.000476463     0.000626402
                     5.07364e-05     8.99837e-05         0.788706        0.599233     -0.000423782     0.000887302       -0.0481177      -0.0502135
281710                  0.870468       -0.193908     -0.000236364     0.000249691         0.325786        0.176311     -4.40398e-05     0.000203131
                    -0.000320195     0.000242316        0.0637751       0.0329579      0.000707131     0.000210044         0.788876        0.598633
                        0.325866        0.176486      0.000874101      0.00027891        -0.115294        -0.86859     -0.000476658     0.000626987
                     5.08251e-05     8.99984e-05         0.788922        0.598947     -0.000423414     0.000887225       -0.0481708      -0.0501747
281712                  0.869996       -0.194536     -0.000236402     0.000250947         0.326669        0.176405     -4.35606e-05     0.000203001
                    -0.000320354     0.000243274        0.0637756        0.032975      0.000707149     0.000208588         0.789092        0.598348
                        0.326749         0.17658      0.000873081     0.000276876        -0.116601        -0.86809     -0.000476849     0.000627576
                     5.09139e-05     9.00124e-05         0.789138        0.598661     -0.000423045     0.000887147       -0.0482239      -0.0501358
281714                  0.869523       -0.195162     -0.000236438     0.000252203         0.327551        0.176497     -4.30827e-05     0.000202868
                     -0.00032051     0.000244232         0.063776       0.0329921      0.000707164     0.000207132         0.789307        0.598062
                        0.327631        0.176672      0.000872059     0.000274844        -0.117906       -0.867589     -0.000477036     0.000628167
                     5.10027e-05     9.00256e-05         0.789354        0.598375     -0.000422675     0.000887069        -0.048277      -0.0500969
281716                  0.869049       -0.195787     -0.000236472     0.000253457         0.328434        0.176587     -4.26061e-05     0.000202732
                    -0.000320664      0.00024519        0.0637764       0.0330091      0.000707177     0.000205677         0.789523        0.597777
                        0.328514        0.176763      0.000871037     0.000272814        -0.119209       -0.867084     -0.000477218     0.000628761
                     5.10916e-05     9.00381e-05          0.78957        0.598088     -0.000422305     0.000886989         -0.04833      -0.0500579
281718                  0.868574       -0.196411     -0.000236505     0.000254711         0.329317        0.176675     -4.21307e-05     0.000202592
                    -0.000320816     0.000246148        0.0637768       0.0330262      0.000707186     0.000204222         0.789738        0.597491
                        0.329397        0.176851      0.000870014     0.000270786        -0.120511       -0.866578     -0.000477396     0.000629359
                     5.11806e-05     9.00499e-05         0.789786        0.597802     -0.000421935     0.000886909        -0.048383      -0.0500189
281720                  0.868098       -0.197034     -0.000236535     0.000255964         0.330199        0.176761     -4.16568e-05      0.00020245
                    -0.000320965     0.000247106        0.0637772       0.0330432      0.000707193     0.000202768         0.789954        0.597205
                        0.330279        0.176937       0.00086899     0.000268761        -0.121811       -0.866069      -0.00047757     0.000629959
                     5.12696e-05     9.00609e-05         0.790002        0.597515     -0.000421564     0.000886827       -0.0484359      -0.0499799
281722                  0.867622       -0.197655     -0.000236564     0.000257217         0.331082        0.176844     -4.11842e-05     0.000202304
                    -0.000321112     0.000248064        0.0637777       0.0330603      0.000707197     0.000201315         0.790169         0.59692
                        0.331161         0.17702      0.000867966     0.000266737        -0.123109       -0.865558      -0.00047774     0.000630562
                     5.13587e-05     9.00711e-05         0.790217        0.597229     -0.000421193     0.000886745       -0.0484888      -0.0499408
281724                  0.867144       -0.198275     -0.000236591     0.000258469         0.331964        0.176926     -4.07129e-05     0.000202155
                    -0.000321258     0.000249022        0.0637781       0.0330773      0.000707198     0.000199863         0.790384        0.596634
                        0.332043        0.177102      0.000866941     0.000264716        -0.124405       -0.865044     -0.000477905     0.000631168
                     5.14478e-05     9.00806e-05         0.790433        0.596942     -0.000420821     0.000886662       -0.0485417      -0.0499017
281726                  0.866666       -0.198894     -0.000236616      0.00025972         0.332846        0.177005     -4.02431e-05     0.000202003
                      -0.0003214     0.000249979        0.0637786       0.0330944      0.000707196     0.000198411         0.790599        0.596348
                        0.332925        0.177182      0.000865914     0.000262697          -0.1257       -0.864528     -0.000478066     0.000631777
                      5.1537e-05     9.00892e-05         0.790648        0.596655     -0.000420449     0.000886578       -0.0485946      -0.0498625
281728                  0.866187       -0.199512     -0.000236639      0.00026097         0.333728        0.177083     -3.97747e-05     0.000201848
                    -0.000321541     0.000250937         0.063779       0.0331115      0.000707191      0.00019696         0.790814        0.596062
                        0.333807         0.17726      0.000864888      0.00026068        -0.126992        -0.86401     -0.000478222     0.000632388
                     5.16262e-05     9.00971e-05         0.790863        0.596369     -0.000420077     0.000886493       -0.0486474      -0.0498232
281730                  0.865708       -0.200128     -0.000236661      0.00026222          0.33461        0.177158     -3.93077e-05      0.00020169
                     -0.00032168     0.000251894        0.0637795       0.0331285      0.000707184     0.000195509         0.791028        0.595776
                        0.334689        0.177335       0.00086386     0.000258665        -0.128283        -0.86349     -0.000478374     0.000633003
                     5.17155e-05     9.01042e-05         0.791079        0.596082     -0.000419704     0.000886407       -0.0487002       -0.049784
281732                  0.865227       -0.200743     -0.000236681     0.000263469         0.335491        0.177231     -3.88422e-05     0.000201528
                    -0.000321816     0.000252851        0.0637799       0.0331456      0.000707174      0.00019406         0.791243         0.59549
                         0.33557        0.177409      0.000862831     0.000256652        -0.129572       -0.862967     -0.000478522      0.00063362
                     5.18049e-05     9.01105e-05         0.791294        0.595795     -0.000419331      0.00088632        -0.048753      -0.0497447
281734                  0.864746       -0.201357     -0.000236698     0.000264717         0.336373        0.177303     -3.83782e-05     0.000201364
                     -0.00032195     0.000253808        0.0637804       0.0331626      0.000707161     0.000192611         0.791458        0.595204
                        0.336452         0.17748      0.000861802     0.000254641        -0.130859       -0.862441     -0.000478665      0.00063424
                     5.18943e-05      9.0116e-05         0.791508        0.595508     -0.000418957     0.000886233       -0.0488057      -0.0497053
281736                  0.864263        -0.20197     -0.000236714     0.000265965         0.337254        0.177372     -3.79156e-05     0.000201197
                    -0.000322082     0.000254765        0.0637809       0.0331797      0.000707146     0.000191163         0.791672        0.594918
                        0.337333         0.17755      0.000860772     0.000252633        -0.132144       -0.861914     -0.000478804     0.000634863
                     5.19837e-05     9.01207e-05         0.791723        0.595221     -0.000418583     0.000886144       -0.0488584      -0.0496659
281738                  0.863781       -0.202581     -0.000236728     0.000267212         0.338136        0.177439     -3.74546e-05     0.000201026
                    -0.000322211     0.000255722        0.0637813       0.0331967      0.000707127     0.000189716         0.791886        0.594631
                        0.338214        0.177617      0.000859741     0.000250626        -0.133428       -0.861384     -0.000478938     0.000635488
                     5.20732e-05     9.01245e-05         0.791938        0.594934     -0.000418208     0.000886055       -0.0489111      -0.0496264
281740                  0.863297       -0.203191     -0.000236741     0.000268458         0.339017        0.177504     -3.69951e-05     0.000200853
                    -0.000322339     0.000256678        0.0637818       0.0332138      0.000707106     0.000188269         0.792101        0.594345
                        0.339095        0.177682       0.00085871     0.000248622        -0.134709       -0.860851     -0.000479068     0.000636116
                     5.21627e-05     9.01275e-05         0.792153        0.594647     -0.000417834     0.000885964       -0.0489637      -0.0495869
281742                  0.862812         -0.2038     -0.000236751     0.000269703         0.339898        0.177567     -3.65372e-05     0.000200676
                    -0.000322464     0.000257635        0.0637823       0.0332308      0.000707082     0.000186823         0.792315        0.594059
                        0.339976        0.177745      0.000857677      0.00024662        -0.135989       -0.860317     -0.000479194     0.000636747
                     5.22523e-05     9.01297e-05         0.792367        0.594359     -0.000417458     0.000885873       -0.0490163      -0.0495474
281744                  0.862327       -0.204408      -0.00023676     0.000270948         0.340778        0.177628     -3.60808e-05     0.000200497
                    -0.000322587     0.000258591        0.0637828       0.0332478      0.000707055     0.000185378         0.792529        0.593772
                        0.340857        0.177807      0.000856644      0.00024462        -0.137267        -0.85978     -0.000479315      0.00063738
                     5.23419e-05      9.0131e-05         0.792581        0.594072     -0.000417083     0.000885781       -0.0490689      -0.0495078
281746                  0.861841       -0.205014     -0.000236766     0.000272192         0.341659        0.177686      -3.5626e-05     0.000200314
                    -0.000322708     0.000259547        0.0637833       0.0332649      0.000707026     0.000183934         0.792743        0.593486
                        0.341737        0.177866       0.00085561     0.000242621        -0.138543       -0.859241     -0.000479431     0.000638016
                     5.24315e-05     9.01314e-05         0.792796        0.593785     -0.000416706     0.000885688       -0.0491214      -0.0494682
281748                  0.861354       -0.205619     -0.000236771     0.000273435         0.342539        0.177743     -3.51728e-05     0.000200129
                    -0.000322827     0.000260502        0.0637838       0.0332819      0.000706994      0.00018249         0.792956        0.593199
                        0.342617        0.177923      0.000854574     0.000240625        -0.139817       -0.858699     -0.000479544     0.000638654
                     5.25212e-05      9.0131e-05          0.79301        0.593497      -0.00041633     0.000885593       -0.0491739      -0.0494285
281750                  0.860867       -0.206223     -0.000236773     0.000274677         0.343419        0.177798     -3.47212e-05     0.000199941
                    -0.000322943     0.000261457        0.0637843        0.033299      0.000706959     0.000181048          0.79317        0.592912
                        0.343497        0.177978      0.000853538      0.00023863        -0.141089       -0.858156     -0.000479651     0.000639295
                     5.26109e-05     9.01297e-05         0.793224         0.59321     -0.000415953     0.000885498       -0.0492264      -0.0493888
281752                  0.860378       -0.206826     -0.000236774     0.000275919         0.344299        0.177851     -3.42713e-05     0.000199749
                    -0.000323058     0.000262412        0.0637848        0.033316      0.000706921     0.000179606         0.793383        0.592626
                        0.344377        0.178031      0.000852501     0.000236636        -0.142359        -0.85761     -0.000479754     0.000639939
                     5.27006e-05     9.01276e-05         0.793438        0.592922     -0.000415576     0.000885402       -0.0492788      -0.0493491
281754                  0.859889       -0.207427     -0.000236772      0.00027716         0.345179        0.177901      -3.3823e-05     0.000199555
                     -0.00032317     0.000263367        0.0637853       0.0333331      0.000706881     0.000178165         0.793597        0.592339
                        0.345257        0.178082      0.000851461     0.000234643        -0.143628       -0.857062     -0.000479852     0.000640585
                     5.27904e-05     9.01245e-05         0.793652        0.592634     -0.000415198     0.000885305       -0.0493312      -0.0493093
281756                  0.859399       -0.208027     -0.000236767     0.000278401         0.346058         0.17795     -3.33764e-05     0.000199358
                     -0.00032328     0.000264321        0.0637859       0.0333501      0.000706838     0.000176725          0.79381        0.592052
                        0.346136         0.17813      0.000850419     0.000232649        -0.144894       -0.856511     -0.000479946     0.000641233
                     5.28801e-05     9.01205e-05         0.793866        0.592346      -0.00041482     0.000885208       -0.0493836      -0.0492694
281758                  0.858909       -0.208626     -0.000236757      0.00027964         0.346938        0.177996     -3.29315e-05     0.000199157
                    -0.000323388     0.000265275        0.0637864       0.0333672      0.000706792     0.000175285         0.794023        0.591765
                        0.347015        0.178177      0.000849373     0.000230649        -0.146159       -0.855958     -0.000480035     0.000641884
                       5.297e-05     9.01157e-05         0.794079        0.592059     -0.000414441     0.000885109       -0.0494359      -0.0492295
281760                  0.858417       -0.209223     -0.000236739     0.000280872         0.347817        0.178041     -3.24883e-05     0.000198954
                    -0.000323493     0.000266229        0.0637869       0.0333842      0.000706744     0.000173846         0.794237        0.591478
                        0.347894        0.178222       0.00084831     0.000228624        -0.147421       -0.855403      -0.00048012     0.000642537
                     5.30598e-05     9.01099e-05         0.794293        0.591771     -0.000414062     0.000885009       -0.0494882      -0.0491896
281762                  0.857925        -0.20982     -0.000236744      0.00028208         0.348696        0.178083     -3.20468e-05     0.000198749
                    -0.000323597     0.000267182        0.0637874       0.0334012      0.000706693     0.000172409          0.79445        0.591191
                        0.348773        0.178265      0.000847093     0.000226185        -0.148682       -0.854846       -0.0004802     0.000643192
