! TOUCHSTONE file generated by CST MICROWAVE STUDIO
! Date and time: Wed Oct 15 17:29:30 2025
! Project name: Teste_Macro_Metasurface_Nanopilar.cst
! Parameters = {H=600; L_x=100; L_y=90; Lambda=1064; Max_L=200; Min_L=70; PathPara=1; Phi=0; Step_L=10; Theta=0; p=520; phaseX=180; phaseY=0}
! Header version: 2018
! Port assignment regex: !\s*Touchstone port\s*([0-9]+)\s*=\s*(CST MWS port|CST DS port)\s*([0-9]+|Zmin|Zmax)\s*\(\"(.*)\"\)(\s*mode\s*([0-9]+))?.*
! Touchstone port assignment:
! Touchstone port 1 = CST MWS port Zmax ("") mode 1
! Touchstone port 2 = CST MWS port Zmax ("") mode 2
! Touchstone port 3 = CST MWS port Zmin ("") mode 1
! Touchstone port 4 = CST MWS port Zmin ("") mode 2
! S-Parameters are not renormalized. Each port impedance will be approximated by the real part at minimum frequency. The values are described via the [Reference] keyword.
! Default impedance is overridden by [Reference]
[Version] 2.0
# GHz S RI R 376.73
[Number of Ports] 4
[Reference]
376.73 376.73 259.888 259.888 
[Number of Frequencies] 51
[Network Data]
281700               0.000348864      -0.0750243      0.000296849    -0.000329374        -0.220652       -0.971542     -4.11766e-07    -9.99677e-05
                     0.000245637    -0.000406396      -0.00485735      -0.0367999     -3.08461e-05     0.000136613        -0.407848       -0.911412
                       -0.220632       -0.971339      3.57588e-05     5.70151e-05        0.0325035       0.0677582      0.000410573     0.000137693
                    -1.79874e-05    -1.40551e-05        -0.408239        -0.91084      0.000491639     7.96918e-05        0.0239474       0.0285834
281702               0.000337784      -0.0750184      0.000296785    -0.000329395        -0.220897       -0.971487     -4.41628e-07    -9.99832e-05
                     0.000245589    -0.000406461      -0.00486521      -0.0367904     -3.08253e-05     0.000136681        -0.408089       -0.911305
                       -0.220877       -0.971284      3.57974e-05     5.69636e-05        0.0325252       0.0677412      0.000410648     0.000137563
                     -1.7974e-05    -1.40477e-05        -0.408479       -0.910733      0.000491744      7.9576e-05          0.02395       0.0285703
281704               0.000326704      -0.0750125       0.00029672    -0.000329416        -0.221142       -0.971432     -4.71574e-07    -9.99987e-05
                      0.00024554    -0.000406526      -0.00487308      -0.0367808     -3.07963e-05     0.000136742        -0.408329       -0.911198
                       -0.221122       -0.971229      3.58358e-05     5.69121e-05        0.0325468       0.0677243      0.000410723     0.000137433
                    -1.79607e-05    -1.40402e-05         -0.40872       -0.910626      0.000491849     7.94582e-05        0.0239526       0.0285572
281706               0.000315626      -0.0750066      0.000296656    -0.000329437        -0.221388       -0.971376     -5.01605e-07    -0.000100014
                     0.000245491    -0.000406591      -0.00488094      -0.0367712     -3.07522e-05     0.000136812         -0.40857        -0.91109
                       -0.221367       -0.971173      3.58741e-05     5.68604e-05        0.0325684       0.0677074      0.000410797     0.000137302
                    -1.79474e-05    -1.40328e-05         -0.40896       -0.910518      0.000491953     7.93386e-05        0.0239552        0.028544
281708               0.000304548      -0.0750007      0.000296591    -0.000329458        -0.221633       -0.971321     -5.31719e-07     -0.00010003
                     0.000245442    -0.000406656       -0.0048888      -0.0367616     -3.07143e-05     0.000136896         -0.40881       -0.910983
                       -0.221613       -0.971117      3.59123e-05     5.68087e-05          0.03259       0.0676904      0.000410872     0.000137172
                    -1.79342e-05    -1.40253e-05          -0.4092       -0.910411      0.000492056     7.92173e-05        0.0239578       0.0285309
281710               0.000293471      -0.0749948      0.000296527    -0.000329478        -0.221878       -0.971265     -5.61917e-07    -0.000100045
                     0.000245392    -0.000406721      -0.00489666       -0.036752     -3.06844e-05      0.00013698         -0.40905       -0.910875
                       -0.221858       -0.971062      3.59504e-05     5.67568e-05        0.0326116       0.0676735      0.000410947     0.000137041
                    -1.79211e-05    -1.40178e-05         -0.40944       -0.910303      0.000492159     7.90945e-05        0.0239604       0.0285178
281712               0.000282394      -0.0749889      0.000296462    -0.000329499        -0.222123       -0.971209       -5.922e-07     -0.00010006
                     0.000245343    -0.000406786      -0.00490452      -0.0367424     -3.06572e-05     0.000137062        -0.409291       -0.910767
                       -0.222103       -0.971006      3.59883e-05     5.67048e-05        0.0326332       0.0676566      0.000411021      0.00013691
                    -1.79081e-05    -1.40103e-05         -0.40968       -0.910195      0.000492261     7.89705e-05         0.023963       0.0285047
281714               0.000271318       -0.074983      0.000296398    -0.000329519        -0.222369       -0.971154     -6.22567e-07    -0.000100076
                     0.000245294    -0.000406851      -0.00491238      -0.0367328     -3.06306e-05     0.000137142        -0.409531        -0.91066
                       -0.222348        -0.97095      3.60261e-05     5.66527e-05        0.0326547       0.0676396      0.000411096     0.000136779
                    -1.78952e-05    -1.40028e-05         -0.40992       -0.910088      0.000492362     7.88452e-05        0.0239655       0.0284916
281716               0.000260243      -0.0749771      0.000296333     -0.00032954        -0.222614       -0.971098     -6.53018e-07    -0.000100091
                     0.000245244    -0.000406916      -0.00492023      -0.0367233      -3.0604e-05     0.000137221        -0.409772       -0.910552
                       -0.222593       -0.970894      3.60637e-05     5.66005e-05        0.0326763       0.0676226      0.000411171     0.000136649
                    -1.78823e-05    -1.39953e-05         -0.41016        -0.90998      0.000492463     7.87189e-05        0.0239681       0.0284785
281718               0.000249169      -0.0749712      0.000296268     -0.00032956        -0.222859       -0.971042     -6.83553e-07    -0.000100107
                     0.000245195    -0.000406981      -0.00492809      -0.0367137     -3.05773e-05       0.0001373        -0.410012       -0.910444
                       -0.222838       -0.970838      3.61012e-05      5.6548e-05        0.0326979       0.0676057      0.000411245     0.000136518
                    -1.78695e-05    -1.39877e-05          -0.4104       -0.909872      0.000492564     7.85915e-05        0.0239707       0.0284654
281720               0.000238096      -0.0749653      0.000296203     -0.00032958        -0.223104       -0.970986     -7.14173e-07    -0.000100122
                     0.000245145    -0.000407046      -0.00493594      -0.0367041     -3.05505e-05     0.000137378        -0.410252       -0.910336
                       -0.223083       -0.970782      3.61385e-05     5.64954e-05        0.0327194       0.0675887       0.00041132     0.000136387
                    -1.78568e-05    -1.39801e-05         -0.41064       -0.909764      0.000492664     7.84632e-05        0.0239732       0.0284523
281722               0.000227023      -0.0749594      0.000296138      -0.0003296        -0.223349        -0.97093     -7.44878e-07    -0.000100137
                     0.000245095    -0.000407111       -0.0049438      -0.0366945     -3.05236e-05     0.000137456        -0.410492       -0.910228
                       -0.223328       -0.970726      3.61756e-05     5.64425e-05         0.032741       0.0675717      0.000411394     0.000136255
                    -1.78442e-05    -1.39726e-05         -0.41088       -0.909656      0.000492764     7.83341e-05        0.0239758       0.0284392
281724               0.000215951      -0.0749534      0.000296072    -0.000329619        -0.223594       -0.970874     -7.75668e-07    -0.000100153
                     0.000245045    -0.000407176      -0.00495165      -0.0366849     -3.04965e-05     0.000137534        -0.410733        -0.91012
                       -0.223573        -0.97067      3.62123e-05     5.63893e-05        0.0327625       0.0675547      0.000411469     0.000136124
                    -1.78316e-05    -1.39649e-05         -0.41112       -0.909548      0.000492863     7.82042e-05        0.0239783       0.0284261
281726               0.000204879      -0.0749475      0.000296006    -0.000329638        -0.223839       -0.970818     -8.06542e-07    -0.000100168
                     0.000244995    -0.000407241      -0.00495951      -0.0366753     -3.04694e-05     0.000137612        -0.410973       -0.910012
                       -0.223818       -0.970614      3.62487e-05     5.63358e-05         0.032784       0.0675377      0.000411543     0.000135993
                    -1.78192e-05    -1.39573e-05         -0.41136        -0.90944      0.000492963     7.80736e-05        0.0239809       0.0284131
281728               0.000193808      -0.0749416       0.00029594    -0.000329657        -0.224084       -0.970762     -8.37501e-07    -0.000100183
                     0.000244945    -0.000407306      -0.00496737      -0.0366657     -3.04421e-05      0.00013769        -0.411213       -0.909904
                       -0.224063       -0.970558      3.62844e-05     5.62819e-05        0.0328055       0.0675207      0.000411617     0.000135862
                    -1.78068e-05    -1.39497e-05        -0.411601       -0.909332      0.000493062     7.79422e-05        0.0239834          0.0284
281730               0.000182738      -0.0749357      0.000295873    -0.000329673        -0.224329       -0.970706     -8.68545e-07    -0.000100198
                     0.000244895    -0.000407371      -0.00497512      -0.0366561     -3.04147e-05     0.000137768        -0.411453       -0.909796
                       -0.224308       -0.970501      3.63193e-05     5.62275e-05         0.032827       0.0675037      0.000411692      0.00013573
                    -1.77945e-05     -1.3942e-05        -0.411839       -0.909224       0.00049316     7.78103e-05        0.0239859       0.0283869
281732               0.000171669      -0.0749298      0.000295806    -0.000329687        -0.224575       -0.970649     -8.99674e-07    -0.000100214
                     0.000244845    -0.000407437      -0.00498302      -0.0366465     -3.03872e-05     0.000137846        -0.411693       -0.909687
                       -0.224553       -0.970445      3.63525e-05     5.61729e-05        0.0328485       0.0674867      0.000411766     0.000135599
                    -1.77823e-05    -1.39343e-05         -0.41208       -0.909115      0.000493259     7.76778e-05        0.0239884       0.0283738
281734               0.000160601      -0.0749239      0.000295738    -0.000329695         -0.22482       -0.970593     -9.30889e-07    -0.000100229
                     0.000244795    -0.000407502      -0.00499087      -0.0366369     -3.03596e-05     0.000137924        -0.411933       -0.909579
                       -0.224798       -0.970389      3.63834e-05     5.61186e-05          0.03287       0.0674697       0.00041184     0.000135468
                    -1.77702e-05    -1.39266e-05         -0.41232       -0.909007      0.000493357     7.75447e-05        0.0239909       0.0283608
281736               0.000149533      -0.0749179      0.000295678    -0.000329689        -0.225065       -0.970537     -9.62188e-07    -0.000100244
                     0.000244744    -0.000407567      -0.00499872      -0.0366273     -3.03319e-05     0.000138002        -0.412174       -0.909471
                       -0.225043       -0.970332      3.64111e-05      5.6067e-05        0.0328915       0.0674527      0.000411915     0.000135336
                    -1.77582e-05    -1.39189e-05        -0.412559       -0.908899      0.000493455      7.7411e-05        0.0239934       0.0283477
281738               0.000138466       -0.074912      0.000295666    -0.000329679         -0.22531        -0.97048     -9.93573e-07    -0.000100259
                     0.000244694    -0.000407632      -0.00500656      -0.0366177     -3.03042e-05      0.00013808        -0.412414       -0.909362
                       -0.225288       -0.970276      3.64376e-05     5.60217e-05         0.032913       0.0674356      0.000411989     0.000135204
                    -1.77463e-05    -1.39111e-05        -0.412799        -0.90879      0.000493553     7.72769e-05        0.0239959       0.0283346
281740               0.000127399      -0.0749061      0.000295649    -0.000329762        -0.225555       -0.970424     -1.02504e-06    -0.000100274
                     0.000244643    -0.000407697       -0.0050144      -0.0366081     -3.02764e-05     0.000138158        -0.412654       -0.909254
                       -0.225533       -0.970219      3.64701e-05     5.59829e-05        0.0329345       0.0674186      0.000412063     0.000135073
                    -1.77344e-05    -1.39033e-05        -0.413039       -0.908682      0.000493651     7.71422e-05        0.0239984       0.0283216
281742               0.000116333      -0.0749002      0.000295561    -0.000329817          -0.2258       -0.970367      -1.0566e-06    -0.000100289
                     0.000244592    -0.000407762      -0.00502224      -0.0365985     -3.02485e-05     0.000138237        -0.412894       -0.909145
                       -0.225778       -0.970162      3.65116e-05     5.59426e-05        0.0329559       0.0674016      0.000412137     0.000134941
                    -1.77227e-05    -1.38955e-05        -0.413279       -0.908573      0.000493748     7.70071e-05        0.0240009       0.0283085
281744               0.000105268      -0.0748942      0.000295479    -0.000329845        -0.226045        -0.97031     -1.08824e-06    -0.000100305
                     0.000244541    -0.000407827      -0.00503008      -0.0365889     -3.02206e-05     0.000138315        -0.413134       -0.909036
                       -0.226023       -0.970105      3.65564e-05     5.58959e-05        0.0329774       0.0673845      0.000412212     0.000134809
                     -1.7711e-05    -1.38877e-05        -0.413518       -0.908464      0.000493845     7.68716e-05        0.0240034       0.0282955
281746               9.42042e-05      -0.0748883      0.000295404    -0.000329867         -0.22629       -0.970254     -1.11998e-06     -0.00010032
                     0.000244491    -0.000407893      -0.00503792      -0.0365793     -3.01926e-05     0.000138393        -0.413374       -0.908927
                       -0.226268       -0.970049      3.65999e-05     5.58447e-05        0.0329988       0.0673675      0.000412286     0.000134677
                    -1.76995e-05    -1.38798e-05        -0.413758       -0.908356      0.000493942     7.67356e-05        0.0240058       0.0282824
281748               8.31406e-05      -0.0748824      0.000295334    -0.000329888        -0.226534       -0.970197      -1.1518e-06    -0.000100335
                     0.000244439    -0.000407958      -0.00504576      -0.0365697     -3.01647e-05     0.000138472        -0.413614       -0.908819
                       -0.226513       -0.969992      3.66415e-05     5.57917e-05        0.0330202       0.0673504       0.00041236     0.000134545
                     -1.7688e-05     -1.3872e-05        -0.413998       -0.908247      0.000494039     7.65991e-05        0.0240083       0.0282694
281750               7.20778e-05      -0.0748764      0.000295266    -0.000329908        -0.226779        -0.97014     -1.18372e-06     -0.00010035
                     0.000244388    -0.000408023      -0.00505359        -0.03656     -3.01367e-05      0.00013855        -0.413853        -0.90871
                       -0.226758       -0.969935      3.66814e-05     5.57379e-05        0.0330417       0.0673333      0.000412434     0.000134413
                    -1.76765e-05    -1.38641e-05        -0.414237       -0.908138      0.000494136     7.64622e-05        0.0240107       0.0282563
281752               6.10157e-05      -0.0748705      0.000295198    -0.000329929        -0.227024       -0.970083     -1.21577e-06    -0.000100365
                     0.000244337    -0.000408088      -0.00506142      -0.0365504     -3.01087e-05     0.000138629        -0.414093       -0.908601
                       -0.227003       -0.969878      3.67204e-05     5.56841e-05        0.0330631       0.0673163      0.000412508     0.000134281
                    -1.76651e-05    -1.38563e-05        -0.414477       -0.908029      0.000494233     7.63248e-05        0.0240132       0.0282433
281754               4.99543e-05      -0.0748646      0.000295132    -0.000329949        -0.227269       -0.970026     -1.24603e-06    -0.000100376
                     0.000244286    -0.000408153      -0.00506926      -0.0365408     -3.00809e-05     0.000138707        -0.414333       -0.908492
                       -0.227248       -0.969821      3.67588e-05     5.56302e-05        0.0330845       0.0672992      0.000412589     0.000134142
                     -1.7653e-05    -1.38488e-05        -0.414716        -0.90792      0.000494329     7.61869e-05        0.0240156       0.0282302
281756               3.88938e-05      -0.0748586      0.000295065     -0.00032997        -0.227514       -0.969969     -1.27973e-06    -0.000100394
                     0.000244234     -0.00040822      -0.00507709      -0.0365312     -3.00534e-05     0.000138786        -0.414573       -0.908383
                       -0.227493       -0.969764      3.67967e-05     5.55765e-05        0.0331059       0.0672821      0.000412657     0.000134016
                    -1.76454e-05    -1.38388e-05        -0.414956       -0.907811      0.000494425     7.60483e-05         0.024018       0.0282172
281758               2.78338e-05      -0.0748527         0.000295    -0.000329991        -0.227759       -0.969912     -1.31202e-06    -0.000100409
                     0.000244183    -0.000408284      -0.00508492      -0.0365216     -3.00264e-05     0.000138866        -0.414813       -0.908274
                       -0.227737       -0.969707      3.68344e-05     5.55229e-05        0.0331273        0.067265      0.000412731     0.000133884
                    -1.76332e-05    -1.38315e-05        -0.415195       -0.907702      0.000494521     7.59091e-05        0.0240205       0.0282042
281760               1.67746e-05      -0.0748468      0.000294934    -0.000330012        -0.228004       -0.969855     -1.34437e-06    -0.000100424
                     0.000244131     -0.00040835      -0.00509274       -0.036512     -3.00007e-05     0.000138946        -0.415053       -0.908164
                       -0.227982       -0.969649      3.68719e-05     5.54694e-05        0.0331486       0.0672479      0.000412804     0.000133751
                    -1.76222e-05    -1.38236e-05        -0.415435       -0.907593      0.000494616     7.57687e-05        0.0240229       0.0281911
281762               5.71605e-06      -0.0748408      0.000294868    -0.000330033        -0.228249       -0.969798     -1.37679e-06    -0.000100439
                     0.000244079    -0.000408415      -0.00510057      -0.0365023     -2.99785e-05     0.000139032        -0.415292       -0.908055
                       -0.228227       -0.969592      3.69094e-05     5.54161e-05          0.03317       0.0672308      0.000412878     0.000133619
