! TOUCHSTONE file generated by CST MICROWAVE STUDIO
! Date and time: Wed Oct 15 17:34:40 2025
! Project name: Teste_Macro_Metasurface_Nanopilar.cst
! Parameters = {H=600; L_x=190; L_y=95; Lambda=1064; Max_L=200; Min_L=70; PathPara=1; Phi=0; Step_L=10; Theta=0; p=520; phaseX=180; phaseY=0}
! Header version: 2018
! Port assignment regex: !\s*Touchstone port\s*([0-9]+)\s*=\s*(CST MWS port|CST DS port)\s*([0-9]+|Zmin|Zmax)\s*\(\"(.*)\"\)(\s*mode\s*([0-9]+))?.*
! Touchstone port assignment:
! Touchstone port 1 = CST MWS port Zmax ("") mode 1
! Touchstone port 2 = CST MWS port Zmax ("") mode 2
! Touchstone port 3 = CST MWS port Zmin ("") mode 1
! Touchstone port 4 = CST MWS port Zmin ("") mode 2
! S-Parameters are not renormalized. Each port impedance will be approximated by the real part at minimum frequency. The values are described via the [Reference] keyword.
! Default impedance is overridden by [Reference]
[Version] 2.0
# GHz S RI R 376.73
[Number of Ports] 4
[Reference]
376.73 376.73 259.888 259.888 
[Number of Frequencies] 51
[Network Data]
281700                  0.109126        0.156772      0.000428316    -0.000277686        -0.946538        0.235336      0.000223979     0.000780447
                     0.000463088    -0.000203414         0.975505       0.0529229      0.000334338      6.3187e-05        0.0332357      0.00617149
                       -0.946545        0.235375      0.000550378     7.08529e-05       -0.0215775        0.189251     -0.000607389    -0.000344909
                     0.000150862     0.000735421        0.0336767      0.00603303     -0.000457111    -0.000517267         0.313912       -0.915191
281702                  0.109156        0.156771      0.000427733    -0.000277985        -0.946452        0.235669      0.000141284     0.000779522
                       0.0004627    -0.000203669         0.975518       0.0523584      0.000334174     6.33605e-05        0.0337011      0.00652748
                       -0.946458        0.235708      0.000550423     7.04889e-05       -0.0214708        0.189279     -0.000561813    -0.000358328
                     0.000151565     0.000735264        0.0340144      0.00648997     -0.000457334    -0.000517673         0.312831       -0.915558
281704                  0.109186         0.15677       0.00042715    -0.000278282        -0.946365        0.236002      0.000140842     0.000778332
                     0.000462312    -0.000203925         0.975531       0.0517939       0.00033401     6.35349e-05        0.0340376      0.00698802
                       -0.946371        0.236041      0.000550468     7.01247e-05       -0.0213641        0.189308     -0.000560675    -0.000357347
                     0.000152267     0.000735108        0.0343529      0.00694634      -0.00045756    -0.000518079         0.311758       -0.915906
281706                  0.109216         0.15677      0.000426567    -0.000278579        -0.946278        0.236335        0.0001414     0.000777831
                     0.000461925     -0.00020418         0.975543       0.0512294      0.000333847     6.37103e-05        0.0343764      0.00744511
                       -0.946284        0.236375      0.000550512     6.97601e-05       -0.0212574        0.189337     -0.000560359    -0.000356822
                     0.000152968     0.000734952        0.0346923      0.00740213     -0.000457787    -0.000518487         0.310684       -0.916251
281708                  0.109246        0.156769      0.000425983    -0.000278875        -0.946191        0.236668       0.00014221      0.00077751
                     0.000461538    -0.000204434         0.975555       0.0506648      0.000333685     6.38867e-05        0.0347163      0.00790094
                       -0.946197        0.236708      0.000550556     6.93953e-05       -0.0211506        0.189365     -0.000560251    -0.000356422
                     0.000153667     0.000734796        0.0350325      0.00785735     -0.000458016    -0.000518894         0.309609       -0.916595
281710                  0.109276        0.156768      0.000425399    -0.000279169        -0.946103        0.237001      0.000143121      0.00077726
                     0.000461152    -0.000204688         0.975566       0.0501002      0.000333522      6.4064e-05        0.0350573      0.00835593
                        -0.94611        0.237041        0.0005506     6.90303e-05       -0.0210438        0.189394     -0.000560226    -0.000356073
                     0.000154366      0.00073464        0.0353735      0.00831199     -0.000458247    -0.000519303         0.308534       -0.916937
281712                  0.109306        0.156768      0.000424814    -0.000279463        -0.946016        0.237334      0.000144082     0.000777046
                     0.000460766    -0.000204942         0.975576       0.0495356      0.000333361     6.42423e-05        0.0353991      0.00881022
                       -0.946022        0.237374      0.000550643     6.86649e-05        -0.020937        0.189422     -0.000560242     -0.00035575
                     0.000155065     0.000734484        0.0357153      0.00876605      -0.00045848    -0.000519712         0.307459       -0.917277
281714                  0.109336        0.156767       0.00042423    -0.000279756        -0.945928        0.237667      0.000145071     0.000776851
                     0.000460381    -0.000205195         0.975585       0.0489709      0.000333199     6.44215e-05        0.0357417      0.00926386
                       -0.945935        0.237707      0.000550685     6.82993e-05       -0.0208302        0.189451     -0.000560283    -0.000355442
                     0.000155762     0.000734329        0.0360579      0.00921954     -0.000458715    -0.000520121         0.306383       -0.917616
281716                  0.109366        0.156766      0.000423644    -0.000280047        -0.945841           0.238      0.000146078     0.000776667
                     0.000459996    -0.000205448         0.975594       0.0484063      0.000333038     6.46017e-05        0.0360852      0.00971687
                       -0.945847         0.23804      0.000550728     6.79333e-05       -0.0207233        0.189479     -0.000560338    -0.000355144
                     0.000156458     0.000734173        0.0364014      0.00967244     -0.000458952    -0.000520532         0.305307       -0.917953
281718                  0.109396        0.156765      0.000423059    -0.000280338        -0.945753        0.238333      0.000147096     0.000776489
                     0.000459612    -0.000205701         0.975602       0.0478416      0.000332878     6.47828e-05        0.0364295       0.0101693
                        -0.94576        0.238373      0.000550769     6.75672e-05       -0.0206164        0.189507     -0.000560403    -0.000354853
                     0.000157153     0.000734018        0.0367456       0.0101248     -0.000459191    -0.000520943          0.30423       -0.918288
281720                  0.109426        0.156765      0.000422473    -0.000280627        -0.945665        0.238665      0.000148122     0.000776316
                     0.000459228    -0.000205953          0.97561       0.0472769      0.000332718     6.49648e-05        0.0367747       0.0106211
                       -0.945672        0.238706      0.000550811     6.72007e-05       -0.0205095        0.189536     -0.000560474    -0.000354565
                     0.000157848     0.000733863        0.0370907       0.0105765     -0.000459432    -0.000521355         0.303152       -0.918622
281722                  0.109456        0.156764      0.000421886    -0.000280916        -0.945577        0.238998      0.000149153     0.000776144
                     0.000458844    -0.000206205         0.975616       0.0467122      0.000332558     6.51479e-05        0.0371207       0.0110723
                       -0.945584        0.239039      0.000550852     6.68339e-05       -0.0204026        0.189564     -0.000560551    -0.000354281
                     0.000158542     0.000733708        0.0374366       0.0110277     -0.000459675    -0.000521767         0.302075       -0.918955
281724                  0.109487        0.156763        0.0004213    -0.000281203        -0.945489        0.239331      0.000150187     0.000775973
                     0.000458461    -0.000206457         0.975623       0.0461474      0.000332399     6.53318e-05        0.0374675       0.0115229
                       -0.945496        0.239372      0.000550892     6.64669e-05       -0.0202956        0.189592     -0.000560631       -0.000354
                     0.000159234     0.000733554        0.0377833       0.0114782      -0.00045992     -0.00052218         0.300996       -0.919286
281726                  0.109517        0.156762      0.000420713     -0.00028149        -0.945401        0.239664      0.000151224     0.000775803
                     0.000458078    -0.000206708         0.975628       0.0455827      0.000332241     6.55167e-05        0.0378151       0.0119729
                       -0.945408        0.239705      0.000550932     6.60996e-05       -0.0201886         0.18962     -0.000560714     -0.00035372
                     0.000159926       0.0007334        0.0381308       0.0119282     -0.000460167    -0.000522594         0.299917       -0.919615
281728                  0.109547        0.156762      0.000420125    -0.000281775        -0.945312        0.239997      0.000152263     0.000775632
                     0.000457696    -0.000206959         0.975633       0.0450179      0.000332082     6.57026e-05        0.0381635       0.0124223
                       -0.945319        0.240038      0.000550972     6.57321e-05       -0.0200816        0.189648     -0.000560799    -0.000353441
                     0.000160617     0.000733245        0.0384792       0.0123776     -0.000460416    -0.000523008         0.298838       -0.919942
281730                  0.109577        0.156761      0.000419538     -0.00028206        -0.945224        0.240329      0.000153303     0.000775461
                     0.000457314    -0.000207209         0.975637       0.0444532      0.000331925     6.58894e-05        0.0385127       0.0128712
                       -0.945231        0.240371      0.000551011     6.53642e-05       -0.0199745        0.189676     -0.000560885    -0.000353164
                     0.000161308     0.000733092        0.0388283       0.0128264     -0.000460667    -0.000523423         0.297758       -0.920268
281732                  0.109607         0.15676       0.00041895    -0.000282343        -0.945135        0.240662      0.000154344     0.000775288
                     0.000456932    -0.000207459          0.97564       0.0438884      0.000331767     6.60771e-05        0.0388628       0.0133194
                       -0.945142        0.240704       0.00055105     6.49961e-05       -0.0198674        0.189703     -0.000560973    -0.000352888
                     0.000161997     0.000732938        0.0391783       0.0132746     -0.000460919    -0.000523839         0.296678       -0.920593
281734                  0.109637        0.156759      0.000418361    -0.000282625        -0.945047        0.240995      0.000155385     0.000775115
                     0.000456551    -0.000207709         0.975643       0.0433236      0.000331611     6.62658e-05        0.0392136        0.013767
                       -0.945054        0.241037      0.000551088     6.46277e-05       -0.0197603        0.189731     -0.000561062    -0.000352612
                     0.000162686     0.000732785         0.039529       0.0137222     -0.000461174    -0.000524256         0.295597       -0.920916
281736                  0.109667        0.156759      0.000417772    -0.000282907        -0.944958        0.241327      0.000156427      0.00077494
                     0.000456171    -0.000207959         0.975645       0.0427588      0.000331454     6.64554e-05        0.0395653       0.0142141
                       -0.944965         0.24137      0.000551126      6.4259e-05       -0.0196532        0.189759     -0.000561152    -0.000352337
                     0.000163374     0.000732632        0.0398806       0.0141692     -0.000461431    -0.000524673         0.294516       -0.921237
281738                  0.109697        0.156758      0.000417183    -0.000283187        -0.944869         0.24166      0.000157468     0.000774763
                      0.00045579    -0.000208208         0.975647        0.042194      0.000331298      6.6646e-05        0.0399177       0.0146605
                       -0.944876        0.241703      0.000551164     6.38901e-05        -0.019546        0.189786     -0.000561242    -0.000352062
                     0.000164061     0.000732479         0.040233       0.0146156     -0.000461689    -0.000525091         0.293434       -0.921557
281740                  0.109727        0.156757      0.000416594    -0.000283466         -0.94478        0.241993      0.000158509     0.000774586
                     0.000455411    -0.000208457         0.975648       0.0416291      0.000331143     6.68375e-05         0.040271       0.0151064
                       -0.944787        0.242035      0.000551201     6.35209e-05       -0.0194388        0.189814     -0.000561333    -0.000351788
                     0.000164747     0.000732327        0.0405861       0.0150614     -0.000461949    -0.000525509         0.292352       -0.921875
281742                  0.109757        0.156756      0.000416004    -0.000283745        -0.944691        0.242325      0.000159551     0.000774406
                     0.000455031    -0.000208706         0.975648       0.0410643      0.000330988     6.70299e-05         0.040625       0.0155516
                       -0.944698        0.242368      0.000551237     6.31514e-05       -0.0193316        0.189842     -0.000561424    -0.000351514
                     0.000165432     0.000732175        0.0409401       0.0155066     -0.000462212    -0.000525929         0.291269       -0.922191
281744                  0.109787        0.156755      0.000415414    -0.000284022        -0.944601        0.242658      0.000160591     0.000774225
                     0.000454653    -0.000208954         0.975647       0.0404995      0.000330833     6.72233e-05        0.0409799       0.0159962
                       -0.944609        0.242701      0.000551273     6.27817e-05       -0.0192244        0.189869     -0.000561516     -0.00035124
                     0.000166117     0.000732023        0.0412949       0.0159512     -0.000462476    -0.000526349         0.290186       -0.922506
281746                  0.109817        0.156755      0.000414823    -0.000284298        -0.944512         0.24299      0.000161632     0.000774043
                     0.000454274    -0.000209202         0.975646       0.0399347      0.000330679     6.74176e-05        0.0413356       0.0164403
                        -0.94452        0.243034      0.000551309     6.24117e-05       -0.0191171        0.189896     -0.000561607    -0.000350966
                     0.000166801     0.000731872        0.0416505       0.0163953     -0.000462743    -0.000526769         0.289103       -0.922819
281748                  0.109847        0.156754      0.000414233    -0.000284573        -0.944423        0.243323      0.000162672     0.000773859
                     0.000453896     -0.00020945         0.975644       0.0393698      0.000330526     6.76128e-05         0.041692       0.0168837
                        -0.94443        0.243366      0.000551344     6.20414e-05       -0.0190098        0.189924     -0.000561699    -0.000350692
                     0.000167484     0.000731721        0.0420069       0.0168386     -0.000463011     -0.00052719         0.288019       -0.923131
281750                  0.109877        0.156753      0.000413642    -0.000284847        -0.944333        0.243655      0.000163711     0.000773673
                     0.000453519    -0.000209698         0.975642        0.038805      0.000330373      6.7809e-05        0.0420493       0.0173266
                        -0.94434        0.243699      0.000551379     6.16708e-05       -0.0189025        0.189951      -0.00056179    -0.000350418
                     0.000168166     0.000731571         0.042364       0.0172814     -0.000463281    -0.000527613         0.286934       -0.923441
281752                  0.109907        0.156752       0.00041305    -0.000285121        -0.944243        0.243988       0.00016475     0.000773486
                     0.000453142    -0.000209945         0.975638       0.0382402       0.00033022     6.80062e-05        0.0424074       0.0177688
                       -0.944251        0.244032      0.000551413        6.13e-05       -0.0187951        0.189978     -0.000561882    -0.000350144
                     0.000168848      0.00073142         0.042722       0.0177236     -0.000463553    -0.000528035         0.285849        -0.92375
281754                  0.109938        0.156751      0.000412458    -0.000285393        -0.944153         0.24432      0.000165789     0.000773297
                     0.000452765    -0.000210192         0.975634       0.0376753      0.000330068     6.82042e-05        0.0427662       0.0182104
                       -0.944161        0.244364      0.000551447     6.09289e-05       -0.0186878        0.190005     -0.000561973    -0.000349871
                     0.000169528     0.000731271        0.0430808       0.0181652     -0.000463827    -0.000528459         0.284764       -0.924057
281756                  0.109968         0.15675      0.000411866    -0.000285664        -0.944063        0.244652      0.000166827     0.000773106
                     0.000452389    -0.000210439          0.97563       0.0371105      0.000329916     6.84032e-05        0.0431259       0.0186514
                       -0.944071        0.244697      0.000551481     6.05576e-05       -0.0185804        0.190032     -0.000562064    -0.000349597
                     0.000170208     0.000731121        0.0434404       0.0186062     -0.000464103    -0.000528883         0.283678       -0.924362
281758                  0.109998        0.156749      0.000411274    -0.000285934        -0.943973        0.244985      0.000167864     0.000772914
                     0.000452013    -0.000210686         0.975625       0.0365457      0.000329765     6.86031e-05        0.0434863       0.0190918
                       -0.943981        0.245029      0.000551514     6.01859e-05       -0.0184729        0.190059     -0.000562154    -0.000349323
                     0.000170888     0.000730973        0.0438007       0.0190465     -0.000464381    -0.000529308         0.282592       -0.924666
281760                  0.110028        0.156748      0.000410681    -0.000286203        -0.943883        0.245317      0.000168901      0.00077272
                     0.000451638    -0.000210933         0.975619       0.0359809      0.000329614      6.8804e-05        0.0438475       0.0195316
                       -0.943891        0.245362      0.000551546     5.98141e-05       -0.0183655        0.190086     -0.000562243     -0.00034905
                     0.000171567     0.000730824        0.0441619       0.0194862      -0.00046466    -0.000529733         0.281505       -0.924968
281762                  0.110058        0.156748      0.000410088     -0.00028647        -0.943793         0.24565      0.000169937     0.000772524
                     0.000451263    -0.000211179         0.975612        0.035416      0.000329464     6.90057e-05        0.0442095       0.0199707
                       -0.943801        0.245695      0.000551578     5.94419e-05        -0.018258        0.190113     -0.000562333    -0.000348778
